!Created with skrf (http://scikit-rf.org).
# GHz S RI R 50.0 
!freq ReS11 ImS11 ReS21 ImS21 ReS12 ImS12 ReS22 ImS22
17.5 -0.08184051513671875 -0.1316680908203125 -1.277099609375 4.392822265625 -0.0001474246382713318 0.00016980618238449097 0.08963394165039062 -0.11530303955078125
17.50975 -0.073394775390625 -0.1326751708984375 -0.934326171875 4.4833984375 -0.0017493963241577148 0.0006347298622131348 0.09928512573242188 -0.10231781005859375
17.5195 -0.0615081787109375 -0.127838134765625 -0.575927734375 4.556640625 -0.0011664628982543945 0.00039589405059814453 0.104248046875 -0.08703994750976562
17.52925 -0.0533294677734375 -0.1160430908203125 -0.20849609375 4.5849609375 -0.0014704465866088867 0.0003674030303955078 0.100860595703125 -0.06719207763671875
17.539 -0.047943115234375 -0.099609375 0.15966796875 4.58740234375 -0.002457141876220703 -0.00164031982421875 0.09119415283203125 -0.04998779296875
17.54875 -0.04308319091796875 -0.07954025268554688 0.52392578125 4.545166015625 -0.002087712287902832 -0.0016592741012573242 0.0767822265625 -0.038959503173828125
17.5585 -0.04395294189453125 -0.0587310791015625 0.869873046875 4.487060546875 -0.0006239414215087891 -0.00038886070251464844 0.05710792541503906 -0.0294189453125
17.56825 -0.048328399658203125 -0.038238525390625 1.208251953125 4.3974609375 -0.0019189715385437012 0.00035947561264038086 0.03796577453613281 -0.025949478149414062
17.578 -0.060886383056640625 -0.01845550537109375 1.5400390625 4.301513671875 -0.0013751983642578125 -0.0006841421127319336 0.013996124267578125 -0.02958393096923828
17.58775 -0.07433700561523438 -0.003620147705078125 1.869873046875 4.17626953125 -0.0009124875068664551 0.0006469786167144775 -0.0041656494140625 -0.04107475280761719
17.5975 -0.09078216552734375 0.008213043212890625 2.1943359375 4.03466796875 -0.0007578730583190918 0.0004850924015045166 -0.0190277099609375 -0.055263519287109375
17.60725 -0.1090087890625 0.0141754150390625 2.514404296875 3.852294921875 -0.0012464523315429688 0.00015157461166381836 -0.031826019287109375 -0.07451248168945312
17.617 -0.12725830078125 0.014312744140625 2.81884765625 3.64794921875 -0.002332925796508789 -0.00014662742614746094 -0.035125732421875 -0.0943450927734375
17.62675 -0.14145660400390625 0.01212310791015625 3.1015625 3.412109375 -0.0034036636352539062 -0.0001571178436279297 -0.03350067138671875 -0.1159515380859375
17.6365 -0.1512451171875 0.0094757080078125 3.370361328125 3.156005859375 -0.0021065473556518555 -0.0003440380096435547 -0.02645111083984375 -0.13254547119140625
17.64625 -0.15326690673828125 0.0018463134765625 3.602783203125 2.87060546875 -0.0013486146926879883 0.0004246830940246582 -0.01152801513671875 -0.14225006103515625
17.656 -0.15015411376953125 -0.007476806640625 3.80615234375 2.576416015625 -0.0013907551765441895 0.0007528066635131836 0.0037841796875 -0.14672088623046875
17.66575 -0.14122772216796875 -0.0132293701171875 3.984130859375 2.272216796875 -0.0031038522720336914 0.0018718242645263672 0.02257537841796875 -0.1436004638671875
17.6755 -0.13065338134765625 -0.01648712158203125 4.14599609375 1.969482421875 -0.0014933347702026367 0.001683354377746582 0.03861236572265625 -0.13726806640625
17.68525 -0.11647796630859375 -0.01285552978515625 4.291259765625 1.655029296875 -0.0002206936478614807 0.00010630488395690918 0.04865264892578125 -0.12443923950195312
17.695 -0.09933090209960938 -0.00847625732421875 4.42919921875 1.31787109375 -0.0009388923645019531 -0.000570833683013916 0.054347991943359375 -0.105560302734375
17.70475 -0.08618545532226562 0.00298309326171875 4.535400390625 0.954833984375 -0.00204622745513916 0.001150369644165039 0.05724334716796875 -0.0849761962890625
17.7145 -0.07168960571289062 0.022037506103515625 4.60546875 0.56201171875 -0.0007581710815429688 0.0003546476364135742 0.0503692626953125 -0.06556320190429688
17.72425 -0.0631256103515625 0.04128265380859375 4.623291015625 0.164306640625 -0.00080108642578125 0.0011730790138244629 0.037395477294921875 -0.04844856262207031
17.734 -0.057586669921875 0.06525421142578125 4.59033203125 -0.220703125 -0.0014969110488891602 0.0009627342224121094 0.02072906494140625 -0.03202056884765625
17.74375 -0.058380126953125 0.08680343627929688 4.517578125 -0.58056640625 -0.0016660094261169434 0.0016421675682067871 0.0012254714965820312 -0.022652626037597656
17.7535 -0.063751220703125 0.10607528686523438 4.427001953125 -0.91650390625 -0.0005754232406616211 0.0006763041019439697 -0.019025802612304688 -0.022192001342773438
17.76325 -0.07378768920898438 0.12108612060546875 4.324951171875 -1.230224609375 -0.0006601810455322266 0.0020639896392822266 -0.03833770751953125 -0.024875640869140625
17.773 -0.08693695068359375 0.13031768798828125 4.21044921875 -1.524169921875 -0.002033710479736328 0.00044226646423339844 -0.057758331298828125 -0.034717559814453125
17.78275 -0.1017303466796875 0.13439178466796875 4.10791015625 -1.824462890625 -0.0012164115905761719 0.0017026662826538086 -0.07061386108398438 -0.047393798828125
17.7925 -0.11402130126953125 0.134002685546875 3.98193359375 -2.129638671875 6.92605972290039e-05 0.0007909238338470459 -0.07701873779296875 -0.0653076171875
17.80225 -0.1248321533203125 0.12483978271484375 3.839599609375 -2.44921875 -0.00241851806640625 0.0014412403106689453 -0.07816314697265625 -0.08023834228515625
17.812 -0.13214874267578125 0.11490631103515625 3.6502685546875 -2.773193359375 1.0520219802856445e-05 0.000896066427230835 -0.07470703125 -0.095947265625
17.82175 -0.131622314453125 0.10162353515625 3.409423828125 -3.0830078125 -0.0009378492832183838 0.000179290771484375 -0.0637664794921875 -0.104644775390625
17.8315 -0.123138427734375 0.08640289306640625 3.123046875 -3.3486328125 -0.0010875463485717773 0.0015372037887573242 -0.0502777099609375 -0.1094818115234375
17.84125 -0.10903167724609375 0.07410430908203125 2.82373046875 -3.5699462890625 0.000193864107131958 0.0003910064697265625 -0.036041259765625 -0.10755157470703125
17.851 -0.08932876586914062 0.064666748046875 2.5157470703125 -3.7425537109375 -0.001891493797302246 0.0022535324096679688 -0.0194091796875 -0.1002044677734375
17.86075 -0.0670623779296875 0.059173583984375 2.230712890625 -3.8941650390625 -0.0006459951400756836 0.002477407455444336 -0.007015228271484375 -0.08641433715820312
17.8705 -0.04126548767089844 0.05792999267578125 1.94287109375 -4.0224609375 -0.0005361437797546387 0.0010560154914855957 0.000652313232421875 -0.06903839111328125
17.88025 -0.014377593994140625 0.0671234130859375 1.658935546875 -4.161376953125 -0.0003859996795654297 0.0028154850006103516 0.002777099609375 -0.05043983459472656
17.89 0.007297515869140625 0.08258056640625 1.3525390625 -4.282470703125 -0.0002925395965576172 0.002124190330505371 -0.00047969818115234375 -0.030561447143554688
17.89975 0.02710723876953125 0.1009674072265625 1.027587890625 -4.398193359375 -0.0004408806562423706 0.0001195073127746582 -0.008938789367675781 -0.00981903076171875
17.9095 0.04004669189453125 0.1216888427734375 0.674072265625 -4.483642578125 -0.0017057061195373535 0.0019165873527526855 -0.026085853576660156 0.006489753723144531
17.91925 0.04656982421875 0.1444549560546875 0.30615234375 -4.54150390625 9.28044319152832e-05 0.0004929304122924805 -0.04462432861328125 0.01551055908203125
17.929 0.04775238037109375 0.16689300537109375 -0.072265625 -4.539794921875 0.00035262107849121094 0.0022884607315063477 -0.06304931640625 0.02127838134765625
17.93875 0.0428466796875 0.1851043701171875 -0.441650390625 -4.509765625 -0.0007167458534240723 0.0017240643501281738 -0.08222198486328125 0.01816558837890625
17.9485 0.03191375732421875 0.197174072265625 -0.7939453125 -4.428466796875 -0.0008238554000854492 0.001997232437133789 -0.096923828125 0.009792327880859375
17.95825 0.01763916015625 0.20166778564453125 -1.12109375 -4.337158203125 0.0008637905120849609 0.0012116432189941406 -0.1101837158203125 -0.00099945068359375
17.968 0.0030364990234375 0.20047760009765625 -1.428955078125 -4.228759765625 -0.000244140625 0.00215911865234375 -0.11710357666015625 -0.01599884033203125
17.97775 -0.01036834716796875 0.19159698486328125 -1.73388671875 -4.11962890625 0.0012589693069458008 0.002078413963317871 -0.112060546875 -0.0318756103515625
17.9875 -0.01831817626953125 0.175689697265625 -2.035400390625 -3.989013671875 0.0019571781158447266 0.0020973682403564453 -0.10630035400390625 -0.046356201171875
17.99725 -0.0233001708984375 0.15546417236328125 -2.34619140625 -3.8388671875 0.001934051513671875 0.0027871131896972656 -0.0929412841796875 -0.056671142578125
18.007 -0.0175628662109375 0.1331787109375 -2.642822265625 -3.645751953125 -0.0004361569881439209 0.0005977451801300049 -0.0745086669921875 -0.0638427734375
18.01675 -0.006526947021484375 0.1102447509765625 -2.92431640625 -3.43017578125 0.0006310343742370605 0.0006564855575561523 -0.055088043212890625 -0.062442779541015625
18.0265 0.008617401123046875 0.08881759643554688 -3.18798828125 -3.181640625 0.0011905431747436523 0.0018068552017211914 -0.035663604736328125 -0.054698944091796875
18.03625 0.03310394287109375 0.0709381103515625 -3.41943359375 -2.92431640625 -0.0003763437271118164 0.0006448626518249512 -0.017009735107421875 -0.040508270263671875
18.046 0.0606689453125 0.060535430908203125 -3.619384765625 -2.636474609375 0.00010269880294799805 0.0009299516677856445 -0.0022735595703125 -0.021108627319335938
18.05575 0.0884246826171875 0.0576019287109375 -3.80029296875 -2.3525390625 0.0015083551406860352 0.001824498176574707 0.004774570465087891 0.0014472007751464844
18.0655 0.1146392822265625 0.060089111328125 -3.951904296875 -2.058349609375 0.0002747178077697754 0.00045412778854370117 0.0059108734130859375 0.02306652069091797
18.07525 0.13794708251953125 0.0705108642578125 -4.091552734375 -1.76513671875 0.00032404065132141113 0.0005631744861602783 0.0007381439208984375 0.04657554626464844
18.085 0.15576934814453125 0.08687591552734375 -4.2197265625 -1.464111328125 0.00037238001823425293 0.0004379749298095703 -0.0119171142578125 0.0638427734375
18.09475 0.1671142578125 0.10357666015625 -4.339111328125 -1.141357421875 0.0004175901412963867 0.0008148550987243652 -0.027435302734375 0.07816696166992188
18.1045 0.170623779296875 0.1231231689453125 -4.426513671875 -0.79638671875 0.0006799697875976562 0.001409769058227539 -0.045909881591796875 0.08571624755859375
18.11425 0.166351318359375 0.136474609375 -4.49169921875 -0.43798828125 -0.0005747675895690918 0.0009320974349975586 -0.06591033935546875 0.08675384521484375
18.124 0.157012939453125 0.147857666015625 -4.505859375 -0.0654296875 0.0010836124420166016 0.0010380744934082031 -0.0813751220703125 0.07952880859375
18.13375 0.141143798828125 0.15167236328125 -4.481689453125 0.291748046875 0.0019352436065673828 0.00042557716369628906 -0.09420013427734375 0.06708526611328125
18.1435 0.1210784912109375 0.1482696533203125 -4.427490234375 0.6376953125 0.0018863677978515625 0.00029075145721435547 -0.10077285766601562 0.05246734619140625
18.15325 0.10158538818359375 0.13726806640625 -4.359130859375 0.971435546875 0.0013432502746582031 0.0011981725692749023 -0.10166549682617188 0.03192901611328125
18.163 0.08751678466796875 0.11989593505859375 -4.266845703125 1.29345703125 0.0007647275924682617 0.0012774467468261719 -0.0926361083984375 0.01374053955078125
18.17275 0.07369232177734375 0.092315673828125 -4.165771484375 1.615234375 0.003313779830932617 0.0025336742401123047 -0.07694625854492188 -0.003246307373046875
18.1825 0.0683746337890625 0.06464385986328125 -4.02783203125 1.933837890625 0.0007508993148803711 0.0011195540428161621 -0.0588226318359375 -0.0140838623046875
18.19225 0.06863021850585938 0.033050537109375 -3.869140625 2.2515869140625 0.002332925796508789 0.0013034343719482422 -0.034252166748046875 -0.01947784423828125
18.202 0.077850341796875 0.00170135498046875 -3.67041015625 2.55322265625 -0.0012284517288208008 -0.00027740001678466797 -0.010196685791015625 -0.017635345458984375
18.21175 0.09361648559570312 -0.02643585205078125 -3.451416015625 2.834716796875 0.0021959543228149414 0.0012459754943847656 0.014702796936035156 -0.007214546203613281
18.2215 0.11266326904296875 -0.04705047607421875 -3.196044921875 3.0762939453125 0.0006161928176879883 0.0014840364456176758 0.034755706787109375 0.0060062408447265625
18.23125 0.136077880859375 -0.0619659423828125 -2.9427490234375 3.2901611328125 0.0016815662384033203 0.0012412071228027344 0.047344207763671875 0.025508880615234375
18.241 0.16159820556640625 -0.0684661865234375 -2.6781005859375 3.4696044921875 -6.67572021484375e-05 0.0006814897060394287 0.0557098388671875 0.0478363037109375
18.25075 0.18444061279296875 -0.064788818359375 -2.4249267578125 3.646240234375 0.0011414289474487305 8.958578109741211e-05 0.0561981201171875 0.069854736328125
18.2605 0.2048492431640625 -0.05660247802734375 -2.1595458984375 3.8055419921875 0.0016341805458068848 0.00016683340072631836 0.05075836181640625 0.08972930908203125
18.27025 0.21614837646484375 -0.0415802001953125 -1.884033203125 3.978271484375 0.0010285377502441406 0.0007084012031555176 0.03664398193359375 0.1045684814453125
18.28 0.22089385986328125 -0.02492523193359375 -1.5703125 4.125244140625 0.0006612539291381836 0.00033599138259887695 0.01992034912109375 0.11316680908203125
18.28975 0.21728515625 -0.007049560546875 -1.236572265625 4.2509765625 -0.0004700124263763428 0.000891953706741333 0.001224517822265625 0.1140594482421875
18.2995 0.2035980224609375 0.0074920654296875 -0.8828125 4.323974609375 0.001071929931640625 -0.000599980354309082 -0.016941070556640625 0.106964111328125
18.30925 0.1844940185546875 0.0162506103515625 -0.54150390625 4.3701171875 0.001196742057800293 0.00018417835235595703 -0.03192901611328125 0.09532928466796875
18.319 0.1585845947265625 0.020538330078125 -0.203125 4.3681640625 0.0014952421188354492 -0.001359105110168457 -0.04256439208984375 0.07544708251953125
18.32875 0.1306304931640625 0.01761627197265625 0.11474609375 4.359130859375 0.0010194182395935059 5.310773849487305e-05 -0.046733856201171875 0.053211212158203125
18.3385 0.1041107177734375 0.0061187744140625 0.43017578125 4.324462890625 0.000614166259765625 1.0192394256591797e-05 -0.04239082336425781 0.028745651245117188
18.34825 0.08039474487304688 -0.01409912109375 0.7392578125 4.2939453125 0.0017546415328979492 0.000255584716796875 -0.03217315673828125 0.0057811737060546875
18.358 0.05970191955566406 -0.03865623474121094 1.045654296875 4.236572265625 0.001088261604309082 -0.0005906820297241211 -0.014548301696777344 -0.01270294189453125
18.36775 0.047092437744140625 -0.06991958618164062 1.362548828125 4.171142578125 0.0012035965919494629 0.00041753053665161133 0.008602142333984375 -0.025617599487304688
18.3775 0.04206085205078125 -0.1014556884765625 1.693359375 4.0751953125 0.000657200813293457 0.00044286251068115234 0.03173828125 -0.03305816650390625
18.38725 0.0432586669921875 -0.1334991455078125 2.02978515625 3.93994140625 0.0015386343002319336 0.0001703500747680664 0.05980682373046875 -0.03250885009765625
18.397 0.05315399169921875 -0.15747833251953125 2.35205078125 3.75927734375 0.0009267926216125488 0.0003783702850341797 0.08109664916992188 -0.025539398193359375
18.40675 0.0664520263671875 -0.17690277099609375 2.64404296875 3.539794921875 0.0005165934562683105 -0.0007297992706298828 0.09949874877929688 -0.01180267333984375
18.4165 0.08197784423828125 -0.18592071533203125 2.891845703125 3.291015625 0.0006361305713653564 -0.000429302453994751 0.11145401000976562 0.006572723388671875
18.42625 0.099609375 -0.1873931884765625 3.111572265625 3.044189453125 0.0010033845901489258 -0.00043517351150512695 0.11420440673828125 0.02663421630859375
18.436 0.11679840087890625 -0.17873382568359375 3.300048828125 2.787841796875 0.0023192167282104492 -0.0008989572525024414 0.111724853515625 0.044158935546875
18.44575 0.12720489501953125 -0.16657257080078125 3.47607421875 2.5361328125 0.0014913082122802734 0.00017333030700683594 0.10199737548828125 0.06166839599609375
18.4555 0.13185882568359375 -0.1471710205078125 3.642333984375 2.2802734375 0.0005917251110076904 -0.00035858154296875 0.0834197998046875 0.07122039794921875
18.46525 0.12752532958984375 -0.123809814453125 3.794921875 2.018798828125 0.0018680691719055176 -0.000482022762298584 0.06343841552734375 0.0745697021484375
18.475 0.11354446411132812 -0.1027374267578125 3.94384765625 1.740966796875 0.001354992389678955 -0.0005489587783813477 0.04319000244140625 0.06916427612304688
18.48475 0.09360504150390625 -0.08182525634765625 4.085205078125 1.4501953125 0.0008601546287536621 -0.0009252727031707764 0.021541595458984375 0.05941009521484375
18.4945 0.06545639038085938 -0.07057571411132812 4.2021484375 1.1328125 0.0004767775535583496 -0.0005941092967987061 0.0057544708251953125 0.039585113525390625
18.50425 0.034580230712890625 -0.060977935791015625 4.2861328125 0.78564453125 0.0018491744995117188 -0.0004330873489379883 -0.0033473968505859375 0.016603469848632812
18.514 0.0008754730224609375 -0.06015586853027344 4.3310546875 0.43505859375 0.0022389888763427734 -0.0022492408752441406 -0.008566856384277344 -0.010684967041015625
18.52375 -0.03192138671875 -0.06808090209960938 4.331787109375 0.091796875 0.0023688077926635742 -0.001365065574645996 -0.0049591064453125 -0.036624908447265625
18.5335 -0.05942535400390625 -0.08043670654296875 4.301513671875 -0.232421875 0.0007201731204986572 -0.0006287693977355957 0.007015228271484375 -0.058349609375
18.54325 -0.08099365234375 -0.1009674072265625 4.259033203125 -0.536376953125 0.00024497509002685547 -0.0013582110404968262 0.02187347412109375 -0.07714462280273438
18.553 -0.09395599365234375 -0.125518798828125 4.214599609375 -0.835205078125 0.0007788538932800293 -0.0014942288398742676 0.044139862060546875 -0.08826065063476562
18.56275 -0.0992584228515625 -0.1511383056640625 4.15576171875 -1.134521484375 0.0008807778358459473 -0.0009740889072418213 0.06671142578125 -0.09486007690429688
18.5725 -0.09912109375 -0.1731109619140625 4.0849609375 -1.45068359375 0.000626295804977417 -0.0007802844047546387 0.08692550659179688 -0.09185028076171875
18.58225 -0.0894622802734375 -0.190093994140625 3.980712890625 -1.7711181640625 0.0006240904331207275 -0.000749737024307251 0.10500717163085938 -0.08275985717773438
18.592 -0.0748291015625 -0.199615478515625 3.839599609375 -2.087158203125 0.0008940696716308594 -0.0025882720947265625 0.11804962158203125 -0.06591796875
18.60175 -0.056732177734375 -0.200439453125 3.666748046875 -2.392333984375 -0.0004214048385620117 -0.0009520053863525391 0.124420166015625 -0.0474700927734375
18.6115 -0.03885650634765625 -0.1935272216796875 3.4659423828125 -2.684326171875 -0.0001842975616455078 -0.001752614974975586 0.119140625 -0.027923583984375
18.62125 -0.02315521240234375 -0.1771087646484375 3.2252197265625 -2.931884765625 0.0001249462366104126 -8.932501077651978e-05 0.1083221435546875 -0.009212493896484375
18.631 -0.01261138916015625 -0.1548919677734375 2.9786376953125 -3.1627197265625 0.0013774633407592773 -0.001595616340637207 0.09180068969726562 0.0054779052734375
18.64075 -0.00711822509765625 -0.1262969970703125 2.716552734375 -3.3580322265625 -0.0006928443908691406 -0.00207674503326416 0.06914901733398438 0.01275634765625
18.6505 -0.011600494384765625 -0.09894561767578125 2.46435546875 -3.5382080078125 0.0003560185432434082 -0.0011796355247497559 0.04281425476074219 0.014684677124023438
18.66025 -0.0225677490234375 -0.06768798828125 2.198486328125 -3.710693359375 0.0018734931945800781 -0.0013765692710876465 0.01615428924560547 0.009949684143066406
18.67 -0.04084014892578125 -0.041461944580078125 1.921875 -3.8814697265625 0.001114964485168457 -0.0017821788787841797 -0.005160808563232422 -0.005209922790527344
18.67975 -0.06656265258789062 -0.02032470703125 1.609619140625 -4.0263671875 0.0009227991104125977 -0.0010793209075927734 -0.024372100830078125 -0.025571823120117188
