!Created with skrf (http://scikit-rf.org).
# GHz S RI R 50.0 
!freq ReS11 ImS11 ReS21 ImS21 ReS12 ImS12 ReS22 ImS22
17.5 -0.06754302978515625 -0.13348388671875 -1.0516357421875 3.8651123046875 -0.001648545265197754 -0.0009001493453979492 0.08674240112304688 -0.1207122802734375
17.50975 -0.056610107421875 -0.1313934326171875 -0.751708984375 3.94482421875 -0.00174713134765625 -0.00025463104248046875 0.09815216064453125 -0.10509490966796875
17.5195 -0.0446319580078125 -0.12670135498046875 -0.432861328125 4.000244140625 -0.001931905746459961 -0.0004525184631347656 0.10050582885742188 -0.08986663818359375
17.52925 -0.0343017578125 -0.115203857421875 -0.111328125 4.021484375 -0.0012314319610595703 -0.001130819320678711 0.09740447998046875 -0.07192230224609375
17.539 -0.0263214111328125 -0.1002960205078125 0.2119140625 4.02001953125 -0.002061605453491211 -0.0006954669952392578 0.08927154541015625 -0.05348968505859375
17.54875 -0.021759033203125 -0.08102035522460938 0.534423828125 3.993408203125 -0.0018821954727172852 0.001074671745300293 0.07281494140625 -0.0381011962890625
17.5585 -0.0223388671875 -0.05933380126953125 0.84228515625 3.934326171875 -0.0019811391830444336 -0.0004703998565673828 0.055782318115234375 -0.030130386352539062
17.56825 -0.02535247802734375 -0.03981781005859375 1.144287109375 3.854736328125 -0.0011883378028869629 0.0009256601333618164 0.03241157531738281 -0.027620315551757812
17.578 -0.03462028503417969 -0.020917892456054688 1.440673828125 3.76025390625 -0.0019643306732177734 0.0007092952728271484 0.013111114501953125 -0.031948089599609375
17.58775 -0.04831886291503906 -0.0057392120361328125 1.732421875 3.64111328125 -0.0007183849811553955 0.000893324613571167 -0.0076007843017578125 -0.04138755798339844
17.5975 -0.0654754638671875 0.0045013427734375 2.01708984375 3.502197265625 -0.0017213821411132812 0.0004960298538208008 -0.021892547607421875 -0.0560302734375
17.60725 -0.081695556640625 0.010066986083984375 2.2958984375 3.33740234375 -0.0018045902252197266 0.001934647560119629 -0.034027099609375 -0.07501983642578125
17.617 -0.09637451171875 0.00896453857421875 2.5546875 3.146484375 -0.0018440485000610352 0.0010671615600585938 -0.0377655029296875 -0.0949554443359375
17.62675 -0.11180496215820312 0.006683349609375 2.802001953125 2.937255859375 -0.002574324607849121 -7.534027099609375e-05 -0.0360260009765625 -0.1165924072265625
17.6365 -0.11971282958984375 -0.00048065185546875 3.029296875 2.705078125 -0.0028810501098632812 -0.00019097328186035156 -0.0287628173828125 -0.13120269775390625
17.64625 -0.120941162109375 -0.00921630859375 3.23583984375 2.455078125 -0.0008725523948669434 0.0015853047370910645 -0.01587677001953125 -0.140777587890625
17.656 -0.11846923828125 -0.01849365234375 3.415283203125 2.190185546875 -0.0011516809463500977 -0.000630497932434082 0.0015411376953125 -0.145843505859375
17.66575 -0.1094970703125 -0.025634765625 3.578857421875 1.916259765625 -0.0017328262329101562 0.0008158683776855469 0.01955413818359375 -0.14476776123046875
17.6755 -0.09815216064453125 -0.02985382080078125 3.709716796875 1.633056640625 -0.0006282329559326172 0.0020589828491210938 0.03670501708984375 -0.13720703125
17.68525 -0.08168792724609375 -0.031635284423828125 3.841552734375 1.347900390625 -0.0009837746620178223 0.0008952021598815918 0.047260284423828125 -0.12490463256835938
17.695 -0.06401824951171875 -0.0264434814453125 3.944091796875 1.03662109375 -0.0027501583099365234 0.0009320974349975586 0.05645751953125 -0.10463714599609375
17.70475 -0.048816680908203125 -0.015026092529296875 4.031494140625 0.708984375 -0.001200556755065918 0.0025153160095214844 0.056163787841796875 -0.08467864990234375
17.7145 -0.03633689880371094 -0.0008525848388671875 4.0703125 0.36181640625 -0.0008799135684967041 0.0007455050945281982 0.052127838134765625 -0.06548690795898438
17.72425 -0.029230117797851562 0.019666671752929688 4.072021484375 0.017333984375 -0.0009909272193908691 0.0009109973907470703 0.03922080993652344 -0.04604339599609375
17.734 -0.023162841796875 0.040496826171875 4.0302734375 -0.31982421875 -0.0013505220413208008 0.0016016960144042969 0.022243499755859375 -0.0314178466796875
17.74375 -0.025178909301757812 0.0606536865234375 3.966552734375 -0.6322021484375 -0.0019991397857666016 0.0008573532104492188 0.0018024444580078125 -0.023370742797851562
17.7535 -0.030406951904296875 0.0777435302734375 3.872802734375 -0.927734375 -0.0024101734161376953 0.0009194612503051758 -0.017934799194335938 -0.0210418701171875
17.76325 -0.041439056396484375 0.08855819702148438 3.779541015625 -1.2093505859375 -0.0015538334846496582 0.0005249977111816406 -0.038738250732421875 -0.02397918701171875
17.773 -0.053466796875 0.098846435546875 3.6654052734375 -1.473388671875 -0.0003921389579772949 0.0016584396362304688 -0.0551605224609375 -0.033203125
17.78275 -0.06838607788085938 0.1009368896484375 3.5625 -1.744384765625 -0.0011410713195800781 0.0009530782699584961 -0.06735610961914062 -0.048290252685546875
17.7925 -0.08269500732421875 0.09897232055664062 3.427978515625 -2.01513671875 -0.0007222890853881836 0.0023690462112426758 -0.0751800537109375 -0.06291961669921875
17.80225 -0.09380722045898438 0.090057373046875 3.2799072265625 -2.2879638671875 -0.0006615519523620605 0.0015039443969726562 -0.076416015625 -0.080291748046875
17.812 -0.1000213623046875 0.07644271850585938 3.0931396484375 -2.558837890625 -0.0006157755851745605 0.0018355846405029297 -0.07077789306640625 -0.09400177001953125
17.82175 -0.10160446166992188 0.06087493896484375 2.8763427734375 -2.814208984375 -0.001306295394897461 0.0019429922103881836 -0.06085205078125 -0.10498809814453125
17.8315 -0.09403228759765625 0.0440521240234375 2.617919921875 -3.031982421875 -0.0012671947479248047 0.0006519556045532227 -0.0466766357421875 -0.1093292236328125
17.84125 -0.08177947998046875 0.02902984619140625 2.352294921875 -3.2176513671875 -0.000573277473449707 0.001932680606842041 -0.03273773193359375 -0.10781097412109375
17.851 -0.06418991088867188 0.018840789794921875 2.075439453125 -3.36083984375 -0.0008575320243835449 0.001642465591430664 -0.018718719482421875 -0.10063552856445312
17.86075 -0.03884696960449219 0.012872695922851562 1.8177490234375 -3.485595703125 -0.0010057687759399414 -0.0005789399147033691 -0.005016326904296875 -0.08786773681640625
17.8705 -0.017174720764160156 0.010990142822265625 1.553466796875 -3.5938720703125 0.00030672550201416016 0.0021306276321411133 0.0027313232421875 -0.06928634643554688
17.88025 0.008439064025878906 0.017876625061035156 1.292236328125 -3.7003173828125 -0.0008153319358825684 0.001445472240447998 0.0057201385498046875 -0.049678802490234375
17.89 0.03006744384765625 0.031337738037109375 1.0167236328125 -3.7916259765625 0.00035512447357177734 0.0021576881408691406 0.002227783203125 -0.03034496307373047
17.89975 0.0471343994140625 0.050045013427734375 0.7259521484375 -3.8751220703125 0.0002963542938232422 0.001335740089416504 -0.008443832397460938 -0.009242057800292969
17.9095 0.057586669921875 0.0700531005859375 0.416015625 -3.927490234375 -0.0003851652145385742 0.001809239387512207 -0.0251617431640625 0.0048198699951171875
17.91925 0.06467437744140625 0.0914459228515625 0.0948486328125 -3.960205078125 -0.00011670589447021484 0.0007439255714416504 -0.039913177490234375 0.01506805419921875
17.929 0.0612640380859375 0.11327362060546875 -0.228271484375 -3.94482421875 -0.00020778179168701172 0.0017428398132324219 -0.061859130859375 0.019376754760742188
17.93875 0.0545654296875 0.13118743896484375 -0.548583984375 -3.9052734375 0.0011337995529174805 0.0023604631423950195 -0.0794525146484375 0.017333984375
17.9485 0.04083251953125 0.141998291015625 -0.854248046875 -3.82568359375 -0.001067817211151123 0.0011136531829833984 -0.09519577026367188 0.008525848388671875
17.95825 0.02350616455078125 0.146942138671875 -1.13671875 -3.736083984375 -1.5854835510253906e-05 0.0023058652877807617 -0.10810470581054688 -0.001613616943359375
17.968 0.00827789306640625 0.14562225341796875 -1.406494140625 -3.6240234375 0.0008499026298522949 0.000639796257019043 -0.11513519287109375 -0.01773834228515625
17.97775 -0.00531768798828125 0.13643646240234375 -1.670654296875 -3.51025390625 -0.0002339482307434082 0.0011188983917236328 -0.11116790771484375 -0.03313446044921875
17.9875 -0.0151214599609375 0.11957550048828125 -1.927978515625 -3.375244140625 -0.0006454586982727051 0.0012101531028747559 -0.10334014892578125 -0.04918670654296875
17.99725 -0.021862030029296875 0.09975814819335938 -2.18408203125 -3.227294921875 0.00014019012451171875 0.002112269401550293 -0.0903472900390625 -0.05850982666015625
18.007 -0.019069671630859375 0.077880859375 -2.430908203125 -3.046875 -7.3909759521484375e-06 0.0028020143508911133 -0.07260894775390625 -0.06465911865234375
18.01675 -0.009403228759765625 0.05317115783691406 -2.65966796875 -2.8505859375 -0.0001230984926223755 0.00042589008808135986 -0.05292510986328125 -0.06333541870117188
18.0265 0.007228851318359375 0.0333404541015625 -2.87255859375 -2.626220703125 0.0017565488815307617 0.0021141767501831055 -0.03082275390625 -0.05651092529296875
18.03625 0.025493621826171875 0.01641845703125 -3.06396484375 -2.39404296875 0.0011763572692871094 0.0007115602493286133 -0.014690399169921875 -0.04266357421875
18.046 0.0533905029296875 0.005950927734375 -3.222900390625 -2.142333984375 0.001391291618347168 0.0006132125854492188 -0.00054168701171875 -0.024248123168945312
18.05575 0.0790863037109375 0.003063201904296875 -3.369873046875 -1.89111328125 0.0002840757369995117 0.0022420883178710938 0.007125139236450195 -0.002948284149169922
18.0655 0.10491180419921875 0.007366180419921875 -3.485595703125 -1.62890625 0.0006376504898071289 0.000780642032623291 0.008860588073730469 0.02001953125
18.07525 0.12711334228515625 0.01819610595703125 -3.60009765625 -1.37060546875 0.001762986183166504 0.001448512077331543 0.0022830963134765625 0.04299736022949219
18.085 0.14467620849609375 0.0330810546875 -3.6962890625 -1.099853515625 0.0013663768768310547 0.0016058683395385742 -0.009279251098632812 0.06170654296875
18.09475 0.15520477294921875 0.05146026611328125 -3.788330078125 -0.817626953125 0.0009979009628295898 0.000498652458190918 -0.02457427978515625 0.07542037963867188
18.1045 0.156280517578125 0.0711517333984375 -3.84375 -0.514892578125 0.000438690185546875 0.0016856193542480469 -0.044956207275390625 0.08113479614257812
18.11425 0.1513671875 0.085723876953125 -3.88330078125 -0.20654296875 3.147125244140625e-05 0.0005286335945129395 -0.0638427734375 0.081390380859375
18.124 0.139251708984375 0.09763336181640625 -3.8724365234375 0.110107421875 0.0016074180603027344 0.0013178586959838867 -0.07913589477539062 0.07570648193359375
18.13375 0.1218414306640625 0.10282135009765625 -3.847412109375 0.4146728515625 0.0005997419357299805 0.00014829635620117188 -0.0922393798828125 0.06396102905273438
18.1435 0.102447509765625 0.10053253173828125 -3.78125 0.7098388671875 0.0019246339797973633 0.0011941194534301758 -0.10052490234375 0.04648590087890625
18.15325 0.08274078369140625 0.09008026123046875 -3.7158203125 0.99560546875 0.0009588003158569336 0.001242518424987793 -0.10039138793945312 0.02756500244140625
18.163 0.063232421875 0.07224273681640625 -3.62158203125 1.276611328125 0.001087188720703125 0.0013355016708374023 -0.09099197387695312 0.00879669189453125
18.17275 0.050685882568359375 0.04856109619140625 -3.51708984375 1.54736328125 0.0008143782615661621 0.0006668567657470703 -0.07674026489257812 -0.0072174072265625
18.1825 0.044921875 0.019329071044921875 -3.3856201171875 1.81787109375 0.0017882585525512695 0.00046241283416748047 -0.057537078857421875 -0.019985198974609375
18.19225 0.0444793701171875 -0.010974884033203125 -3.2344970703125 2.0816650390625 0.0014370083808898926 0.0005138516426086426 -0.03327178955078125 -0.024200439453125
18.202 0.0529937744140625 -0.0420684814453125 -3.0489501953125 2.32421875 0.0008571147918701172 0.0006566047668457031 -0.009351730346679688 -0.023691177368164062
18.21175 0.06615447998046875 -0.06805419921875 -2.8470458984375 2.5506591796875 0.0007226169109344482 -0.0006434619426727295 0.014042377471923828 -0.012614727020263672
18.2215 0.08720016479492188 -0.0883026123046875 -2.627197265625 2.7454833984375 0.0016811490058898926 -0.0007485747337341309 0.03330039978027344 0.000415802001953125
18.23125 0.10997390747070312 -0.10162734985351562 -2.40478515625 2.91796875 0.0022819042205810547 -0.0005785226821899414 0.04877471923828125 0.02082061767578125
18.241 0.1349029541015625 -0.10577392578125 -2.17822265625 3.0692138671875 -0.0002490729093551636 0.0001930445432662964 0.0556182861328125 0.044437408447265625
18.25075 0.158355712890625 -0.10201263427734375 -1.9530029296875 3.219482421875 0.001034379005432129 0.0006288886070251465 0.055233001708984375 0.06623077392578125
18.2605 0.17731475830078125 -0.09281158447265625 -1.7156982421875 3.3494873046875 0.001325845718383789 0.0006591081619262695 0.04962921142578125 0.08473968505859375
18.27025 0.18970489501953125 -0.0803985595703125 -1.466796875 3.4842529296875 0.0015162825584411621 -0.0005812644958496094 0.0363311767578125 0.100250244140625
18.28 0.1933746337890625 -0.06134033203125 -1.18896484375 3.5965576171875 0.0007944107055664062 0.0005238652229309082 0.01953887939453125 0.10980987548828125
18.28975 0.18891143798828125 -0.04232025146484375 -0.8929443359375 3.680908203125 0.002061009407043457 0.0008015632629394531 0.000751495361328125 0.11063385009765625
18.2995 0.17371368408203125 -0.02679443359375 -0.5892333984375 3.7249755859375 0.0013945698738098145 0.00038677453994750977 -0.018703460693359375 0.10708236694335938
18.30925 0.153167724609375 -0.0169677734375 -0.2978515625 3.744873046875 0.0006293654441833496 -0.0006425976753234863 -0.03389739990234375 0.09137725830078125
18.319 0.1261444091796875 -0.0106658935546875 -0.011474609375 3.72998046875 0.0020422935485839844 0.0005922317504882812 -0.04306793212890625 0.07418060302734375
18.32875 0.10035324096679688 -0.014434814453125 0.255859375 3.7125244140625 0.0021284818649291992 0.0004061460494995117 -0.047298431396484375 0.049419403076171875
18.3385 0.0708160400390625 -0.02599334716796875 0.522216796875 3.676025390625 0.0019837617874145508 -0.0017693042755126953 -0.04585838317871094 0.024883270263671875
18.34825 0.04767608642578125 -0.044963836669921875 0.78564453125 3.63134765625 0.001677095890045166 -0.0014705061912536621 -0.03811836242675781 0.00396728515625
18.358 0.027881622314453125 -0.07074737548828125 1.04833984375 3.5771484375 0.0012148022651672363 -2.390146255493164e-05 -0.016469955444335938 -0.016496658325195312
18.36775 0.014385223388671875 -0.09917449951171875 1.31982421875 3.505859375 0.0013823509216308594 -0.00036913156509399414 0.005772590637207031 -0.02845478057861328
18.3775 0.0087432861328125 -0.131256103515625 1.59521484375 3.4072265625 0.001581430435180664 -0.0014896392822265625 0.03131103515625 -0.035877227783203125
18.38725 0.010162353515625 -0.16117095947265625 1.876708984375 3.273193359375 0.0009316802024841309 0.0003497004508972168 0.056484222412109375 -0.034534454345703125
18.397 0.01796722412109375 -0.1848297119140625 2.141357421875 3.099609375 0.0011034011840820312 0.0001119375228881836 0.08129501342773438 -0.02724456787109375
18.40675 0.03023529052734375 -0.2011566162109375 2.372314453125 2.89453125 0.0007317662239074707 0.000583350658416748 0.09724807739257812 -0.0136871337890625
18.4165 0.04961395263671875 -0.20952606201171875 2.568115234375 2.680419921875 0.0009175539016723633 0.0015742778778076172 0.11012649536132812 0.004901885986328125
18.42625 0.06562042236328125 -0.20973968505859375 2.739013671875 2.46142578125 0.0025758743286132812 -0.0009055137634277344 0.1132354736328125 0.02451324462890625
18.436 0.082183837890625 -0.20111846923828125 2.89404296875 2.2421875 0.0011464357376098633 -0.002069830894470215 0.10977935791015625 0.04257965087890625
18.44575 0.09314727783203125 -0.18677520751953125 3.02978515625 2.019775390625 0.0013903975486755371 -0.00028020143508911133 0.09902191162109375 0.05867767333984375
18.4555 0.09633636474609375 -0.16565704345703125 3.162841796875 1.801513671875 0.0021990537643432617 -0.0010720491409301758 0.0826568603515625 0.06914520263671875
18.46525 0.0944061279296875 -0.1445465087890625 3.278076171875 1.5693359375 0.0010998845100402832 -0.0017731189727783203 0.06301116943359375 0.0724029541015625
18.475 0.08150863647460938 -0.12252044677734375 3.39501953125 1.33154296875 -0.0003744363784790039 -0.0010212063789367676 0.03845977783203125 0.0691986083984375
18.48475 0.0604705810546875 -0.10110092163085938 3.49658203125 1.072998046875 0.001210331916809082 -0.0008518695831298828 0.021213531494140625 0.057712554931640625
18.4945 0.0349884033203125 -0.08683013916015625 3.58740234375 0.80126953125 0.0003936290740966797 -0.001456141471862793 0.0037689208984375 0.03797149658203125
18.50425 0.002773284912109375 -0.0783538818359375 3.63916015625 0.5068359375 0.002785921096801758 -0.0005445480346679688 -0.006228923797607422 0.015285491943359375
18.514 -0.03050994873046875 -0.0757598876953125 3.6571044921875 0.2142333984375 0.0014528632164001465 -0.0011351704597473145 -0.010054588317871094 -0.010690689086914062
18.52375 -0.06268310546875 -0.0830535888671875 3.638427734375 -0.0738525390625 0.0011257529258728027 -0.0006936192512512207 -0.00504302978515625 -0.0363311767578125
18.5335 -0.0906524658203125 -0.095123291015625 3.5972900390625 -0.3370361328125 0.001042008399963379 -0.0010169148445129395 0.005615234375 -0.0616607666015625
18.54325 -0.10974884033203125 -0.11544036865234375 3.54736328125 -0.5858154296875 0.0007005035877227783 -0.0008318424224853516 0.02132415771484375 -0.07938003540039062
18.553 -0.1239013671875 -0.140289306640625 3.50341796875 -0.829833984375 0.001423656940460205 -0.0010523796081542969 0.0429534912109375 -0.09305953979492188
18.56275 -0.1287841796875 -0.1637725830078125 3.4429931640625 -1.0770263671875 0.0004280209541320801 -0.0011805891990661621 0.06584930419921875 -0.09612274169921875
18.5725 -0.126678466796875 -0.18634033203125 3.3758544921875 -1.338134765625 0.0013025999069213867 -0.0010365843772888184 0.08699798583984375 -0.09471893310546875
18.58225 -0.1176300048828125 -0.204254150390625 3.27197265625 -1.600830078125 0.0008135139942169189 -0.0008025467395782471 0.104461669921875 -0.08467864990234375
18.592 -0.10186767578125 -0.2125244140625 3.14404296875 -1.854248046875 0.002054929733276367 -0.0014607906341552734 0.11704254150390625 -0.0673980712890625
18.60175 -0.08447265625 -0.2158203125 2.982177734375 -2.09814453125 0.0011774301528930664 -0.0013141036033630371 0.12277603149414062 -0.0489959716796875
18.6115 -0.0671539306640625 -0.206085205078125 2.8040771484375 -2.327392578125 0.0017473697662353516 -0.0009353756904602051 0.11823654174804688 -0.028430938720703125
18.62125 -0.04986572265625 -0.191436767578125 2.5989990234375 -2.5228271484375 0.0008349418640136719 -0.0012981891632080078 0.107025146484375 -0.008533477783203125
18.631 -0.037353515625 -0.16625213623046875 2.3895263671875 -2.7008056640625 0.00024306774139404297 -0.0014969110488891602 0.08997726440429688 0.0043487548828125
18.64075 -0.032623291015625 -0.141326904296875 2.1717529296875 -2.85302734375 -0.00022298097610473633 -0.0012044310569763184 0.06850433349609375 0.012462615966796875
18.6505 -0.0361785888671875 -0.1118927001953125 1.9610595703125 -2.99169921875 0.00019621849060058594 -0.0014195442199707031 0.04252052307128906 0.013385772705078125
18.66025 -0.0480804443359375 -0.08458709716796875 1.741455078125 -3.1243896484375 -0.0003765225410461426 -0.001109302043914795 0.01786327362060547 0.0069255828857421875
18.67 -0.06701278686523438 -0.057529449462890625 1.510986328125 -3.2559814453125 -1.2636184692382812e-05 -0.0023409128189086914 -0.0055942535400390625 -0.0065708160400390625
18.67975 -0.0909271240234375 -0.0364227294921875 1.2540283203125 -3.3685302734375 0.0015526413917541504 -0.0015649795532226562 -0.02408599853515625 -0.026269912719726562
