!Created with skrf (http://scikit-rf.org).
# GHz S RI R 50.0 
!freq ReS11 ImS11 ReS21 ImS21 ReS12 ImS12 ReS22 ImS22
17.5 -0.0914764404296875 -0.16827392578125 -0.90673828125 4.167236328125 -0.0011266469955444336 4.506111145019531e-05 0.096221923828125 -0.11694717407226562
17.50975 -0.08428955078125 -0.1693267822265625 -0.59130859375 4.236572265625 -0.001644730567932129 -0.0003075599670410156 0.10622024536132812 -0.10327911376953125
17.5195 -0.0756988525390625 -0.1639404296875 -0.25732421875 4.281494140625 -0.00041863322257995605 0.0006975233554840088 0.11176300048828125 -0.08684921264648438
17.52925 -0.06768798828125 -0.152496337890625 0.08349609375 4.29736328125 -0.0018572807312011719 -9.09566879272461e-05 0.10794830322265625 -0.06966400146484375
17.539 -0.0634918212890625 -0.135162353515625 0.42578125 4.27880859375 -0.0012513399124145508 -0.0003439188003540039 0.098052978515625 -0.05420684814453125
17.54875 -0.06048583984375 -0.11400604248046875 0.760986328125 4.22412109375 -0.00071677565574646 8.64863395690918e-05 0.08306884765625 -0.039989471435546875
17.5585 -0.063568115234375 -0.09183502197265625 1.080078125 4.146240234375 -0.0020896196365356445 0.0006312131881713867 0.0635986328125 -0.03162384033203125
17.56825 -0.07199859619140625 -0.069793701171875 1.387451171875 4.051025390625 -0.0012988448143005371 -6.705522537231445e-05 0.0425262451171875 -0.031551361083984375
17.578 -0.082122802734375 -0.05164337158203125 1.68701171875 3.94091796875 -0.0010394454002380371 0.0008878707885742188 0.019453048706054688 -0.03487586975097656
17.58775 -0.098541259765625 -0.0332183837890625 1.98291015625 3.8134765625 -0.0011899471282958984 0.0007891058921813965 -0.00055694580078125 -0.04638862609863281
17.5975 -0.11803436279296875 -0.02149200439453125 2.276123046875 3.66650390625 -0.0006722807884216309 -0.0006305575370788574 -0.0154876708984375 -0.06283950805664062
17.60725 -0.1376190185546875 -0.014373779296875 2.569091796875 3.49267578125 -0.0018066763877868652 0.0007756948471069336 -0.026947021484375 -0.0814971923828125
17.617 -0.154144287109375 -0.011627197265625 2.8447265625 3.2900390625 -0.0002726316452026367 0.0012655258178710938 -0.03173828125 -0.10296630859375
17.62675 -0.1707305908203125 -0.01351165771484375 3.10302734375 3.0625 -0.0006701946258544922 0.0014172196388244629 -0.02895355224609375 -0.1222991943359375
17.6365 -0.180755615234375 -0.01551055908203125 3.342529296875 2.806884765625 -0.0008192062377929688 0.0020198822021484375 -0.02304840087890625 -0.141357421875
17.64625 -0.18767547607421875 -0.0200958251953125 3.558837890625 2.53125 -0.0002225637435913086 0.0011962056159973145 -0.010894775390625 -0.1496124267578125
17.656 -0.18442535400390625 -0.0241851806640625 3.734619140625 2.24169921875 -0.001252591609954834 0.00042235851287841797 0.00363922119140625 -0.15549468994140625
17.66575 -0.17678070068359375 -0.02730560302734375 3.88720703125 1.949951171875 -0.0004071146249771118 -1.2367963790893555e-06 0.02085113525390625 -0.1551666259765625
17.6755 -0.16243743896484375 -0.02999114990234375 4.015869140625 1.6572265625 -0.0013644099235534668 0.0005938410758972168 0.03612518310546875 -0.14456939697265625
17.68525 -0.14778900146484375 -0.02696990966796875 4.1484375 1.361328125 -0.0015844106674194336 0.00018227100372314453 0.0476837158203125 -0.1320953369140625
17.695 -0.13216400146484375 -0.0189971923828125 4.260986328125 1.04248046875 0.00028574466705322266 0.0008604526519775391 0.05408477783203125 -0.115478515625
17.70475 -0.1173858642578125 -0.005218505859375 4.3564453125 0.698974609375 -0.0008205175399780273 0.002179861068725586 0.055149078369140625 -0.095306396484375
17.7145 -0.10268020629882812 0.01396942138671875 4.412841796875 0.322021484375 -0.0008994340896606445 0.0020090341567993164 0.04653167724609375 -0.07510757446289062
17.72425 -0.09412384033203125 0.03839874267578125 4.417724609375 -0.057861328125 -0.0005363821983337402 0.0016472339630126953 0.03423881530761719 -0.05552101135253906
17.734 -0.0886688232421875 0.0642852783203125 4.36669921875 -0.43115234375 -0.00033232569694519043 0.00045797228813171387 0.0161285400390625 -0.040805816650390625
17.74375 -0.08760833740234375 0.08726882934570312 4.289306640625 -0.771484375 -6.860494613647461e-05 0.0010052323341369629 -0.003940582275390625 -0.03105926513671875
17.7535 -0.09028244018554688 0.10758209228515625 4.1796875 -1.083740234375 -0.0004680156707763672 0.0016321539878845215 -0.027021408081054688 -0.028512954711914062
17.76325 -0.1002349853515625 0.12560272216796875 4.071044921875 -1.3779296875 -0.0001857280731201172 0.0017325282096862793 -0.04755401611328125 -0.030696868896484375
17.773 -0.1093902587890625 0.13701629638671875 3.953857421875 -1.651611328125 4.267692565917969e-05 0.0019555091857910156 -0.06372451782226562 -0.040454864501953125
17.78275 -0.12332916259765625 0.1416778564453125 3.849853515625 -1.9326171875 -0.0002875328063964844 0.0022083520889282227 -0.07781219482421875 -0.052825927734375
17.7925 -0.13483428955078125 0.1406402587890625 3.7191162109375 -2.2193603515625 -9.644031524658203e-05 0.0002861320972442627 -0.08261871337890625 -0.0683135986328125
17.80225 -0.145294189453125 0.13492584228515625 3.5755615234375 -2.526123046875 -0.0015837550163269043 0.0017393827438354492 -0.08740997314453125 -0.08477020263671875
17.812 -0.149139404296875 0.12447357177734375 3.384521484375 -2.8336181640625 0.00021588802337646484 0.0008020997047424316 -0.083251953125 -0.09808349609375
17.82175 -0.1463470458984375 0.1115264892578125 3.1436767578125 -3.12890625 -0.0001767277717590332 0.0008290112018585205 -0.0732269287109375 -0.10721588134765625
17.8315 -0.1367034912109375 0.099578857421875 2.8515625 -3.372802734375 0.0001499652862548828 0.0019431114196777344 -0.05908203125 -0.1103363037109375
17.84125 -0.12078094482421875 0.08588409423828125 2.550537109375 -3.5718994140625 -0.000377655029296875 0.0011693239212036133 -0.04582977294921875 -0.10985565185546875
17.851 -0.09799575805664062 0.07686996459960938 2.25 -3.7276611328125 -0.00023508071899414062 0.000779569149017334 -0.030059814453125 -0.1017608642578125
17.86075 -0.07171630859375 0.07118988037109375 1.971435546875 -3.859619140625 -0.0001226663589477539 0.0014843344688415527 -0.016704559326171875 -0.08607101440429688
17.8705 -0.043750762939453125 0.0719146728515625 1.6927490234375 -3.9788818359375 0.0009534358978271484 6.687641143798828e-05 -0.0082244873046875 -0.06769943237304688
17.88025 -0.018062591552734375 0.07951736450195312 1.4140625 -4.103271484375 0.0008982419967651367 0.0014045238494873047 -0.00638580322265625 -0.04725074768066406
17.89 0.009159088134765625 0.09458160400390625 1.1123046875 -4.21728515625 0.0003629922866821289 0.0012805461883544922 -0.009965896606445312 -0.02689361572265625
17.89975 0.030792236328125 0.1118927001953125 0.787841796875 -4.320556640625 -0.0002631545066833496 0.00022123754024505615 -0.02104663848876953 -0.008136749267578125
17.9095 0.04700469970703125 0.1323394775390625 0.437255859375 -4.38916015625 -0.0004552006721496582 0.0013657808303833008 -0.033519744873046875 0.007904052734375
17.91925 0.0561981201171875 0.153717041015625 0.0732421875 -4.4287109375 0.00023376941680908203 0.0011612176895141602 -0.0520172119140625 0.018283843994140625
17.929 0.0581207275390625 0.1750030517578125 -0.294921875 -4.408935546875 0.00017786026000976562 0.0018159151077270508 -0.0713043212890625 0.024654388427734375
17.93875 0.05388641357421875 0.18997955322265625 -0.6552734375 -4.356689453125 4.51505184173584e-05 0.0006236433982849121 -0.0905914306640625 0.02326202392578125
17.9485 0.04482269287109375 0.201263427734375 -0.9921875 -4.263427734375 0.0015352964401245117 0.0013620853424072266 -0.10678863525390625 0.018707275390625
17.95825 0.03469085693359375 0.20537567138671875 -1.3076171875 -4.16357421875 -0.0002561807632446289 0.0012932419776916504 -0.11763381958007812 0.00616455078125
17.968 0.0200653076171875 0.20085906982421875 -1.603271484375 -4.046630859375 0.000980079174041748 -0.0002658367156982422 -0.1228179931640625 -0.0072784423828125
17.97775 0.00853729248046875 0.18941497802734375 -1.899658203125 -3.93359375 0.0015434026718139648 0.0015063285827636719 -0.12015533447265625 -0.02671051025390625
17.9875 0.00244903564453125 0.17313385009765625 -2.2001953125 -3.7939453125 0.0010635852813720703 0.00029414892196655273 -0.111846923828125 -0.03786468505859375
17.99725 6.103515625e-05 0.14983367919921875 -2.499267578125 -3.630126953125 0.0008679032325744629 0.0009348392486572266 -0.0983428955078125 -0.051300048828125
18.007 0.00475311279296875 0.12371063232421875 -2.789794921875 -3.42333984375 0.0014427900314331055 0.0006434917449951172 -0.07891845703125 -0.0550079345703125
18.01675 0.016559600830078125 0.0977630615234375 -3.05810546875 -3.1982421875 0.0004886388778686523 0.0006359219551086426 -0.058177947998046875 -0.053775787353515625
18.0265 0.03456878662109375 0.072784423828125 -3.30126953125 -2.935546875 0.0013146400451660156 0.0006395578384399414 -0.036479949951171875 -0.04648590087890625
18.03625 0.0570068359375 0.053924560546875 -3.51904296875 -2.66845703125 0.0013301372528076172 0.0009236335754394531 -0.018657684326171875 -0.031909942626953125
18.046 0.08455657958984375 0.04088592529296875 -3.69580078125 -2.374755859375 0.00023889541625976562 -1.9259750843048096e-05 -0.00557708740234375 -0.015737533569335938
18.05575 0.11324310302734375 0.0344696044921875 -3.856201171875 -2.08349609375 0.00017552077770233154 0.00013428926467895508 0.002109527587890625 0.007476806640625
18.0655 0.13739013671875 0.034759521484375 -3.989013671875 -1.783935546875 0.0010514259338378906 0.0017580986022949219 0.00455474853515625 0.03191184997558594
18.07525 0.1623382568359375 0.04029083251953125 -4.11376953125 -1.489990234375 0.0006708502769470215 -0.0013774633407592773 0.000217437744140625 0.053394317626953125
18.085 0.17958831787109375 0.05419921875 -4.22216796875 -1.1796875 0.001822829246520996 0.0008618831634521484 -0.010066986083984375 0.07355880737304688
18.09475 0.189697265625 0.0687255859375 -4.328125 -0.853515625 0.0005072355270385742 0.0009284615516662598 -0.02520751953125 0.08645248413085938
18.1045 0.1926116943359375 0.084075927734375 -4.392333984375 -0.499267578125 0.000966191291809082 -0.0006778240203857422 -0.044712066650390625 0.09271621704101562
18.11425 0.186279296875 0.0966796875 -4.4296875 -0.13623046875 0.0005332231521606445 0.0010358095169067383 -0.06311798095703125 0.09403228759765625
18.124 0.1739349365234375 0.1039886474609375 -4.415771484375 0.227294921875 0.0012129545211791992 -0.00023603439331054688 -0.07852554321289062 0.08759689331054688
18.13375 0.1562347412109375 0.1063690185546875 -4.373779296875 0.578369140625 0.0009466409683227539 0.0006573200225830078 -0.09110260009765625 0.07580947875976562
18.1435 0.13567352294921875 0.10018157958984375 -4.296875 0.91064453125 0.0011323094367980957 0.0003795623779296875 -0.09653091430664062 0.057056427001953125
18.15325 0.1122894287109375 0.0872039794921875 -4.2119140625 1.237548828125 0.0005887150764465332 0.0009244084358215332 -0.09613800048828125 0.03954315185546875
18.163 0.09490966796875 0.06589508056640625 -4.100830078125 1.55712890625 0.0006263554096221924 -0.0009122490882873535 -0.08730316162109375 0.020458221435546875
18.17275 0.0800323486328125 0.040103912353515625 -3.97119140625 1.872314453125 0.00010341405868530273 0.00039380788803100586 -0.07405471801757812 0.004268646240234375
18.1825 0.06959152221679688 0.010517120361328125 -3.8125 2.184814453125 0.00071677565574646 -0.0008572041988372803 -0.051898956298828125 -0.0117340087890625
18.19225 0.06884765625 -0.02538299560546875 -3.62841796875 2.487548828125 0.0009120702743530273 0.00025153160095214844 -0.027256011962890625 -0.012493133544921875
18.202 0.07436752319335938 -0.056243896484375 -3.403564453125 2.761962890625 0.0013777613639831543 -6.252527236938477e-05 -0.0029916763305664062 -0.011721611022949219
18.21175 0.08636093139648438 -0.08388519287109375 -3.1607666015625 3.013671875 0.000941157341003418 0.0006473064422607422 0.02019023895263672 -0.004108428955078125
18.2215 0.10261917114257812 -0.10683441162109375 -2.8955078125 3.2254638671875 0.0012773871421813965 -0.00047647953033447266 0.04115867614746094 0.00972747802734375
18.23125 0.12538909912109375 -0.120941162109375 -2.6380615234375 3.4130859375 -0.00013044476509094238 0.000615537166595459 0.056262969970703125 0.02831268310546875
18.241 0.1447906494140625 -0.126922607421875 -2.376953125 3.5677490234375 0.0010173320770263672 -0.0014654994010925293 0.06369781494140625 0.050243377685546875
18.25075 0.16701507568359375 -0.12589263916015625 -2.119873046875 3.7357177734375 0.0007975101470947266 0.0007224082946777344 0.06427001953125 0.07160186767578125
18.2605 0.18414306640625 -0.1156463623046875 -1.847900390625 3.8846435546875 0.0012988448143005371 -0.0002136826515197754 0.0573883056640625 0.090179443359375
18.27025 0.19213104248046875 -0.10181427001953125 -1.552734375 4.038818359375 0.0014820694923400879 -0.000553131103515625 0.04599761962890625 0.105316162109375
18.28 0.19364166259765625 -0.0849456787109375 -1.225830078125 4.158203125 0.00044083595275878906 0.0010914206504821777 0.02779388427734375 0.1130218505859375
18.28975 0.18694305419921875 -0.06771087646484375 -0.88134765625 4.249755859375 0.0006067752838134766 -0.00035834312438964844 0.00797271728515625 0.114959716796875
18.2995 0.169464111328125 -0.051971435546875 -0.52734375 4.283203125 0.0010519027709960938 -0.0014019012451171875 -0.0095367431640625 0.1073760986328125
18.30925 0.1454925537109375 -0.0396270751953125 -0.19091796875 4.28759765625 0.0007735490798950195 -0.0002269148826599121 -0.02547454833984375 0.0941619873046875
18.319 0.1172943115234375 -0.0359649658203125 0.12939453125 4.2626953125 0.0004131793975830078 -0.000666499137878418 -0.0356597900390625 0.0745086669921875
18.32875 0.08677291870117188 -0.038677215576171875 0.4326171875 4.2294921875 0.000738978385925293 -0.001875162124633789 -0.039997100830078125 0.05129432678222656
18.3385 0.0579376220703125 -0.04839324951171875 0.734130859375 4.1787109375 0.0001529008150100708 -0.00044493377208709717 -0.035717010498046875 0.02616119384765625
18.34825 0.03098297119140625 -0.06543731689453125 1.0322265625 4.120849609375 0.000572502613067627 -0.001611173152923584 -0.025909423828125 0.0030736923217773438
18.358 0.008205413818359375 -0.09073257446289062 1.332763671875 4.050537109375 0.0015605688095092773 -9.310245513916016e-05 -0.009003639221191406 -0.017699241638183594
18.36775 -0.00547027587890625 -0.11871337890625 1.6435546875 3.9599609375 0.0012273192405700684 0.00037157535552978516 0.015047073364257812 -0.03183555603027344
18.3775 -0.0147552490234375 -0.1479034423828125 1.96435546875 3.83837890625 0.0011168718338012695 -0.0006865262985229492 0.03974151611328125 -0.039745330810546875
18.38725 -0.0152435302734375 -0.17678070068359375 2.28271484375 3.67529296875 0.001106560230255127 -0.00040978193283081055 0.0658416748046875 -0.03815460205078125
18.397 -0.00960540771484375 -0.1975860595703125 2.577880859375 3.46533203125 0.0005595088005065918 0.00016731023788452148 0.08716964721679688 -0.030055999755859375
18.40675 0.0017852783203125 -0.21396636962890625 2.831787109375 3.218017578125 0.0006211996078491211 0.0004576444625854492 0.10590362548828125 -0.01806640625
18.4165 0.01863861083984375 -0.22061920166015625 3.052001953125 2.970703125 0.00029280781745910645 -0.00017060339450836182 0.11541748046875 0.001003265380859375
18.42625 0.03470611572265625 -0.219451904296875 3.234375 2.713623046875 -0.0002503395080566406 -0.0003746449947357178 0.1204833984375 0.01877593994140625
18.436 0.049713134765625 -0.2106781005859375 3.40576171875 2.4619140625 0.0013036727905273438 0.0007834434509277344 0.116058349609375 0.03693389892578125
18.44575 0.05975341796875 -0.19115447998046875 3.5556640625 2.203369140625 0.00017881393432617188 -0.0016401410102844238 0.10477447509765625 0.0526885986328125
18.4555 0.063018798828125 -0.1699981689453125 3.70361328125 1.945556640625 -4.909932613372803e-05 0.00020715594291687012 0.0870513916015625 0.063323974609375
18.46525 0.05896759033203125 -0.14479827880859375 3.83642578125 1.675048828125 0.0003560781478881836 -0.0009765028953552246 0.06693267822265625 0.0664520263671875
18.475 0.045108795166015625 -0.11962509155273438 3.965087890625 1.39208984375 0.001475691795349121 0.0007622241973876953 0.04407501220703125 0.061290740966796875
18.48475 0.025165557861328125 -0.097869873046875 4.07177734375 1.08740234375 0.0013687610626220703 -0.0007304549217224121 0.022647857666015625 0.05055999755859375
18.4945 -0.002227783203125 -0.07932281494140625 4.15966796875 0.763671875 0.00023642182350158691 -0.0003816187381744385 0.00485992431640625 0.032138824462890625
18.50425 -0.03498077392578125 -0.06858062744140625 4.203857421875 0.423828125 -0.000743865966796875 -0.0006095767021179199 -0.0064830780029296875 0.010262012481689453
18.514 -0.06732177734375 -0.06475830078125 4.21240234375 0.0849609375 -0.00024850666522979736 4.8041343688964844e-05 -0.009320259094238281 -0.016721725463867188
18.52375 -0.0975799560546875 -0.068328857421875 4.177978515625 -0.23583984375 0.00014671683311462402 -0.0008576810359954834 -0.007045745849609375 -0.044879913330078125
18.5335 -0.125091552734375 -0.07956695556640625 4.131103515625 -0.535888671875 4.094839096069336e-05 -0.0011867284774780273 0.004825592041015625 -0.06702804565429688
18.54325 -0.14569854736328125 -0.0986785888671875 4.070068359375 -0.822021484375 3.573298454284668e-05 -0.0009682178497314453 0.01880645751953125 -0.08459854125976562
18.553 -0.1582489013671875 -0.120574951171875 4.01904296875 -1.10888671875 0.00040525197982788086 -0.0006245076656341553 0.038349151611328125 -0.098602294921875
18.56275 -0.1639862060546875 -0.142822265625 3.9404296875 -1.400146484375 0.0006830096244812012 0.0009571313858032227 0.060970306396484375 -0.1027069091796875
18.5725 -0.160308837890625 -0.1628875732421875 3.8504638671875 -1.7064208984375 0.00013068318367004395 -0.00040149688720703125 0.08178329467773438 -0.09946441650390625
18.58225 -0.1500244140625 -0.178375244140625 3.7144775390625 -2.0067138671875 9.608268737792969e-05 -0.0012958049774169922 0.10021591186523438 -0.08967971801757812
18.592 -0.13568115234375 -0.1878662109375 3.5498046875 -2.300048828125 -0.00046312808990478516 -0.0002397298812866211 0.11183929443359375 -0.07379150390625
18.60175 -0.1161041259765625 -0.18603515625 3.348876953125 -2.572265625 0.00022679567337036133 -0.001206040382385254 0.11445999145507812 -0.053497314453125
18.6115 -0.0959930419921875 -0.177490234375 3.1331787109375 -2.832763671875 -0.0003482699394226074 -0.0012777447700500488 0.11189651489257812 -0.033603668212890625
18.62125 -0.078277587890625 -0.15830230712890625 2.8841552734375 -3.0499267578125 0.00030428171157836914 -0.00011973083019256592 0.10066986083984375 -0.0133056640625
18.631 -0.06597137451171875 -0.13463592529296875 2.6365966796875 -3.2479248046875 -3.139674663543701e-05 -0.00025676190853118896 0.08199691772460938 0.001739501953125
18.64075 -0.05913543701171875 -0.10607147216796875 2.3807373046875 -3.41552734375 0.0007084012031555176 -0.0007404685020446777 0.0603179931640625 0.01079559326171875
18.6505 -0.05982208251953125 -0.0756378173828125 2.1304931640625 -3.5782470703125 -0.0006818771362304688 -0.00017496943473815918 0.03297996520996094 0.010379791259765625
18.66025 -0.07046127319335938 -0.046100616455078125 1.86328125 -3.7275390625 -0.0007965266704559326 1.704692840576172e-05 0.007092475891113281 0.005841255187988281
18.67 -0.0868988037109375 -0.0186920166015625 1.5811767578125 -3.87744140625 0.000352710485458374 -0.0005045533180236816 -0.014482498168945312 -0.007536888122558594
18.67975 -0.1079254150390625 0.004863739013671875 1.26708984375 -3.99462890625 -0.0002829432487487793 -0.0012466907501220703 -0.034923553466796875 -0.02754974365234375
