!Created with skrf (http://scikit-rf.org).
# GHz S RI R 50.0 
!freq ReS11 ImS11 ReS21 ImS21 ReS12 ImS12 ReS22 ImS22
17.5 -0.08361053466796875 -0.1438446044921875 -1.022216796875 4.025634765625 -0.0015073418617248535 0.0005870461463928223 0.08759307861328125 -0.11881256103515625
17.50975 -0.0751800537109375 -0.1438140869140625 -0.70654296875 4.10009765625 -0.0009268522262573242 0.0012347698211669922 0.09685134887695312 -0.1056060791015625
17.5195 -0.06519317626953125 -0.136993408203125 -0.375 4.157470703125 -0.0008291006088256836 0.0020543336868286133 0.10153579711914062 -0.08873367309570312
17.52925 -0.0574493408203125 -0.1256256103515625 -0.0361328125 4.17041015625 -0.0002560913562774658 -7.238984107971191e-05 0.09947967529296875 -0.07115936279296875
17.539 -0.0501556396484375 -0.1098175048828125 0.30224609375 4.15771484375 0.0006775856018066406 0.0016143321990966797 0.089324951171875 -0.0532379150390625
17.54875 -0.0456695556640625 -0.08895111083984375 0.635986328125 4.1103515625 -0.00040793418884277344 0.002410411834716797 0.07451629638671875 -0.039173126220703125
17.5585 -0.0467071533203125 -0.06511688232421875 0.95263671875 4.0439453125 -0.0009439587593078613 0.0008256137371063232 0.05677223205566406 -0.02979278564453125
17.56825 -0.054248809814453125 -0.043560028076171875 1.262939453125 3.950439453125 9.554624557495117e-05 0.0007598996162414551 0.0363922119140625 -0.026941299438476562
17.578 -0.06369400024414062 -0.02414703369140625 1.563720703125 3.847900390625 -0.0011326074600219727 0.0007575750350952148 0.011438369750976562 -0.029053688049316406
17.58775 -0.08016586303710938 -0.0078125 1.859619140625 3.718017578125 -0.0010562539100646973 0.0009909272193908691 -0.007717132568359375 -0.04151153564453125
17.5975 -0.09630203247070312 0.003772735595703125 2.153076171875 3.578369140625 0.0008842349052429199 0.0009859800338745117 -0.023845672607421875 -0.056293487548828125
17.60725 -0.11374664306640625 0.011257171630859375 2.438720703125 3.3984375 -8.00788402557373e-05 0.0007232129573822021 -0.03314971923828125 -0.07600784301757812
17.617 -0.1324615478515625 0.0118408203125 2.7109375 3.2041015625 -0.0007407665252685547 0.0014055967330932617 -0.03717041015625 -0.09771728515625
17.62675 -0.14708709716796875 0.01152801513671875 2.96142578125 2.97314453125 -0.0013568401336669922 0.0012766122817993164 -0.03656005859375 -0.11577606201171875
17.6365 -0.15723419189453125 0.00788116455078125 3.1982421875 2.72900390625 -0.0016689896583557129 0.0018445253372192383 -0.02867889404296875 -0.1315460205078125
17.64625 -0.16031646728515625 0.0008544921875 3.395263671875 2.451171875 -0.0006515979766845703 0.0011925697326660156 -0.0123291015625 -0.141876220703125
17.656 -0.15677642822265625 -0.00399017333984375 3.572021484375 2.174560546875 -0.001296699047088623 0.001019299030303955 0.00174713134765625 -0.1478271484375
17.66575 -0.148406982421875 -0.01103973388671875 3.7158203125 1.88134765625 -0.00023066997528076172 0.0013287663459777832 0.01914215087890625 -0.14656829833984375
17.6755 -0.1339111328125 -0.01296234130859375 3.849609375 1.6005859375 0.00051116943359375 0.0006563067436218262 0.0345916748046875 -0.1373748779296875
17.68525 -0.11923980712890625 -0.0112457275390625 3.962158203125 1.302001953125 -0.0010314583778381348 0.0009102821350097656 0.047168731689453125 -0.1244354248046875
17.695 -0.10162353515625 -0.00421142578125 4.073974609375 0.98974609375 0.001046895980834961 0.001560807228088379 0.055545806884765625 -0.10681533813476562
17.70475 -0.08578872680664062 0.008388519287109375 4.148193359375 0.648681640625 9.369850158691406e-05 0.0022760629653930664 0.05574798583984375 -0.08562088012695312
17.7145 -0.072174072265625 0.02698516845703125 4.194091796875 0.28955078125 0.0006343722343444824 0.0007179975509643555 0.049312591552734375 -0.06648635864257812
17.72425 -0.06332778930664062 0.048175811767578125 4.181640625 -0.073486328125 -0.0006222128868103027 0.0011377334594726562 0.03851318359375 -0.04725074768066406
17.734 -0.05689239501953125 0.07216644287109375 4.1328125 -0.4248046875 0.0008378028869628906 0.00034987926483154297 0.019573211669921875 -0.033588409423828125
17.74375 -0.05666351318359375 0.09370040893554688 4.04248046875 -0.744140625 0.0003108382225036621 0.0008474588394165039 -0.0002155303955078125 -0.024892807006835938
17.7535 -0.060779571533203125 0.11305999755859375 3.939697265625 -1.03857421875 0.0017044544219970703 0.0020008087158203125 -0.020183563232421875 -0.02179718017578125
17.76325 -0.07056427001953125 0.126556396484375 3.82958984375 -1.3154296875 0.0005990266799926758 0.0012049674987792969 -0.041172027587890625 -0.026302337646484375
17.773 -0.083221435546875 0.14046478271484375 3.7178955078125 -1.5802001953125 0.00020486116409301758 0.00044357776641845703 -0.0582427978515625 -0.035724639892578125
17.78275 -0.097137451171875 0.1450347900390625 3.60107421875 -1.8419189453125 0.0015702247619628906 0.0005505084991455078 -0.07071685791015625 -0.0491485595703125
17.7925 -0.10906219482421875 0.141632080078125 3.477783203125 -2.1134033203125 0.001423954963684082 0.0007598400115966797 -0.07996368408203125 -0.06502532958984375
17.80225 -0.11795806884765625 0.1348419189453125 3.3199462890625 -2.39013671875 8.392333984375e-05 0.0020636320114135742 -0.0795745849609375 -0.080810546875
17.812 -0.1226806640625 0.1246337890625 3.13671875 -2.674072265625 0.0005996227264404297 0.0016317367553710938 -0.07518768310546875 -0.095703125
17.82175 -0.11993789672851562 0.11048507690429688 2.8948974609375 -2.9302978515625 1.940131187438965e-05 -0.0004067718982696533 -0.06683349609375 -0.10350799560546875
17.8315 -0.11173248291015625 0.09697723388671875 2.62744140625 -3.156494140625 0.0005687475204467773 0.0005817413330078125 -0.0517730712890625 -0.1096038818359375
17.84125 -0.09757614135742188 0.08354568481445312 2.337646484375 -3.326416015625 0.001441359519958496 0.001133561134338379 -0.035919189453125 -0.1089935302734375
17.851 -0.0742950439453125 0.07226943969726562 2.060546875 -3.460693359375 0.001406550407409668 0.0013025999069213867 -0.024227142333984375 -0.10078811645507812
17.86075 -0.051250457763671875 0.06859207153320312 1.794921875 -3.5718994140625 0.0013561248779296875 0.0006394386291503906 -0.010066986083984375 -0.08587646484375
17.8705 -0.02317047119140625 0.06895828247070312 1.537841796875 -3.6837158203125 -0.0009095668792724609 -0.0014117956161499023 -0.00125885009765625 -0.06936264038085938
17.88025 0.001293182373046875 0.076171875 1.2723388671875 -3.781005859375 0.0010949373245239258 0.0025463104248046875 -0.0004367828369140625 -0.04798698425292969
17.89 0.02689361572265625 0.08942031860351562 1.000732421875 -3.88330078125 0.00030940771102905273 0.00047728419303894043 -0.0051059722900390625 -0.02816009521484375
17.89975 0.04552459716796875 0.10823822021484375 0.7015380859375 -3.957275390625 0.0020943880081176758 -0.0001201629638671875 -0.014211654663085938 -0.008304595947265625
17.9095 0.06113433837890625 0.1287994384765625 0.384765625 -4.02294921875 -0.00042375922203063965 0.0007395744323730469 -0.02947521209716797 0.0065479278564453125
17.91925 0.0697784423828125 0.1506195068359375 0.052734375 -4.0361328125 -7.37309455871582e-05 -0.0002167820930480957 -0.04681396484375 0.017887115478515625
17.929 0.07105255126953125 0.17272186279296875 -0.27685546875 -4.022216796875 0.0012905597686767578 -0.0005190372467041016 -0.06719589233398438 0.020885467529296875
17.93875 0.06551361083984375 0.18825531005859375 -0.59619140625 -3.9609375 -4.5925378799438477e-05 -0.0008171200752258301 -0.08545303344726562 0.020366668701171875
17.9485 0.0575408935546875 0.200836181640625 -0.901123046875 -3.87744140625 0.0006099939346313477 0.0009804964065551758 -0.10158538818359375 0.012203216552734375
17.95825 0.04419708251953125 0.20566558837890625 -1.1767578125 -3.773193359375 0.0008112788200378418 0.00022143125534057617 -0.11216354370117188 0.00080108642578125
17.968 0.0304107666015625 0.20148468017578125 -1.4375 -3.669921875 -3.3736228942871094e-05 0.001087486743927002 -0.11714935302734375 -0.01387786865234375
17.97775 0.01746368408203125 0.19152069091796875 -1.698974609375 -3.55517578125 -0.0006087720394134521 0.000953972339630127 -0.11655426025390625 -0.0309906005859375
17.9875 0.00893402099609375 0.17461395263671875 -1.962158203125 -3.4326171875 0.0012376904487609863 0.0004692673683166504 -0.10721588134765625 -0.04433441162109375
17.99725 0.00798797607421875 0.15441131591796875 -2.22509765625 -3.28125 0.0019216537475585938 0.002245187759399414 -0.0952301025390625 -0.05384063720703125
18.007 0.0112457275390625 0.12851715087890625 -2.480712890625 -3.103759765625 0.0010085105895996094 0.000993490219116211 -0.07585906982421875 -0.05823516845703125
18.01675 0.0238494873046875 0.1039276123046875 -2.713623046875 -2.89990234375 0.0015267729759216309 -0.00012642145156860352 -0.05597686767578125 -0.059810638427734375
18.0265 0.042621612548828125 0.08176803588867188 -2.928955078125 -2.67626953125 0.0004845261573791504 -0.0011303424835205078 -0.03597259521484375 -0.052295684814453125
18.03625 0.067108154296875 0.064117431640625 -3.11865234375 -2.439453125 0.0021429061889648438 0.00041103363037109375 -0.017242431640625 -0.03774261474609375
18.046 0.09171295166015625 0.0517425537109375 -3.28466796875 -2.188232421875 0.000862419605255127 0.0010149478912353516 -0.004901885986328125 -0.019357681274414062
18.05575 0.120635986328125 0.046417236328125 -3.421142578125 -1.9306640625 0.0010563135147094727 -0.0008545517921447754 0.004145622253417969 0.0036787986755371094
18.0655 0.14829254150390625 0.049163818359375 -3.543701171875 -1.67578125 0.0014614462852478027 -0.0006693601608276367 0.004390716552734375 0.025877952575683594
18.07525 0.17193603515625 0.0574951171875 -3.652587890625 -1.415771484375 0.00022399425506591797 0.0005485117435455322 -0.0007114410400390625 0.04851531982421875
18.085 0.19110107421875 0.07012939453125 -3.75634765625 -1.15283203125 0.0007576644420623779 -0.0005584955215454102 -0.013690948486328125 0.06786346435546875
18.09475 0.2012939453125 0.0843048095703125 -3.853271484375 -0.870849609375 0.0011752843856811523 -0.0013713836669921875 -0.028110504150390625 0.08054733276367188
18.1045 0.2066650390625 0.102813720703125 -3.922607421875 -0.562744140625 -6.121397018432617e-05 -0.001630544662475586 -0.045871734619140625 0.089752197265625
18.11425 0.204498291015625 0.114990234375 -3.9609375 -0.24462890625 -3.516674041748047e-06 -0.000676274299621582 -0.06526947021484375 0.0888824462890625
18.124 0.1913604736328125 0.1229705810546875 -3.9603271484375 0.0751953125 0.0019127726554870605 -0.0005681514739990234 -0.08087539672851562 0.08320236206054688
18.13375 0.1749725341796875 0.1255950927734375 -3.92578125 0.3858642578125 0.00048786401748657227 -0.0016542673110961914 -0.09278488159179688 0.06993484497070312
18.1435 0.1554412841796875 0.121307373046875 -3.869140625 0.6787109375 0.0010364651679992676 0.000361025333404541 -0.10158920288085938 0.053417205810546875
18.15325 0.13523101806640625 0.10817718505859375 -3.8062744140625 0.9638671875 0.00031888484954833984 -0.0015058517456054688 -0.09954833984375 0.033931732177734375
18.163 0.11812591552734375 0.08740997314453125 -3.7283935546875 1.2471923828125 0.00017617642879486084 0.00027054548263549805 -0.09165573120117188 0.015750885009765625
18.17275 0.10414886474609375 0.05988311767578125 -3.63525390625 1.531005859375 0.00017964839935302734 -0.0009939074516296387 -0.07709503173828125 -0.0004119873046875
18.1825 0.09775543212890625 0.02875518798828125 -3.510986328125 1.810546875 0.00025841593742370605 0.0004265010356903076 -0.056529998779296875 -0.010860443115234375
18.19225 0.0984039306640625 -0.00627899169921875 -3.3603515625 2.08837890625 0.0011086463928222656 -0.0012199878692626953 -0.03281402587890625 -0.01811981201171875
18.202 0.10622787475585938 -0.0377044677734375 -3.175537109375 2.34716796875 0.0006780028343200684 -0.0001220703125 -0.007187843322753906 -0.014570236206054688
18.21175 0.11882400512695312 -0.06723403930664062 -2.9696044921875 2.585205078125 -0.0009707808494567871 -0.00018525123596191406 0.014482498168945312 -0.006440162658691406
18.2215 0.137847900390625 -0.09188079833984375 -2.7393798828125 2.784912109375 0.0017355680465698242 -0.0011485815048217773 0.03539466857910156 0.008150100708007812
18.23125 0.159423828125 -0.10559844970703125 -2.5194091796875 2.965087890625 0.0004538297653198242 -0.001227259635925293 0.05013275146484375 0.027675628662109375
18.241 0.182373046875 -0.11365509033203125 -2.2899169921875 3.114501953125 -0.0012967586517333984 -0.0012825727462768555 0.057270050048828125 0.05066680908203125
18.25075 0.20438385009765625 -0.1092376708984375 -2.0732421875 3.2706298828125 -0.0011617541313171387 -0.0007344484329223633 0.0593719482421875 0.07071685791015625
18.2605 0.22388458251953125 -0.1031951904296875 -1.8419189453125 3.4127197265625 0.0020292997360229492 5.9485435485839844e-05 0.05171966552734375 0.09075164794921875
18.27025 0.234527587890625 -0.09081268310546875 -1.5928955078125 3.5675048828125 0.00030638277530670166 -5.766749382019043e-05 0.03862762451171875 0.106353759765625
18.28 0.23737335205078125 -0.07399749755859375 -1.30859375 3.69677734375 1.0848045349121094e-05 0.0004927217960357666 0.023345947265625 0.11490631103515625
18.28975 0.2300567626953125 -0.05989837646484375 -1.007080078125 3.8065185546875 -0.0014837980270385742 -0.0016540288925170898 0.00322723388671875 0.11705398559570312
18.2995 0.213470458984375 -0.04503631591796875 -0.6849365234375 3.8592529296875 0.00014369189739227295 -0.0003156214952468872 -0.01422119140625 0.11007308959960938
18.30925 0.1904754638671875 -0.0346832275390625 -0.3798828125 3.886474609375 0.0001081228256225586 -0.0010162591934204102 -0.03133392333984375 0.09575653076171875
18.319 0.162567138671875 -0.0322113037109375 -0.08349609375 3.87939453125 -0.00045680999755859375 -0.0007077455520629883 -0.03993988037109375 0.07776641845703125
18.32875 0.13433074951171875 -0.03549957275390625 0.1943359375 3.863525390625 -0.00038701295852661133 -0.0010377168655395508 -0.04448509216308594 0.05286979675292969
18.3385 0.1029052734375 -0.046695709228515625 0.467041015625 3.826904296875 0.0012865662574768066 -0.0004909038543701172 -0.04015922546386719 0.02819061279296875
18.34825 0.07775497436523438 -0.06622695922851562 0.740966796875 3.79443359375 -0.00010436773300170898 -0.001841723918914795 -0.03012561798095703 0.00566864013671875
18.358 0.05388641357421875 -0.09199905395507812 1.012451171875 3.7412109375 7.706880569458008e-05 -0.0011429190635681152 -0.013659477233886719 -0.013592720031738281
18.36775 0.040435791015625 -0.12261962890625 1.298828125 3.683837890625 -0.00016170740127563477 -0.0010777115821838379 0.008464813232421875 -0.02711009979248047
18.3775 0.0324554443359375 -0.1531982421875 1.5927734375 3.58544921875 9.66489315032959e-05 -0.00041115283966064453 0.035198211669921875 -0.035236358642578125
18.38725 0.031402587890625 -0.1833648681640625 1.892578125 3.4619140625 0.0007661581039428711 0.00035762786865234375 0.061370849609375 -0.03304290771484375
18.397 0.03672027587890625 -0.20781707763671875 2.176513671875 3.28076171875 0.0015544891357421875 -0.0005689859390258789 0.084686279296875 -0.02677154541015625
18.40675 0.04898834228515625 -0.223785400390625 2.427734375 3.076416015625 -0.0013706088066101074 0.0002945065498352051 0.10364151000976562 -0.0124053955078125
18.4165 0.06200408935546875 -0.23333740234375 2.63720703125 2.8515625 -0.0001537799835205078 -0.0020020008087158203 0.11205673217773438 0.005954742431640625
18.42625 0.08049774169921875 -0.23248291015625 2.8203125 2.63037109375 0.0005984008312225342 0.00026664137840270996 0.11797332763671875 0.02411651611328125
18.436 0.09368896484375 -0.224334716796875 2.982421875 2.40234375 0.00014039874076843262 -0.0006797611713409424 0.11440277099609375 0.0429229736328125
18.44575 0.10395050048828125 -0.20938873291015625 3.13525390625 2.178955078125 -0.00062599778175354 0.0003342628479003906 0.10504150390625 0.0576171875
18.4555 0.10770416259765625 -0.1868896484375 3.27490234375 1.949951171875 0.0008845925331115723 -0.0015921592712402344 0.08811187744140625 0.06946563720703125
18.46525 0.10175323486328125 -0.16451263427734375 3.414794921875 1.717041015625 0.0013074278831481934 -0.0001575946807861328 0.06524658203125 0.07091522216796875
18.475 0.0887451171875 -0.13880157470703125 3.536865234375 1.46240234375 0.0005502700805664062 -0.0010683536529541016 0.044628143310546875 0.0671844482421875
18.48475 0.06726837158203125 -0.11947250366210938 3.657958984375 1.200927734375 0.00012607872486114502 0.00017714500427246094 0.024410247802734375 0.0551910400390625
18.4945 0.039306640625 -0.10388946533203125 3.75146484375 0.9091796875 -0.0003458261489868164 -0.0008465051651000977 0.006008148193359375 0.034748077392578125
18.50425 0.004047393798828125 -0.09409332275390625 3.820556640625 0.60009765625 0.00029081106185913086 0.0013276934623718262 -0.0023527145385742188 0.013326168060302734
18.514 -0.028076171875 -0.08998489379882812 3.83935546875 0.285888671875 0.00043001770973205566 0.0004622042179107666 -0.006983757019042969 -0.013917922973632812
18.52375 -0.06214141845703125 -0.09648895263671875 3.8282470703125 -0.012451171875 0.0004787445068359375 -0.0007242560386657715 -0.0041961669921875 -0.03889656066894531
18.5335 -0.0880279541015625 -0.10863494873046875 3.785400390625 -0.2926025390625 0.00030931830406188965 6.698071956634521e-05 0.006565093994140625 -0.064178466796875
18.54325 -0.10870361328125 -0.12699127197265625 3.748291015625 -0.5531005859375 0.0008658766746520996 -0.00016438961029052734 0.02274322509765625 -0.08338165283203125
18.553 -0.1219940185546875 -0.1497802734375 3.700439453125 -0.810791015625 0.00047767162322998047 -0.0024230480194091797 0.04285430908203125 -0.09447479248046875
18.56275 -0.1283111572265625 -0.1746978759765625 3.6524658203125 -1.0732421875 0.0010353922843933105 0.0001315474510192871 0.0634765625 -0.10117340087890625
18.5725 -0.125274658203125 -0.19378662109375 3.5772705078125 -1.3514404296875 2.7567148208618164e-06 -0.00019960105419158936 0.08626174926757812 -0.09815216064453125
18.58225 -0.116729736328125 -0.2112579345703125 3.485595703125 -1.6318359375 6.034970283508301e-05 0.000533372163772583 0.10374832153320312 -0.0869293212890625
18.592 -0.1025390625 -0.21868896484375 3.3505859375 -1.9052734375 7.599592208862305e-06 -0.0003534555435180664 0.1154327392578125 -0.0704498291015625
18.60175 -0.08349609375 -0.2206268310546875 3.1929931640625 -2.170166015625 -0.00019946694374084473 -0.0002424865961074829 0.12129592895507812 -0.051189422607421875
18.6115 -0.0631866455078125 -0.2133941650390625 2.9979248046875 -2.40966796875 -0.00017708539962768555 -0.0006755292415618896 0.115936279296875 -0.03037261962890625
18.62125 -0.04903411865234375 -0.1948089599609375 2.7930908203125 -2.6259765625 0.0007418692111968994 8.884072303771973e-05 0.10490798950195312 -0.013336181640625
18.631 -0.037078857421875 -0.173187255859375 2.5682373046875 -2.815185546875 0.00040619075298309326 -0.00014732778072357178 0.08757781982421875 0.001598358154296875
18.64075 -0.03127288818359375 -0.14397430419921875 2.3480224609375 -2.9808349609375 0.0008666515350341797 -0.0009019076824188232 0.06341934204101562 0.011455535888671875
18.6505 -0.03353118896484375 -0.1127166748046875 2.121826171875 -3.1280517578125 0.000520169734954834 -0.0013270974159240723 0.037776947021484375 0.013101577758789062
18.66025 -0.04491424560546875 -0.0837860107421875 1.8994140625 -3.280517578125 -0.00042176246643066406 0.0003312528133392334 0.010857582092285156 0.0060272216796875
18.67 -0.06308746337890625 -0.059894561767578125 1.6541748046875 -3.4207763671875 -0.00034202635288238525 -7.699429988861084e-05 -0.01093292236328125 -0.007567405700683594
18.67975 -0.08928680419921875 -0.03672027587890625 1.3883056640625 -3.5545654296875 0.0001788884401321411 0.00023153424263000488 -0.030836105346679688 -0.027147293090820312
