!Created with skrf (http://scikit-rf.org).
# GHz S RI R 50.0 
!freq ReS11 ImS11 ReS21 ImS21 ReS12 ImS12 ReS22 ImS22
17.5 -0.0839996337890625 -0.1584625244140625 -0.9439697265625 3.8905029296875 -0.0010188817977905273 -0.0005587935447692871 0.10101318359375 -0.12123870849609375
17.50975 -0.07598876953125 -0.15778350830078125 -0.65380859375 3.964599609375 -0.0010876059532165527 0.0013018250465393066 0.11059951782226562 -0.10866546630859375
17.5195 -0.06829071044921875 -0.15338134765625 -0.344482421875 4.013427734375 -0.000992894172668457 0.0002911090850830078 0.11517333984375 -0.09337615966796875
17.52925 -0.0609588623046875 -0.1416168212890625 -0.03125 4.0380859375 0.00019216537475585938 0.0018820762634277344 0.11353302001953125 -0.07808685302734375
17.539 -0.0568389892578125 -0.12457275390625 0.287109375 4.0302734375 -0.0008063316345214844 0.001085519790649414 0.10118865966796875 -0.060516357421875
17.54875 -0.055267333984375 -0.10430908203125 0.601318359375 3.991943359375 -0.0009404420852661133 0.0014603734016418457 0.08705902099609375 -0.04718017578125
17.5585 -0.058441162109375 -0.08200836181640625 0.89892578125 3.93212890625 0.0006506443023681641 0.0003719329833984375 0.06658935546875 -0.0389556884765625
17.56825 -0.0671539306640625 -0.05873870849609375 1.190185546875 3.859375 -0.0014516711235046387 1.8894672393798828e-05 0.0442352294921875 -0.0380096435546875
17.578 -0.07875823974609375 -0.037822723388671875 1.4765625 3.767578125 -0.0017551779747009277 0.0005573034286499023 0.022121429443359375 -0.04265785217285156
17.58775 -0.0946044921875 -0.022953033447265625 1.759521484375 3.660400390625 -0.0006530582904815674 0.00030475854873657227 0.001346588134765625 -0.05444526672363281
17.5975 -0.11321258544921875 -0.007232666015625 2.04150390625 3.52880859375 -0.0012754201889038086 0.0010414719581604004 -0.01573944091796875 -0.0703582763671875
17.60725 -0.13446807861328125 -0.00135040283203125 2.325927734375 3.37646484375 0.0009841322898864746 0.0007149577140808105 -0.027469635009765625 -0.09012985229492188
17.617 -0.151275634765625 0.0026092529296875 2.58984375 3.1923828125 0.00013583898544311523 0.0008123517036437988 -0.0323028564453125 -0.1087799072265625
17.62675 -0.16770172119140625 0.00218963623046875 2.843994140625 2.9912109375 -0.0012287497520446777 0.0009810924530029297 -0.03337860107421875 -0.13037872314453125
17.6365 -0.1790924072265625 -0.0018463134765625 3.073974609375 2.760986328125 -0.0011174678802490234 0.0020564794540405273 -0.0276947021484375 -0.146392822265625
17.64625 -0.18247222900390625 -0.00506591796875 3.283935546875 2.51416015625 0.00020077824592590332 0.00019666552543640137 -0.015228271484375 -0.15784454345703125
17.656 -0.1796722412109375 -0.0106964111328125 3.4580078125 2.25 2.092123031616211e-05 -0.00013888627290725708 -1.52587890625e-05 -0.16292572021484375
17.66575 -0.172607421875 -0.014190673828125 3.6201171875 1.982666015625 -0.0009113550186157227 0.0007369518280029297 0.01677703857421875 -0.160675048828125
17.6755 -0.15921783447265625 -0.01323699951171875 3.7626953125 1.71728515625 -0.0004711747169494629 0.00165480375289917 0.03232574462890625 -0.15277862548828125
17.68525 -0.14408111572265625 -0.0106353759765625 3.902587890625 1.44091796875 -0.0005884170532226562 0.00033417344093322754 0.0422515869140625 -0.13568115234375
17.695 -0.12652587890625 -0.00107574462890625 4.0234375 1.138671875 -0.0010826587677001953 0.0008527636528015137 0.0479736328125 -0.11898040771484375
17.70475 -0.1108856201171875 0.012409210205078125 4.12841796875 0.810791015625 -0.0005832910537719727 0.00021329522132873535 0.048107147216796875 -0.09779739379882812
17.7145 -0.09738540649414062 0.03121185302734375 4.190673828125 0.45166015625 -0.0007248520851135254 0.0005694925785064697 0.041492462158203125 -0.07780075073242188
17.72425 -0.08827590942382812 0.05542755126953125 4.209228515625 0.088134765625 -0.0010014176368713379 0.00041538476943969727 0.029085159301757812 -0.05784797668457031
17.734 -0.08146286010742188 0.08127212524414062 4.17431640625 -0.263427734375 -0.000782310962677002 0.0016523003578186035 0.009374618530273438 -0.04220008850097656
17.74375 -0.0805816650390625 0.1050262451171875 4.111572265625 -0.58642578125 -0.0009150505065917969 0.0013818144798278809 -0.011167526245117188 -0.032806396484375
17.7535 -0.08460235595703125 0.1251373291015625 4.0224609375 -0.884521484375 9.453296661376953e-05 -0.0014349818229675293 -0.03304100036621094 -0.02831268310546875
17.76325 -0.09105682373046875 0.1419677734375 3.9371337890625 -1.1622314453125 0.0014405250549316406 0.0012682676315307617 -0.052703857421875 -0.03311920166015625
17.773 -0.10321807861328125 0.153228759765625 3.8447265625 -1.4263916015625 0.0021898746490478516 0.0019674301147460938 -0.07171630859375 -0.040996551513671875
17.78275 -0.11518096923828125 0.15955352783203125 3.759033203125 -1.7005615234375 -0.0015914440155029297 -0.00040793418884277344 -0.08550262451171875 -0.05229949951171875
17.7925 -0.1265869140625 0.158203125 3.652587890625 -1.98828125 0.000657886266708374 -4.988908767700195e-05 -0.093597412109375 -0.06792449951171875
17.80225 -0.13459014892578125 0.152252197265625 3.527099609375 -2.2900390625 -0.0003860592842102051 0.00102919340133667 -0.0935211181640625 -0.08251190185546875
17.812 -0.13860321044921875 0.14125823974609375 3.3544921875 -2.5953369140625 -0.00021916627883911133 0.001166224479675293 -0.08950042724609375 -0.09593963623046875
17.82175 -0.133819580078125 0.130279541015625 3.1300048828125 -2.888671875 1.5467405319213867e-05 0.0008093416690826416 -0.0803070068359375 -0.1038665771484375
17.8315 -0.1243133544921875 0.11594390869140625 2.85693359375 -3.132080078125 -0.0012242794036865234 0.001957416534423828 -0.0674285888671875 -0.1100006103515625
17.84125 -0.10639190673828125 0.10137939453125 2.584228515625 -3.3355712890625 0.0006672143936157227 0.0004703998565673828 -0.0507965087890625 -0.10570526123046875
17.851 -0.08488082885742188 0.09108734130859375 2.30322265625 -3.4876708984375 -4.351139068603516e-06 0.0010191798210144043 -0.03702545166015625 -0.09760284423828125
17.86075 -0.057781219482421875 0.08703231811523438 2.0460205078125 -3.6322021484375 0.0013200044631958008 0.0011522769927978516 -0.022663116455078125 -0.08194732666015625
17.8705 -0.028324127197265625 0.08871078491210938 1.78955078125 -3.766357421875 -0.0002873241901397705 0.0007240474224090576 -0.014904022216796875 -0.06254959106445312
17.88025 -0.00319671630859375 0.09409332275390625 1.52587890625 -3.9019775390625 -0.0009477734565734863 0.0016655325889587402 -0.011402130126953125 -0.04174041748046875
17.89 0.0225677490234375 0.107421875 1.238525390625 -4.026123046875 0.00120621919631958 0.00044733285903930664 -0.013681411743164062 -0.019144058227539062
17.89975 0.047607421875 0.1264190673828125 0.92919921875 -4.146240234375 0.0016147494316101074 7.402896881103516e-05 -0.02306652069091797 -0.0016040802001953125
17.9095 0.061279296875 0.1466827392578125 0.59033203125 -4.223388671875 -0.000782310962677002 -0.0005210638046264648 -0.03770637512207031 0.016134262084960938
17.91925 0.0707244873046875 0.168212890625 0.23828125 -4.2744140625 -0.0004680156707763672 0.000934302806854248 -0.055263519287109375 0.024623870849609375
17.929 0.075775146484375 0.18768310546875 -0.1171875 -4.2744140625 0.0004695802927017212 -0.0004817396402359009 -0.07282257080078125 0.032321929931640625
17.93875 0.0701141357421875 0.204376220703125 -0.462646484375 -4.239990234375 -0.00042313337326049805 0.0001417398452758789 -0.09191131591796875 0.03054046630859375
17.9485 0.063812255859375 0.2115325927734375 -0.791748046875 -4.166259765625 0.0017002224922180176 0.00011467933654785156 -0.10790252685546875 0.02413177490234375
17.95825 0.0508880615234375 0.2171173095703125 -1.095458984375 -4.084228515625 0.000635981559753418 -0.001513361930847168 -0.1170196533203125 0.01375579833984375
17.968 0.0367279052734375 0.2108612060546875 -1.387939453125 -3.986083984375 -0.0001443028450012207 0.001237034797668457 -0.12078094482421875 -0.0027008056640625
17.97775 0.02649688720703125 0.200347900390625 -1.68408203125 -3.8955078125 0.0002905726432800293 0.0006915926933288574 -0.11859893798828125 -0.01812744140625
17.9875 0.01795196533203125 0.18133544921875 -1.982421875 -3.7705078125 0.0007339715957641602 0.0008289217948913574 -0.11042022705078125 -0.03192138671875
17.99725 0.01587677001953125 0.1579132080078125 -2.285888671875 -3.627685546875 -5.9157609939575195e-05 -0.0006521940231323242 -0.0944061279296875 -0.043914794921875
18.007 0.02114105224609375 0.13176727294921875 -2.576171875 -3.43408203125 0.0006280243396759033 -0.0001818537712097168 -0.0774383544921875 -0.04842376708984375
18.01675 0.033477783203125 0.1056671142578125 -2.852294921875 -3.227294921875 0.0024225711822509766 -0.0004031658172607422 -0.054912567138671875 -0.047607421875
18.0265 0.0496978759765625 0.0818939208984375 -3.09423828125 -2.98193359375 -0.000342637300491333 -5.099177360534668e-05 -0.0337982177734375 -0.040679931640625
18.03625 0.07337188720703125 0.06037139892578125 -3.3212890625 -2.7373046875 0.0008146166801452637 0.0002714991569519043 -0.015985488891601562 -0.027551651000976562
18.046 0.09996795654296875 0.0472564697265625 -3.505859375 -2.457763671875 0.0005125701427459717 0.00025898218154907227 -0.0013689994812011719 -0.007541179656982422
18.05575 0.1280670166015625 0.0396728515625 -3.68115234375 -2.19091796875 0.0008567869663238525 -0.0002586245536804199 0.006018638610839844 0.012867927551269531
18.0655 0.1535491943359375 0.0409698486328125 -3.820068359375 -1.9052734375 0.00035440921783447266 -0.0011544227600097656 0.00878143310546875 0.035938262939453125
18.07525 0.1768951416015625 0.04744720458984375 -3.95849609375 -1.62158203125 -0.0005190372467041016 0.000345379114151001 0.0047760009765625 0.058498382568359375
18.085 0.192535400390625 0.0599212646484375 -4.0791015625 -1.32568359375 0.0004456043243408203 0.00031873583793640137 -0.00475311279296875 0.07596969604492188
18.09475 0.204864501953125 0.0732879638671875 -4.2021484375 -1.0107421875 8.305907249450684e-05 0.000529944896697998 -0.020679473876953125 0.08989715576171875
18.1045 0.206024169921875 0.087982177734375 -4.282958984375 -0.66650390625 -0.000918954610824585 4.5865774154663086e-05 -0.038700103759765625 0.09805679321289062
18.11425 0.201202392578125 0.102386474609375 -4.33984375 -0.310546875 0.0015643835067749023 0.00012433528900146484 -0.05771636962890625 0.0970611572265625
18.124 0.188720703125 0.1083984375 -4.336181640625 0.046875 0.0006337463855743408 9.372830390930176e-05 -0.07269287109375 0.08992385864257812
18.13375 0.1685943603515625 0.109283447265625 -4.30615234375 0.3935546875 -0.0007987618446350098 5.587935447692871e-05 -0.08463287353515625 0.07701873779296875
18.1435 0.147705078125 0.1039581298828125 -4.2470703125 0.72119140625 -0.0002461075782775879 -0.0010952949523925781 -0.09018325805664062 0.058380126953125
18.15325 0.12551116943359375 0.09084320068359375 -4.1845703125 1.042236328125 0.0013968944549560547 -0.00032526254653930664 -0.0901947021484375 0.040721893310546875
18.163 0.1063385009765625 0.070526123046875 -4.091796875 1.363525390625 0.0010492801666259766 -0.0010489821434020996 -0.0802764892578125 0.018787384033203125
18.17275 0.09128570556640625 0.04320526123046875 -3.99169921875 1.679931640625 0.00031626224517822266 -6.841123104095459e-05 -0.06646728515625 0.0029144287109375
18.1825 0.08245468139648438 0.01177215576171875 -3.849609375 1.9954833984375 0.0004774332046508789 -0.0007759928703308105 -0.045429229736328125 -0.00914764404296875
18.19225 0.08042144775390625 -0.02043914794921875 -3.6796875 2.302734375 0.0005686283111572266 -0.0003266334533691406 -0.0227508544921875 -0.015110015869140625
18.202 0.08547210693359375 -0.052051544189453125 -3.4697265625 2.5858154296875 0.001213669776916504 -0.0014751553535461426 0.0006580352783203125 -0.015654563903808594
18.21175 0.09726715087890625 -0.08267593383789062 -3.2403564453125 2.84716796875 0.00045152008533477783 -0.00046509504318237305 0.025238990783691406 -0.0069675445556640625
18.2215 0.1141510009765625 -0.10433197021484375 -2.9930419921875 3.0694580078125 0.0013950467109680176 -0.0008758902549743652 0.045230865478515625 0.007320404052734375
18.23125 0.133819580078125 -0.11714935302734375 -2.746337890625 3.266357421875 0.00023865699768066406 -0.0013371706008911133 0.060581207275390625 0.02547454833984375
18.241 0.15676116943359375 -0.12337493896484375 -2.4989013671875 3.43896484375 0.00012695789337158203 -0.001117408275604248 0.06940460205078125 0.045986175537109375
18.25075 0.17786407470703125 -0.121429443359375 -2.25146484375 3.6121826171875 0.0012665390968322754 -0.0010256171226501465 0.06960296630859375 0.06826019287109375
18.2605 0.1941375732421875 -0.11154937744140625 -1.9906005859375 3.7755126953125 -0.0003108382225036621 -0.0014379620552062988 0.06097412109375 0.0877227783203125
18.27025 0.20345306396484375 -0.0973358154296875 -1.703369140625 3.94091796875 0.0002808570861816406 -0.0013507604598999023 0.0492706298828125 0.10125732421875
18.28 0.20439910888671875 -0.0803375244140625 -1.386962890625 4.08056640625 0.0007917284965515137 -2.6285648345947266e-05 0.0309295654296875 0.10912322998046875
18.28975 0.1973419189453125 -0.0626983642578125 -1.04736328125 4.188232421875 0.000674903392791748 -0.0007760822772979736 0.01141357421875 0.1099700927734375
18.2995 0.180511474609375 -0.04583740234375 -0.69677734375 4.2509765625 0.0008996129035949707 4.738569259643555e-05 -0.00490570068359375 0.10296630859375
18.30925 0.155364990234375 -0.0349578857421875 -0.3603515625 4.271484375 0.0007082223892211914 0.0004444122314453125 -0.02352142333984375 0.08997344970703125
18.319 0.12738037109375 -0.0285491943359375 -0.03955078125 4.2666015625 0.0006862878799438477 0.001106858253479004 -0.03269195556640625 0.06958770751953125
18.32875 0.09711456298828125 -0.030300140380859375 0.272216796875 4.24365234375 0.00013840198516845703 0.0005703568458557129 -0.03779792785644531 0.045742034912109375
18.3385 0.0672607421875 -0.041259765625 0.575439453125 4.214111328125 0.0006061792373657227 -0.0015870928764343262 -0.03583717346191406 0.020488739013671875
18.34825 0.04112052917480469 -0.05775260925292969 0.88037109375 4.170166015625 0.0004923343658447266 0.0012646913528442383 -0.02444934844970703 -0.0026988983154296875
18.358 0.018970489501953125 -0.08338165283203125 1.18896484375 4.115966796875 -4.544854164123535e-05 0.000578463077545166 -0.006459236145019531 -0.022645950317382812
18.36775 0.00284576416015625 -0.11197662353515625 1.50732421875 4.04150390625 0.0005185604095458984 0.0013930201530456543 0.014810562133789062 -0.037281036376953125
18.3775 -0.0047454833984375 -0.1416473388671875 1.83837890625 3.9326171875 0.00139617919921875 1.6570091247558594e-05 0.03893280029296875 -0.04332733154296875
18.38725 -0.005157470703125 -0.16880035400390625 2.170654296875 3.7783203125 0.00013281404972076416 0.0002938210964202881 0.064666748046875 -0.04412841796875
18.397 0.0007781982421875 -0.190826416015625 2.478271484375 3.579345703125 0.0009726881980895996 -0.0011664032936096191 0.08593368530273438 -0.0360107421875
18.40675 0.01251983642578125 -0.2063446044921875 2.751220703125 3.34033203125 -0.0005377829074859619 -0.000324934720993042 0.10348129272460938 -0.023761749267578125
18.4165 0.0268707275390625 -0.2110595703125 2.988037109375 3.09765625 -0.0002709925174713135 -0.0003387331962585449 0.1162567138671875 -0.005859375
18.42625 0.04547119140625 -0.21152496337890625 3.188232421875 2.843017578125 0.001139819622039795 -0.00015544891357421875 0.1171722412109375 0.01317596435546875
18.436 0.06002044677734375 -0.19956207275390625 3.378662109375 2.59326171875 -0.00038439035415649414 -0.0012596845626831055 0.11347198486328125 0.0322418212890625
18.44575 0.070159912109375 -0.18140411376953125 3.546142578125 2.333740234375 0.0004786849021911621 -0.0015577077865600586 0.10064697265625 0.04906463623046875
18.4555 0.0742950439453125 -0.16063690185546875 3.710205078125 2.072998046875 0.0008442401885986328 0.0004978775978088379 0.08425140380859375 0.05796051025390625
18.46525 0.07035064697265625 -0.13410186767578125 3.863525390625 1.796630859375 8.452683687210083e-05 9.738653898239136e-05 0.0632476806640625 0.0605621337890625
18.475 0.0576629638671875 -0.10873794555664062 3.998779296875 1.5068359375 -9.238719940185547e-07 0.0009388923645019531 0.040599822998046875 0.05558013916015625
18.48475 0.03530120849609375 -0.08685684204101562 4.1142578125 1.193115234375 0.0002760887145996094 -0.0013695955276489258 0.018856048583984375 0.046142578125
18.4945 0.00850677490234375 -0.068389892578125 4.21728515625 0.86376953125 0.0009349584579467773 -0.001053452491760254 0.002803802490234375 0.028491973876953125
18.50425 -0.02227783203125 -0.055568695068359375 4.26708984375 0.51123046875 -0.00011512637138366699 0.0007585883140563965 -0.009885787963867188 0.003211498260498047
18.514 -0.054409027099609375 -0.052486419677734375 4.287109375 0.164306640625 0.0005194544792175293 0.0007271170616149902 -0.01465606689453125 -0.021165847778320312
18.52375 -0.08438873291015625 -0.05652618408203125 4.258056640625 -0.17236328125 0.0005083978176116943 -0.0003026723861694336 -0.012968063354492188 -0.047542572021484375
18.5335 -0.110809326171875 -0.06636810302734375 4.217041015625 -0.4853515625 0.0007358193397521973 0.0002402663230895996 -0.00238037109375 -0.0700531005859375
18.54325 -0.1310577392578125 -0.0855865478515625 4.15380859375 -0.783935546875 0.0007736086845397949 0.000634610652923584 0.01331329345703125 -0.08904647827148438
18.553 -0.143463134765625 -0.1063079833984375 4.101318359375 -1.08251953125 0.0007834434509277344 0.000253140926361084 0.03304290771484375 -0.1003875732421875
18.56275 -0.1468658447265625 -0.1277008056640625 4.020751953125 -1.386474609375 0.00019669532775878906 -0.0011956095695495605 0.057247161865234375 -0.10541915893554688
18.5725 -0.1430206298828125 -0.147186279296875 3.927734375 -1.7042236328125 0.0010756254196166992 -0.0010820627212524414 0.07677841186523438 -0.10022354125976562
18.58225 -0.13311767578125 -0.1633148193359375 3.7890625 -2.01806640625 0.00047639012336730957 -0.00070953369140625 0.09333419799804688 -0.09067153930664062
18.592 -0.11639404296875 -0.171600341796875 3.620849609375 -2.320068359375 -0.0002897977828979492 -0.0005023479461669922 0.1049346923828125 -0.073394775390625
18.60175 -0.094329833984375 -0.17095947265625 3.41650390625 -2.60107421875 -0.0008136630058288574 -0.0008079409599304199 0.10897445678710938 -0.05268096923828125
18.6115 -0.074127197265625 -0.16133880615234375 3.1943359375 -2.86572265625 0.0009180605411529541 -9.649991989135742e-05 0.10504913330078125 -0.031169891357421875
18.62125 -0.05413818359375 -0.1445465087890625 2.9412841796875 -3.0908203125 -8.863210678100586e-05 -0.0010219216346740723 0.093994140625 -0.011463165283203125
18.631 -0.0404052734375 -0.12027740478515625 2.6851806640625 -3.2960205078125 0.0006825923919677734 -5.4836273193359375e-06 0.07563018798828125 0.00444793701171875
18.64075 -0.033203125 -0.09029006958007812 2.4193115234375 -3.470458984375 0.0006735026836395264 -0.00017976760864257812 0.052906036376953125 0.011966705322265625
18.6505 -0.034725189208984375 -0.06151580810546875 2.157470703125 -3.6376953125 0.00028908252716064453 -0.001154482364654541 0.028245925903320312 0.016080856323242188
18.66025 -0.0432891845703125 -0.031841278076171875 1.8779296875 -3.7889404296875 -0.0002209991216659546 0.00042426586151123047 0.0032129287719726562 0.011316776275634766
18.67 -0.058261871337890625 -0.003765106201171875 1.585205078125 -3.9356689453125 0.0009303689002990723 -0.0008058547973632812 -0.02089214324951172 -0.0027265548706054688
18.67975 -0.0801849365234375 0.015605926513671875 1.263671875 -4.05126953125 1.9073486328125e-05 -0.0007332265377044678 -0.03934669494628906 -0.020437240600585938
18.6895 -0.10454559326171875 0.029834747314453125 0.930419921875 -4.14013671875 -0.00016647577285766602 -0.0009911656379699707 -0.050083160400390625 -0.04355621337890625
