!Created with skrf (http://scikit-rf.org).
# GHz S RI R 50.0 
!freq ReS11 ImS11 ReS21 ImS21 ReS12 ImS12 ReS22 ImS22
17.5 -0.0592193603515625 -0.16260528564453125 -1.252685546875 4.0751953125 -0.00047451257705688477 0.0009209811687469482 0.08972930908203125 -0.1234283447265625
17.50975 -0.05120849609375 -0.165985107421875 -0.9365234375 4.158935546875 -0.0002982616424560547 0.0016477704048156738 0.09961318969726562 -0.10929107666015625
17.5195 -0.04273223876953125 -0.1607208251953125 -0.608642578125 4.228515625 -0.00043272972106933594 0.002444148063659668 0.103851318359375 -0.09242630004882812
17.52925 -0.036041259765625 -0.150115966796875 -0.27099609375 4.26318359375 -0.0003821849822998047 0.0028045177459716797 0.099517822265625 -0.07529449462890625
17.539 -0.0308074951171875 -0.13385009765625 0.07275390625 4.26953125 -0.0006439089775085449 0.000710606575012207 0.09085845947265625 -0.0563201904296875
17.54875 -0.028472900390625 -0.11615753173828125 0.413818359375 4.236328125 -0.00032269954681396484 0.001338183879852295 0.0751190185546875 -0.0440521240234375
17.5585 -0.03310394287109375 -0.09441375732421875 0.74267578125 4.18408203125 -0.0011401772499084473 0.0016394853591918945 0.05700492858886719 -0.03346061706542969
17.56825 -0.041301727294921875 -0.07317352294921875 1.057861328125 4.095703125 0.0002918243408203125 0.0014336109161376953 0.03431129455566406 -0.03264045715332031
17.578 -0.05303192138671875 -0.0547332763671875 1.364990234375 4.0029296875 -0.0006055235862731934 0.0011952519416809082 0.012964248657226562 -0.035640716552734375
17.58775 -0.06877517700195312 -0.040130615234375 1.6640625 3.881591796875 0.00019960105419158936 0.00015014410018920898 -0.008543014526367188 -0.04644775390625
17.5975 -0.088623046875 -0.028411865234375 1.958251953125 3.7529296875 -0.00039549171924591064 -7.316470146179199e-05 -0.0239410400390625 -0.061767578125
17.60725 -0.10803985595703125 -0.02318572998046875 2.24560546875 3.58740234375 0.00017884373664855957 0.0004082620143890381 -0.03458404541015625 -0.08018875122070312
17.617 -0.1284332275390625 -0.023345947265625 2.52001953125 3.40673828125 -0.00020766258239746094 0.000498652458190918 -0.03912353515625 -0.1003570556640625
17.62675 -0.14440155029296875 -0.02460479736328125 2.780517578125 3.1953125 0.0013567209243774414 0.0018875598907470703 -0.03603363037109375 -0.11960601806640625
17.6365 -0.15659332275390625 -0.03050994873046875 3.027587890625 2.967529296875 -0.0012044906616210938 0.0005248785018920898 -0.0286407470703125 -0.1360015869140625
17.64625 -0.1635589599609375 -0.03614044189453125 3.24365234375 2.708740234375 -0.0006794333457946777 0.0011274218559265137 -0.0179290771484375 -0.14643096923828125
17.656 -0.1653594970703125 -0.042022705078125 3.44140625 2.442138671875 0.00048023462295532227 0.0011331439018249512 -0.0010986328125 -0.15123748779296875
17.66575 -0.15714263916015625 -0.046539306640625 3.602294921875 2.158447265625 -8.755922317504883e-05 0.0006160140037536621 0.01558685302734375 -0.15013885498046875
17.6755 -0.1457366943359375 -0.0487060546875 3.743896484375 1.883544921875 -0.0002472400665283203 -0.0014803409576416016 0.031280517578125 -0.14072418212890625
17.68525 -0.13202667236328125 -0.0460205078125 3.872802734375 1.59765625 -0.0005557537078857422 0.002275705337524414 0.0447540283203125 -0.1255340576171875
17.695 -0.117645263671875 -0.0397796630859375 3.9931640625 1.30078125 0.0005632638931274414 0.001547694206237793 0.049945831298828125 -0.10943984985351562
17.70475 -0.10370635986328125 -0.0267333984375 4.087646484375 0.98291015625 0.0006059408187866211 0.001515030860900879 0.051082611083984375 -0.08958053588867188
17.7145 -0.09112167358398438 -0.007366180419921875 4.158935546875 0.63916015625 0.001146554946899414 0.0008023977279663086 0.044200897216796875 -0.06845855712890625
17.72425 -0.08461380004882812 0.0140533447265625 4.1787109375 0.2861328125 -1.8030405044555664e-05 0.0008963942527770996 0.035186767578125 -0.04958343505859375
17.734 -0.08263397216796875 0.03742218017578125 4.16357421875 -0.056640625 -0.000279843807220459 -0.00020679831504821777 0.015483856201171875 -0.034259796142578125
17.74375 -0.08324050903320312 0.061374664306640625 4.098388671875 -0.38134765625 0.0008296966552734375 0.0009894967079162598 -0.005368232727050781 -0.025689125061035156
17.7535 -0.08951950073242188 0.08456802368164062 4.02490234375 -0.682861328125 0.00040078163146972656 0.0007618069648742676 -0.024784088134765625 -0.022504806518554688
17.76325 -0.10235214233398438 0.10091781616210938 3.9354248046875 -0.9625244140625 0.00127488374710083 -0.0005673766136169434 -0.045654296875 -0.026485443115234375
17.773 -0.1159515380859375 0.11373138427734375 3.8443603515625 -1.2255859375 0.0009511709213256836 -0.0008233189582824707 -0.06362533569335938 -0.0352325439453125
17.78275 -0.13043975830078125 0.1199798583984375 3.750732421875 -1.4862060546875 0.001532435417175293 -0.0010203123092651367 -0.076202392578125 -0.04752349853515625
17.7925 -0.14385223388671875 0.1180419921875 3.649658203125 -1.7547607421875 0.0014072060585021973 -0.00027954578399658203 -0.08484649658203125 -0.06354522705078125
17.80225 -0.15593719482421875 0.11168670654296875 3.5303955078125 -2.030029296875 0.0010012388229370117 -0.0001996159553527832 -0.08510589599609375 -0.07910919189453125
17.812 -0.16121673583984375 0.102020263671875 3.385009765625 -2.3177490234375 0.0004876554012298584 -9.971857070922852e-05 -0.079742431640625 -0.093505859375
17.82175 -0.162200927734375 0.09067535400390625 3.1904296875 -2.59375 0.0009098649024963379 0.0007625222206115723 -0.0714111328125 -0.10227203369140625
17.8315 -0.1554718017578125 0.080474853515625 2.952880859375 -2.84228515625 -0.0006192922592163086 9.447336196899414e-05 -0.05682373046875 -0.1078643798828125
17.84125 -0.14121246337890625 0.06961822509765625 2.6981201171875 -3.044677734375 0.0014952421188354492 7.075071334838867e-05 -0.040771484375 -0.1045379638671875
17.851 -0.12031173706054688 0.059848785400390625 2.437255859375 -3.205322265625 0.00035309791564941406 -0.0005129575729370117 -0.02596282958984375 -0.098876953125
17.86075 -0.09777450561523438 0.0573883056640625 2.19384765625 -3.34228515625 0.0020580291748046875 0.0001653432846069336 -0.014354705810546875 -0.08502578735351562
17.8705 -0.07020950317382812 0.0578155517578125 1.954345703125 -3.4658203125 0.0022476911544799805 -0.0005241632461547852 -0.00583648681640625 -0.06678390502929688
17.88025 -0.046588897705078125 0.0703887939453125 1.7186279296875 -3.5955810546875 0.0013494491577148438 8.33272933959961e-05 -0.003696441650390625 -0.044849395751953125
17.89 -0.02165985107421875 0.0854339599609375 1.468017578125 -3.719970703125 0.0009720325469970703 -0.00010019540786743164 -0.0060062408447265625 -0.026195526123046875
17.89975 -0.003108978271484375 0.10573959350585938 1.197998046875 -3.84033203125 0.0006618499755859375 0.0003476738929748535 -0.016162872314453125 -0.006717681884765625
17.9095 0.01111602783203125 0.13098907470703125 0.898681640625 -3.9356689453125 0.000662386417388916 -0.0011411309242248535 -0.030236244201660156 0.010088920593261719
17.91925 0.0164031982421875 0.1556549072265625 0.58447265625 -4.006591796875 0.0005585551261901855 -9.512901306152344e-05 -0.048671722412109375 0.02072906494140625
17.929 0.01981353759765625 0.1789093017578125 0.259765625 -4.03173828125 -0.00045436620712280273 -0.0011851787567138672 -0.06563949584960938 0.025463104248046875
17.93875 0.0148162841796875 0.19916534423828125 -0.058837890625 -4.02880859375 0.0005078315734863281 -0.001184225082397461 -0.08641433715820312 0.02408599853515625
17.9485 0.0027313232421875 0.21372222900390625 -0.366455078125 -3.987060546875 0.0015311241149902344 -0.0003222823143005371 -0.10125350952148438 0.01682281494140625
17.95825 -0.006317138671875 0.21990966796875 -0.65283203125 -3.93115234375 0.001650393009185791 -0.0014467835426330566 -0.11212158203125 0.006793975830078125
17.968 -0.02068328857421875 0.21971893310546875 -0.92138671875 -3.86181640625 0.0002613961696624756 -0.0007146000862121582 -0.1171112060546875 -0.00963592529296875
17.97775 -0.031951904296875 0.2117919921875 -1.184814453125 -3.797119140625 0.0009380578994750977 0.0007509589195251465 -0.114990234375 -0.024749755859375
17.9875 -0.03960418701171875 0.199432373046875 -1.452392578125 -3.713623046875 -0.00010824203491210938 -0.00122147798538208 -0.107391357421875 -0.03836822509765625
17.99725 -0.04125213623046875 0.1783294677734375 -1.730224609375 -3.618408203125 -0.0002605319023132324 -0.0014473199844360352 -0.0926513671875 -0.04938507080078125
18.007 -0.03701019287109375 0.1580047607421875 -2.004150390625 -3.484619140625 8.207559585571289e-05 0.0005570352077484131 -0.074676513671875 -0.05602264404296875
18.01675 -0.02257537841796875 0.135223388671875 -2.270263671875 -3.33349609375 0.00021763145923614502 0.00011838972568511963 -0.055271148681640625 -0.057521820068359375
18.0265 -0.0037689208984375 0.11507034301757812 -2.5185546875 -3.14453125 -0.00011038780212402344 -0.00048020482063293457 -0.032917022705078125 -0.049030303955078125
18.03625 0.02074432373046875 0.10077667236328125 -2.748046875 -2.95068359375 -6.556510925292969e-07 0.0008173584938049316 -0.01715850830078125 -0.03656005859375
18.046 0.050628662109375 0.090087890625 -2.94970703125 -2.72705078125 0.00048679113388061523 0.0001766979694366455 -0.0020923614501953125 -0.017540931701660156
18.05575 0.0810394287109375 0.0862884521484375 -3.137939453125 -2.505859375 -0.0004470944404602051 -0.0006736516952514648 0.005027294158935547 0.0053844451904296875
18.0655 0.10933685302734375 0.08922576904296875 -3.299560546875 -2.2705078125 0.0007828176021575928 5.2034854888916016e-05 0.0066814422607421875 0.02886199951171875
18.07525 0.1361541748046875 0.09975433349609375 -3.460693359375 -2.039306640625 0.00028526782989501953 0.0007993578910827637 0.0018558502197265625 0.05028724670410156
18.085 0.1557464599609375 0.1164703369140625 -3.60498046875 -1.798583984375 0.0007145702838897705 -0.0008677244186401367 -0.00934600830078125 0.06946563720703125
18.09475 0.1686248779296875 0.13299560546875 -3.75830078125 -1.54296875 -0.0009562969207763672 0.0009645223617553711 -0.025501251220703125 0.08440780639648438
18.1045 0.1755523681640625 0.1514739990234375 -3.88525390625 -1.252685546875 -0.0007333159446716309 -0.0010082721710205078 -0.04219818115234375 0.0894012451171875
18.11425 0.175262451171875 0.167694091796875 -3.9990234375 -0.94580078125 0.00023651123046875 -0.0009157657623291016 -0.06186676025390625 0.08950042724609375
18.124 0.165313720703125 0.17706298828125 -4.06005859375 -0.61962890625 -4.887580871582031e-06 0.0005883574485778809 -0.07762908935546875 0.0814971923828125
18.13375 0.1521453857421875 0.180023193359375 -4.09619140625 -0.299560546875 -0.00019997358322143555 -0.0012274384498596191 -0.090911865234375 0.06986236572265625
18.1435 0.1355438232421875 0.1768035888671875 -4.094482421875 0.009033203125 0.0004354119300842285 0.0001747608184814453 -0.09726715087890625 0.05504608154296875
18.15325 0.1190948486328125 0.1638641357421875 -4.0859375 0.307861328125 0.0009430050849914551 -0.000156402587890625 -0.09605026245117188 0.035289764404296875
18.163 0.1048736572265625 0.145172119140625 -4.055908203125 0.606689453125 -0.00047641992568969727 -0.0011788010597229004 -0.08922195434570312 0.015933990478515625
18.17275 0.095428466796875 0.1176300048828125 -4.0234375 0.90625 0.0008364319801330566 -8.07344913482666e-05 -0.0731353759765625 -0.001983642578125
18.1825 0.09021759033203125 0.086334228515625 -3.9595947265625 1.21728515625 -0.0006250143051147461 -0.0011328458786010742 -0.052860260009765625 -0.0122222900390625
18.19225 0.09499359130859375 0.0526885986328125 -3.8751220703125 1.5335693359375 -0.0012509822845458984 -0.0010957717895507812 -0.030603408813476562 -0.018299102783203125
18.202 0.10250091552734375 0.02114105224609375 -3.741943359375 1.840576171875 0.000607609748840332 -0.0011075735092163086 -0.004718780517578125 -0.015649795532226562
18.21175 0.11991500854492188 -0.00992584228515625 -3.5859375 2.136474609375 3.254413604736328e-05 -0.0010584592819213867 0.017726898193359375 -0.006171226501464844
18.2215 0.14240264892578125 -0.03411865234375 -3.3951416015625 2.4017333984375 -0.00022673606872558594 0.0011484026908874512 0.037868499755859375 0.006259918212890625
18.23125 0.1657867431640625 -0.05147552490234375 -3.194580078125 2.642822265625 -0.0009062290191650391 -0.001295924186706543 0.052825927734375 0.026271820068359375
18.241 0.19193267822265625 -0.05792999267578125 -2.986572265625 2.8497314453125 -0.00035583972930908203 0.0015106201171875 0.060909271240234375 0.0455322265625
18.25075 0.21501922607421875 -0.0594329833984375 -2.7813720703125 3.0518798828125 -0.0004277825355529785 -0.0006113648414611816 0.0605316162109375 0.0704193115234375
18.2605 0.23480987548828125 -0.05165863037109375 -2.571044921875 3.248779296875 0.0003008991479873657 0.00013305246829986572 0.05385589599609375 0.08841705322265625
18.27025 0.248992919921875 -0.0384979248046875 -2.35205078125 3.4600830078125 0.0008282959461212158 3.9964914321899414e-05 0.04122161865234375 0.102935791015625
18.28 0.253387451171875 -0.0249176025390625 -2.08642578125 3.6583251953125 6.617605686187744e-05 -0.00020050257444381714 0.0241546630859375 0.1130523681640625
18.28975 0.2493438720703125 -0.0097503662109375 -1.793701171875 3.8427734375 -0.0012874603271484375 -0.00022685527801513672 0.004436492919921875 0.11391067504882812
18.2995 0.23548126220703125 0.003387451171875 -1.465576171875 3.977294921875 2.977624535560608e-05 6.975606083869934e-06 -0.013652801513671875 0.10708999633789062
18.30925 0.2131805419921875 0.010894775390625 -1.142578125 4.07421875 0.00014704465866088867 0.0004112124443054199 -0.0280914306640625 0.0933685302734375
18.319 0.187042236328125 0.013336181640625 -0.82080078125 4.12841796875 -0.0014587640762329102 7.021427154541016e-05 -0.03902435302734375 0.07472991943359375
18.32875 0.1590576171875 0.00704193115234375 -0.5107421875 4.17236328125 -0.00044289231300354004 0.0006569921970367432 -0.042919158935546875 0.05225944519042969
18.3385 0.13179779052734375 -0.00551605224609375 -0.20751953125 4.19287109375 -0.001468658447265625 -0.0006124973297119141 -0.04024696350097656 0.02671051025390625
18.34825 0.10544586181640625 -0.02602386474609375 0.093017578125 4.211181640625 0.0006378591060638428 -0.00027811527252197266 -0.027586936950683594 0.0029058456420898438
18.358 0.0848846435546875 -0.05442047119140625 0.3974609375 4.20654296875 -0.0010946393013000488 7.861852645874023e-05 -0.009705543518066406 -0.014613151550292969
18.36775 0.07149505615234375 -0.08739852905273438 0.7158203125 4.20263671875 1.2427568435668945e-05 0.0008433163166046143 0.012786865234375 -0.029445648193359375
18.3775 0.0647125244140625 -0.11956787109375 1.05126953125 4.15771484375 -0.0001043081283569336 0.0007064938545227051 0.03745269775390625 -0.036724090576171875
18.38725 0.0642547607421875 -0.15045166015625 1.40185546875 4.083984375 -0.000971674919128418 0.0006197094917297363 0.06261444091796875 -0.036518096923828125
18.397 0.07221221923828125 -0.17754364013671875 1.747314453125 3.950927734375 -0.0005626678466796875 -0.00015747547149658203 0.084716796875 -0.02978515625
18.40675 0.08489990234375 -0.19831085205078125 2.067626953125 3.78125 0.0005651116371154785 0.0008713006973266602 0.10200881958007812 -0.01515960693359375
18.4165 0.09865570068359375 -0.206817626953125 2.34375 3.57177734375 -0.001201331615447998 -0.00031363964080810547 0.11464691162109375 0.0010223388671875
18.42625 0.11590576171875 -0.20984649658203125 2.59130859375 3.36474609375 -9.36463475227356e-05 0.00015472620725631714 0.1181488037109375 0.0216064453125
18.436 0.130126953125 -0.20200347900390625 2.810791015625 3.140380859375 0.0003034323453903198 -0.00042134523391723633 0.11507415771484375 0.03936767578125
18.44575 0.1404876708984375 -0.1884002685546875 3.023681640625 2.927978515625 -0.00023145973682403564 0.0002584010362625122 0.1034393310546875 0.054656982421875
18.4555 0.14369964599609375 -0.16851043701171875 3.216796875 2.69677734375 0.0008870959281921387 0.0007382631301879883 0.0858001708984375 0.06356048583984375
18.46525 0.1383514404296875 -0.14687347412109375 3.41259765625 2.468994140625 -0.00020492076873779297 -0.0006212294101715088 0.06499481201171875 0.06797027587890625
18.475 0.124359130859375 -0.1232147216796875 3.592041015625 2.2138671875 -0.00018772482872009277 0.0007221996784210205 0.042667388916015625 0.0631866455078125
18.48475 0.10375213623046875 -0.103515625 3.777099609375 1.948486328125 0.0017609000205993652 9.942054748535156e-05 0.022319793701171875 0.0507659912109375
18.4945 0.07574844360351562 -0.09090042114257812 3.9345703125 1.64990234375 0.0006163716316223145 -0.00017765164375305176 0.00586700439453125 0.03268623352050781
18.50425 0.04327392578125 -0.08170318603515625 4.068359375 1.32421875 -0.0003641843795776367 -0.0008732080459594727 -0.006608009338378906 0.009225845336914062
18.514 0.007381439208984375 -0.08194351196289062 4.15087890625 0.982421875 0.00044590234756469727 0.0008471012115478516 -0.009801864624023438 -0.01817607879638672
18.52375 -0.023681640625 -0.08782577514648438 4.196533203125 0.64794921875 0.0002771615982055664 -0.0005151331424713135 -0.00772857666015625 -0.04316139221191406
18.5335 -0.0522003173828125 -0.10192108154296875 4.20751953125 0.328857421875 -0.0002584904432296753 -2.625584602355957e-05 0.002716064453125 -0.06964874267578125
18.54325 -0.07382965087890625 -0.12256622314453125 4.200439453125 0.028076171875 -0.00016099214553833008 0.0008635520935058594 0.01911163330078125 -0.08675003051757812
18.553 -0.08812713623046875 -0.14528656005859375 4.19140625 -0.264892578125 7.924437522888184e-05 0.00012445449829101562 0.038421630859375 -0.09715652465820312
18.56275 -0.0942840576171875 -0.1697235107421875 4.185791015625 -0.5625 -0.00036807358264923096 0.00020498037338256836 0.06119537353515625 -0.10372543334960938
18.5725 -0.0913543701171875 -0.194000244140625 4.1513671875 -0.876220703125 0.00028648972511291504 -0.00023406744003295898 0.08190155029296875 -0.09955978393554688
18.58225 -0.0824737548828125 -0.2109375 4.093017578125 -1.20263671875 0.0007597208023071289 -0.0005711615085601807 0.09889602661132812 -0.089508056640625
18.592 -0.0689697265625 -0.221954345703125 3.991943359375 -1.5244140625 0.0012042522430419922 -0.00046503543853759766 0.1099853515625 -0.07224273681640625
18.60175 -0.050567626953125 -0.224517822265625 3.860595703125 -1.840087890625 0.0002684593200683594 0.0016012191772460938 0.1141815185546875 -0.0525665283203125
18.6115 -0.03336334228515625 -0.21695709228515625 3.697265625 -2.1407470703125 1.1563301086425781e-05 0.0008481442928314209 0.11054611206054688 -0.03022003173828125
18.62125 -0.017059326171875 -0.202056884765625 3.500732421875 -2.4139404296875 0.00017532706260681152 0.0005208849906921387 0.09981536865234375 -0.01290130615234375
18.631 -0.006317138671875 -0.180267333984375 3.2965087890625 -2.664306640625 0.0014355182647705078 -0.0008409619331359863 0.08078384399414062 0.003749847412109375
18.64075 -0.00335693359375 -0.15345001220703125 3.07568359375 -2.885986328125 0.0007707476615905762 0.0006361603736877441 0.057682037353515625 0.013134002685546875
18.6505 -0.00670623779296875 -0.12419891357421875 2.8583984375 -3.090576171875 0.0005902349948883057 0.00016042590141296387 0.032024383544921875 0.014249801635742188
18.66025 -0.018707275390625 -0.09695816040039062 2.6312255859375 -3.2886962890625 -0.0001251697540283203 0.0005329251289367676 0.0059146881103515625 0.0100250244140625
18.67 -0.037139892578125 -0.0717010498046875 2.3917236328125 -3.48681640625 0.00027091801166534424 0.00018927454948425293 -0.015697479248046875 -0.0029754638671875
18.67975 -0.06341171264648438 -0.052303314208984375 2.11865234375 -3.6710205078125 0.0010280013084411621 -0.00045043230056762695 -0.03389549255371094 -0.0228118896484375
