!Created with skrf (http://scikit-rf.org).
# GHz S RI R 50.0 
!freq ReS11 ImS11 ReS21 ImS21 ReS12 ImS12 ReS22 ImS22
17.5 -0.1142578125 -0.1417083740234375 -1.0682373046875 3.6070556640625 -0.001445174217224121 -0.0008505582809448242 0.10282135009765625 -0.1264801025390625
17.50975 -0.1060791015625 -0.1408538818359375 -0.794677734375 3.6849365234375 0.0007316768169403076 -0.0007168352603912354 0.11240386962890625 -0.11565399169921875
17.5195 -0.09799957275390625 -0.13350677490234375 -0.503662109375 3.749267578125 -0.00011608004570007324 -1.9669532775878906e-05 0.11490631103515625 -0.09867477416992188
17.52925 -0.09039306640625 -0.119598388671875 -0.202880859375 3.77734375 0.0005935430526733398 0.000751495361328125 0.11199188232421875 -0.08237457275390625
17.539 -0.08435821533203125 -0.10037994384765625 0.0950927734375 3.781982421875 -0.0010862350463867188 9.810924530029297e-05 0.10130691528320312 -0.067230224609375
17.54875 -0.08180999755859375 -0.07820892333984375 0.388671875 3.7578125 -0.0015267133712768555 0.0005717277526855469 0.08573150634765625 -0.05361175537109375
17.5585 -0.0829620361328125 -0.054107666015625 0.669677734375 3.716796875 -0.001001596450805664 -0.00048404932022094727 0.06444168090820312 -0.046283721923828125
17.56825 -0.08999252319335938 -0.03124237060546875 0.9423828125 3.655029296875 -0.0005386769771575928 0.0003477931022644043 0.043193817138671875 -0.04431343078613281
17.578 -0.10034942626953125 -0.0106964111328125 1.215576171875 3.58740234375 -0.000789940357208252 -0.000908970832824707 0.019212722778320312 -0.048503875732421875
17.58775 -0.1158599853515625 0.005962371826171875 1.485107421875 3.496826171875 -0.0004666447639465332 0.0006583631038665771 -0.0010051727294921875 -0.06029319763183594
17.5975 -0.13477325439453125 0.0211639404296875 1.7626953125 3.395751953125 -0.001486659049987793 -0.00047516822814941406 -0.019145965576171875 -0.0761871337890625
17.60725 -0.15129852294921875 0.02861785888671875 2.032958984375 3.257568359375 -0.001512765884399414 -0.000971674919128418 -0.0312347412109375 -0.094512939453125
17.617 -0.1705474853515625 0.034881591796875 2.29150390625 3.09814453125 -0.0016949176788330078 -0.00011134147644042969 -0.037872314453125 -0.1155853271484375
17.62675 -0.18350982666015625 0.034912109375 2.530517578125 2.9072265625 -0.0008450150489807129 0.00019419193267822266 -0.03856658935546875 -0.13446044921875
17.6365 -0.19341278076171875 0.03313446044921875 2.760986328125 2.704345703125 -0.0002244710922241211 -0.0007256269454956055 -0.03044891357421875 -0.15100860595703125
17.64625 -0.194671630859375 0.0281982421875 2.956298828125 2.47705078125 -7.30752944946289e-05 -0.0004858970642089844 -0.020050048828125 -0.1617889404296875
17.656 -0.19016265869140625 0.0238189697265625 3.13671875 2.24853515625 -0.0001285076141357422 0.0020009279251098633 -0.00539398193359375 -0.16596221923828125
17.66575 -0.17964935302734375 0.0202178955078125 3.291015625 2.00732421875 0.0013810396194458008 0.001445174217224121 0.010589599609375 -0.16316986083984375
17.6755 -0.16548919677734375 0.0193939208984375 3.439453125 1.77001953125 -0.0005956888198852539 0.000880897045135498 0.023895263671875 -0.1535186767578125
17.68525 -0.14817047119140625 0.02315521240234375 3.578369140625 1.51416015625 3.457069396972656e-05 0.0004717409610748291 0.03610992431640625 -0.13935089111328125
17.695 -0.13065338134765625 0.03223419189453125 3.720458984375 1.240966796875 -0.0006762146949768066 -0.0008424520492553711 0.042171478271484375 -0.12046432495117188
17.70475 -0.11365890502929688 0.046550750732421875 3.829345703125 0.93359375 -0.0008753538131713867 -0.0004086494445800781 0.0422515869140625 -0.09946823120117188
17.7145 -0.09845352172851562 0.0668487548828125 3.91162109375 0.593505859375 0.00010132044553756714 0.00011520832777023315 0.0339813232421875 -0.0789947509765625
17.72425 -0.0871429443359375 0.0894012451171875 3.92919921875 0.2509765625 -0.002158641815185547 -9.131431579589844e-05 0.021541595458984375 -0.0591278076171875
17.734 -0.08131790161132812 0.11400604248046875 3.9091796875 -0.074951171875 -0.001139223575592041 -0.0006589293479919434 0.002704620361328125 -0.04266929626464844
17.74375 -0.07701873779296875 0.1389312744140625 3.8502197265625 -0.375732421875 -0.0011499524116516113 0.0009507536888122559 -0.017980575561523438 -0.03118133544921875
17.7535 -0.0782012939453125 0.158599853515625 3.787109375 -0.649169921875 -0.0012030601501464844 -1.6748905181884766e-05 -0.03997802734375 -0.0291900634765625
17.76325 -0.08507537841796875 0.1750946044921875 3.712890625 -0.9083251953125 -0.00012683868408203125 0.00021992623805999756 -0.060306549072265625 -0.030048370361328125
17.773 -0.0950775146484375 0.18418121337890625 3.6478271484375 -1.1552734375 -0.0008841156959533691 0.001704573631286621 -0.07803726196289062 -0.037811279296875
17.78275 -0.1082916259765625 0.1886444091796875 3.58056640625 -1.4146728515625 0.0010722875595092773 -0.00036847591400146484 -0.09145355224609375 -0.05039215087890625
17.7925 -0.1188812255859375 0.18906402587890625 3.505859375 -1.6932373046875 -0.0007283389568328857 0.0002600252628326416 -0.09819793701171875 -0.0641326904296875
17.80225 -0.12711334228515625 0.182830810546875 3.394775390625 -1.979248046875 0.0017023086547851562 0.002093791961669922 -0.09860992431640625 -0.08098602294921875
17.812 -0.12859344482421875 0.171356201171875 3.2506103515625 -2.2794189453125 -0.0006383657455444336 0.0012642741203308105 -0.09462738037109375 -0.09351348876953125
17.82175 -0.12366485595703125 0.15811920166015625 3.043701171875 -2.559326171875 -0.0003656744956970215 0.001532912254333496 -0.0841827392578125 -0.10164642333984375
17.8315 -0.1103973388671875 0.1440582275390625 2.806640625 -2.802734375 0.00010003149509429932 -0.00014966726303100586 -0.0705413818359375 -0.1028594970703125
17.84125 -0.0942840576171875 0.13059234619140625 2.5506591796875 -2.9925537109375 0.00044351816177368164 0.0008719563484191895 -0.05535888671875 -0.1004791259765625
17.851 -0.07147979736328125 0.11774444580078125 2.309326171875 -3.154296875 0.0003204941749572754 -0.00011608004570007324 -0.04013824462890625 -0.08980560302734375
17.86075 -0.044033050537109375 0.11159515380859375 2.0767822265625 -3.29345703125 -0.0012123584747314453 0.0005576610565185547 -0.026439666748046875 -0.07656478881835938
17.8705 -0.0154266357421875 0.11334991455078125 1.8509521484375 -3.4383544921875 6.3285231590271e-05 -0.00042384862899780273 -0.017856597900390625 -0.057281494140625
17.88025 0.01409149169921875 0.119903564453125 1.6099853515625 -3.575927734375 -0.0005726814270019531 0.00043648481369018555 -0.0155487060546875 -0.035778045654296875
17.89 0.03791046142578125 0.131927490234375 1.350830078125 -3.7158203125 -0.00035481154918670654 0.00014507770538330078 -0.0167999267578125 -0.014850616455078125
17.89975 0.06209564208984375 0.14898681640625 1.05908203125 -3.8370361328125 -0.00023043155670166016 0.0007332265377044678 -0.025171279907226562 0.005059242248535156
17.9095 0.077850341796875 0.1694183349609375 0.74755859375 -3.93359375 -0.0006264448165893555 -0.0006715059280395508 -0.039081573486328125 0.023509979248046875
17.91925 0.087554931640625 0.189788818359375 0.419189453125 -3.986083984375 0.0003440380096435547 -0.0009595155715942383 -0.0565032958984375 0.033412933349609375
17.929 0.091064453125 0.207916259765625 0.087646484375 -4.010009765625 -0.002268671989440918 0.00034248828887939453 -0.0733795166015625 0.03887939453125
17.93875 0.0885009765625 0.2230682373046875 -0.237060546875 -3.98681640625 -0.0006118416786193848 -2.9802322387695312e-06 -0.09194183349609375 0.037322998046875
17.9485 0.0789947509765625 0.2305145263671875 -0.543701171875 -3.94091796875 -0.0012035965919494629 0.0007232427597045898 -0.10647201538085938 0.030971527099609375
17.95825 0.066802978515625 0.2339630126953125 -0.828857421875 -3.87451171875 0.0008417367935180664 0.0020363330841064453 -0.11595916748046875 0.01854705810546875
17.968 0.0534515380859375 0.2291107177734375 -1.10986328125 -3.810302734375 0.0005399882793426514 0.0001729130744934082 -0.12026596069335938 0.005035400390625
17.97775 0.0433807373046875 0.2169189453125 -1.38916015625 -3.73291015625 0.0005825161933898926 0.0001391768455505371 -0.1174468994140625 -0.01140594482421875
17.9875 0.03505706787109375 0.19536590576171875 -1.6826171875 -3.646484375 -0.0006508827209472656 0.00053367018699646 -0.108917236328125 -0.02628326416015625
17.99725 0.033050537109375 0.17214202880859375 -1.976806640625 -3.52099609375 -0.0006468892097473145 0.0003166794776916504 -0.0923309326171875 -0.03668975830078125
18.007 0.03739166259765625 0.1455841064453125 -2.264892578125 -3.360595703125 0.0006431937217712402 -0.0014563798904418945 -0.073028564453125 -0.042083740234375
18.01675 0.0496673583984375 0.1179656982421875 -2.526611328125 -3.1669921875 -0.0010527968406677246 -0.0005858540534973145 -0.051799774169921875 -0.041912078857421875
18.0265 0.0661773681640625 0.0964202880859375 -2.7705078125 -2.95263671875 -0.00043785572052001953 0.00011432170867919922 -0.03204345703125 -0.03443145751953125
18.03625 0.08867645263671875 0.07460784912109375 -2.98974609375 -2.7236328125 0.0008785724639892578 0.0011786222457885742 -0.011394500732421875 -0.020109176635742188
18.046 0.1181640625 0.059967041015625 -3.181640625 -2.4814453125 -0.000331193208694458 0.00014925003051757812 0.005135297775268555 -0.0045015811920166016
18.05575 0.1434478759765625 0.0536651611328125 -3.350830078125 -2.230712890625 -0.0005221962928771973 -5.507469177246094e-05 0.013319015502929688 0.01744556427001953
18.0655 0.1699676513671875 0.0539093017578125 -3.5068359375 -1.97607421875 0.00045987963676452637 -0.0008596479892730713 0.015470504760742188 0.03931617736816406
18.07525 0.1927337646484375 0.060150146484375 -3.649169921875 -1.71826171875 0.00026720762252807617 0.0007905960083007812 0.010318756103515625 0.061923980712890625
18.085 0.20947265625 0.073272705078125 -3.787109375 -1.4482421875 0.0003205239772796631 -0.0005517303943634033 0.000354766845703125 0.07945632934570312
18.09475 0.2190093994140625 0.086761474609375 -3.91455078125 -1.152099609375 0.0009133517742156982 -0.0003248751163482666 -0.0152740478515625 0.09289932250976562
18.1045 0.2222137451171875 0.099884033203125 -4.01416015625 -0.830322265625 0.0002561807632446289 -0.0012175440788269043 -0.031719207763671875 0.09840774536132812
18.11425 0.21624755859375 0.11358642578125 -4.08203125 -0.49658203125 0.0011713504791259766 0.0010075569152832031 -0.0509033203125 0.0974578857421875
18.124 0.205322265625 0.1220245361328125 -4.095458984375 -0.15576171875 0.0011687278747558594 -0.0008236169815063477 -0.06492233276367188 0.09116744995117188
18.13375 0.184722900390625 0.12322998046875 -4.0908203125 0.173095703125 0.0005785822868347168 0.000661313533782959 -0.07915115356445312 0.07753372192382812
18.1435 0.1626739501953125 0.118011474609375 -4.055419921875 0.482177734375 0.001510322093963623 7.033348083496094e-06 -0.08331298828125 0.0568389892578125
18.15325 0.14131927490234375 0.103729248046875 -4.010009765625 0.79052734375 0.0014246106147766113 0.00029754638671875 -0.08229827880859375 0.03827667236328125
18.163 0.1221466064453125 0.0823516845703125 -3.939697265625 1.0966796875 3.692507743835449e-05 0.00024363398551940918 -0.07509231567382812 0.01885223388671875
18.17275 0.1074981689453125 0.05564117431640625 -3.85595703125 1.40380859375 0.0007253289222717285 0.0003840923309326172 -0.05944061279296875 0.0004825592041015625
18.1825 0.09827041625976562 0.025379180908203125 -3.73876953125 1.71044921875 -0.0006477832794189453 -0.0005580782890319824 -0.03955650329589844 -0.012857437133789062
18.19225 0.09529876708984375 -0.0085906982421875 -3.59765625 2.01904296875 0.001111149787902832 0.0008295774459838867 -0.0159759521484375 -0.018093109130859375
18.202 0.10267257690429688 -0.040805816650390625 -3.4090576171875 2.2987060546875 9.357929229736328e-05 0.0008620321750640869 0.010651588439941406 -0.019771575927734375
18.21175 0.11393356323242188 -0.06911468505859375 -3.2044677734375 2.5604248046875 -0.0001137852668762207 0.0010553598403930664 0.03225135803222656 -0.010705947875976562
18.2215 0.1306915283203125 -0.09142303466796875 -2.9771728515625 2.7874755859375 -0.0009239315986633301 -0.0007436275482177734 0.052371978759765625 0.00331878662109375
18.23125 0.1510772705078125 -0.105560302734375 -2.74951171875 2.9866943359375 0.000947415828704834 -0.00033408403396606445 0.066314697265625 0.02190399169921875
18.241 0.17333984375 -0.11144256591796875 -2.517333984375 3.1617431640625 -0.00012572109699249268 -0.0003071725368499756 0.07312393188476562 0.042552947998046875
18.25075 0.19482421875 -0.10935211181640625 -2.29052734375 3.339111328125 -4.122406244277954e-05 -0.00020094960927963257 0.0723876953125 0.06333160400390625
18.2605 0.21205902099609375 -0.098907470703125 -2.047607421875 3.5028076171875 0.0003481656312942505 9.310245513916016e-05 0.06526947021484375 0.0823974609375
18.27025 0.22209930419921875 -0.0837554931640625 -1.78515625 3.67626953125 0.0007622838020324707 0.0004082322120666504 0.0540771484375 0.095977783203125
18.28 0.22460174560546875 -0.06707000732421875 -1.487548828125 3.8251953125 0.00020772218704223633 0.0005905330181121826 0.034149169921875 0.10272979736328125
18.28975 0.216033935546875 -0.0517578125 -1.16943359375 3.95361328125 0.0007857680320739746 0.00013655424118041992 0.01555633544921875 0.10252761840820312
18.2995 0.19988250732421875 -0.03553009033203125 -0.8330078125 4.020751953125 0.0008313655853271484 0.0014015436172485352 -0.004058837890625 0.09753036499023438
18.30925 0.177886962890625 -0.0223236083984375 -0.51171875 4.0615234375 0.0005714893341064453 0.0007718801498413086 -0.02155303955078125 0.08177947998046875
18.319 0.1497802734375 -0.0179901123046875 -0.2001953125 4.06103515625 -0.0004977583885192871 -0.0001259446144104004 -0.031856536865234375 0.06233978271484375
18.32875 0.1196746826171875 -0.0199127197265625 0.098876953125 4.060302734375 0.00030618906021118164 0.0009317398071289062 -0.03692054748535156 0.03884124755859375
18.3385 0.08900070190429688 -0.02947235107421875 0.39501953125 4.031494140625 0.0015494823455810547 -0.00035184621810913086 -0.03360939025878906 0.012958526611328125
18.34825 0.063232421875 -0.04848480224609375 0.6923828125 4.0078125 0.00044795870780944824 0.0002547800540924072 -0.023166656494140625 -0.009647369384765625
18.358 0.042659759521484375 -0.07242965698242188 0.989501953125 3.959716796875 0.0007758140563964844 0.0004717707633972168 -0.008100509643554688 -0.029596328735351562
18.36775 0.02751922607421875 -0.10138702392578125 1.30029296875 3.90087890625 0.0002611875534057617 0.0018413066864013672 0.012981414794921875 -0.04402351379394531
18.3775 0.0212249755859375 -0.1302642822265625 1.615234375 3.79931640625 0.0009745359420776367 0.0003139972686767578 0.036815643310546875 -0.0504150390625
18.38725 0.0214996337890625 -0.158935546875 1.9375 3.671875 0.0014998912811279297 0.0010828971862792969 0.06256103515625 -0.049648284912109375
18.397 0.027679443359375 -0.18115234375 2.241943359375 3.48291015625 0.0008561611175537109 0.0007286667823791504 0.08333587646484375 -0.0438995361328125
18.40675 0.04001617431640625 -0.19876861572265625 2.516357421875 3.2744140625 -0.0005129575729370117 0.0002605020999908447 0.10037994384765625 -0.030643463134765625
18.4165 0.05698394775390625 -0.20517730712890625 2.7470703125 3.043701171875 0.0004704296588897705 -0.00016151368618011475 0.10899734497070312 -0.011653900146484375
18.42625 0.072296142578125 -0.20531463623046875 2.954833984375 2.812255859375 0.000453948974609375 0.001610875129699707 0.1126556396484375 0.007389068603515625
18.436 0.0885772705078125 -0.194427490234375 3.135009765625 2.566650390625 0.00034809112548828125 0.0003165304660797119 0.1072540283203125 0.026519775390625
18.44575 0.0999755859375 -0.1785125732421875 3.31103515625 2.32666015625 -0.00011086463928222656 0.0005813539028167725 0.0951995849609375 0.0434417724609375
18.4555 0.10334014892578125 -0.15636444091796875 3.466796875 2.074951171875 0.00043451786041259766 -0.002206563949584961 0.0769805908203125 0.05345916748046875
18.46525 0.09998321533203125 -0.1304473876953125 3.6181640625 1.816650390625 0.001114964485168457 -0.00028312206268310547 0.05517578125 0.05883026123046875
18.475 0.08672332763671875 -0.1075286865234375 3.749755859375 1.538330078125 0.00018492341041564941 0.0005022585391998291 0.031848907470703125 0.052646636962890625
18.48475 0.06824493408203125 -0.08490371704101562 3.8779296875 1.24853515625 0.0002811253070831299 -0.00019641220569610596 0.011800765991210938 0.043445587158203125
18.4945 0.03986358642578125 -0.067779541015625 3.9755859375 0.93505859375 0.00020241737365722656 -0.0004565715789794922 -0.006969451904296875 0.024759292602539062
18.50425 0.0085906982421875 -0.05804252624511719 4.042236328125 0.60498046875 -0.0005407035350799561 0.0005104541778564453 -0.017848968505859375 0.0025615692138671875
18.514 -0.023494720458984375 -0.05568695068359375 4.063232421875 0.270751953125 0.0007624030113220215 -0.00029963254928588867 -0.023273468017578125 -0.023763656616210938
18.52375 -0.053104400634765625 -0.059772491455078125 4.056396484375 -0.051025390625 0.0007467269897460938 -0.0004926323890686035 -0.019077301025390625 -0.0475311279296875
18.5335 -0.078216552734375 -0.073150634765625 4.013427734375 -0.355224609375 0.0005353689193725586 -0.0011388063430786133 -0.00958251953125 -0.06946182250976562
18.54325 -0.0985870361328125 -0.0935821533203125 3.971923828125 -0.6441650390625 0.0008924603462219238 0.001047670841217041 0.004901885986328125 -0.08697509765625
18.553 -0.1112060546875 -0.11476898193359375 3.919921875 -0.9310302734375 0.0005954504013061523 0.00010120868682861328 0.0267181396484375 -0.09935379028320312
18.56275 -0.115386962890625 -0.136932373046875 3.8597412109375 -1.2236328125 0.0004852414131164551 -0.000827401876449585 0.04747772216796875 -0.1022491455078125
18.5725 -0.110595703125 -0.158966064453125 3.763427734375 -1.521240234375 0.0019544363021850586 0.00025963783264160156 0.0692901611328125 -0.097503662109375
18.58225 -0.100067138671875 -0.1768341064453125 3.6468505859375 -1.823486328125 9.747594594955444e-05 -0.00019000470638275146 0.08640670776367188 -0.086151123046875
18.592 -0.08380126953125 -0.18408203125 3.483642578125 -2.109619140625 4.278123378753662e-05 4.782527685165405e-05 0.09796905517578125 -0.07051849365234375
18.60175 -0.065216064453125 -0.1858978271484375 3.3065185546875 -2.388427734375 0.0017635226249694824 -0.00039011240005493164 0.10309982299804688 -0.049739837646484375
18.6115 -0.04383087158203125 -0.17920684814453125 3.091064453125 -2.6400146484375 0.0015853047370910645 -0.0006778240203857422 0.09951019287109375 -0.0271148681640625
18.62125 -0.02591705322265625 -0.161895751953125 2.86279296875 -2.8638916015625 -0.0004341006278991699 -0.0003807544708251953 0.08794403076171875 -0.00650787353515625
18.631 -0.01288604736328125 -0.1391754150390625 2.6201171875 -3.0655517578125 0.0010865330696105957 -0.00018197298049926758 0.07017135620117188 0.00931549072265625
18.64075 -0.0068817138671875 -0.110809326171875 2.3701171875 -3.241943359375 0.001612842082977295 -0.0015175938606262207 0.047725677490234375 0.02088165283203125
18.6505 -0.00727081298828125 -0.08299636840820312 2.1143798828125 -3.395751953125 -0.0011223554611206055 0.00029200315475463867 0.022928237915039062 0.022153854370117188
18.66025 -0.017333984375 -0.05387115478515625 1.85693359375 -3.545166015625 0.0012865662574768066 -0.00010895729064941406 -0.0025892257690429688 0.017327308654785156
18.67 -0.034412384033203125 -0.029598236083984375 1.57861328125 -3.6812744140625 0.0003699958324432373 -0.0007439851760864258 -0.023843765258789062 0.005275726318359375
18.67975 -0.05814361572265625 -0.008235931396484375 1.2830810546875 -3.803466796875 0.000539928674697876 0.00021946430206298828 -0.04167366027832031 -0.013126373291015625
