!Created with skrf (http://scikit-rf.org).
# GHz S RI R 50.0 
!freq ReS11 ImS11 ReS21 ImS21 ReS12 ImS12 ReS22 ImS22
17.5 -0.06787109375 -0.1903228759765625 -1.408935546875 4.015869140625 0.000279158353805542 0.0005173683166503906 0.0938262939453125 -0.1283111572265625
17.50975 -0.060211181640625 -0.19140625 -1.101806640625 4.119873046875 0.0003440380096435547 0.0003459751605987549 0.10277175903320312 -0.11442947387695312
17.5195 -0.05370330810546875 -0.18604278564453125 -0.779541015625 4.210205078125 0.0010350942611694336 0.0014836788177490234 0.10511398315429688 -0.09905624389648438
17.52925 -0.0472564697265625 -0.175445556640625 -0.44091796875 4.26025390625 0.001032114028930664 0.00032329559326171875 0.1016693115234375 -0.0803375244140625
17.539 -0.043304443359375 -0.1575927734375 -0.09619140625 4.2841796875 -0.0001671314239501953 -0.0004337430000305176 0.08971405029296875 -0.06223297119140625
17.54875 -0.0431060791015625 -0.13747406005859375 0.248291015625 4.268310546875 0.0005882978439331055 0.00046896934509277344 0.0767669677734375 -0.049747467041015625
17.5585 -0.04767608642578125 -0.11492919921875 0.58203125 4.22607421875 0.0006493926048278809 0.0005590915679931641 0.05527496337890625 -0.039928436279296875
17.56825 -0.05440521240234375 -0.09272003173828125 0.900146484375 4.149658203125 -1.8283724784851074e-05 -0.00014767050743103027 0.032741546630859375 -0.03748321533203125
17.578 -0.06653594970703125 -0.072967529296875 1.208984375 4.072021484375 -0.00014225393533706665 0.00022876262664794922 0.010890960693359375 -0.040859222412109375
17.58775 -0.08431243896484375 -0.05611419677734375 1.512939453125 3.96142578125 0.0009096860885620117 0.0008141994476318359 -0.01000213623046875 -0.052791595458984375
17.5975 -0.10346221923828125 -0.04653167724609375 1.8115234375 3.84423828125 -0.001864612102508545 0.0012872815132141113 -0.026912689208984375 -0.065185546875
17.60725 -0.1231231689453125 -0.03728485107421875 2.10400390625 3.697265625 0.0001271963119506836 -0.0003547072410583496 -0.03733062744140625 -0.08608627319335938
17.617 -0.1444549560546875 -0.0367279052734375 2.3896484375 3.533203125 -0.001337885856628418 0.0001608133316040039 -0.0421142578125 -0.105865478515625
17.62675 -0.160186767578125 -0.03839874267578125 2.663330078125 3.33837890625 -1.4632940292358398e-05 0.0007126927375793457 -0.04100799560546875 -0.1250762939453125
17.6365 -0.17205810546875 -0.04206085205078125 2.927001953125 3.12451171875 0.000138208270072937 -0.000271037220954895 -0.034637451171875 -0.1404876708984375
17.64625 -0.1786041259765625 -0.046661376953125 3.162353515625 2.878173828125 0.0006665587425231934 0.0006967782974243164 -0.0210113525390625 -0.1510009765625
17.656 -0.1786041259765625 -0.05167388916015625 3.378173828125 2.616455078125 -5.099177360534668e-05 -0.0007508397102355957 -0.00556182861328125 -0.15435791015625
17.66575 -0.1698150634765625 -0.05416107177734375 3.552978515625 2.340576171875 0.0008884668350219727 0.0005955100059509277 0.011962890625 -0.15326690673828125
17.6755 -0.15689849853515625 -0.05445098876953125 3.711669921875 2.06787109375 0.0006691515445709229 0.00013309717178344727 0.02674102783203125 -0.14391326904296875
17.68525 -0.143524169921875 -0.0528411865234375 3.8544921875 1.78466796875 0.0015705227851867676 3.695487976074219e-05 0.0393829345703125 -0.1279754638671875
17.695 -0.12906646728515625 -0.0445556640625 3.9951171875 1.4931640625 0.0011298656463623047 0.0009223222732543945 0.045124053955078125 -0.110595703125
17.70475 -0.114349365234375 -0.02938079833984375 4.102783203125 1.17431640625 0.0006974339485168457 0.0008987188339233398 0.046443939208984375 -0.09035873413085938
17.7145 -0.10190200805664062 -0.01132965087890625 4.19775390625 0.832275390625 -0.00021933019161224365 0.00040414929389953613 0.04022216796875 -0.06819534301757812
17.72425 -0.0944671630859375 0.0124359130859375 4.23583984375 0.473876953125 -0.0004858672618865967 0.0007110238075256348 0.02777099609375 -0.050861358642578125
17.734 -0.09026336669921875 0.03661346435546875 4.240234375 0.12646484375 0.0007257461547851562 0.00033211708068847656 0.009960174560546875 -0.03448486328125
17.74375 -0.09167098999023438 0.062038421630859375 4.197021484375 -0.20703125 0.00019380450248718262 0.0005366504192352295 -0.009555816650390625 -0.02606201171875
17.7535 -0.09807205200195312 0.08353805541992188 4.1416015625 -0.519287109375 0.0007644891738891602 0.0003262758255004883 -0.032321929931640625 -0.021860122680664062
17.76325 -0.10687255859375 0.1012420654296875 4.0654296875 -0.80859375 0.0008140206336975098 0.00027102231979370117 -0.052928924560546875 -0.02466583251953125
17.773 -0.11919403076171875 0.11302566528320312 3.99169921875 -1.083984375 -0.00028893351554870605 -0.00041428208351135254 -0.07152938842773438 -0.032772064208984375
17.78275 -0.13143157958984375 0.117889404296875 3.910400390625 -1.3564453125 -0.00044292211532592773 -7.867813110351562e-05 -0.08123016357421875 -0.04510498046875
17.7925 -0.1459808349609375 0.1194610595703125 3.8245849609375 -1.63818359375 -0.0008511841297149658 0.00046688318252563477 -0.0877838134765625 -0.05995941162109375
17.80225 -0.15770721435546875 0.1135101318359375 3.7186279296875 -1.93115234375 0.0016266703605651855 -0.0004660487174987793 -0.0905303955078125 -0.07659149169921875
17.812 -0.1618194580078125 0.1035919189453125 3.586181640625 -2.2335205078125 -0.0004328787326812744 -9.357929229736328e-05 -0.085296630859375 -0.09030914306640625
17.82175 -0.1612396240234375 0.0920562744140625 3.397216796875 -2.5306396484375 -0.00046837329864501953 -0.0004017651081085205 -0.07416534423828125 -0.10097503662109375
17.8315 -0.1527099609375 0.0792236328125 3.171630859375 -2.8037109375 0.0022101402282714844 -0.00043320655822753906 -0.06298828125 -0.10418701171875
17.84125 -0.13836669921875 0.06705474853515625 2.9129638671875 -3.0225830078125 0.0012278556823730469 0.0002524852752685547 -0.0462646484375 -0.10257720947265625
17.851 -0.11691665649414062 0.060253143310546875 2.658203125 -3.2060546875 -0.0004949569702148438 4.583597183227539e-05 -0.031482696533203125 -0.09503555297851562
17.86075 -0.09173965454101562 0.056118011474609375 2.41552734375 -3.3636474609375 0.0005651116371154785 0.0005330443382263184 -0.01792144775390625 -0.078521728515625
17.8705 -0.065277099609375 0.059234619140625 2.183349609375 -3.5166015625 -0.0011657476425170898 -0.0008031129837036133 -0.010158538818359375 -0.060455322265625
17.88025 -0.038238525390625 0.06839370727539062 1.939453125 -3.6605224609375 0.000599592924118042 -0.0009695291519165039 -0.0048160552978515625 -0.04003715515136719
17.89 -0.0138092041015625 0.08420181274414062 1.6873779296875 -3.814208984375 -0.0017344951629638672 -0.0018440485000610352 -0.008518218994140625 -0.020116806030273438
17.89975 0.006710052490234375 0.10433578491210938 1.4022216796875 -3.947265625 0.0011723637580871582 -0.00028377771377563477 -0.017889976501464844 -8.96453857421875e-05
17.9095 0.02162933349609375 0.12680816650390625 1.096923828125 -4.068115234375 0.00042504072189331055 0.00012412667274475098 -0.031818389892578125 0.015691757202148438
17.91925 0.0296783447265625 0.1525115966796875 0.76904296875 -4.15234375 0.00011473894119262695 -0.0008737444877624512 -0.049442291259765625 0.026729583740234375
17.929 0.0334625244140625 0.17449188232421875 0.432373046875 -4.209716796875 -0.00035671889781951904 -9.964406490325928e-05 -0.06950759887695312 0.03228759765625
17.93875 0.02748870849609375 0.192138671875 0.095947265625 -4.2177734375 -0.0013829469680786133 -0.0009567737579345703 -0.08737564086914062 0.02991485595703125
17.9485 0.02007293701171875 0.2053070068359375 -0.226806640625 -4.1943359375 0.0008285641670227051 0.0011444687843322754 -0.10320281982421875 0.0231170654296875
17.95825 0.00858306884765625 0.20963287353515625 -0.52978515625 -4.14599609375 -0.00037986040115356445 -0.0013762116432189941 -0.11326980590820312 0.010951995849609375
17.968 -0.00466156005859375 0.20774078369140625 -0.81787109375 -4.097900390625 -0.0010761618614196777 -0.0006378293037414551 -0.11716461181640625 -0.00363922119140625
17.97775 -0.01593780517578125 0.20043182373046875 -1.10595703125 -4.037353515625 0.0008536279201507568 -0.0004182159900665283 -0.11511993408203125 -0.0181121826171875
17.9875 -0.02228546142578125 0.18454742431640625 -1.39990234375 -3.971923828125 -0.0001118779182434082 -0.0011985301971435547 -0.10678863525390625 -0.0342864990234375
17.99725 -0.02484893798828125 0.16628265380859375 -1.701171875 -3.8740234375 -0.0005477070808410645 -0.0010554194450378418 -0.09133148193359375 -0.04488372802734375
18.007 -0.0182952880859375 0.14101409912109375 -2.007080078125 -3.754638671875 -0.00037997961044311523 0.001376032829284668 -0.07337188720703125 -0.049533843994140625
18.01675 -0.0049591064453125 0.11867904663085938 -2.294677734375 -3.593505859375 -0.00029218196868896484 -0.00042724609375 -0.051334381103515625 -0.049243927001953125
18.0265 0.013973236083984375 0.096405029296875 -2.570556640625 -3.412841796875 -0.00024458765983581543 4.900991916656494e-05 -0.031162261962890625 -0.043445587158203125
18.03625 0.0393829345703125 0.08049774169921875 -2.8203125 -3.2099609375 -0.00016134977340698242 -0.00039827823638916016 -0.013477325439453125 -0.029499053955078125
18.046 0.0683746337890625 0.06885528564453125 -3.0537109375 -2.987548828125 0.000510871410369873 -0.0010782480239868164 0.0019001960754394531 -0.011431217193603516
18.05575 0.09871673583984375 0.0640869140625 -3.25927734375 -2.752685546875 0.0007689595222473145 -0.00022044777870178223 0.010287284851074219 0.010746002197265625
18.0655 0.12606048583984375 0.063446044921875 -3.456787109375 -2.5185546875 0.0001529604196548462 3.1620264053344727e-05 0.01348114013671875 0.03372955322265625
18.07525 0.15251922607421875 0.074371337890625 -3.63623046875 -2.269775390625 -0.0015530586242675781 -0.0006883144378662109 0.007080078125 0.056652069091796875
18.085 0.1711883544921875 0.0887603759765625 -3.818115234375 -2.016845703125 -0.0007464289665222168 0.00041174888610839844 -0.003475189208984375 0.07239913940429688
18.09475 0.1849365234375 0.1034393310546875 -3.985107421875 -1.735107421875 -0.0006321072578430176 -0.00027257204055786133 -0.018157958984375 0.08572769165039062
18.1045 0.1895751953125 0.1205291748046875 -4.140869140625 -1.423828125 -0.0003402233123779297 0.00014653801918029785 -0.037029266357421875 0.09264373779296875
18.11425 0.188201904296875 0.1331787109375 -4.265625 -1.08984375 -4.279613494873047e-05 -0.0009015202522277832 -0.057281494140625 0.09250640869140625
18.124 0.1794281005859375 0.14178466796875 -4.34912109375 -0.740478515625 -0.0004762709140777588 0.00023923814296722412 -0.07135391235351562 0.08612442016601562
18.13375 0.1631317138671875 0.1431884765625 -4.38818359375 -0.390869140625 -0.0004413723945617676 -0.0003191232681274414 -0.08327102661132812 0.07293701171875
18.1435 0.1453094482421875 0.1383209228515625 -4.407470703125 -0.055908203125 -0.0005994141101837158 0.0007262527942657471 -0.09050750732421875 0.055103302001953125
18.15325 0.1248779296875 0.12420654296875 -4.40380859375 0.27490234375 0.0004987418651580811 7.256865501403809e-05 -0.089019775390625 0.035797119140625
18.163 0.110931396484375 0.1034088134765625 -4.388427734375 0.6083984375 -0.00035440921783447266 -0.0006315112113952637 -0.08133697509765625 0.015796661376953125
18.17275 0.09801483154296875 0.0761260986328125 -4.349365234375 0.947021484375 -0.0010911822319030762 9.638071060180664e-05 -0.06669235229492188 -0.001895904541015625
18.1825 0.09313201904296875 0.0439605712890625 -4.28564453125 1.292236328125 -0.0010783076286315918 -0.0008128881454467773 -0.046905517578125 -0.0126800537109375
18.19225 0.0938568115234375 0.00897216796875 -4.18408203125 1.64501953125 -0.0001538693904876709 2.8192996978759766e-05 -0.022075653076171875 -0.01937103271484375
18.202 0.10109710693359375 -0.023761749267578125 -4.046875 1.985595703125 0.0005248785018920898 0.0014897584915161133 0.0019483566284179688 -0.01801586151123047
18.21175 0.11551666259765625 -0.055194854736328125 -3.87109375 2.30712890625 -0.0019426345825195312 -0.00014591217041015625 0.024999618530273438 -0.010313987731933594
18.2215 0.1350860595703125 -0.0799713134765625 -3.662353515625 2.595947265625 0.0011575818061828613 -0.0017213821411132812 0.04528045654296875 0.0029506683349609375
18.23125 0.15789794921875 -0.09673309326171875 -3.445556640625 2.8570556640625 -0.0009622871875762939 0.00033983588218688965 0.058086395263671875 0.0232086181640625
18.241 0.182342529296875 -0.10292816162109375 -3.222900390625 3.0880126953125 -0.00018759071826934814 0.00042228400707244873 0.06592178344726562 0.04358673095703125
18.25075 0.20331573486328125 -0.10289764404296875 -3.0023193359375 3.318603515625 -0.0006439685821533203 -0.0013058185577392578 0.06764984130859375 0.06621551513671875
18.2605 0.2227783203125 -0.09454345703125 -2.7652587890625 3.54345703125 -0.0007394552230834961 -0.0013219118118286133 0.05914306640625 0.08446502685546875
18.27025 0.2342376708984375 -0.08295440673828125 -2.510009765625 3.7783203125 -0.0006404519081115723 -0.00030601024627685547 0.0449676513671875 0.09928131103515625
18.28 0.23575592041015625 -0.06854248046875 -2.208984375 3.998291015625 0.0002809762954711914 0.0009540319442749023 0.02922821044921875 0.1072845458984375
18.28975 0.22913360595703125 -0.05202484130859375 -1.871337890625 4.186767578125 -0.0006401240825653076 -0.00013428926467895508 0.009571075439453125 0.108551025390625
18.2995 0.213287353515625 -0.03867340087890625 -1.506591796875 4.326171875 -0.0004741847515106201 -0.0004961192607879639 -0.01084136962890625 0.10180282592773438
18.30925 0.1892547607421875 -0.0297698974609375 -1.14990234375 4.4189453125 0.0005018711090087891 -0.00041306018829345703 -0.02527618408203125 0.085418701171875
18.319 0.162353515625 -0.02734375 -0.79736328125 4.4775390625 -0.0003323554992675781 0.0008865594863891602 -0.036163330078125 0.067352294921875
18.32875 0.13152313232421875 -0.03084564208984375 -0.46337890625 4.517578125 -3.337860107421875e-06 -0.0007397830486297607 -0.041408538818359375 0.04439544677734375
18.3385 0.10233306884765625 -0.0436248779296875 -0.129638671875 4.5361328125 0.0011951327323913574 0.0004849433898925781 -0.036518096923828125 0.019449234008789062
18.34825 0.07559967041015625 -0.06324005126953125 0.204345703125 4.5517578125 -0.00020182132720947266 0.001289665699005127 -0.024603843688964844 -0.0024271011352539062
18.358 0.0557861328125 -0.08998870849609375 0.54345703125 4.542236328125 -0.0002738535404205322 0.0005909502506256104 -0.009799957275390625 -0.023084640502929688
18.36775 0.038997650146484375 -0.11984634399414062 0.900146484375 4.525634765625 -0.0008541345596313477 0.0009177625179290771 0.01271820068359375 -0.03660392761230469
18.3775 0.0314483642578125 -0.1485443115234375 1.2734375 4.462890625 -1.2993812561035156e-05 0.0016509294509887695 0.036472320556640625 -0.04582977294921875
18.38725 0.0292816162109375 -0.17987060546875 1.65771484375 4.36279296875 3.1948089599609375e-05 -0.00026616454124450684 0.0596771240234375 -0.043521881103515625
18.397 0.03630828857421875 -0.2054595947265625 2.022705078125 4.194580078125 -0.0005595088005065918 -0.00011330842971801758 0.08275985717773438 -0.036197662353515625
18.40675 0.0458831787109375 -0.223236083984375 2.365966796875 3.99658203125 0.0007474422454833984 0.0013707876205444336 0.10106658935546875 -0.0234527587890625
18.4165 0.06317138671875 -0.231536865234375 2.655029296875 3.760498046875 0.0007999539375305176 0.000823974609375 0.11173629760742188 -0.006305694580078125
18.42625 0.0780181884765625 -0.22959136962890625 2.9150390625 3.527099609375 -0.00010494142770767212 0.00013462454080581665 0.11583709716796875 0.0138397216796875
18.436 0.09160614013671875 -0.22180938720703125 3.15185546875 3.27734375 0.000775456428527832 0.0007343888282775879 0.11095428466796875 0.0316925048828125
18.44575 0.103363037109375 -0.2055511474609375 3.373046875 3.03271484375 -0.00020070374011993408 0.0002842843532562256 0.0980682373046875 0.046478271484375
18.4555 0.1063995361328125 -0.18532562255859375 3.58349609375 2.775146484375 0.0005855560302734375 0.00044792890548706055 0.0797119140625 0.05849456787109375
18.46525 0.10064697265625 -0.1623382568359375 3.78515625 2.5126953125 2.893805503845215e-05 0.00047019124031066895 0.0583953857421875 0.06146240234375
18.475 0.0897674560546875 -0.13848114013671875 3.9755859375 2.22119140625 -0.0001139715313911438 0.00023664534091949463 0.036746978759765625 0.05850982666015625
18.48475 0.06606292724609375 -0.11726760864257812 4.158935546875 1.91748046875 -0.0007112622261047363 -0.0005544424057006836 0.015460968017578125 0.04595756530761719
18.4945 0.04030609130859375 -0.10147857666015625 4.3095703125 1.57763671875 -0.00026810169219970703 0.000732421875 -0.001232147216796875 0.029256820678710938
18.50425 0.006504058837890625 -0.092376708984375 4.43359375 1.21630859375 0.0009794235229492188 0.0003783106803894043 -0.012400150299072266 0.005477428436279297
18.514 -0.02802276611328125 -0.09082794189453125 4.50341796875 0.8388671875 0.0010169148445129395 0.00027883052825927734 -0.016878128051757812 -0.019439697265625
18.52375 -0.05963897705078125 -0.09691619873046875 4.53369140625 0.4755859375 0.0005039572715759277 0.0007137656211853027 -0.015474319458007812 -0.04742240905761719
18.5335 -0.08451080322265625 -0.10840606689453125 4.521484375 0.132568359375 0.0013671517372131348 0.0005027055740356445 -0.005397796630859375 -0.06892776489257812
18.54325 -0.10628509521484375 -0.12786102294921875 4.506103515625 -0.187255859375 0.00029903650283813477 0.0007562637329101562 0.011264801025390625 -0.08801651000976562
18.553 -0.11981201171875 -0.151763916015625 4.484130859375 -0.507568359375 0.0006126761436462402 0.0005362033843994141 0.030609130859375 -0.09820175170898438
18.56275 -0.124542236328125 -0.1754302978515625 4.455078125 -0.8349609375 0.000868678092956543 0.00024002790451049805 0.0532073974609375 -0.10117340087890625
18.5725 -0.121673583984375 -0.197845458984375 4.394287109375 -1.180419921875 0.0008665919303894043 0.0003674626350402832 0.07329177856445312 -0.09777450561523438
18.58225 -0.1137847900390625 -0.215911865234375 4.3125 -1.530029296875 0.000631868839263916 0.00047081708908081055 0.09109878540039062 -0.0875244140625
18.592 -0.09783935546875 -0.224273681640625 4.17919921875 -1.87451171875 0.00037348270416259766 0.0010199546813964844 0.1023406982421875 -0.07015228271484375
18.60175 -0.07952880859375 -0.2266998291015625 4.017333984375 -2.20654296875 0.0013921856880187988 0.0005023479461669922 0.10651397705078125 -0.049808502197265625
18.6115 -0.062286376953125 -0.219085693359375 3.815185546875 -2.5201416015625 0.0015164613723754883 0.00083160400390625 0.10326385498046875 -0.028472900390625
18.62125 -0.0430450439453125 -0.20245361328125 3.5950927734375 -2.8033447265625 0.0009460151195526123 -7.4803829193115234e-06 0.09204483032226562 -0.007045745849609375
18.631 -0.03113555908203125 -0.18133544921875 3.3492431640625 -3.0550537109375 -0.0013068914413452148 0.0004731416702270508 0.07512664794921875 0.007976531982421875
18.64075 -0.027618408203125 -0.1526336669921875 3.100341796875 -3.281982421875 0.0007250607013702393 0.00022795796394348145 0.0507659912109375 0.018787384033203125
18.6505 -0.03124237060546875 -0.12366485595703125 2.84521484375 -3.4837646484375 0.001677870750427246 -0.0009735822677612305 0.027444839477539062 0.0215301513671875
18.66025 -0.0433197021484375 -0.09615325927734375 2.59033203125 -3.6903076171875 0.0005905628204345703 0.00017818808555603027 0.000919342041015625 0.01569366455078125
18.67 -0.06153106689453125 -0.07073211669921875 2.3089599609375 -3.8856201171875 0.0011115670204162598 -0.001027524471282959 -0.022125244140625 0.0032262802124023438
18.67975 -0.08678436279296875 -0.05094146728515625 2.0029296875 -4.069580078125 0.0003299415111541748 0.00025090575218200684 -0.038818359375 -0.015340805053710938
