!Created with skrf (http://scikit-rf.org).
# GHz S RI R 50.0 
!freq ReS11 ImS11 ReS21 ImS21 ReS12 ImS12 ReS22 ImS22
17.5 -0.00014495849609375 -0.1294403076171875 -2.4407958984375 2.6544189453125 -0.0012301206588745117 -0.000796198844909668 0.08604049682617188 -0.00678253173828125
17.50975 -0.00695037841796875 -0.1282806396484375 -2.2259521484375 2.8377685546875 -0.0020585060119628906 -0.0009424686431884766 0.0876922607421875 -0.006984710693359375
17.5195 -0.01263427734375 -0.124420166015625 -1.997314453125 2.9949951171875 -5.1647424697875977e-05 -0.0006809532642364502 0.08966445922851562 -0.007568359375
17.52925 -0.0197296142578125 -0.1203155517578125 -1.7650146484375 3.14453125 -0.0008479058742523193 0.000291675329208374 0.09154510498046875 -0.010822296142578125
17.539 -0.02423095703125 -0.116119384765625 -1.52392578125 3.2685546875 -0.0010564327239990234 -0.000934600830078125 0.09163665771484375 -0.01364898681640625
17.54875 -0.0325775146484375 -0.11275482177734375 -1.275390625 3.3697509765625 -0.001798868179321289 -0.0010796785354614258 0.09257888793945312 -0.016063690185546875
17.5585 -0.03955841064453125 -0.1091156005859375 -1.026123046875 3.4609375 -0.001207590103149414 -0.0015512704849243164 0.09751510620117188 -0.02069854736328125
17.56825 -0.0422210693359375 -0.1058197021484375 -0.778076171875 3.540771484375 -0.0008782148361206055 -0.0013920068740844727 0.0959930419921875 -0.0238189697265625
17.578 -0.04897308349609375 -0.10125732421875 -0.5018310546875 3.6048583984375 -0.0021816492080688477 -0.0005061626434326172 0.09727096557617188 -0.025909423828125
17.58775 -0.055572509765625 -0.09755706787109375 -0.21923828125 3.6497802734375 -0.0013767480850219727 -0.0013843774795532227 0.09789657592773438 -0.029010772705078125
17.5975 -0.059234619140625 -0.09136199951171875 0.0784912109375 3.6607666015625 -0.0007478594779968262 0.00025278329849243164 0.1008453369140625 -0.033626556396484375
17.60725 -0.06363677978515625 -0.08823394775390625 0.369140625 3.64111328125 -0.0015503168106079102 -0.0009008646011352539 0.099365234375 -0.036991119384765625
17.617 -0.069091796875 -0.08135223388671875 0.653564453125 3.59521484375 -0.001219630241394043 -0.0008459091186523438 0.0988006591796875 -0.039520263671875
17.62675 -0.0749359130859375 -0.07537841796875 0.92236328125 3.52099609375 -0.0016188621520996094 -0.0003459453582763672 0.0998992919921875 -0.044525146484375
17.6365 -0.0785064697265625 -0.0698089599609375 1.1806640625 3.42724609375 -0.0016644001007080078 -0.0006203651428222656 0.09796142578125 -0.0495147705078125
17.64625 -0.0804443359375 -0.06266021728515625 1.416259765625 3.327392578125 -0.0021195411682128906 0.0003566741943359375 0.09551620483398438 -0.052642822265625
17.656 -0.08397674560546875 -0.0589599609375 1.64599609375 3.22216796875 -0.00203549861907959 0.0001074075698852539 0.09366607666015625 -0.057109832763671875
17.66575 -0.086761474609375 -0.05303955078125 1.873046875 3.1171875 -0.00030428171157836914 9.194016456604004e-06 0.09448623657226562 -0.0611572265625
17.6755 -0.0915679931640625 -0.04764556884765625 2.099853515625 2.99072265625 -0.0009579062461853027 0.0008710026741027832 0.0904998779296875 -0.0648193359375
17.68525 -0.09413909912109375 -0.04021453857421875 2.3369140625 2.863037109375 -0.0006181001663208008 0.0008254349231719971 0.08794403076171875 -0.069488525390625
17.695 -0.09551239013671875 -0.0340576171875 2.576416015625 2.695556640625 -0.0002631843090057373 8.80211591720581e-05 0.08647537231445312 -0.0731201171875
17.70475 -0.0964813232421875 -0.0268096923828125 2.806396484375 2.4921875 -0.0023785829544067383 -0.00033974647521972656 0.08322906494140625 -0.07520294189453125
17.7145 -0.09891891479492188 -0.020782470703125 3.029052734375 2.258544921875 -0.0016031861305236816 0.0004171133041381836 0.07849884033203125 -0.08140945434570312
17.72425 -0.09939193725585938 -0.01450347900390625 3.205078125 1.99853515625 -0.0015045404434204102 -0.0010387897491455078 0.07529449462890625 -0.08429718017578125
17.734 -0.10225677490234375 -0.00946044921875 3.34716796875 1.7265625 -0.0011998414993286133 -0.0005915164947509766 0.071380615234375 -0.08675384521484375
17.74375 -0.104736328125 -0.0023345947265625 3.44580078125 1.4521484375 -0.0010633468627929688 -0.00018596649169921875 0.0679473876953125 -0.09207916259765625
17.7535 -0.10118865966796875 0.004360198974609375 3.52197265625 1.187255859375 -0.001134037971496582 0.0009990334510803223 0.06257247924804688 -0.09579086303710938
17.76325 -0.10280227661132812 0.01190948486328125 3.59814453125 0.941162109375 -0.001143038272857666 -0.0006985664367675781 0.05780029296875 -0.09429931640625
17.773 -0.10129165649414062 0.016895294189453125 3.6572265625 0.69775390625 -0.0009657740592956543 0.0004528462886810303 0.0543365478515625 -0.09887313842773438
17.78275 -0.10099411010742188 0.024471282958984375 3.709716796875 0.438720703125 -0.0016814470291137695 0.0004648566246032715 0.049770355224609375 -0.09958648681640625
17.7925 -0.09925460815429688 0.029338836669921875 3.76611328125 0.17236328125 -0.0021435022354125977 0.0005710124969482422 0.04390716552734375 -0.10202407836914062
17.80225 -0.0977630615234375 0.034122467041015625 3.8067626953125 -0.121337890625 -0.0016267895698547363 0.0013602972030639648 0.0397491455078125 -0.101654052734375
17.812 -0.09526824951171875 0.0427093505859375 3.8131103515625 -0.4263916015625 -0.002033233642578125 0.0009744167327880859 0.03409576416015625 -0.10455703735351562
17.82175 -0.0928802490234375 0.049896240234375 3.7891845703125 -0.738525390625 -0.0015416145324707031 0.0021495819091796875 0.030536651611328125 -0.10423660278320312
17.8315 -0.09226226806640625 0.05536651611328125 3.724365234375 -1.0499267578125 -0.0005768537521362305 0.0014476180076599121 0.02465057373046875 -0.105255126953125
17.84125 -0.0904998779296875 0.061187744140625 3.6318359375 -1.3447265625 -0.0016990900039672852 0.0005908012390136719 0.0182647705078125 -0.10350799560546875
17.851 -0.08537673950195312 0.06886672973632812 3.496826171875 -1.6173095703125 -0.0008696615695953369 0.0008288025856018066 0.01393890380859375 -0.1043243408203125
17.86075 -0.08560562133789062 0.074127197265625 3.367919921875 -1.871337890625 -3.454089164733887e-05 0.000768810510635376 0.005611419677734375 -0.10297775268554688
17.8705 -0.0819549560546875 0.07913589477539062 3.2227783203125 -2.109619140625 -0.0007045269012451172 0.00036579370498657227 0.00260162353515625 -0.10264968872070312
17.88025 -0.07722091674804688 0.0853118896484375 3.072021484375 -2.3427734375 -0.0015160441398620605 0.0008623003959655762 -0.005054473876953125 -0.10196685791015625
17.89 -0.07316207885742188 0.09093093872070312 2.9195556640625 -2.5762939453125 -0.00034415721893310547 0.0008078217506408691 -0.01055908203125 -0.10094833374023438
17.89975 -0.06863784790039062 0.09493637084960938 2.73095703125 -2.812255859375 -0.001179337501525879 0.001207113265991211 -0.014827728271484375 -0.09881591796875
17.9095 -0.06534957885742188 0.0996856689453125 2.523681640625 -3.0458984375 -0.0010662078857421875 0.00125962495803833 -0.018474578857421875 -0.09789657592773438
17.91925 -0.059497833251953125 0.10428619384765625 2.2840576171875 -3.2593994140625 -0.0002518892288208008 -0.00010281801223754883 -0.0223846435546875 -0.09479141235351562
17.929 -0.0555572509765625 0.1087799072265625 2.0224609375 -3.456787109375 -0.0014352798461914062 0.0015374422073364258 -0.02751922607421875 -0.09569549560546875
17.93875 -0.04990386962890625 0.11257171630859375 1.7303466796875 -3.614013671875 -0.00032585859298706055 0.0016829967498779297 -0.035247802734375 -0.0915374755859375
17.9485 -0.04517364501953125 0.11603927612304688 1.4423828125 -3.7374267578125 -0.000787585973739624 0.0009318888187408447 -0.037139892578125 -0.08664321899414062
17.95825 -0.037944793701171875 0.11839675903320312 1.147705078125 -3.8360595703125 0.00012552738189697266 0.0011385083198547363 -0.040493011474609375 -0.08516693115234375
17.968 -0.032611846923828125 0.12298965454101562 0.8582763671875 -3.919677734375 -0.0005594491958618164 0.00157243013381958 -0.04576873779296875 -0.08197784423828125
17.97775 -0.02793121337890625 0.125274658203125 0.5716552734375 -3.974853515625 -0.00030106306076049805 0.0008631646633148193 -0.04984283447265625 -0.076202392578125
17.9875 -0.01940155029296875 0.1293182373046875 0.27099609375 -4.032470703125 -0.0007806122303009033 0.0008563697338104248 -0.05229949951171875 -0.07326507568359375
17.99725 -0.01306915283203125 0.13048553466796875 -0.038330078125 -4.0751953125 -0.0005823969841003418 0.0016195178031921387 -0.058319091796875 -0.069488525390625
18.007 -0.00811004638671875 0.1334228515625 -0.365966796875 -4.093994140625 -0.00010955333709716797 0.0005123913288116455 -0.06118011474609375 -0.06392669677734375
18.01675 -0.00121307373046875 0.13488006591796875 -0.70166015625 -4.078125 0.0003059506416320801 0.001507580280303955 -0.06478118896484375 -0.06020355224609375
18.0265 0.006744384765625 0.13645172119140625 -1.047607421875 -4.030517578125 0.0005041956901550293 0.001311957836151123 -0.06939697265625 -0.054538726806640625
18.03625 0.012908935546875 0.1394805908203125 -1.38623046875 -3.935546875 -0.0014510154724121094 0.001885533332824707 -0.070770263671875 -0.0498046875
18.046 0.01983642578125 0.13913726806640625 -1.714111328125 -3.80615234375 -0.00034034252166748047 0.00034242868423461914 -0.0721435546875 -0.0442352294921875
18.05575 0.02686309814453125 0.13733673095703125 -2.0126953125 -3.65576171875 7.3909759521484375e-06 0.0011996626853942871 -0.07607269287109375 -0.03807830810546875
18.0655 0.03295135498046875 0.13980865478515625 -2.2890625 -3.482421875 -0.0009312629699707031 0.0015848875045776367 -0.07910537719726562 -0.033733367919921875
18.07525 0.04079437255859375 0.1371002197265625 -2.557373046875 -3.289306640625 5.27501106262207e-06 0.0007988810539245605 -0.07874679565429688 -0.028049468994140625
18.085 0.04772186279296875 0.137603759765625 -2.8134765625 -3.08984375 0.001171112060546875 0.0011126995086669922 -0.08200454711914062 -0.0221405029296875
18.09475 0.05394744873046875 0.13543701171875 -3.061279296875 -2.8671875 -0.000644683837890625 0.0021653175354003906 -0.08066558837890625 -0.01708984375
18.1045 0.06208038330078125 0.13413238525390625 -3.2958984375 -2.631591796875 0.0004557967185974121 -0.0003504902124404907 -0.08218002319335938 -0.00867462158203125
18.11425 0.06725311279296875 0.1339263916015625 -3.514404296875 -2.35205078125 2.086162567138672e-06 0.0010541677474975586 -0.08302688598632812 -0.005062103271484375
18.124 0.0735931396484375 0.12837982177734375 -3.70654296875 -2.06103515625 0.00038558244705200195 0.00014388561248779297 -0.08141326904296875 0.00281524658203125
18.13375 0.08133697509765625 0.1274261474609375 -3.86474609375 -1.751220703125 0.00033348798751831055 0.0007131695747375488 -0.0799713134765625 0.010059356689453125
18.1435 0.08570098876953125 0.12354278564453125 -3.99462890625 -1.427734375 0.0009480714797973633 0.0016891956329345703 -0.0811767578125 0.0173187255859375
18.15325 0.093292236328125 0.1191864013671875 -4.09326171875 -1.091796875 -2.002716064453125e-05 0.0011872649192810059 -0.0802154541015625 0.02246856689453125
18.163 0.0993804931640625 0.11458587646484375 -4.160888671875 -0.755615234375 0.0014643669128417969 0.0014941692352294922 -0.077392578125 0.027984619140625
18.17275 0.10599517822265625 0.11153411865234375 -4.202880859375 -0.418701171875 3.6656856536865234e-05 0.0014787912368774414 -0.07334518432617188 0.033519744873046875
18.1825 0.11113739013671875 0.10651397705078125 -4.229248046875 -0.08056640625 0.0010116100311279297 0.001534581184387207 -0.0721893310546875 0.041309356689453125
18.19225 0.11614227294921875 0.10143280029296875 -4.228759765625 0.26708984375 -4.3332576751708984e-05 0.0010210275650024414 -0.06914901733398438 0.046215057373046875
18.202 0.12372589111328125 0.0975799560546875 -4.190185546875 0.604248046875 0.0008678436279296875 0.0013526678085327148 -0.0682373046875 0.052158355712890625
18.21175 0.126678466796875 0.0926055908203125 -4.12255859375 0.95458984375 -5.4836273193359375e-06 0.0012781620025634766 -0.0623626708984375 0.059566497802734375
18.2215 0.131805419921875 0.085723876953125 -4.0166015625 1.291259765625 0.0007522106170654297 0.0011688470840454102 -0.0572052001953125 0.06402587890625
18.23125 0.13637542724609375 0.079803466796875 -3.8853759765625 1.609130859375 0.0006781220436096191 0.000600278377532959 -0.054931640625 0.06634140014648438
18.241 0.14044189453125 0.07407379150390625 -3.7266845703125 1.9058837890625 0.0015565156936645508 0.00035649538040161133 -0.049854278564453125 0.07239532470703125
18.25075 0.1427154541015625 0.0673370361328125 -3.54931640625 2.1807861328125 0.0012375712394714355 -0.00032514333724975586 -0.044322967529296875 0.07555770874023438
18.2605 0.14710235595703125 0.06170654296875 -3.354248046875 2.438720703125 0.0005755424499511719 0.0003243684768676758 -0.038272857666015625 0.07999420166015625
18.27025 0.1488800048828125 0.05328369140625 -3.1534423828125 2.685791015625 0.0012028813362121582 9.554624557495117e-05 -0.030834197998046875 0.08587646484375
18.28 0.15050506591796875 0.04659271240234375 -2.931640625 2.9310302734375 0.0006226897239685059 0.0012465715408325195 -0.025432586669921875 0.08582687377929688
18.28975 0.15430450439453125 0.0391998291015625 -2.6910400390625 3.1507568359375 0.001077890396118164 0.001088857650756836 -0.019168853759765625 0.0905303955078125
18.2995 0.15595245361328125 0.0330352783203125 -2.4219970703125 3.35498046875 0.0007571578025817871 0.00017079710960388184 -0.011280059814453125 0.09064483642578125
18.30925 0.1562347412109375 0.0237884521484375 -2.130615234375 3.531494140625 0.0002981424331665039 0.0002741217613220215 -0.00360870361328125 0.0933990478515625
18.319 0.15643310546875 0.0167388916015625 -1.828369140625 3.676025390625 8.644163608551025e-05 0.00014804303646087646 0.00107574462890625 0.09616851806640625
18.32875 0.15749359130859375 0.0112762451171875 -1.517822265625 3.7838134765625 0.0007238686084747314 0.00013944506645202637 0.01194000244140625 0.09579086303710938
18.3385 0.1573944091796875 0.0017547607421875 -1.209716796875 3.85986328125 0.0011047124862670898 0.0009136199951171875 0.019283294677734375 0.09777450561523438
18.34825 0.1563262939453125 -0.0060882568359375 -0.917236328125 3.924072265625 0.0012649297714233398 0.0004895329475402832 0.025394439697265625 0.09801101684570312
18.358 0.15622711181640625 -0.0134735107421875 -0.6241455078125 3.968994140625 0.00213468074798584 -0.00020110607147216797 0.033416748046875 0.095916748046875
18.36775 0.15500640869140625 -0.019989013671875 -0.318603515625 3.99951171875 0.0006254017353057861 3.141164779663086e-05 0.0413360595703125 0.09405517578125
18.3775 0.1544189453125 -0.0275421142578125 -0.022216796875 4.017333984375 0.0004259347915649414 0.00018155574798583984 0.0470733642578125 0.09267425537109375
18.38725 0.151397705078125 -0.03542327880859375 0.300048828125 4.004150390625 0.0007360577583312988 -0.0002503395080566406 0.054046630859375 0.09063720703125
18.397 0.14928436279296875 -0.0423126220703125 0.621826171875 3.960693359375 0.0012053847312927246 -0.0005523562431335449 0.06122589111328125 0.08754730224609375
18.40675 0.146514892578125 -0.04937744140625 0.94580078125 3.8876953125 0.0007101297378540039 0.0009877681732177734 0.069000244140625 0.0836639404296875
18.4165 0.14263153076171875 -0.05673980712890625 1.24609375 3.779296875 0.000751197338104248 0.0005608797073364258 0.0753631591796875 0.0794677734375
18.42625 0.138916015625 -0.06423187255859375 1.523193359375 3.636962890625 0.0010964274406433105 -0.00035631656646728516 0.08141326904296875 0.07505035400390625
18.436 0.1336822509765625 -0.06949615478515625 1.778076171875 3.48486328125 0.0010474324226379395 -0.0007513761520385742 0.088897705078125 0.06908416748046875
18.44575 0.12827301025390625 -0.0777740478515625 2.01708984375 3.32763671875 0.002271890640258789 0.0007996559143066406 0.09222412109375 0.06334686279296875
18.4555 0.12391281127929688 -0.08287811279296875 2.241943359375 3.157958984375 0.0014581084251403809 0.00032454729080200195 0.0966796875 0.057159423828125
18.46525 0.11975860595703125 -0.0889434814453125 2.467041015625 2.994384765625 0.001026153564453125 2.008676528930664e-05 0.1041259765625 0.0492706298828125
18.475 0.11204147338867188 -0.09489059448242188 2.686767578125 2.809326171875 0.001000523567199707 0.001204848289489746 0.10699462890625 0.044342041015625
18.48475 0.10875320434570312 -0.10113525390625 2.901123046875 2.597900390625 0.0009832978248596191 -7.492303848266602e-05 0.1114349365234375 0.03546905517578125
18.4945 0.10218048095703125 -0.10535049438476562 3.099609375 2.3515625 -0.00022996962070465088 -3.898143768310547e-05 0.11287689208984375 0.0277557373046875
18.50425 0.0953216552734375 -0.11185455322265625 3.28125 2.0869140625 0.0006204843521118164 0.00012046098709106445 0.115264892578125 0.020843505859375
18.514 0.09015655517578125 -0.11457061767578125 3.4228515625 1.80224609375 0.0013141632080078125 -0.0003948211669921875 0.116851806640625 0.0130767822265625
18.52375 0.0821990966796875 -0.115631103515625 3.527587890625 1.51123046875 0.0009340941905975342 -1.2516975402832031e-06 0.11909103393554688 0.005718231201171875
18.5335 0.07616806030273438 -0.12035369873046875 3.60205078125 1.22802734375 0.0006673932075500488 0.0005502104759216309 0.11981582641601562 -0.002849578857421875
18.54325 0.06888198852539062 -0.12428665161132812 3.654052734375 0.955810546875 0.0016808509826660156 -0.000617682933807373 0.11684036254882812 -0.01175689697265625
18.553 0.0613250732421875 -0.12592315673828125 3.688232421875 0.686279296875 0.000594019889831543 0.0010944008827209473 0.11425018310546875 -0.017772674560546875
18.56275 0.0540313720703125 -0.12564849853515625 3.722900390625 0.42236328125 0.0010426044464111328 -0.000735163688659668 0.11445999145507812 -0.024627685546875
18.5725 0.04692840576171875 -0.12689208984375 3.740478515625 0.1478271484375 0.001469254493713379 -0.0009097456932067871 0.10917282104492188 -0.0330047607421875
18.58225 0.03936767578125 -0.127960205078125 3.7413330078125 -0.1334228515625 0.0021986961364746094 -0.0002168416976928711 0.1084747314453125 -0.0399627685546875
18.592 0.03165435791015625 -0.12924957275390625 3.7169189453125 -0.4273681640625 0.0009606480598449707 -0.001347959041595459 0.10500717163085938 -0.047458648681640625
18.60175 0.023193359375 -0.1295623779296875 3.66552734375 -0.722900390625 0.0015680789947509766 0.0005688667297363281 0.09991455078125 -0.05304718017578125
18.6115 0.0145111083984375 -0.1292724609375 3.577392578125 -1.004150390625 0.001748204231262207 -0.000583648681640625 0.09600830078125 -0.06075286865234375
18.62125 0.00638580322265625 -0.1291046142578125 3.4639892578125 -1.271728515625 0.0002902597188949585 -0.0002886354923248291 0.090728759765625 -0.0668792724609375
18.631 -0.00063323974609375 -0.12816619873046875 3.3309326171875 -1.5025634765625 0.0010238885879516602 -0.0009846091270446777 0.08501434326171875 -0.07087326049804688
18.64075 -0.00693511962890625 -0.12612152099609375 3.186767578125 -1.725341796875 0.0009342432022094727 -0.0005187094211578369 0.08100509643554688 -0.0751800537109375
18.6505 -0.01390838623046875 -0.12505340576171875 3.0445556640625 -1.9368896484375 0.0013402104377746582 -0.0004171133041381836 0.07528305053710938 -0.07972335815429688
18.66025 -0.02225494384765625 -0.1236419677734375 2.8970947265625 -2.1424560546875 0.0009100139141082764 -0.0004481077194213867 0.06802749633789062 -0.0816497802734375
18.67 -0.02651214599609375 -0.11997222900390625 2.735595703125 -2.341796875 0.0011981725692749023 -0.0008739829063415527 0.06280136108398438 -0.082366943359375
18.67975 -0.0347137451171875 -0.1167144775390625 2.5609130859375 -2.54248046875 0.0006936788558959961 9.530782699584961e-05 0.05596160888671875 -0.0873260498046875
