!Created with skrf (http://scikit-rf.org).
# GHz S RI R 50.0 
!freq ReS11 ImS11 ReS21 ImS21 ReS12 ImS12 ReS22 ImS22
17.5 0.019161224365234375 -0.11980056762695312 -1.89794921875 2.659912109375 -0.0016289353370666504 -0.0002658963203430176 0.08577728271484375 -0.004695892333984375
17.50975 0.01177215576171875 -0.11750030517578125 -1.6724853515625 2.7947998046875 -0.0013447999954223633 -0.0008186101913452148 0.08696365356445312 -0.006786346435546875
17.5195 0.006496429443359375 -0.11231613159179688 -1.4398193359375 2.9058837890625 -0.0012269020080566406 -0.0007053613662719727 0.0901336669921875 -0.007251739501953125
17.52925 0.0009307861328125 -0.1096343994140625 -1.2047119140625 3.005615234375 -0.0017374753952026367 6.794929504394531e-06 0.09104537963867188 -0.011280059814453125
17.539 -0.00237274169921875 -0.10604095458984375 -0.9677734375 3.075439453125 -0.001104116439819336 -0.0009047985076904297 0.0936279296875 -0.0134124755859375
17.54875 -0.00852203369140625 -0.1029510498046875 -0.7283935546875 3.123779296875 -0.003610849380493164 -0.0008995532989501953 0.09565353393554688 -0.016674041748046875
17.5585 -0.016910552978515625 -0.0986480712890625 -0.48779296875 3.1700439453125 -0.0013442039489746094 -0.0008852481842041016 0.09662628173828125 -0.019931793212890625
17.56825 -0.019744873046875 -0.097381591796875 -0.253662109375 3.199462890625 -0.0016733407974243164 -0.0006082057952880859 0.09745025634765625 -0.02320098876953125
17.578 -0.024372100830078125 -0.09151458740234375 -0.0015869140625 3.2069091796875 -0.001360177993774414 -0.001812577247619629 0.09953689575195312 -0.0261688232421875
17.58775 -0.027729034423828125 -0.0904388427734375 0.2523193359375 3.1981201171875 -0.0018543004989624023 -0.0009796619415283203 0.09964752197265625 -0.0283203125
17.5975 -0.03055572509765625 -0.08417892456054688 0.5155029296875 3.159423828125 -0.0005034208297729492 -0.0010132789611816406 0.10062789916992188 -0.032733917236328125
17.60725 -0.035411834716796875 -0.07995986938476562 0.763671875 3.09619140625 -0.001315772533416748 -0.000339508056640625 0.09850311279296875 -0.036407470703125
17.617 -0.038784027099609375 -0.07580184936523438 1.00048828125 3.0068359375 -0.0023355484008789062 -0.0008525848388671875 0.10008621215820312 -0.039127349853515625
17.62675 -0.042049407958984375 -0.07047653198242188 1.220947265625 2.895751953125 -0.0017461776733398438 -0.0003198385238647461 0.10018157958984375 -0.043560028076171875
17.6365 -0.04486846923828125 -0.0654144287109375 1.421875 2.77197265625 -0.0012160539627075195 4.279613494873047e-05 0.1004486083984375 -0.049652099609375
17.64625 -0.047641754150390625 -0.059734344482421875 1.603515625 2.648681640625 -0.0009177625179290771 0.0004722177982330322 0.0972442626953125 -0.052227020263671875
17.656 -0.04949951171875 -0.056201934814453125 1.780517578125 2.520751953125 -0.0011023879051208496 -0.0005433559417724609 0.09354400634765625 -0.056514739990234375
17.66575 -0.050716400146484375 -0.048999786376953125 1.9521484375 2.397216796875 -0.0011312365531921387 -0.0001285076141357422 0.09415054321289062 -0.061283111572265625
17.6755 -0.054107666015625 -0.0439910888671875 2.12109375 2.258056640625 -0.0017691850662231445 0.00016820430755615234 0.09149169921875 -0.06534957885742188
17.68525 -0.054500579833984375 -0.038524627685546875 2.29345703125 2.113037109375 -0.0016127824783325195 0.00012427568435668945 0.08829116821289062 -0.06894683837890625
17.695 -0.05629730224609375 -0.033931732177734375 2.465087890625 1.937255859375 -0.0016137361526489258 -0.00039780139923095703 0.08630752563476562 -0.07294082641601562
17.70475 -0.056789398193359375 -0.0279388427734375 2.623046875 1.7353515625 -0.002579808235168457 0.0005515813827514648 0.08331680297851562 -0.07701873779296875
17.7145 -0.059337615966796875 -0.0225982666015625 2.763427734375 1.510009765625 -0.00190812349319458 0.0010152459144592285 0.07917022705078125 -0.08051300048828125
17.72425 -0.05910491943359375 -0.018230438232421875 2.86669921875 1.271728515625 -0.002473592758178711 -0.00039756298065185547 0.0742950439453125 -0.08507156372070312
17.734 -0.0603790283203125 -0.010898590087890625 2.937255859375 1.0291748046875 -0.0014525055885314941 0.0015781521797180176 0.07196044921875 -0.08820724487304688
17.74375 -0.0623931884765625 -0.00621795654296875 2.973388671875 0.79296875 -0.0009539127349853516 0.0008276700973510742 0.069671630859375 -0.0909881591796875
17.7535 -0.0605621337890625 -0.0022335052490234375 2.9952392578125 0.5701904296875 -0.0020728111267089844 0.0014771223068237305 0.0641021728515625 -0.09421157836914062
17.76325 -0.058528900146484375 0.0029449462890625 3.015869140625 0.3656005859375 -0.001187741756439209 0.0006504654884338379 0.056507110595703125 -0.0959930419921875
17.773 -0.05874824523925781 0.006320953369140625 3.028564453125 0.164306640625 -0.0009479522705078125 0.0012143850326538086 0.0546875 -0.0982208251953125
17.78275 -0.05666351318359375 0.010679244995117188 3.0343017578125 -0.043701171875 -0.0015183687210083008 0.0008106231689453125 0.0501556396484375 -0.10146331787109375
17.7925 -0.055568695068359375 0.016538619995117188 3.0390625 -0.26123046875 -0.001974821090698242 0.0004943609237670898 0.04509735107421875 -0.10161972045898438
17.80225 -0.054042816162109375 0.019853591918945312 3.03125 -0.492919921875 -0.0013136863708496094 0.000444948673248291 0.042194366455078125 -0.10356521606445312
17.812 -0.051280975341796875 0.025777816772460938 2.9942626953125 -0.72998046875 0.00022709369659423828 0.0005984008312225342 0.03452301025390625 -0.10341644287109375
17.82175 -0.048095703125 0.031780242919921875 2.93505859375 -0.9671630859375 -0.002010345458984375 0.0007497072219848633 0.031078338623046875 -0.1043243408203125
17.8315 -0.046779632568359375 0.035793304443359375 2.840576171875 -1.1968994140625 -0.0011362433433532715 0.0018147826194763184 0.024166107177734375 -0.10582351684570312
17.84125 -0.045162200927734375 0.04038238525390625 2.733154296875 -1.41259765625 -0.001681685447692871 0.001572251319885254 0.0186614990234375 -0.1058349609375
17.851 -0.042087554931640625 0.04719734191894531 2.5936279296875 -1.60205078125 -0.0027931928634643555 0.001548171043395996 0.013095855712890625 -0.10519027709960938
17.86075 -0.04124641418457031 0.04894065856933594 2.466552734375 -1.774169921875 -0.002497553825378418 0.00016880035400390625 0.007137298583984375 -0.1034088134765625
17.8705 -0.03732872009277344 0.0527191162109375 2.327880859375 -1.9371337890625 -0.0012809038162231445 0.00010907649993896484 0.003040313720703125 -0.10367202758789062
17.88025 -0.033740997314453125 0.05813789367675781 2.1873779296875 -2.0936279296875 -5.619227886199951e-05 0.0003613978624343872 -0.00455474853515625 -0.101409912109375
17.89 -0.03108978271484375 0.062450408935546875 2.044921875 -2.246826171875 -0.0013394355773925781 0.0007112026214599609 -0.007694244384765625 -0.10148239135742188
17.89975 -0.02863311767578125 0.06405258178710938 1.8812255859375 -2.404296875 3.713369369506836e-05 0.0014609098434448242 -0.0137176513671875 -0.09979248046875
17.9095 -0.024990081787109375 0.06833267211914062 1.7041015625 -2.555908203125 -0.0003413558006286621 0.0008910000324249268 -0.018962860107421875 -0.0981903076171875
17.91925 -0.021045684814453125 0.06974411010742188 1.50390625 -2.6885986328125 -0.0007854104042053223 0.0010628700256347656 -0.0219879150390625 -0.096405029296875
17.929 -0.016571044921875 0.07355499267578125 1.291015625 -2.8076171875 -0.002365589141845703 0.0012671947479248047 -0.0281219482421875 -0.0948944091796875
17.93875 -0.013111114501953125 0.07536697387695312 1.0653076171875 -2.896484375 0.0005075931549072266 0.0008355379104614258 -0.033199310302734375 -0.09039306640625
17.9485 -0.0088653564453125 0.077545166015625 0.8441162109375 -2.958251953125 0.0004208087921142578 0.0014958977699279785 -0.038120269775390625 -0.08744430541992188
17.95825 -0.004009246826171875 0.079315185546875 0.6187744140625 -3.0025634765625 -0.0013321638107299805 0.0009923577308654785 -0.039676666259765625 -0.08539962768554688
17.968 -0.00070953369140625 0.08224868774414062 0.4041748046875 -3.0347900390625 -0.0013216733932495117 0.0019875764846801758 -0.04566192626953125 -0.0830078125
17.97775 0.0051116943359375 0.08201217651367188 0.193115234375 -3.054931640625 -0.000249326229095459 0.0019443631172180176 -0.0496368408203125 -0.07630157470703125
17.9875 0.01061248779296875 0.08455276489257812 -0.0279541015625 -3.072998046875 0.00025081634521484375 0.0014634132385253906 -0.05289459228515625 -0.07509613037109375
17.99725 0.01544189453125 0.08632659912109375 -0.2508544921875 -3.0806884765625 9.906291961669922e-05 0.0010957717895507812 -0.056549072265625 -0.07001495361328125
18.007 0.0208892822265625 0.08721160888671875 -0.4871826171875 -3.072509765625 -0.0003444552421569824 0.0019156336784362793 -0.06002044677734375 -0.065582275390625
18.01675 0.02666473388671875 0.08810806274414062 -0.7244873046875 -3.03759765625 0.0001150667667388916 0.0005015730857849121 -0.06431198120117188 -0.060131072998046875
18.0265 0.031833648681640625 0.08890533447265625 -0.968994140625 -2.9879150390625 -8.893013000488281e-05 0.0020296573638916016 -0.06959152221679688 -0.054462432861328125
18.03625 0.037261962890625 0.0909881591796875 -1.20361328125 -2.8974609375 -0.00014162063598632812 0.00247955322265625 -0.070831298828125 -0.049591064453125
18.046 0.04424285888671875 0.089691162109375 -1.431884765625 -2.79296875 8.881092071533203e-05 0.0012993812561035156 -0.07278060913085938 -0.04555511474609375
18.05575 0.04694366455078125 0.08740997314453125 -1.634521484375 -2.674072265625 -0.0006736516952514648 0.0012469291687011719 -0.07662582397460938 -0.038928985595703125
18.0655 0.05149078369140625 0.09027862548828125 -1.8212890625 -2.537109375 3.725290298461914e-06 0.0009458959102630615 -0.07973480224609375 -0.03412628173828125
18.07525 0.0587615966796875 0.088165283203125 -2.00146484375 -2.396484375 0.0012274980545043945 0.000864863395690918 -0.0804290771484375 -0.029033660888671875
18.085 0.06346893310546875 0.0872650146484375 -2.176513671875 -2.24853515625 0.00028628110885620117 0.001119852066040039 -0.08213424682617188 -0.02378082275390625
18.09475 0.06826019287109375 0.0853729248046875 -2.3466796875 -2.087646484375 -0.0002688765525817871 0.0014908909797668457 -0.08009719848632812 -0.0167999267578125
18.1045 0.07384490966796875 0.08405303955078125 -2.5068359375 -1.91748046875 0.0010663270950317383 0.0006923675537109375 -0.08362197875976562 -0.0111541748046875
18.11425 0.07961273193359375 0.08411407470703125 -2.6591796875 -1.72021484375 0.00033396482467651367 0.0006716251373291016 -0.08184432983398438 -0.0057373046875
18.124 0.083038330078125 0.079498291015625 -2.7919921875 -1.51416015625 0.0007750988006591797 0.0009728670120239258 -0.08205413818359375 0.00159454345703125
18.13375 0.08844757080078125 0.07785797119140625 -2.9091796875 -1.298095703125 0.0004889965057373047 0.0008766055107116699 -0.08108901977539062 0.007709503173828125
18.1435 0.09236907958984375 0.07483673095703125 -2.99853515625 -1.06884765625 -0.0006635487079620361 0.0005047321319580078 -0.08228302001953125 0.014949798583984375
18.15325 0.098419189453125 0.0712890625 -3.0751953125 -0.8304443359375 0.0007617473602294922 0.0015106201171875 -0.08016586303710938 0.021633148193359375
18.163 0.10345458984375 0.06674957275390625 -3.1297607421875 -0.593505859375 0.00019109249114990234 0.0011892318725585938 -0.07822036743164062 0.027591705322265625
18.17275 0.10842132568359375 0.06485748291015625 -3.1689453125 -0.35400390625 0.0011396408081054688 0.0008172988891601562 -0.073760986328125 0.033229827880859375
18.1825 0.114013671875 0.058502197265625 -3.197998046875 -0.113525390625 0.0005045533180236816 0.001093447208404541 -0.0722503662109375 0.04034423828125
18.19225 0.1170501708984375 0.055419921875 -3.21240234375 0.1341552734375 0.0004183650016784668 0.001114964485168457 -0.06907272338867188 0.046344757080078125
18.202 0.1209869384765625 0.0510406494140625 -3.196044921875 0.38134765625 0.0003313422203063965 0.0010570883750915527 -0.06721878051757812 0.051570892333984375
18.21175 0.1249237060546875 0.0464935302734375 -3.16259765625 0.63916015625 0.0009088516235351562 0.0008568763732910156 -0.062713623046875 0.05747222900390625
18.2215 0.129425048828125 0.04018402099609375 -3.10009765625 0.8905029296875 0.001953125 0.0007064342498779297 -0.05833625793457031 0.06239128112792969
18.23125 0.13239288330078125 0.03594207763671875 -3.0172119140625 1.126953125 0.0004380941390991211 0.0010724663734436035 -0.054042816162109375 0.06687545776367188
18.241 0.13611602783203125 0.03073883056640625 -2.914794921875 1.3558349609375 0.0008143186569213867 0.0006856918334960938 -0.050296783447265625 0.07141494750976562
18.25075 0.13840484619140625 0.02434539794921875 -2.79833984375 1.5670166015625 0.0009430050849914551 0.0004925131797790527 -0.044708251953125 0.07633209228515625
18.2605 0.13976287841796875 0.0199127197265625 -2.6673583984375 1.7691650390625 0.001477956771850586 0.001183152198791504 -0.038967132568359375 0.07880401611328125
18.27025 0.1414794921875 0.0133819580078125 -2.5328369140625 1.9676513671875 0.0006796419620513916 -0.000462263822555542 -0.031192779541015625 0.0848846435546875
18.28 0.143890380859375 0.00577545166015625 -2.3822021484375 2.166748046875 0.0003129541873931885 -0.0005929172039031982 -0.0267333984375 0.085662841796875
18.28975 0.1468505859375 -0.00135040283203125 -2.2177734375 2.3507080078125 0.0006952583789825439 -0.0003273487091064453 -0.01927947998046875 0.09049224853515625
18.2995 0.14771270751953125 -0.00641632080078125 -2.0264892578125 2.524658203125 0.0007381439208984375 0.0008133053779602051 -0.010791778564453125 0.091339111328125
18.30925 0.1475067138671875 -0.014984130859375 -1.8134765625 2.684326171875 0.0016529560089111328 0.0007314682006835938 -0.00439453125 0.0937042236328125
18.319 0.14577484130859375 -0.02257537841796875 -1.5882568359375 2.8101806640625 0.0022383928298950195 0.0007317066192626953 0.001224517822265625 0.09514999389648438
18.32875 0.146942138671875 -0.0267333984375 -1.357666015625 2.9169921875 0.0008527040481567383 0.0002811551094055176 0.010219573974609375 0.09524154663085938
18.3385 0.147003173828125 -0.03430938720703125 -1.125244140625 2.99658203125 0.001081228256225586 -0.0004590749740600586 0.01811981201171875 0.09623336791992188
18.34825 0.1464996337890625 -0.04378509521484375 -0.8984375 3.0679931640625 0.001719832420349121 0.0006504058837890625 0.024112701416015625 0.09739303588867188
18.358 0.1453857421875 -0.04961395263671875 -0.669921875 3.1217041015625 0.0008248686790466309 0.0009593963623046875 0.032958984375 0.0941925048828125
18.36775 0.143585205078125 -0.05529022216796875 -0.4315185546875 3.165771484375 0.0016739368438720703 0.00042641162872314453 0.04022216796875 0.0935821533203125
18.3775 0.1416778564453125 -0.06275177001953125 -0.19873046875 3.200439453125 0.0013151168823242188 0.0003008246421813965 0.04691314697265625 0.091461181640625
18.38725 0.13812255859375 -0.07012176513671875 0.0604248046875 3.2113037109375 0.0016556978225708008 -0.00038880109786987305 0.05474090576171875 0.0914459228515625
18.397 0.1368560791015625 -0.076019287109375 0.31689453125 3.194091796875 0.0010273456573486328 0.0005222558975219727 0.0604705810546875 0.08740234375
18.40675 0.1341094970703125 -0.08209228515625 0.58056640625 3.155517578125 0.0016275644302368164 2.6464462280273438e-05 0.0692138671875 0.083251953125
18.4165 0.1308135986328125 -0.08774566650390625 0.8250732421875 3.085205078125 0.0007979273796081543 0.0004018545150756836 0.07538604736328125 0.08001708984375
18.42625 0.12545013427734375 -0.0950927734375 1.0560302734375 2.9893798828125 0.001026749610900879 -0.00010675191879272461 0.0808563232421875 0.07532501220703125
18.436 0.12108612060546875 -0.10101318359375 1.2685546875 2.882080078125 0.0010228753089904785 8.52346420288086e-06 0.08847808837890625 0.0702362060546875
18.44575 0.116302490234375 -0.1071624755859375 1.468994140625 2.76806640625 0.0023212432861328125 9.119510650634766e-05 0.093017578125 0.0626983642578125
18.4555 0.11179733276367188 -0.11176681518554688 1.65576171875 2.646240234375 0.0013233423233032227 0.0007103681564331055 0.09725189208984375 0.05736541748046875
18.46525 0.10649490356445312 -0.1168212890625 1.846435546875 2.5234375 0.0011372566223144531 -0.0004311203956604004 0.10296630859375 0.05023193359375
18.475 0.09889984130859375 -0.121826171875 2.03466796875 2.3896484375 0.0030382871627807617 0.00028383731842041016 0.10662078857421875 0.04401397705078125
18.48475 0.095794677734375 -0.12776947021484375 2.2177734375 2.22900390625 0.001467287540435791 -9.912252426147461e-05 0.11060333251953125 0.035003662109375
18.4945 0.087982177734375 -0.1310577392578125 2.389404296875 2.043701171875 0.001251518726348877 -0.00045496225357055664 0.113616943359375 0.02667999267578125
18.50425 0.08184814453125 -0.135101318359375 2.546875 1.8388671875 0.0008764266967773438 5.6743621826171875e-05 0.1139373779296875 0.0201568603515625
18.514 0.0768890380859375 -0.1395721435546875 2.67236328125 1.61865234375 0.0020689964294433594 0.00047087669372558594 0.117462158203125 0.012725830078125
18.52375 0.067840576171875 -0.141876220703125 2.76904296875 1.389892578125 0.0010599493980407715 -6.61611557006836e-05 0.1172332763671875 0.005031585693359375
18.5335 0.06365203857421875 -0.14615631103515625 2.8414306640625 1.169921875 0.002476215362548828 -0.00040209293365478516 0.11871337890625 -0.00389862060546875
18.54325 0.05515289306640625 -0.14875030517578125 2.893310546875 0.955078125 0.0002849102020263672 -0.0006932616233825684 0.11809539794921875 -0.011539459228515625
18.553 0.0487823486328125 -0.1525115966796875 2.9373779296875 0.7445068359375 0.001525282859802246 -9.447336196899414e-05 0.11431121826171875 -0.01834869384765625
18.56275 0.0426788330078125 -0.15113067626953125 2.9814453125 0.5369873046875 0.0003129243850708008 -0.001026749610900879 0.11458206176757812 -0.02622222900390625
18.5725 0.03417205810546875 -0.15411376953125 3.00830078125 0.321533203125 0.0015482306480407715 -0.0008456707000732422 0.11008453369140625 -0.034633636474609375
18.58225 0.0284576416015625 -0.15599822998046875 3.0269775390625 0.09912109375 0.0011363625526428223 -0.0003393888473510742 0.1085357666015625 -0.042266845703125
18.592 0.02169036865234375 -0.15569305419921875 3.0234375 -0.1337890625 0.0021299123764038086 -0.00037157535552978516 0.10533523559570312 -0.04773712158203125
18.60175 0.0140533447265625 -0.1548919677734375 3.002685546875 -0.369384765625 0.0012224912643432617 -0.0013196468353271484 0.0992889404296875 -0.05431365966796875
18.6115 0.00640869140625 -0.155059814453125 2.9503173828125 -0.595458984375 0.0013666749000549316 -0.0017281174659729004 0.09621429443359375 -0.060626983642578125
18.62125 -0.0009918212890625 -0.1546630859375 2.8740234375 -0.811767578125 0.0012492537498474121 -0.0010919570922851562 0.090545654296875 -0.06731033325195312
18.631 -0.0071563720703125 -0.1541595458984375 2.78857421875 -0.9993896484375 0.0010647177696228027 -7.861852645874023e-05 0.08535385131835938 -0.07121658325195312
18.64075 -0.01381683349609375 -0.15316009521484375 2.6888427734375 -1.1832275390625 0.0013412237167358398 -0.0008909702301025391 0.08001327514648438 -0.07561492919921875
18.6505 -0.0213775634765625 -0.15193939208984375 2.5941162109375 -1.3583984375 0.0024448633193969727 -0.0008373260498046875 0.07376480102539062 -0.0800628662109375
18.66025 -0.02899932861328125 -0.1500396728515625 2.490966796875 -1.5242919921875 0.0018315911293029785 -0.00029277801513671875 0.06800460815429688 -0.08214950561523438
18.67 -0.0342254638671875 -0.1476898193359375 2.3837890625 -1.6943359375 0.0017966032028198242 0.0001285076141357422 0.062744140625 -0.0846710205078125
18.67975 -0.04247283935546875 -0.14583587646484375 2.265869140625 -1.8651123046875 0.0010924339294433594 -0.000506281852722168 0.056438446044921875 -0.08790206909179688
