!Created with skrf (http://scikit-rf.org).
# GHz S RI R 50.0 
!freq ReS11 ImS11 ReS21 ImS21 ReS12 ImS12 ReS22 ImS22
17.5 0.02252197265625 -0.1621856689453125 -2.34033203125 2.543212890625 -0.001031041145324707 -0.00037789344787597656 0.08458328247070312 -0.006351470947265625
17.50975 0.0141754150390625 -0.1622314453125 -2.14111328125 2.717529296875 -0.0020380020141601562 -0.0005754232406616211 0.08649444580078125 -0.006195068359375
17.5195 0.00621795654296875 -0.158203125 -1.923828125 2.8714599609375 -0.0014103055000305176 0.00016188621520996094 0.08977508544921875 -0.00608062744140625
17.52925 -0.0030517578125 -0.15708160400390625 -1.7039794921875 3.015869140625 -0.0015427470207214355 0.0002321004867553711 0.09249114990234375 -0.012569427490234375
17.539 -0.008270263671875 -0.15277099609375 -1.474365234375 3.135009765625 -0.0014737844467163086 -0.000293731689453125 0.0927581787109375 -0.01448822021484375
17.54875 -0.01688385009765625 -0.150909423828125 -1.2381591796875 3.2357177734375 -0.00015532970428466797 0.0004069209098815918 0.09432601928710938 -0.016475677490234375
17.5585 -0.02715301513671875 -0.14653778076171875 -0.9979248046875 3.32763671875 -0.0017214417457580566 0.00046116113662719727 0.0967559814453125 -0.0201568603515625
17.56825 -0.03249359130859375 -0.1443023681640625 -0.76220703125 3.40966796875 -0.001465439796447754 -0.0008436441421508789 0.097076416015625 -0.022899627685546875
17.578 -0.039947509765625 -0.14061737060546875 -0.4984130859375 3.4730224609375 -0.0008028149604797363 -0.0002727508544921875 0.09879302978515625 -0.0256500244140625
17.58775 -0.0470428466796875 -0.137176513671875 -0.2274169921875 3.516357421875 -0.0010631680488586426 0.0008391737937927246 0.09965133666992188 -0.0298004150390625
17.5975 -0.05294036865234375 -0.130859375 0.057861328125 3.5335693359375 -0.0017912983894348145 0.0010781288146972656 0.10094451904296875 -0.03424835205078125
17.60725 -0.060028076171875 -0.12812042236328125 0.33642578125 3.5194091796875 -0.001993536949157715 -0.00017762184143066406 0.0985260009765625 -0.037555694580078125
17.617 -0.06678009033203125 -0.1211090087890625 0.611328125 3.473876953125 -0.001755833625793457 0.0006947517395019531 0.10092926025390625 -0.040943145751953125
17.62675 -0.07323455810546875 -0.11566925048828125 0.871337890625 3.40576171875 -0.0007466375827789307 0.0008322000503540039 0.09999465942382812 -0.04610443115234375
17.6365 -0.0782012939453125 -0.1090240478515625 1.119140625 3.31884765625 -0.000767827033996582 6.526708602905273e-05 0.09998321533203125 -0.04976654052734375
17.64625 -0.08368682861328125 -0.10198211669921875 1.3515625 3.228759765625 -0.0014835596084594727 0.0005788803100585938 0.09698486328125 -0.05382537841796875
17.656 -0.088836669921875 -0.09705352783203125 1.572998046875 3.12841796875 -0.001373589038848877 0.0014871954917907715 0.09379959106445312 -0.057056427001953125
17.66575 -0.092254638671875 -0.0880279541015625 1.794677734375 3.03076171875 -0.0012565255165100098 -0.0002900362014770508 0.09321975708007812 -0.06221771240234375
17.6755 -0.09897613525390625 -0.08313751220703125 2.014892578125 2.911376953125 -0.0006809830665588379 0.0012971162796020508 0.09033203125 -0.06506729125976562
17.68525 -0.1032257080078125 -0.075347900390625 2.24609375 2.78955078125 -0.0010710358619689941 0.0011303424835205078 0.08930587768554688 -0.06953811645507812
17.695 -0.1060028076171875 -0.06859588623046875 2.481689453125 2.635498046875 -0.00022685527801513672 0.001175224781036377 0.08663177490234375 -0.07368850708007812
17.70475 -0.1097564697265625 -0.05915069580078125 2.711181640625 2.4404296875 -0.0011410117149353027 0.0015160441398620605 0.08334732055664062 -0.07686614990234375
17.7145 -0.1141204833984375 -0.05181121826171875 2.921142578125 2.216796875 -4.1954219341278076e-05 -3.2782554626464844e-05 0.0784454345703125 -0.07973861694335938
17.72425 -0.11502838134765625 -0.044219970703125 3.09716796875 1.9658203125 -0.001251816749572754 0.0005280971527099609 0.0753326416015625 -0.08426666259765625
17.734 -0.11777496337890625 -0.03589630126953125 3.238525390625 1.703369140625 -0.0006723999977111816 0.0013408660888671875 0.07159042358398438 -0.0887298583984375
17.74375 -0.1186981201171875 -0.0284423828125 3.3349609375 1.43701171875 0.00011689960956573486 -1.7240643501281738e-05 0.0679473876953125 -0.09404754638671875
17.7535 -0.11771392822265625 -0.02046966552734375 3.418212890625 1.18701171875 -0.00017124414443969727 0.0010420680046081543 0.06220245361328125 -0.09459686279296875
17.76325 -0.11920928955078125 -0.0100250244140625 3.4951171875 0.94873046875 -0.0009762942790985107 0.00012919306755065918 0.056667327880859375 -0.09531402587890625
17.773 -0.11879348754882812 -0.00440216064453125 3.558837890625 0.712646484375 -0.00020873546600341797 0.001193702220916748 0.052967071533203125 -0.09898757934570312
17.78275 -0.118927001953125 0.004566192626953125 3.616455078125 0.46240234375 -0.0009361505508422852 0.000813901424407959 0.04830169677734375 -0.09950637817382812
17.7925 -0.11679840087890625 0.011566162109375 3.6689453125 0.201416015625 0.0004993081092834473 0.0006474852561950684 0.0448455810546875 -0.10166549682617188
17.80225 -0.11568450927734375 0.020328521728515625 3.716552734375 -0.08154296875 -0.0018508434295654297 0.000958859920501709 0.039646148681640625 -0.10297393798828125
17.812 -0.11348724365234375 0.030269622802734375 3.728271484375 -0.376708984375 -0.0007482171058654785 0.0010181069374084473 0.032917022705078125 -0.10295486450195312
17.82175 -0.11134719848632812 0.0385284423828125 3.710693359375 -0.6832275390625 -0.0011449456214904785 0.0012136101722717285 0.029876708984375 -0.10389328002929688
17.8315 -0.10846710205078125 0.04621124267578125 3.656005859375 -0.9874267578125 -0.0014835596084594727 0.0015663504600524902 0.0238494873046875 -0.10443878173828125
17.84125 -0.10607147216796875 0.0527191162109375 3.568603515625 -1.279541015625 -0.00014340877532958984 0.0007146596908569336 0.016265869140625 -0.1045379638671875
17.851 -0.101837158203125 0.0631561279296875 3.4483642578125 -1.5499267578125 -0.0002148151397705078 0.0012006163597106934 0.01395416259765625 -0.10504531860351562
17.86075 -0.0980377197265625 0.06841278076171875 3.3248291015625 -1.7962646484375 0.0002919435501098633 0.001851797103881836 0.007015228271484375 -0.102203369140625
17.8705 -0.09466552734375 0.07629013061523438 3.188720703125 -2.0341796875 0.0006120204925537109 0.0018585920333862305 0.00091552734375 -0.1034393310546875
17.88025 -0.08998489379882812 0.08379364013671875 3.0501708984375 -2.270751953125 -0.0008407235145568848 0.0014186501502990723 -0.003871917724609375 -0.1023101806640625
17.89 -0.08457565307617188 0.09162139892578125 2.9039306640625 -2.5001220703125 -0.0011423230171203613 0.000663459300994873 -0.01004791259765625 -0.10146331787109375
17.89975 -0.0786285400390625 0.09640121459960938 2.7232666015625 -2.73876953125 0.0002593398094177246 0.0009884834289550781 -0.01415252685546875 -0.09965133666992188
17.9095 -0.07431411743164062 0.10296630859375 2.525390625 -2.9765625 0.0006986260414123535 0.0005298256874084473 -0.01915740966796875 -0.09851455688476562
17.91925 -0.06641769409179688 0.10681533813476562 2.29052734375 -3.18994140625 -0.0005103349685668945 0.0013571381568908691 -0.022735595703125 -0.0956268310546875
17.929 -0.06011962890625 0.1113433837890625 2.035888671875 -3.38818359375 7.748603820800781e-05 0.0022318363189697266 -0.03082275390625 -0.095458984375
17.93875 -0.05289459228515625 0.115753173828125 1.7550048828125 -3.556396484375 -0.00016397982835769653 0.00014559924602508545 -0.03199005126953125 -0.090118408203125
17.9485 -0.046051025390625 0.11954116821289062 1.469970703125 -3.6837158203125 0.0008344650268554688 0.0007907748222351074 -0.037761688232421875 -0.08703231811523438
17.95825 -0.038242340087890625 0.1241607666015625 1.181396484375 -3.791259765625 0.00017303228378295898 0.0008314251899719238 -0.040576934814453125 -0.08469772338867188
17.968 -0.03063201904296875 0.12793731689453125 0.8944091796875 -3.8765869140625 0.001004338264465332 0.0002593994140625 -0.04637908935546875 -0.08154296875
17.97775 -0.02291107177734375 0.1302337646484375 0.611328125 -3.9466552734375 0.00014445185661315918 -0.0004945695400238037 -0.05023193359375 -0.07700347900390625
17.9875 -0.01377105712890625 0.1337890625 0.309814453125 -4.010986328125 -7.547438144683838e-05 -0.0003126859664916992 -0.053009033203125 -0.0729827880859375
17.99725 -0.0056304931640625 0.13661956787109375 0.005615234375 -4.061279296875 0.0009124875068664551 0.00035816431045532227 -0.05728912353515625 -0.06790924072265625
18.007 0.0031280517578125 0.1368865966796875 -0.322998046875 -4.08447265625 0.0003750324249267578 0.0015910863876342773 -0.0608367919921875 -0.0636138916015625
18.01675 0.0116119384765625 0.1388702392578125 -0.659912109375 -4.076171875 0.0006608366966247559 0.0005571246147155762 -0.06465911865234375 -0.0599822998046875
18.0265 0.0204315185546875 0.13889312744140625 -1.010498046875 -4.03466796875 0.0008156895637512207 0.0007941722869873047 -0.0688629150390625 -0.055706024169921875
18.03625 0.028411865234375 0.1404266357421875 -1.35498046875 -3.94384765625 0.0003572404384613037 -0.00022110342979431152 -0.06887054443359375 -0.04927825927734375
18.046 0.0371551513671875 0.13823699951171875 -1.68896484375 -3.827880859375 0.0008068084716796875 0.00026863813400268555 -0.072265625 -0.04416656494140625
18.05575 0.04520416259765625 0.1360626220703125 -1.989013671875 -3.681396484375 0.0003624558448791504 8.220970630645752e-05 -0.07659149169921875 -0.03974151611328125
18.0655 0.05463409423828125 0.13592529296875 -2.274169921875 -3.5068359375 0.0006394386291503906 0.0003628730773925781 -0.08087921142578125 -0.031986236572265625
18.07525 0.0623779296875 0.13350677490234375 -2.545654296875 -3.319091796875 2.3499131202697754e-05 0.0002627074718475342 -0.0807342529296875 -0.02735137939453125
18.085 0.0699920654296875 0.1305389404296875 -2.810546875 -3.115966796875 -0.00011013448238372803 0.0002371668815612793 -0.08130264282226562 -0.022014617919921875
18.09475 0.07726287841796875 0.12652587890625 -3.06494140625 -2.897705078125 -0.00023651123046875 0.0014927983283996582 -0.08046722412109375 -0.01624298095703125
18.1045 0.085296630859375 0.121673583984375 -3.30322265625 -2.652587890625 0.0010986328125 0.000542759895324707 -0.08243942260742188 -0.00882720947265625
18.11425 0.09212493896484375 0.1192474365234375 -3.53076171875 -2.3759765625 0.000568389892578125 0.0014153718948364258 -0.08208847045898438 -0.005218505859375
18.124 0.0997467041015625 0.1155853271484375 -3.72607421875 -2.0791015625 0.0005018711090087891 0.0016026496887207031 -0.08165740966796875 0.00225830078125
18.13375 0.10649871826171875 0.1099090576171875 -3.898193359375 -1.771728515625 0.0010622739791870117 0.0003631114959716797 -0.08116531372070312 0.00893402099609375
18.1435 0.112457275390625 0.1037139892578125 -4.03271484375 -1.439697265625 0.0012085437774658203 0.0008141994476318359 -0.081451416015625 0.016139984130859375
18.15325 0.11904144287109375 0.0982208251953125 -4.136962890625 -1.093994140625 0.00026920437812805176 0.0003978908061981201 -0.0808258056640625 0.020969390869140625
18.163 0.12641143798828125 0.091705322265625 -4.2060546875 -0.751953125 0.00038395822048187256 -0.00045877695083618164 -0.0773162841796875 0.026584625244140625
18.17275 0.1310577392578125 0.085296630859375 -4.25048828125 -0.406494140625 -0.0002817213535308838 -7.186830043792725e-05 -0.07436752319335938 0.0328521728515625
18.1825 0.13704681396484375 0.07904815673828125 -4.27978515625 -0.062255859375 0.00036078691482543945 0.0011954307556152344 -0.07213211059570312 0.04010009765625
18.19225 0.13953399658203125 0.071075439453125 -4.277099609375 0.29443359375 0.0001497715711593628 0.00018170475959777832 -0.06910324096679688 0.04736328125
18.202 0.14521026611328125 0.0658721923828125 -4.2421875 0.640380859375 0.00047665834426879883 -9.450316429138184e-05 -0.0664520263671875 0.052341461181640625
18.21175 0.1477203369140625 0.058868408203125 -4.1689453125 1.0 0.0006025433540344238 -1.7940998077392578e-05 -0.062496185302734375 0.058124542236328125
18.2215 0.1528167724609375 0.04943084716796875 -4.056884765625 1.34423828125 -0.00022999942302703857 -0.00020197033882141113 -0.05774688720703125 0.061656951904296875
18.23125 0.1549072265625 0.04241180419921875 -3.921630859375 1.6678466796875 0.0009715557098388672 -0.0008464455604553223 -0.05324554443359375 0.06617355346679688
18.241 0.1565399169921875 0.03436279296875 -3.75439453125 1.9697265625 0.001443326473236084 -0.0009658336639404297 -0.049816131591796875 0.072235107421875
18.25075 0.15827178955078125 0.02674102783203125 -3.5673828125 2.249755859375 0.0001036524772644043 -0.0001579970121383667 -0.0441741943359375 0.07733535766601562
18.2605 0.15981292724609375 0.01924896240234375 -3.369384765625 2.5135498046875 -3.11732292175293e-05 0.001223921775817871 -0.0379486083984375 0.0821990966796875
18.27025 0.159759521484375 0.0108642578125 -3.1561279296875 2.7630615234375 0.00087776780128479 -0.00043696165084838867 -0.03130340576171875 0.08387374877929688
18.28 0.16143798828125 0.00118255615234375 -2.9271240234375 3.0142822265625 0.000721275806427002 -0.0006431639194488525 -0.025745391845703125 0.0865478515625
18.28975 0.16245269775390625 -0.00626373291015625 -2.6776123046875 3.2354736328125 0.00017908215522766113 -0.000697702169418335 -0.01837158203125 0.09071731567382812
18.2995 0.160552978515625 -0.01592254638671875 -2.399169921875 3.439453125 0.0010831952095031738 -0.000523984432220459 -0.01275634765625 0.09035873413085938
18.30925 0.1591796875 -0.0237884521484375 -2.09326171875 3.615478515625 0.00020611286163330078 0.0004558563232421875 -0.0038909912109375 0.0929107666015625
18.319 0.15677642822265625 -0.03173065185546875 -1.779052734375 3.7564697265625 0.001559436321258545 -0.00038254261016845703 0.000732421875 0.09498214721679688
18.32875 0.1564483642578125 -0.037109375 -1.4627685546875 3.8594970703125 0.0003535151481628418 0.0007878541946411133 0.010650634765625 0.0946807861328125
18.3385 0.15364837646484375 -0.04756927490234375 -1.1468505859375 3.927490234375 0.00028967857360839844 0.00041231513023376465 0.01914215087890625 0.09712600708007812
18.34825 0.1527862548828125 -0.05413818359375 -0.8447265625 3.9898681640625 0.0013024210929870605 -0.0001754164695739746 0.024929046630859375 0.09780120849609375
18.358 0.14884185791015625 -0.06195831298828125 -0.545166015625 4.025634765625 -0.0003669857978820801 -0.00013273954391479492 0.03377532958984375 0.09403228759765625
18.36775 0.14520263671875 -0.069580078125 -0.23291015625 4.0478515625 0.0006164312362670898 0.00032782554626464844 0.03987884521484375 0.09337615966796875
18.3775 0.1425628662109375 -0.075408935546875 0.07275390625 4.05908203125 0.0010737776756286621 -0.0009993314743041992 0.04836273193359375 0.09215545654296875
18.38725 0.13816070556640625 -0.082489013671875 0.3984375 4.037353515625 0.0009614825248718262 0.0007326602935791016 0.0543365478515625 0.0915985107421875
18.397 0.1339569091796875 -0.09100341796875 0.72216796875 3.98583984375 0.0008049607276916504 -3.921985626220703e-05 0.0608367919921875 0.0857696533203125
18.40675 0.1290283203125 -0.0954132080078125 1.05029296875 3.904296875 0.001239776611328125 0.0008816719055175781 0.0697479248046875 0.0820770263671875
18.4165 0.12423324584960938 -0.1016998291015625 1.348388671875 3.78515625 0.0012167096138000488 0.00012874603271484375 0.07505035400390625 0.07928466796875
18.42625 0.1184234619140625 -0.10736083984375 1.62890625 3.633544921875 0.0006074905395507812 -0.0004354715347290039 0.08061981201171875 0.07436370849609375
18.436 0.11156082153320312 -0.11179733276367188 1.88037109375 3.473388671875 0.0007279515266418457 6.207823753356934e-05 0.08889007568359375 0.0691680908203125
18.44575 0.10533523559570312 -0.11779022216796875 2.119140625 3.302734375 0.0011042952537536621 -0.0010741353034973145 0.09337615966796875 0.06339263916015625
18.4555 0.09907150268554688 -0.12224197387695312 2.339111328125 3.12939453125 -0.0005390644073486328 -0.0008032917976379395 0.097808837890625 0.056671142578125
18.46525 0.092498779296875 -0.12824249267578125 2.5634765625 2.95361328125 0.00107574462890625 -0.0003160238265991211 0.10321044921875 0.04938507080078125
18.475 0.08377838134765625 -0.13214874267578125 2.77978515625 2.76171875 0.0009232163429260254 -7.939338684082031e-05 0.10747528076171875 0.04286956787109375
18.48475 0.07977294921875 -0.1374053955078125 2.989501953125 2.54296875 0.0014433860778808594 -0.0006200075149536133 0.1099395751953125 0.03376007080078125
18.4945 0.070892333984375 -0.139007568359375 3.18359375 2.287109375 0.0009188652038574219 -0.00017726421356201172 0.1136016845703125 0.0258026123046875
18.50425 0.062896728515625 -0.1443023681640625 3.36181640625 2.01513671875 0.001019597053527832 -0.0005954504013061523 0.1158905029296875 0.0180816650390625
18.514 0.056488037109375 -0.14536285400390625 3.495849609375 1.727294921875 0.0007553398609161377 -0.0004239082336425781 0.11724853515625 0.01141357421875
18.52375 0.04888916015625 -0.14662933349609375 3.589599609375 1.429443359375 0.0008660554885864258 0.0006850361824035645 0.11761093139648438 0.00307464599609375
18.5335 0.0411376953125 -0.14853668212890625 3.65869140625 1.14208984375 0.00024597346782684326 -0.0001436769962310791 0.119415283203125 -0.005558013916015625
18.54325 0.0340118408203125 -0.15010833740234375 3.7021484375 0.8671875 -1.728534698486328e-05 -0.0008190572261810303 0.11832809448242188 -0.01329803466796875
18.553 0.0265045166015625 -0.1515655517578125 3.734130859375 0.5927734375 9.28044319152832e-05 -0.0010095834732055664 0.116607666015625 -0.018253326416015625
18.56275 0.01947021484375 -0.15050506591796875 3.762451171875 0.324462890625 0.0015420317649841309 0.0002314448356628418 0.11346817016601562 -0.0264434814453125
18.5725 0.011016845703125 -0.1497344970703125 3.772705078125 0.0504150390625 0.0019729137420654297 -0.001118302345275879 0.10995864868164062 -0.035457611083984375
18.58225 0.0034637451171875 -0.14945220947265625 3.7686767578125 -0.235107421875 0.00046938657760620117 -0.0015294551849365234 0.10783004760742188 -0.042377471923828125
18.592 -0.00391387939453125 -0.1494598388671875 3.735107421875 -0.5306396484375 0.0002278536558151245 -0.00046825408935546875 0.10387039184570312 -0.049518585205078125
18.60175 -0.0118408203125 -0.1474456787109375 3.6748046875 -0.828125 6.318092346191406e-06 -0.0006254911422729492 0.09857940673828125 -0.0546875
18.6115 -0.0198516845703125 -0.1447906494140625 3.5787353515625 -1.110595703125 0.0010061860084533691 -0.0018636584281921387 0.09571075439453125 -0.061695098876953125
18.62125 -0.02751922607421875 -0.14496612548828125 3.45751953125 -1.3778076171875 -3.6597251892089844e-05 -0.001003563404083252 0.08964920043945312 -0.06814193725585938
18.631 -0.034393310546875 -0.1423797607421875 3.3193359375 -1.6114501953125 0.001122593879699707 -0.0013788342475891113 0.08382034301757812 -0.07199859619140625
18.64075 -0.04055023193359375 -0.1391754150390625 3.1671142578125 -1.833984375 7.18832015991211e-05 -0.0010381340980529785 0.08115005493164062 -0.07638168334960938
18.6505 -0.04659271240234375 -0.13713836669921875 3.0179443359375 -2.0419921875 0.0003407597541809082 -0.0011505484580993652 0.07488632202148438 -0.08041000366210938
18.66025 -0.055999755859375 -0.13278961181640625 2.859375 -2.2437744140625 0.00047087669372558594 -0.001689136028289795 0.06739044189453125 -0.08292388916015625
18.67 -0.05870819091796875 -0.1305084228515625 2.693359375 -2.4447021484375 0.0003434419631958008 -0.0010492801666259766 0.06314468383789062 -0.085205078125
18.67975 -0.0665283203125 -0.12630462646484375 2.5140380859375 -2.6461181640625 -0.0006072521209716797 -0.0010342001914978027 0.05551910400390625 -0.08831787109375
18.6895 -0.07212066650390625 -0.12279510498046875 2.299560546875 -2.8309326171875 0.0007718801498413086 -0.0018778443336486816 0.049724578857421875 -0.08850479125976562
