!Created with skrf (http://scikit-rf.org).
# GHz S RI R 50.0 
!freq ReS11 ImS11 ReS21 ImS21 ReS12 ImS12 ReS22 ImS22
17.5 0.0083770751953125 -0.13896942138671875 -2.138671875 2.6658935546875 -0.0010082721710205078 0.0007367730140686035 0.08598709106445312 -0.0061492919921875
17.50975 -0.00186920166015625 -0.13706207275390625 -1.9119873046875 2.8251953125 -0.0015087127685546875 8.821487426757812e-05 0.08861160278320312 -0.005084991455078125
17.5195 -0.0066680908203125 -0.13367462158203125 -1.673583984375 2.9591064453125 -0.0008569955825805664 0.0008964836597442627 0.08960723876953125 -0.00555419921875
17.52925 -0.01409149169921875 -0.13063812255859375 -1.4324951171875 3.0780029296875 -0.0013655424118041992 7.456541061401367e-05 0.09151840209960938 -0.00876617431640625
17.539 -0.0200347900390625 -0.1260528564453125 -1.188720703125 3.1748046875 -0.0013360977172851562 0.0007163286209106445 0.09421539306640625 -0.01267242431640625
17.54875 -0.02826690673828125 -0.1217041015625 -0.93701171875 3.2437744140625 -0.0013962388038635254 0.0005307793617248535 0.09526824951171875 -0.014095306396484375
17.5585 -0.0365753173828125 -0.11814117431640625 -0.6864013671875 3.3037109375 -0.002530336380004883 0.0004932880401611328 0.09725570678710938 -0.017139434814453125
17.56825 -0.04074859619140625 -0.11402130126953125 -0.439697265625 3.3494873046875 -0.0018432140350341797 0.00015860795974731445 0.099090576171875 -0.021121978759765625
17.578 -0.04784393310546875 -0.108978271484375 -0.1719970703125 3.374267578125 -0.0014290213584899902 0.0010448694229125977 0.09954452514648438 -0.024707794189453125
17.58775 -0.054046630859375 -0.10459136962890625 0.099609375 3.3787841796875 -0.0006816983222961426 0.0006384849548339844 0.09969329833984375 -0.025653839111328125
17.5975 -0.0577850341796875 -0.0993804931640625 0.378662109375 3.356201171875 -0.0010367035865783691 -0.00019347667694091797 0.1013946533203125 -0.03151702880859375
17.60725 -0.0632476806640625 -0.094451904296875 0.647216796875 3.302490234375 -0.001440882682800293 -7.271766662597656e-05 0.10057830810546875 -0.033000946044921875
17.617 -0.07003021240234375 -0.08609771728515625 0.905029296875 3.2236328125 -0.0005882680416107178 0.00043195486068725586 0.10166549682617188 -0.038791656494140625
17.62675 -0.074066162109375 -0.080535888671875 1.14794921875 3.118896484375 -0.0007207393646240234 0.001168370246887207 0.10184860229492188 -0.041553497314453125
17.6365 -0.07879638671875 -0.0739898681640625 1.37109375 3.0009765625 -0.0007631182670593262 0.0004583597183227539 0.10155487060546875 -0.04508209228515625
17.64625 -0.08164215087890625 -0.06665802001953125 1.5712890625 2.875244140625 -1.990795135498047e-05 0.0011795759201049805 0.09914016723632812 -0.051517486572265625
17.656 -0.08525848388671875 -0.06208038330078125 1.7685546875 2.751220703125 -0.0009090900421142578 0.0005986690521240234 0.09618377685546875 -0.054126739501953125
17.66575 -0.087493896484375 -0.0525970458984375 1.955810546875 2.62451171875 -0.0004973411560058594 0.001397550106048584 0.0967559814453125 -0.059734344482421875
17.6755 -0.092498779296875 -0.04694366455078125 2.140380859375 2.48291015625 -0.0006377995014190674 0.0003629326820373535 0.09260940551757812 -0.061908721923828125
17.68525 -0.09511566162109375 -0.04016876220703125 2.330810546875 2.3349609375 -0.00038629770278930664 0.0018684864044189453 0.09154129028320312 -0.06748199462890625
17.695 -0.09690093994140625 -0.03179168701171875 2.52099609375 2.161376953125 0.0008591413497924805 0.0011856555938720703 0.08850860595703125 -0.071868896484375
17.70475 -0.09796142578125 -0.02449798583984375 2.69873046875 1.950927734375 0.0003987550735473633 0.0005727410316467285 0.08544158935546875 -0.07405471801757812
17.7145 -0.10038375854492188 -0.01802825927734375 2.859130859375 1.719970703125 -0.0002447366714477539 0.0010089278221130371 0.08197021484375 -0.0784454345703125
17.72425 -0.10114288330078125 -0.00931549072265625 2.98046875 1.467041015625 0.0003319978713989258 0.001828908920288086 0.07825469970703125 -0.08336257934570312
17.734 -0.1022491455078125 -0.00295257568359375 3.071044921875 1.214111328125 0.0006338357925415039 0.00139617919921875 0.07583236694335938 -0.08745193481445312
17.74375 -0.1031951904296875 0.002899169921875 3.119140625 0.962646484375 -0.0005345344543457031 -0.00036460161209106445 0.07061004638671875 -0.090667724609375
17.7535 -0.10272979736328125 0.01065826416015625 3.1578369140625 0.7283935546875 -4.172325134277344e-05 0.0011153221130371094 0.06641006469726562 -0.09401702880859375
17.76325 -0.10083389282226562 0.01821136474609375 3.185302734375 0.5069580078125 -0.0001379251480102539 0.0005628764629364014 0.0617828369140625 -0.09439849853515625
17.773 -0.10088348388671875 0.026187896728515625 3.205810546875 0.2913818359375 -0.00024071335792541504 0.00014173239469528198 0.056148529052734375 -0.09816741943359375
17.78275 -0.099700927734375 0.0340118408203125 3.216796875 0.0701904296875 0.00017192959785461426 0.0006033182144165039 0.05229949951171875 -0.09995651245117188
17.7925 -0.09686279296875 0.03894805908203125 3.23046875 -0.1591796875 -0.0005159974098205566 0.001809537410736084 0.0482330322265625 -0.10120391845703125
17.80225 -0.09381866455078125 0.046642303466796875 3.2283935546875 -0.40625 0.0003172457218170166 0.00018736720085144043 0.04271697998046875 -0.1019744873046875
17.812 -0.09199142456054688 0.05553436279296875 3.200439453125 -0.6597900390625 0.0004437565803527832 0.0005077719688415527 0.036975860595703125 -0.10311508178710938
17.82175 -0.08840560913085938 0.06180572509765625 3.1455078125 -0.913330078125 0.00048351287841796875 0.0010360479354858398 0.032711029052734375 -0.10444259643554688
17.8315 -0.08607101440429688 0.06946182250976562 3.0567626953125 -1.1630859375 -0.00022780895233154297 0.0011817216873168945 0.02782440185546875 -0.10521697998046875
17.84125 -0.08312225341796875 0.07407379150390625 2.949951171875 -1.39501953125 0.0014643669128417969 0.0006732940673828125 0.02109527587890625 -0.1046905517578125
17.851 -0.07789993286132812 0.081695556640625 2.81103515625 -1.6044921875 0.0005804300308227539 0.001644134521484375 0.016040802001953125 -0.10664749145507812
17.86075 -0.0751953125 0.08583831787109375 2.677978515625 -1.79345703125 0.0006165504455566406 0.001501321792602539 0.01041412353515625 -0.10423660278320312
17.8705 -0.07073593139648438 0.0930938720703125 2.5350341796875 -1.972412109375 0.00024175643920898438 0.00103759765625 0.006198883056640625 -0.10316085815429688
17.88025 -0.06635284423828125 0.09905242919921875 2.395751953125 -2.1422119140625 0.00013023614883422852 0.0010830163955688477 -0.000453948974609375 -0.10277175903320312
17.89 -0.059970855712890625 0.10518264770507812 2.2503662109375 -2.3106689453125 0.0014096498489379883 0.001338958740234375 -0.004543304443359375 -0.10150909423828125
17.89975 -0.056377410888671875 0.10902786254882812 2.0814208984375 -2.484619140625 0.0005244612693786621 0.00038936734199523926 -0.01026153564453125 -0.0994110107421875
17.9095 -0.05130767822265625 0.1148223876953125 1.9029541015625 -2.6536865234375 0.0010852813720703125 0.0009779930114746094 -0.016002655029296875 -0.10055160522460938
17.91925 -0.043727874755859375 0.11713027954101562 1.693115234375 -2.8006591796875 0.0004684031009674072 -0.00048282742500305176 -0.02040863037109375 -0.09761810302734375
17.929 -0.03702545166015625 0.12176513671875 1.470703125 -2.934326171875 0.0006611347198486328 0.0005120038986206055 -0.027435302734375 -0.0963287353515625
17.93875 -0.03179931640625 0.12651824951171875 1.2357177734375 -3.0357666015625 0.0003083944320678711 0.0016607046127319336 -0.02977752685546875 -0.09324264526367188
17.9485 -0.025604248046875 0.13080596923828125 1.0013427734375 -3.1121826171875 -0.00020995736122131348 -0.0005959868431091309 -0.034015655517578125 -0.08934402465820312
17.95825 -0.01934814453125 0.1318817138671875 0.7650146484375 -3.1668701171875 0.0011214017868041992 0.0012639760971069336 -0.037654876708984375 -0.08654022216796875
17.968 -0.0120849609375 0.1349945068359375 0.5380859375 -3.2073974609375 7.994472980499268e-05 0.0004033595323562622 -0.0433197021484375 -0.08524322509765625
17.97775 -0.00470733642578125 0.137542724609375 0.3125 -3.2349853515625 0.0014450550079345703 0.0016548633575439453 -0.047760009765625 -0.07985687255859375
17.9875 0.00295257568359375 0.1400299072265625 0.080078125 -3.2618408203125 0.0005812346935272217 -0.00038108229637145996 -0.04935455322265625 -0.0747222900390625
17.99725 0.01068878173828125 0.1408233642578125 -0.155029296875 -3.2783203125 0.0006465911865234375 0.00043886899948120117 -0.05492401123046875 -0.070770263671875
18.007 0.01776123046875 0.1428070068359375 -0.4027099609375 -3.28076171875 0.0009374022483825684 0.00018715858459472656 -0.05854034423828125 -0.06618499755859375
18.01675 0.0260772705078125 0.1443634033203125 -0.657958984375 -3.256591796875 0.001217961311340332 0.0008187294006347656 -0.06345367431640625 -0.06267547607421875
18.0265 0.03365325927734375 0.14525604248046875 -0.91650390625 -3.20947265625 0.0007256269454956055 0.0008835792541503906 -0.06768798828125 -0.0577392578125
18.03625 0.0401458740234375 0.1473541259765625 -1.17236328125 -3.130859375 -7.62939453125e-06 0.0010849237442016602 -0.06851959228515625 -0.05339813232421875
18.046 0.0495452880859375 0.14624786376953125 -1.418701171875 -3.027099609375 0.0014501214027404785 0.00012201070785522461 -0.07180023193359375 -0.048725128173828125
18.05575 0.0564422607421875 0.14389801025390625 -1.64013671875 -2.9111328125 0.0012346506118774414 -0.00012993812561035156 -0.0735931396484375 -0.042835235595703125
18.0655 0.0655975341796875 0.144622802734375 -1.84228515625 -2.776123046875 0.0006693005561828613 0.0005432367324829102 -0.07771682739257812 -0.038311004638671875
18.07525 0.07212066650390625 0.14167022705078125 -2.04345703125 -2.633056640625 0.0004957616329193115 -0.0006074309349060059 -0.07934951782226562 -0.03025054931640625
18.085 0.08039093017578125 0.13974761962890625 -2.237548828125 -2.482666015625 0.0008582174777984619 -6.029009819030762e-05 -0.081268310546875 -0.0262908935546875
18.09475 0.0876007080078125 0.1376800537109375 -2.4248046875 -2.3203125 0.001086115837097168 0.00016355514526367188 -0.0786285400390625 -0.0205078125
18.1045 0.0947265625 0.13324737548828125 -2.604736328125 -2.14404296875 -0.0005691349506378174 0.0004577338695526123 -0.08214950561523438 -0.01313018798828125
18.11425 0.1034698486328125 0.13210296630859375 -2.775390625 -1.94287109375 0.0020809173583984375 0.0001723766326904297 -0.08281707763671875 -0.008785247802734375
18.124 0.109161376953125 0.1278533935546875 -2.92626953125 -1.72607421875 0.0009701251983642578 -0.0005144476890563965 -0.08193206787109375 -0.00086212158203125
18.13375 0.11529541015625 0.125396728515625 -3.0576171875 -1.5 2.403557300567627e-05 -0.0004423409700393677 -0.08158111572265625 0.00479888916015625
18.1435 0.122344970703125 0.11920928955078125 -3.172119140625 -1.259765625 0.00025212764739990234 -0.0003634542226791382 -0.08223342895507812 0.012348175048828125
18.15325 0.12935638427734375 0.114410400390625 -3.264892578125 -1.00830078125 0.0007438361644744873 -0.0008695423603057861 -0.0812530517578125 0.01618194580078125
18.163 0.13687896728515625 0.108642578125 -3.333740234375 -0.75830078125 0.0007098615169525146 -0.0002377033233642578 -0.07889556884765625 0.024158477783203125
18.17275 0.141937255859375 0.10416412353515625 -3.38623046875 -0.50244140625 5.8144330978393555e-05 -4.112720489501953e-06 -0.07390213012695312 0.029850006103515625
18.1825 0.1484527587890625 0.09650421142578125 -3.4285888671875 -0.2476806640625 0.0007728040218353271 -0.00039246678352355957 -0.072998046875 0.0383453369140625
18.19225 0.15270233154296875 0.090911865234375 -3.4580078125 0.02490234375 3.4183263778686523e-05 -0.0005560815334320068 -0.070953369140625 0.04315948486328125
18.202 0.15940093994140625 0.08414459228515625 -3.455810546875 0.289306640625 0.0007743537425994873 -0.0001677870750427246 -0.07048416137695312 0.050113677978515625
18.21175 0.16314697265625 0.0769805908203125 -3.431396484375 0.572021484375 0.00021658837795257568 -6.878376007080078e-05 -0.06597900390625 0.055694580078125
18.2215 0.1684417724609375 0.06978607177734375 -3.3736572265625 0.84423828125 0.0003642439842224121 -0.0011367201805114746 -0.059490203857421875 0.05916786193847656
18.23125 0.1722412109375 0.06278228759765625 -3.2972412109375 1.1048583984375 0.0006252825260162354 -0.00011488795280456543 -0.05667877197265625 0.06542205810546875
18.241 0.1760101318359375 0.05411529541015625 -3.1988525390625 1.35888671875 0.0006683170795440674 -0.0004343390464782715 -0.052547454833984375 0.06983184814453125
18.25075 0.1797332763671875 0.0454864501953125 -3.0809326171875 1.5941162109375 0.0010839104652404785 -0.0011485815048217773 -0.0483245849609375 0.07397842407226562
18.2605 0.181610107421875 0.0384674072265625 -2.9482421875 1.822021484375 -0.0002250075340270996 -0.0008502602577209473 -0.0417327880859375 0.07768630981445312
18.27025 0.1827239990234375 0.02927398681640625 -2.8116455078125 2.0396728515625 0.00073280930519104 -0.0005911886692047119 -0.035381317138671875 0.08263397216796875
18.28 0.18518829345703125 0.0204620361328125 -2.6539306640625 2.264892578125 -0.0002270713448524475 0.00014987587928771973 -0.030170440673828125 0.08400344848632812
18.28975 0.188568115234375 0.01105499267578125 -2.479736328125 2.472900390625 0.0002802908420562744 2.734363079071045e-05 -0.02303314208984375 0.08976364135742188
18.2995 0.18793487548828125 0.003662109375 -2.2799072265625 2.6693115234375 0.001195371150970459 -0.0006085634231567383 -0.01629638671875 0.08930587768554688
18.30925 0.1887969970703125 -0.006988525390625 -2.05126953125 2.847412109375 0.0010504722595214844 0.000820159912109375 -0.00849151611328125 0.09145355224609375
18.319 0.18628692626953125 -0.01590728759765625 -1.8116455078125 3.0010986328125 0.0002613365650177002 -0.00017084181308746338 -0.00262451171875 0.09566116333007812
18.32875 0.186614990234375 -0.02214813232421875 -1.5643310546875 3.1253662109375 -0.00017414242029190063 -4.728138446807861e-05 0.00676727294921875 0.097442626953125
18.3385 0.1844482421875 -0.03336334228515625 -1.31201171875 3.224853515625 0.00018154829740524292 -0.00013245642185211182 0.01373291015625 0.09810256958007812
18.34825 0.18354034423828125 -0.04068756103515625 -1.0670166015625 3.3123779296875 -0.00012546777725219727 -0.0012252330780029297 0.02051544189453125 0.0981597900390625
18.358 0.1826629638671875 -0.04904937744140625 -0.8194580078125 3.38037109375 0.0011272430419921875 -0.0005223751068115234 0.0294647216796875 0.09586334228515625
18.36775 0.17967987060546875 -0.05828857421875 -0.55810546875 3.4356689453125 -0.0006709098815917969 0.0003320276737213135 0.03612518310546875 0.09592437744140625
18.3775 0.17687225341796875 -0.06640625 -0.302001953125 3.48193359375 0.0010053515434265137 -0.0010500550270080566 0.04235076904296875 0.09377288818359375
18.38725 0.17241668701171875 -0.07386016845703125 -0.019775390625 3.5010986328125 0.0005395710468292236 -0.0008911490440368652 0.04914093017578125 0.0933074951171875
18.397 0.167572021484375 -0.081146240234375 0.264892578125 3.49462890625 0.00010502338409423828 0.00043070316314697266 0.0577392578125 0.0903778076171875
18.40675 0.1643524169921875 -0.0879364013671875 0.55615234375 3.46337890625 -0.0011649131774902344 0.0008511543273925781 0.0636749267578125 0.0867156982421875
18.4165 0.15924835205078125 -0.09552764892578125 0.827392578125 3.390869140625 -0.0006981194019317627 -0.00010836124420166016 0.0699462890625 0.0843658447265625
18.42625 0.15279388427734375 -0.1032257080078125 1.0859375 3.291015625 2.8967857360839844e-05 0.0011838674545288086 0.0785369873046875 0.08022308349609375
18.436 0.1469268798828125 -0.108642578125 1.3251953125 3.178955078125 0.0007821321487426758 -0.0006163716316223145 0.0863800048828125 0.0745849609375
18.44575 0.1394805908203125 -0.1173095703125 1.548095703125 3.05419921875 -0.0001115649938583374 0.00027136504650115967 0.090057373046875 0.06760406494140625
18.4555 0.133544921875 -0.12291717529296875 1.76220703125 2.9267578125 0.0012680292129516602 -0.00033968687057495117 0.09503936767578125 0.0632171630859375
18.46525 0.12713623046875 -0.1286773681640625 1.972412109375 2.798583984375 0.00037175416946411133 -0.0005424618721008301 0.10018157958984375 0.05467987060546875
18.475 0.119384765625 -0.13299560546875 2.180908203125 2.652587890625 -0.0001957714557647705 -0.00014008581638336182 0.10430908203125 0.0486297607421875
18.48475 0.11510467529296875 -0.13903045654296875 2.384521484375 2.47998046875 -0.0004862546920776367 -0.00018924474716186523 0.10791015625 0.04088592529296875
18.4945 0.10565948486328125 -0.14276123046875 2.580078125 2.28076171875 0.0008633732795715332 -0.0005611181259155273 0.112396240234375 0.032318115234375
18.50425 0.09808349609375 -0.14727783203125 2.7587890625 2.05810546875 0.0013747215270996094 -0.0024671554565429688 0.1129608154296875 0.02557373046875
18.514 0.0915679931640625 -0.1507720947265625 2.90478515625 1.818359375 0.0009801387786865234 0.0003153085708618164 0.1169586181640625 0.01763916015625
18.52375 0.0827789306640625 -0.15093231201171875 3.01416015625 1.568359375 0.0011211633682250977 9.632110595703125e-05 0.117584228515625 0.008907318115234375
18.5335 0.0768890380859375 -0.155975341796875 3.10107421875 1.323486328125 0.000526726245880127 -0.0002930164337158203 0.11756515502929688 0.00157928466796875
18.54325 0.06978607177734375 -0.158416748046875 3.1650390625 1.086669921875 -0.0004406571388244629 -7.49826431274414e-05 0.1177520751953125 -0.0048980712890625
18.553 0.06122589111328125 -0.160400390625 3.21240234375 0.8515625 0.0006023049354553223 -0.0003415048122406006 0.11613845825195312 -0.01300048828125
18.56275 0.0529632568359375 -0.1596527099609375 3.2618408203125 0.620361328125 -0.00013196468353271484 -0.0002544224262237549 0.114776611328125 -0.019985198974609375
18.5725 0.04546356201171875 -0.161224365234375 3.2947998046875 0.3836669921875 0.0006410479545593262 -0.0011028051376342773 0.1118316650390625 -0.028079986572265625
18.58225 0.03856658935546875 -0.16144561767578125 3.3170166015625 0.138916015625 -0.00018489360809326172 -0.000714033842086792 0.1095733642578125 -0.03563690185546875
18.592 0.02794647216796875 -0.1627044677734375 3.3177490234375 -0.120361328125 0.00048109889030456543 -0.0007611513137817383 0.10533905029296875 -0.04291534423828125
18.60175 0.0215911865234375 -0.160491943359375 3.296875 -0.380615234375 0.0001272261142730713 -0.00048279762268066406 0.10070037841796875 -0.0482330322265625
18.6115 0.01366424560546875 -0.1588134765625 3.2396240234375 -0.6318359375 -2.1383166313171387e-05 -0.0003044307231903076 0.09789657592773438 -0.057277679443359375
18.62125 0.00665283203125 -0.1597747802734375 3.162109375 -0.8724365234375 0.0011017918586730957 -0.000568091869354248 0.0930328369140625 -0.06270217895507812
18.631 -0.00121307373046875 -0.15833282470703125 3.0677490234375 -1.0863037109375 0.0004334449768066406 -0.0008088648319244385 0.0874176025390625 -0.06692886352539062
18.64075 -0.00881195068359375 -0.15691375732421875 2.95849609375 -1.290771484375 0.00093117356300354 -0.0005907416343688965 0.08405685424804688 -0.071807861328125
18.6505 -0.0152130126953125 -0.15554046630859375 2.85107421875 -1.4849853515625 0.000741422176361084 -0.0014072656631469727 0.07676315307617188 -0.07541275024414062
18.66025 -0.02342987060546875 -0.1524505615234375 2.740478515625 -1.669921875 0.0008205771446228027 -0.0014389753341674805 0.07262420654296875 -0.07816314697265625
18.67 -0.0287628173828125 -0.15218353271484375 2.6195068359375 -1.857666015625 -0.001031041145324707 -0.00014412403106689453 0.06763839721679688 -0.0816192626953125
18.67975 -0.03606414794921875 -0.14667510986328125 2.4891357421875 -2.046875 0.0007317662239074707 -0.0012775063514709473 0.05926513671875 -0.08399200439453125
