!Created with skrf (http://scikit-rf.org).
# GHz S RI R 50.0 
!freq ReS11 ImS11 ReS21 ImS21 ReS12 ImS12 ReS22 ImS22
17.5 0.02729034423828125 -0.1496734619140625 -2.25927734375 2.3995361328125 -0.0011275410652160645 0.0001246929168701172 0.08440399169921875 -0.00433349609375
17.50975 0.01738739013671875 -0.1483612060546875 -2.072021484375 2.566162109375 -0.0013190507888793945 -0.00018227100372314453 0.08900070190429688 -0.005886077880859375
17.5195 0.008758544921875 -0.1458892822265625 -1.8687744140625 2.7138671875 -0.0006135702133178711 -0.0002842843532562256 0.0908660888671875 -0.00788116455078125
17.52925 0.00078582763671875 -0.14514923095703125 -1.6607666015625 2.8551025390625 -0.0004812479019165039 -4.112720489501953e-06 0.09279251098632812 -0.0106658935546875
17.539 -0.0068359375 -0.141510009765625 -1.449462890625 2.974853515625 -0.00034987926483154297 -0.0004070401191711426 0.093505859375 -0.01358795166015625
17.54875 -0.01561737060546875 -0.14129638671875 -1.225830078125 3.073486328125 -0.0009322762489318848 0.0012882351875305176 0.09536361694335938 -0.01676177978515625
17.5585 -0.02634429931640625 -0.1381378173828125 -1.000732421875 3.16748046875 -0.0005660951137542725 7.450580596923828e-07 0.09679412841796875 -0.019611358642578125
17.56825 -0.0323028564453125 -0.1348114013671875 -0.77587890625 3.2412109375 0.00011444091796875 0.0005581080913543701 0.09827041625976562 -0.02161407470703125
17.578 -0.04045867919921875 -0.1296234130859375 -0.5284423828125 3.3084716796875 -0.0009169578552246094 0.0005953609943389893 0.098876953125 -0.025997161865234375
17.58775 -0.04752349853515625 -0.12677001953125 -0.2701416015625 3.35595703125 0.0003059208393096924 0.0006219446659088135 0.10050201416015625 -0.027843475341796875
17.5975 -0.0544281005859375 -0.12163543701171875 0.0037841796875 3.3760986328125 -0.0003043860197067261 0.00012649595737457275 0.09972000122070312 -0.03330230712890625
17.60725 -0.061431884765625 -0.11766815185546875 0.2679443359375 3.3692626953125 -0.000758051872253418 -0.00028246641159057617 0.09973907470703125 -0.0356597900390625
17.617 -0.067962646484375 -0.11211395263671875 0.529541015625 3.3330078125 -0.0012156367301940918 -0.0001735091209411621 0.10081863403320312 -0.040252685546875
17.62675 -0.0740203857421875 -0.10585784912109375 0.781494140625 3.27490234375 0.000646740198135376 -0.000438690185546875 0.10063934326171875 -0.042491912841796875
17.6365 -0.0804443359375 -0.0982818603515625 1.01806640625 3.1953125 -0.000622868537902832 0.0006125569343566895 0.09967803955078125 -0.0490570068359375
17.64625 -0.084228515625 -0.09012603759765625 1.23876953125 3.111083984375 -0.0005543231964111328 0.0009507238864898682 0.0982208251953125 -0.05220794677734375
17.656 -0.0907440185546875 -0.08525848388671875 1.453369140625 3.021484375 -0.0005548298358917236 0.0005841255187988281 0.09622573852539062 -0.0564117431640625
17.66575 -0.095550537109375 -0.07613372802734375 1.667724609375 2.93115234375 0.0007699728012084961 -0.0002485513687133789 0.09564208984375 -0.0596160888671875
17.6755 -0.10097503662109375 -0.06954193115234375 1.880126953125 2.822021484375 0.00043654441833496094 0.001471877098083496 0.09283447265625 -0.06518936157226562
17.68525 -0.10469818115234375 -0.06192779541015625 2.105224609375 2.712646484375 -0.0002633631229400635 0.0005789697170257568 0.0892333984375 -0.06833648681640625
17.695 -0.108795166015625 -0.0528106689453125 2.332275390625 2.565185546875 -0.00017726421356201172 0.0015502572059631348 0.08881378173828125 -0.07149505615234375
17.70475 -0.1112060546875 -0.04498291015625 2.55615234375 2.384521484375 -0.00014963746070861816 -0.00022210180759429932 0.08406448364257812 -0.07581710815429688
17.7145 -0.11553192138671875 -0.0355987548828125 2.7646484375 2.17578125 -0.0011347532272338867 0.00010645389556884766 0.08071136474609375 -0.0804443359375
17.72425 -0.11717987060546875 -0.027740478515625 2.935791015625 1.9384765625 -0.0007401704788208008 -0.00017786026000976562 0.07700729370117188 -0.0854644775390625
17.734 -0.1195220947265625 -0.0198516845703125 3.080322265625 1.690673828125 0.0003775358200073242 0.0005471706390380859 0.07396316528320312 -0.08797073364257812
17.74375 -0.1228179931640625 -0.011993408203125 3.1748046875 1.4384765625 -0.0004949569702148438 0.0005170106887817383 0.069580078125 -0.09256744384765625
17.7535 -0.12155914306640625 -0.00290679931640625 3.2607421875 1.1962890625 1.4930963516235352e-05 0.00014112144708633423 0.06389236450195312 -0.09479522705078125
17.76325 -0.12088775634765625 0.005664825439453125 3.33447265625 0.968505859375 -0.00018936395645141602 0.0011174678802490234 0.05864715576171875 -0.09581756591796875
17.773 -0.12058639526367188 0.011096954345703125 3.40087890625 0.7451171875 -0.0009078383445739746 0.0013909339904785156 0.055027008056640625 -0.09897994995117188
17.78275 -0.12250900268554688 0.02130889892578125 3.461181640625 0.507080078125 0.0008755922317504883 0.000722348690032959 0.05036163330078125 -0.10077667236328125
17.7925 -0.11971282958984375 0.02823638916015625 3.5240478515625 0.25927734375 -1.8864870071411133e-05 0.0005972385406494141 0.046710968017578125 -0.10218429565429688
17.80225 -0.115692138671875 0.036487579345703125 3.5703125 -0.01123046875 0.00010716915130615234 0.0003660917282104492 0.042850494384765625 -0.10260772705078125
17.812 -0.11336898803710938 0.04552459716796875 3.5892333984375 -0.294921875 0.0003299713134765625 0.0012702345848083496 0.03633880615234375 -0.105377197265625
17.82175 -0.11095809936523438 0.05587005615234375 3.581787109375 -0.587890625 0.00022667646408081055 0.0011184215545654297 0.032009124755859375 -0.10477066040039062
17.8315 -0.10877609252929688 0.06309890747070312 3.52978515625 -0.883544921875 -0.000750422477722168 0.0008267462253570557 0.0252838134765625 -0.10601425170898438
17.84125 -0.1045684814453125 0.07112884521484375 3.4541015625 -1.1650390625 0.0003380775451660156 -0.0003657042980194092 0.0189208984375 -0.10541534423828125
17.851 -0.09958267211914062 0.07984542846679688 3.3399658203125 -1.4268798828125 0.0004185140132904053 0.0002618730068206787 0.01605987548828125 -0.10579681396484375
17.86075 -0.09722518920898438 0.08559036254882812 3.2288818359375 -1.6680908203125 0.0008119344711303711 0.0012052059173583984 0.008007049560546875 -0.1040802001953125
17.8705 -0.09130477905273438 0.094085693359375 3.1009521484375 -1.89892578125 0.0010636448860168457 0.0007992982864379883 0.002933502197265625 -0.10326766967773438
17.88025 -0.085784912109375 0.10199737548828125 2.9720458984375 -2.1285400390625 0.0002046525478363037 0.00029733777046203613 -0.00286102294921875 -0.10236740112304688
17.89 -0.08135223388671875 0.10866165161132812 2.8372802734375 -2.3515625 0.0007834434509277344 0.0008790493011474609 -0.0064544677734375 -0.10206985473632812
17.89975 -0.07387161254882812 0.11246490478515625 2.6707763671875 -2.588134765625 -0.0008171200752258301 -3.382563591003418e-05 -0.01198577880859375 -0.10076522827148438
17.9095 -0.06935882568359375 0.12105941772460938 2.4854736328125 -2.8201904296875 0.001145482063293457 2.3245811462402344e-05 -0.016510009765625 -0.09843063354492188
17.91925 -0.06103515625 0.124053955078125 2.2655029296875 -3.031982421875 0.000437125563621521 -0.00021277368068695068 -0.02358245849609375 -0.0975341796875
17.929 -0.0550079345703125 0.12811279296875 2.025634765625 -3.232421875 0.0001488029956817627 -6.645917892456055e-06 -0.02935028076171875 -0.09534454345703125
17.93875 -0.0482940673828125 0.1323699951171875 1.7562255859375 -3.3951416015625 -0.00027108192443847656 -0.00027632713317871094 -0.03203582763671875 -0.09255599975585938
17.9485 -0.03981781005859375 0.13539886474609375 1.4832763671875 -3.5267333984375 0.00018194317817687988 0.0005562901496887207 -0.03644561767578125 -0.08766555786132812
17.95825 -0.03267669677734375 0.13733673095703125 1.2076416015625 -3.6361083984375 -3.975629806518555e-05 0.0008137226104736328 -0.039951324462890625 -0.08566665649414062
17.968 -0.02323150634765625 0.141571044921875 0.933837890625 -3.7254638671875 -0.001278996467590332 0.0009878873825073242 -0.04572296142578125 -0.08428955078125
17.97775 -0.01424407958984375 0.1433258056640625 0.657958984375 -3.7950439453125 0.00027458369731903076 0.00012312829494476318 -0.04998779296875 -0.08000946044921875
17.9875 -0.0047607421875 0.14585113525390625 0.3665771484375 -3.861572265625 0.0010646581649780273 0.0011614561080932617 -0.051971435546875 -0.075408935546875
17.99725 0.00325775146484375 0.14736175537109375 0.0706787109375 -3.915283203125 0.0002052783966064453 -0.000970005989074707 -0.0573883056640625 -0.07122802734375
18.007 0.01171875 0.14813232421875 -0.24365234375 -3.943603515625 0.001200556755065918 -0.0004557967185974121 -0.06061553955078125 -0.0668182373046875
18.01675 0.02191162109375 0.14904022216796875 -0.57373046875 -3.941162109375 -0.00039437413215637207 -0.0005069971084594727 -0.0644683837890625 -0.06200408935546875
18.0265 0.0307464599609375 0.148773193359375 -0.909912109375 -3.908935546875 -4.342198371887207e-05 0.0002272278070449829 -0.0678558349609375 -0.05725860595703125
18.03625 0.03851318359375 0.149688720703125 -1.24755859375 -3.8271484375 0.0005990862846374512 -0.00035899877548217773 -0.06992340087890625 -0.05194854736328125
18.046 0.04668426513671875 0.14886474609375 -1.570556640625 -3.71044921875 0.0016127228736877441 0.0002598762512207031 -0.07176971435546875 -0.04650115966796875
18.05575 0.055816650390625 0.14470672607421875 -1.8662109375 -3.568603515625 0.00048479437828063965 0.000417172908782959 -0.07587051391601562 -0.041408538818359375
18.0655 0.06348419189453125 0.14568328857421875 -2.141357421875 -3.408203125 -0.0004488825798034668 -0.0006385445594787598 -0.0792999267578125 -0.036144256591796875
18.07525 0.07172393798828125 0.14208221435546875 -2.407470703125 -3.232421875 5.561113357543945e-05 0.0006763041019439697 -0.07912826538085938 -0.03118896484375
18.085 0.0798797607421875 0.13996124267578125 -2.6650390625 -3.04150390625 5.632638931274414e-05 -0.0008682906627655029 -0.08271026611328125 -0.024829864501953125
18.09475 0.08655548095703125 0.135528564453125 -2.912109375 -2.830810546875 0.0008450150489807129 -0.00043317675590515137 -0.08211898803710938 -0.01930999755859375
18.1045 0.09348297119140625 0.13130950927734375 -3.1494140625 -2.601318359375 5.257129669189453e-05 -0.001110374927520752 -0.08277511596679688 -0.0108795166015625
18.11425 0.10019683837890625 0.12767791748046875 -3.36572265625 -2.331298828125 0.00014150142669677734 -0.0010551214218139648 -0.08233261108398438 -0.006809234619140625
18.124 0.1059112548828125 0.1226654052734375 -3.56005859375 -2.04833984375 0.0010219812393188477 -0.0003459453582763672 -0.08298492431640625 0.0004730224609375
18.13375 0.11273193359375 0.11791229248046875 -3.723388671875 -1.749755859375 -0.0005671381950378418 6.854534149169922e-06 -0.08242416381835938 0.006855010986328125
18.1435 0.11756134033203125 0.11072540283203125 -3.85302734375 -1.4296875 -0.0005065202713012695 0.0010156631469726562 -0.08114242553710938 0.01369476318359375
18.15325 0.1237030029296875 0.1053619384765625 -3.956298828125 -1.10107421875 0.00032806396484375 -4.692375659942627e-05 -0.08057022094726562 0.018421173095703125
18.163 0.131134033203125 0.09781646728515625 -4.02880859375 -0.77490234375 0.0004608631134033203 0.0004038512706756592 -0.07820510864257812 0.0263824462890625
18.17275 0.13443756103515625 0.09259796142578125 -4.068115234375 -0.441162109375 0.0008285939693450928 -0.0004248321056365967 -0.07544326782226562 0.0311126708984375
18.1825 0.14051055908203125 0.0848846435546875 -4.095947265625 -0.114013671875 0.0004596412181854248 7.426738739013672e-05 -0.0738067626953125 0.03816986083984375
18.19225 0.14313507080078125 0.07696533203125 -4.094970703125 0.22705078125 8.085370063781738e-05 1.3358891010284424e-05 -0.07156753540039062 0.043972015380859375
18.202 0.14731597900390625 0.07163238525390625 -4.063720703125 0.558837890625 0.00041009485721588135 -0.00014093518257141113 -0.06908035278320312 0.05025482177734375
18.21175 0.1504669189453125 0.06353759765625 -3.998046875 0.9013671875 0.0002205967903137207 -0.0004987120628356934 -0.06388092041015625 0.0562286376953125
18.2215 0.15509033203125 0.05666351318359375 -3.893310546875 1.229736328125 -0.0001258552074432373 0.00022514909505844116 -0.059085845947265625 0.06143379211425781
18.23125 0.158111572265625 0.04941558837890625 -3.7705078125 1.5355224609375 0.0006011128425598145 0.0004780292510986328 -0.05631256103515625 0.06438446044921875
18.241 0.16082763671875 0.04157257080078125 -3.612548828125 1.8253173828125 -0.0009699463844299316 -0.0005793571472167969 -0.050365447998046875 0.06957244873046875
18.25075 0.1608123779296875 0.0340118408203125 -3.4395751953125 2.0924072265625 -0.0009220242500305176 -0.0008944272994995117 -0.046848297119140625 0.07564544677734375
18.2605 0.16217041015625 0.0274200439453125 -3.252197265625 2.344482421875 0.0007875561714172363 0.00054168701171875 -0.03867340087890625 0.07924652099609375
18.27025 0.1635894775390625 0.01888275146484375 -3.0513916015625 2.580078125 4.082918167114258e-06 -0.0008095800876617432 -0.03278350830078125 0.08245849609375
18.28 0.1640625 0.0098419189453125 -2.8382568359375 2.815673828125 -0.0005246996879577637 0.0008128583431243896 -0.0271759033203125 0.08526229858398438
18.28975 0.16379547119140625 0.0022735595703125 -2.6085205078125 3.0296630859375 -0.0008337497711181641 -0.0010328888893127441 -0.020931243896484375 0.08939361572265625
18.2995 0.162689208984375 -0.0049285888671875 -2.3494873046875 3.2225341796875 -4.5418739318847656e-05 0.00043466687202453613 -0.013427734375 0.08914947509765625
18.30925 0.161712646484375 -0.012939453125 -2.06591796875 3.3916015625 0.0008576512336730957 0.0001316666603088379 -0.00759124755859375 0.09258270263671875
18.319 0.160400390625 -0.020965576171875 -1.7716064453125 3.529296875 0.00040064752101898193 7.110834121704102e-05 0.0004730224609375 0.09549713134765625
18.32875 0.157684326171875 -0.02610015869140625 -1.4771728515625 3.629638671875 0.00010442733764648438 0.00045496225357055664 0.008991241455078125 0.09677505493164062
18.3385 0.15647125244140625 -0.03661346435546875 -1.1851806640625 3.7047119140625 0.0002453029155731201 -0.0005790889263153076 0.0167388916015625 0.09790420532226562
18.34825 0.15477752685546875 -0.04351806640625 -0.9049072265625 3.765625 -7.925927639007568e-05 4.873797297477722e-05 0.024341583251953125 0.0973052978515625
18.358 0.150115966796875 -0.05004119873046875 -0.6248779296875 3.8106689453125 0.0005595982074737549 -0.0009104609489440918 0.0308837890625 0.09546661376953125
18.36775 0.147308349609375 -0.0576019287109375 -0.3341064453125 3.8421630859375 -0.001029372215270996 -0.0009857416152954102 0.0379180908203125 0.0943450927734375
18.3775 0.1450653076171875 -0.06327056884765625 -0.050537109375 3.863037109375 0.001560211181640625 0.0008363723754882812 0.04438018798828125 0.0936279296875
18.38725 0.1403350830078125 -0.07147216796875 0.255615234375 3.85986328125 -0.0002155303955078125 -0.0013862252235412598 0.05126953125 0.0923004150390625
18.397 0.1364593505859375 -0.0782012939453125 0.56103515625 3.82080078125 0.000537574291229248 0.0001074075698852539 0.0587615966796875 0.0885162353515625
18.40675 0.13153076171875 -0.0841064453125 0.8740234375 3.75732421875 -0.0004051327705383301 0.00013574957847595215 0.0670166015625 0.084808349609375
18.4165 0.12729644775390625 -0.08943939208984375 1.158447265625 3.65576171875 -0.0001646876335144043 0.0007120072841644287 0.0722808837890625 0.08203125
18.42625 0.11934280395507812 -0.095458984375 1.431396484375 3.527099609375 -0.00014340877532958984 -0.0005832910537719727 0.078277587890625 0.07653045654296875
18.436 0.11438751220703125 -0.09940719604492188 1.67578125 3.3876953125 0.00020959973335266113 -0.0008017420768737793 0.0869140625 0.07102203369140625
18.44575 0.10752487182617188 -0.10587692260742188 1.908447265625 3.23974609375 1.1004507541656494e-05 0.0001766607165336609 0.091064453125 0.06597137451171875
18.4555 0.1002197265625 -0.10947799682617188 2.126708984375 3.085693359375 9.354948997497559e-05 -0.00031632184982299805 0.09439849853515625 0.05927276611328125
18.46525 0.0963592529296875 -0.11468887329101562 2.34765625 2.9326171875 -0.0007753372192382812 0.00013881921768188477 0.100433349609375 0.05152130126953125
18.475 0.08699417114257812 -0.11782073974609375 2.566162109375 2.762451171875 -0.00017677992582321167 1.1302530765533447e-05 0.105072021484375 0.04534149169921875
18.48475 0.0815277099609375 -0.12191390991210938 2.78125 2.563232421875 0.000329434871673584 9.773671627044678e-05 0.10809326171875 0.03882598876953125
18.4945 0.07269287109375 -0.124267578125 2.97998046875 2.33349609375 -0.0004533231258392334 0.00028055906295776367 0.1111907958984375 0.0300140380859375
18.50425 0.0660400390625 -0.127410888671875 3.16552734375 2.08056640625 0.00022748112678527832 2.8520822525024414e-05 0.1131744384765625 0.023956298828125
18.514 0.05879974365234375 -0.1284637451171875 3.316162109375 1.8095703125 6.467103958129883e-06 -0.0008065998554229736 0.1162261962890625 0.01457977294921875
18.52375 0.0516510009765625 -0.12889862060546875 3.427734375 1.52978515625 0.0003834962844848633 -0.000583648681640625 0.1149139404296875 0.0069122314453125
18.5335 0.04511260986328125 -0.13088226318359375 3.506591796875 1.253173828125 0.0001946762204170227 -0.0001607164740562439 0.11851882934570312 -0.000682830810546875
18.54325 0.0374908447265625 -0.13288116455078125 3.56982421875 0.98828125 0.0006986856460571289 0.0001563429832458496 0.11577224731445312 -0.00853729248046875
18.553 0.03035736083984375 -0.13341522216796875 3.6103515625 0.7216796875 0.00104600191116333 -0.0012485980987548828 0.114013671875 -0.0158843994140625
18.56275 0.02347564697265625 -0.13117218017578125 3.6533203125 0.46044921875 0.0002393871545791626 -0.00013703852891921997 0.11447525024414062 -0.024631500244140625
18.5725 0.01605987548828125 -0.1309051513671875 3.6787109375 0.19140625 0.0005438923835754395 0.0012980103492736816 0.111572265625 -0.0326080322265625
18.58225 0.0088958740234375 -0.13176727294921875 3.68603515625 -0.08837890625 0.00045621395111083984 0.0009931325912475586 0.10783004760742188 -0.038700103759765625
18.592 0.0014801025390625 -0.1304473876953125 3.6702880859375 -0.3814697265625 -0.00023731589317321777 -0.00025084614753723145 0.10456466674804688 -0.046230316162109375
18.60175 -0.0039825439453125 -0.12811279296875 3.63134765625 -0.6787109375 0.0005510449409484863 -0.0009110569953918457 0.1011962890625 -0.050872802734375
18.6115 -0.01140594482421875 -0.12506866455078125 3.547607421875 -0.9617919921875 0.0001499652862548828 0.00041857361793518066 0.09526824951171875 -0.0598907470703125
18.62125 -0.01598358154296875 -0.12305450439453125 3.4395751953125 -1.2296142578125 -0.00024047493934631348 -0.00033226609230041504 0.09025955200195312 -0.06444549560546875
18.631 -0.02329254150390625 -0.12042236328125 3.3143310546875 -1.4669189453125 0.0011255741119384766 -0.000652611255645752 0.0849761962890625 -0.06996536254882812
18.64075 -0.02716064453125 -0.11875152587890625 3.1737060546875 -1.698974609375 -8.240342140197754e-06 -0.0003481060266494751 0.08184814453125 -0.07339096069335938
18.6505 -0.03354644775390625 -0.1144866943359375 3.0335693359375 -1.910400390625 0.00023315846920013428 -0.00010418146848678589 0.07616806030273438 -0.07870101928710938
18.66025 -0.040618896484375 -0.11251068115234375 2.88623046875 -2.1209716796875 -0.0005376636981964111 0.00010290741920471191 0.06900787353515625 -0.08193206787109375
18.67 -0.04396820068359375 -0.109771728515625 2.7279052734375 -2.3251953125 -0.00021073222160339355 -0.00035139918327331543 0.06310272216796875 -0.08282470703125
18.67975 -0.05098724365234375 -0.10532379150390625 2.5540771484375 -2.5283203125 -2.86102294921875e-06 -0.000870823860168457 0.0576934814453125 -0.08610153198242188
