!Created with skrf (http://scikit-rf.org).
# GHz S RI R 50.0 
!freq ReS11 ImS11 ReS21 ImS21 ReS12 ImS12 ReS22 ImS22
17.5 0.0492401123046875 -0.1444854736328125 -2.3441162109375 2.6746826171875 -0.0011175274848937988 0.001055896282196045 0.08619308471679688 -0.004093170166015625
17.50975 0.0405120849609375 -0.14389801025390625 -2.1153564453125 2.84375 -0.0013700127601623535 0.0007228851318359375 0.08869552612304688 -0.00583648681640625
17.5195 0.0326995849609375 -0.14226531982421875 -1.870361328125 2.98779296875 -0.0008257627487182617 0.002005934715270996 0.08989334106445312 -0.006069183349609375
17.52925 0.0252838134765625 -0.141815185546875 -1.6263427734375 3.1171875 -0.00031250715255737305 0.0015874505043029785 0.09328079223632812 -0.008815765380859375
17.539 0.018768310546875 -0.1396636962890625 -1.3759765625 3.22265625 -0.0005282163619995117 0.001147627830505371 0.09384918212890625 -0.01163482666015625
17.54875 0.0086822509765625 -0.1392822265625 -1.1187744140625 3.2967529296875 -0.000695645809173584 0.0012398362159729004 0.09565353393554688 -0.015048980712890625
17.5585 -0.00189208984375 -0.137847900390625 -0.8673095703125 3.3656005859375 -0.0006365180015563965 0.0011605620384216309 0.097137451171875 -0.017337799072265625
17.56825 -0.0073394775390625 -0.136138916015625 -0.6170654296875 3.4180908203125 -0.00141984224319458 0.0014700889587402344 0.09934616088867188 -0.0210723876953125
17.578 -0.01490020751953125 -0.131988525390625 -0.3450927734375 3.4501953125 0.00045746564865112305 0.001057446002960205 0.09914016723632812 -0.02497100830078125
17.58775 -0.02179718017578125 -0.13076019287109375 -0.069091796875 3.4658203125 -0.0004729330539703369 0.0008025467395782471 0.10028457641601562 -0.0274658203125
17.5975 -0.0283966064453125 -0.1275787353515625 0.214599609375 3.4520263671875 -0.0008353590965270996 0.0013192296028137207 0.10131072998046875 -0.03078460693359375
17.60725 -0.03464508056640625 -0.1242828369140625 0.48681640625 3.4051513671875 -0.00035113096237182617 0.0012286901473999023 0.10048675537109375 -0.035411834716796875
17.617 -0.04228973388671875 -0.1198272705078125 0.7470703125 3.332763671875 -0.00039196014404296875 -0.00015228986740112305 0.100067138671875 -0.038173675537109375
17.62675 -0.04914093017578125 -0.11486053466796875 0.994873046875 3.235107421875 -0.0008751153945922852 0.0022194385528564453 0.102325439453125 -0.04172515869140625
17.6365 -0.05426025390625 -0.1088104248046875 1.22509765625 3.125 0.0005897283554077148 0.001344919204711914 0.10036468505859375 -0.04619598388671875
17.64625 -0.06020355224609375 -0.10332489013671875 1.429931640625 3.00732421875 4.589557647705078e-06 0.0004919767379760742 0.09915924072265625 -0.052082061767578125
17.656 -0.06600189208984375 -0.1013336181640625 1.629638671875 2.890380859375 2.276897430419922e-05 0.0014948844909667969 0.09728240966796875 -0.056171417236328125
17.66575 -0.071929931640625 -0.0929107666015625 1.822265625 2.77099609375 -0.00017434358596801758 0.000848621129989624 0.0977935791015625 -0.058422088623046875
17.6755 -0.0765533447265625 -0.088287353515625 2.0087890625 2.63427734375 -0.00020772218704223633 0.0014244318008422852 0.0935211181640625 -0.06378173828125
17.68525 -0.08382415771484375 -0.08232879638671875 2.206298828125 2.49755859375 -0.00018459558486938477 0.000777512788772583 0.09032058715820312 -0.06713485717773438
17.695 -0.08660125732421875 -0.07576751708984375 2.40234375 2.331787109375 0.00033348798751831055 0.0006440281867980957 0.08971786499023438 -0.07190322875976562
17.70475 -0.09027099609375 -0.0676116943359375 2.58935546875 2.135009765625 0.0003674030303955078 0.0004943907260894775 0.0849151611328125 -0.07568740844726562
17.7145 -0.0953826904296875 -0.06092071533203125 2.758056640625 1.913330078125 0.0008575916290283203 0.00013267993927001953 0.08215713500976562 -0.07935333251953125
17.72425 -0.0992279052734375 -0.0555419921875 2.89111328125 1.67236328125 0.00058746337890625 0.0011493563652038574 0.077362060546875 -0.08326339721679688
17.734 -0.10239410400390625 -0.04693603515625 2.9912109375 1.425048828125 -0.0004394054412841797 0.00014707446098327637 0.07462310791015625 -0.0868072509765625
17.74375 -0.106719970703125 -0.0416412353515625 3.05126953125 1.18212890625 -0.00032269954681396484 0.001035451889038086 0.07049560546875 -0.09188079833984375
17.7535 -0.10753631591796875 -0.03376007080078125 3.1038818359375 0.9537353515625 0.0005972385406494141 0.0006402730941772461 0.06594085693359375 -0.0945892333984375
17.76325 -0.11026763916015625 -0.02635955810546875 3.1429443359375 0.7391357421875 0.0011638402938842773 0.0010164976119995117 0.060176849365234375 -0.09542465209960938
17.773 -0.1118927001953125 -0.01995849609375 3.1717529296875 0.53173828125 -7.396936416625977e-05 0.001652836799621582 0.056804656982421875 -0.09770965576171875
17.78275 -0.11348724365234375 -0.01241302490234375 3.1982421875 0.314208984375 0.001170337200164795 -5.1856040954589844e-05 0.051761627197265625 -0.09933090209960938
17.7925 -0.11429977416992188 -0.005847930908203125 3.224609375 0.092041015625 0.00013383477926254272 -3.582984209060669e-05 0.046573638916015625 -0.10137557983398438
17.80225 -0.11436080932617188 0.00174713134765625 3.2415771484375 -0.1439208984375 0.0010254383087158203 0.0008383393287658691 0.042583465576171875 -0.10366058349609375
17.812 -0.11258697509765625 0.010456085205078125 3.2283935546875 -0.3956298828125 0.00010348856449127197 -0.00045575201511383057 0.036640167236328125 -0.10288238525390625
17.82175 -0.11243438720703125 0.01938629150390625 3.190185546875 -0.64208984375 0.0010761618614196777 0.0008277297019958496 0.0345001220703125 -0.10514068603515625
17.8315 -0.11267852783203125 0.027538299560546875 3.126220703125 -0.8939208984375 0.0012999773025512695 0.001374959945678711 0.026744842529296875 -0.10536575317382812
17.84125 -0.1125946044921875 0.033477783203125 3.036376953125 -1.126708984375 0.0010006427764892578 0.0009257793426513672 0.0212249755859375 -0.105133056640625
17.851 -0.10860443115234375 0.04302978515625 2.9169921875 -1.3372802734375 0.001534104347229004 0.000849604606628418 0.016544342041015625 -0.10623931884765625
17.86075 -0.1084747314453125 0.050113677978515625 2.8006591796875 -1.5257568359375 -0.0003337264060974121 -0.0007736682891845703 0.010868072509765625 -0.10255050659179688
17.8705 -0.10628509521484375 0.056705474853515625 2.6802978515625 -1.7095947265625 0.0009219646453857422 0.0009612441062927246 0.004970550537109375 -0.10414505004882812
17.88025 -0.10348892211914062 0.06505584716796875 2.5582275390625 -1.884765625 0.0003204345703125 0.0005627274513244629 -0.000820159912109375 -0.10475921630859375
17.89 -0.10106658935546875 0.07379913330078125 2.437255859375 -2.056396484375 0.001073300838470459 0.000288546085357666 -0.004634857177734375 -0.1014404296875
17.89975 -0.09950637817382812 0.078887939453125 2.287109375 -2.234375 0.0017017722129821777 3.933906555175781e-05 -0.01163482666015625 -0.10207366943359375
17.9095 -0.09674072265625 0.08746337890625 2.1319580078125 -2.41162109375 0.0013675093650817871 -0.0001379251480102539 -0.01587677001953125 -0.09973526000976562
17.91925 -0.09006881713867188 0.092559814453125 1.94873046875 -2.5712890625 -0.00014322996139526367 -0.0008222460746765137 -0.018817901611328125 -0.09841156005859375
17.929 -0.0869903564453125 0.100433349609375 1.751220703125 -2.719482421875 0.002677440643310547 -0.0003311634063720703 -0.02581024169921875 -0.0956573486328125
17.93875 -0.08263015747070312 0.10502243041992188 1.535888671875 -2.8419189453125 0.0015845894813537598 -0.0015036463737487793 -0.0297088623046875 -0.09422683715820312
17.9485 -0.077423095703125 0.11057662963867188 1.3197021484375 -2.934814453125 0.00019422173500061035 -0.0005917549133300781 -0.034557342529296875 -0.089630126953125
17.95825 -0.0725860595703125 0.11589431762695312 1.1046142578125 -3.0128173828125 0.0009840726852416992 0.0005369186401367188 -0.037815093994140625 -0.088165283203125
17.968 -0.0666656494140625 0.121917724609375 0.8953857421875 -3.074951171875 0.0008922815322875977 0.0006264448165893555 -0.04399871826171875 -0.08536529541015625
17.97775 -0.05960845947265625 0.1253814697265625 0.687255859375 -3.1256103515625 0.0008984804153442383 9.995698928833008e-05 -0.04950714111328125 -0.080108642578125
17.9875 -0.05298614501953125 0.13143157958984375 0.4718017578125 -3.1795654296875 0.0009472966194152832 0.00015556812286376953 -0.05181121826171875 -0.07561492919921875
17.99725 -0.04737091064453125 0.1357574462890625 0.2496337890625 -3.2220458984375 0.0011216998100280762 0.0003460049629211426 -0.0556793212890625 -0.0713958740234375
18.007 -0.0394134521484375 0.13922882080078125 0.01611328125 -3.2569580078125 0.00028082728385925293 0.00018554925918579102 -0.0583343505859375 -0.06687164306640625
18.01675 -0.03162384033203125 0.1433258056640625 -0.2274169921875 -3.2679443359375 0.0014860033988952637 -0.0015774965286254883 -0.0630950927734375 -0.063262939453125
18.0265 -0.02455902099609375 0.14636993408203125 -0.478515625 -3.260986328125 0.0002232193946838379 0.0006417334079742432 -0.0662994384765625 -0.058441162109375
18.03625 -0.0157623291015625 0.151031494140625 -0.72802734375 -3.217041015625 -5.698204040527344e-05 -0.0004971027374267578 -0.0694427490234375 -0.0534210205078125
18.046 -0.0072784423828125 0.15364837646484375 -0.97705078125 -3.15283203125 -0.00010037422180175781 -0.0007242560386657715 -0.07016754150390625 -0.047199249267578125
18.05575 -0.00063323974609375 0.15540313720703125 -1.203857421875 -3.0732421875 -0.00031863152980804443 -0.0001516193151473999 -0.07514572143554688 -0.04351043701171875
18.0655 0.0065460205078125 0.1582183837890625 -1.418212890625 -2.975341796875 0.0010178685188293457 -0.00013953447341918945 -0.07806396484375 -0.037181854248046875
18.07525 0.01634979248046875 0.1582183837890625 -1.625 -2.868408203125 0.0013058185577392578 -0.0003585219383239746 -0.0792236328125 -0.03134918212890625
18.085 0.02605438232421875 0.16112518310546875 -1.83203125 -2.755126953125 -0.00028008222579956055 -0.0010499358177185059 -0.08169937133789062 -0.0257568359375
18.09475 0.033294677734375 0.161834716796875 -2.033935546875 -2.630859375 0.0007680058479309082 -0.0014812350273132324 -0.07964324951171875 -0.021442413330078125
18.1045 0.04122161865234375 0.16158294677734375 -2.232666015625 -2.48974609375 -0.00015944242477416992 -0.0011833906173706055 -0.08203887939453125 -0.014225006103515625
18.11425 0.0481109619140625 0.16138458251953125 -2.429931640625 -2.326171875 0.0010578632354736328 9.691715240478516e-05 -0.08199691772460938 -0.00811767578125
18.124 0.0574951171875 0.16021728515625 -2.610107421875 -2.146240234375 -8.592009544372559e-05 -0.000622093677520752 -0.08094406127929688 -0.0010833740234375
18.13375 0.06523895263671875 0.158966064453125 -2.77783203125 -1.954345703125 -0.0010994672775268555 -0.0006260871887207031 -0.08039093017578125 0.00345611572265625
18.1435 0.0742950439453125 0.15760040283203125 -2.923583984375 -1.74365234375 -0.00010877847671508789 -0.0008088052272796631 -0.08083724975585938 0.011150360107421875
18.15325 0.08197784423828125 0.1525726318359375 -3.061279296875 -1.519287109375 0.0007922649383544922 -0.0013831257820129395 -0.080718994140625 0.015933990478515625
18.163 0.09101104736328125 0.1498870849609375 -3.1689453125 -1.29052734375 0.0008956491947174072 -7.772445678710938e-05 -0.07830429077148438 0.02414703369140625
18.17275 0.099578857421875 0.1467132568359375 -3.267822265625 -1.0537109375 7.134675979614258e-05 -0.0013256072998046875 -0.07529067993164062 0.0303802490234375
18.1825 0.1080780029296875 0.143157958984375 -3.354736328125 -0.81201171875 0.0005763769149780273 -0.00029796361923217773 -0.07248687744140625 0.038944244384765625
18.19225 0.1140289306640625 0.1377105712890625 -3.429443359375 -0.55615234375 0.00038301944732666016 -0.0011650919914245605 -0.07062530517578125 0.042163848876953125
18.202 0.122589111328125 0.134185791015625 -3.4781494140625 -0.294677734375 -0.00029724836349487305 -0.0013006329536437988 -0.0699462890625 0.049388885498046875
18.21175 0.130279541015625 0.127838134765625 -3.509765625 -0.01904296875 0.00016224384307861328 -0.000803828239440918 -0.06452178955078125 0.0554962158203125
18.2215 0.1392822265625 0.12030029296875 -3.50537109375 0.25830078125 -0.0007914304733276367 -0.0010188817977905273 -0.059051513671875 0.060832977294921875
18.23125 0.1452789306640625 0.114105224609375 -3.48095703125 0.52880859375 0.00032913684844970703 -0.0008861422538757324 -0.05686187744140625 0.06417083740234375
18.241 0.1521759033203125 0.1093597412109375 -3.4315185546875 0.7930908203125 0.0001653730869293213 -0.0007957816123962402 -0.0513458251953125 0.06808090209960938
18.25075 0.1547088623046875 0.10211181640625 -3.36328125 1.0489501953125 -0.0007353425025939941 -0.0010338425636291504 -0.04761505126953125 0.074249267578125
18.2605 0.1613006591796875 0.09490966796875 -3.2764892578125 1.2977294921875 -0.0004717409610748291 -0.00039505958557128906 -0.041278839111328125 0.07733154296875
18.27025 0.167266845703125 0.086639404296875 -3.1846923828125 1.54345703125 -0.0003198981285095215 -0.0007324814796447754 -0.034393310546875 0.08135223388671875
18.28 0.171783447265625 0.0772552490234375 -3.0758056640625 1.7918701171875 -0.001313924789428711 -0.0008492469787597656 -0.029453277587890625 0.08397293090820312
18.28975 0.1757354736328125 0.0697784423828125 -2.9454345703125 2.031982421875 -0.0013989806175231934 0.0005588531494140625 -0.0227508544921875 0.08747100830078125
18.2995 0.17877960205078125 0.06273651123046875 -2.784912109375 2.27001953125 -0.00016680359840393066 -0.0007342696189880371 -0.0163726806640625 0.08875656127929688
18.30925 0.1816253662109375 0.051971435546875 -2.597900390625 2.49462890625 -0.00047767162322998047 -0.0005922317504882812 -0.0086669921875 0.0917205810546875
18.319 0.1833038330078125 0.04449462890625 -2.387451171875 2.692626953125 0.0005409717559814453 0.00032138824462890625 -0.002105712890625 0.09417724609375
18.32875 0.1839752197265625 0.0360870361328125 -2.164306640625 2.8677978515625 -0.0004076957702636719 -0.0010447502136230469 0.0071258544921875 0.0958404541015625
18.3385 0.18585968017578125 0.02521514892578125 -1.9307861328125 3.0150146484375 -0.0008613467216491699 -0.00025087594985961914 0.01508331298828125 0.09705734252929688
18.34825 0.18630218505859375 0.01514434814453125 -1.7003173828125 3.154296875 0.00021845102310180664 -0.0010387897491455078 0.021930694580078125 0.09761810302734375
18.358 0.187469482421875 0.0066680908203125 -1.469482421875 3.27490234375 -0.0003413856029510498 -0.000525742769241333 0.029266357421875 0.0958251953125
18.36775 0.18592071533203125 -0.00141143798828125 -1.2188720703125 3.3819580078125 -0.00018052011728286743 3.6716461181640625e-05 0.03623199462890625 0.0933685302734375
18.3775 0.18579864501953125 -0.0098419189453125 -0.9686279296875 3.480712890625 -0.00012880563735961914 -0.00016987323760986328 0.04364776611328125 0.091339111328125
18.38725 0.18434906005859375 -0.02072906494140625 -0.6920166015625 3.562255859375 -0.0005726218223571777 0.00011110305786132812 0.04927825927734375 0.092620849609375
18.397 0.1821136474609375 -0.0303497314453125 -0.4036865234375 3.61279296875 -0.00021213293075561523 -0.0010249614715576172 0.0575714111328125 0.08971405029296875
18.40675 0.1801910400390625 -0.037628173828125 -0.10400390625 3.638427734375 -0.0007799863815307617 0.000409543514251709 0.0647125244140625 0.086273193359375
18.4165 0.1777191162109375 -0.0470428466796875 0.188232421875 3.624267578125 -0.0006718635559082031 0.00037658214569091797 0.0716094970703125 0.0833740234375
18.42625 0.17352294921875 -0.0559844970703125 0.471435546875 3.584228515625 -0.0012120604515075684 1.3053417205810547e-05 0.078094482421875 0.07669830322265625
18.436 0.1698455810546875 -0.06353759765625 0.734619140625 3.517578125 -0.001972198486328125 0.0006059408187866211 0.0860443115234375 0.07279205322265625
18.44575 0.1639404296875 -0.07177734375 0.99169921875 3.443115234375 0.00010341405868530273 0.00021062791347503662 0.089019775390625 0.06671142578125
18.4555 0.15958404541015625 -0.0782623291015625 1.233642578125 3.35400390625 -0.000290602445602417 -0.00039628148078918457 0.0935821533203125 0.0615234375
18.46525 0.1562042236328125 -0.08634185791015625 1.47509765625 3.2646484375 -0.0004906058311462402 0.000774085521697998 0.09961700439453125 0.05132293701171875
18.475 0.148895263671875 -0.09262847900390625 1.718994140625 3.161865234375 -0.00019488483667373657 0.00018555670976638794 0.103729248046875 0.0463409423828125
18.48475 0.14531707763671875 -0.100738525390625 1.966064453125 3.027587890625 -0.0003514885902404785 0.00033368170261383057 0.1090545654296875 0.03890228271484375
18.4945 0.137939453125 -0.105560302734375 2.2060546875 2.864990234375 -0.0001681894063949585 -0.00027549266815185547 0.11054229736328125 0.02986907958984375
18.50425 0.13092041015625 -0.11248779296875 2.44140625 2.681640625 -0.0006598830223083496 -0.00015729665756225586 0.1121673583984375 0.0248870849609375
18.514 0.126129150390625 -0.1166839599609375 2.64013671875 2.4638671875 -0.0003018975257873535 0.0004151463508605957 0.11553955078125 0.0164031982421875
18.52375 0.11790084838867188 -0.1216583251953125 2.8134765625 2.234375 0.0008777379989624023 0.00037086009979248047 0.11561203002929688 0.00872039794921875
18.5335 0.11194610595703125 -0.12628173828125 2.953857421875 2.0 0.0006206333637237549 -0.0004831552505493164 0.11696243286132812 0.0001220703125
18.54325 0.10486602783203125 -0.1312103271484375 3.072021484375 1.772216796875 0.0008714795112609863 0.0006060600280761719 0.11546707153320312 -0.006877899169921875
18.553 0.09795379638671875 -0.13401031494140625 3.176025390625 1.540771484375 -0.0006902813911437988 0.0010160207748413086 0.11610794067382812 -0.0145721435546875
18.56275 0.0911102294921875 -0.13610076904296875 3.278564453125 1.31201171875 -0.00045302510261535645 0.000194549560546875 0.113922119140625 -0.021636962890625
18.5725 0.08277130126953125 -0.1387481689453125 3.364990234375 1.07373046875 -0.0001081228256225586 0.0007990598678588867 0.11077499389648438 -0.029296875
18.58225 0.075714111328125 -0.142425537109375 3.441650390625 0.820556640625 -0.0004590749740600586 0.0008347034454345703 0.10788726806640625 -0.037220001220703125
18.592 0.0670318603515625 -0.1456146240234375 3.4990234375 0.551025390625 -0.00012979656457901 0.0001606568694114685 0.10475540161132812 -0.0446319580078125
18.60175 0.0601348876953125 -0.14605712890625 3.533447265625 0.275146484375 -0.0001118779182434082 -0.00024703145027160645 0.1002655029296875 -0.0496063232421875
18.6115 0.0522308349609375 -0.14666748046875 3.52880859375 -0.001708984375 0.00018781423568725586 0.0003231167793273926 0.09796905517578125 -0.05804443359375
18.62125 0.045654296875 -0.14852142333984375 3.5003662109375 -0.26708984375 0.000580519437789917 5.194544792175293e-05 0.09144973754882812 -0.06339645385742188
18.631 0.03812408447265625 -0.148956298828125 3.4517822265625 -0.513427734375 -0.0008291304111480713 0.00018712878227233887 0.08655929565429688 -0.06804275512695312
18.64075 0.03089141845703125 -0.15033721923828125 3.385986328125 -0.751220703125 0.0003528296947479248 -0.00015592575073242188 0.08209228515625 -0.07386016845703125
18.6505 0.0238800048828125 -0.15103912353515625 3.3135986328125 -0.9766845703125 0.00010660290718078613 0.0002595484256744385 0.07715225219726562 -0.076751708984375
18.66025 0.01491546630859375 -0.15018463134765625 3.2437744140625 -1.1990966796875 -0.0008391141891479492 0.00019365549087524414 0.07069778442382812 -0.0793609619140625
18.67 0.0089263916015625 -0.148773193359375 3.158447265625 -1.424560546875 0.00021648406982421875 0.0006962716579437256 0.06556320190429688 -0.0822296142578125
18.67975 -0.00020599365234375 -0.1492156982421875 3.064453125 -1.6541748046875 0.0005100369453430176 -0.0001277327537536621 0.0590057373046875 -0.08457183837890625
