!Created with skrf (http://scikit-rf.org).
# GHz S RI R 50.0 
!freq ReS11 ImS11 ReS21 ImS21 ReS12 ImS12 ReS22 ImS22
17.5 -0.00978851318359375 -0.1199493408203125 -2.4697265625 2.255615234375 4.634261131286621e-06 -0.00037211179733276367 0.084136962890625 -0.0056304931640625
17.50975 -0.01998138427734375 -0.11779022216796875 -2.287109375 2.449462890625 -0.00024563074111938477 0.00022080540657043457 0.08683395385742188 -0.00775146484375
17.5195 -0.02634429931640625 -0.11272430419921875 -2.089111328125 2.6229248046875 -0.0004497021436691284 0.00017489492893218994 0.08943939208984375 -0.008098602294921875
17.52925 -0.0347442626953125 -0.109527587890625 -1.883056640625 2.784912109375 0.0004755258560180664 -8.866190910339355e-05 0.09362030029296875 -0.01092529296875
17.539 -0.0399627685546875 -0.10382080078125 -1.66748046875 2.92626953125 -0.000586390495300293 -0.0006210803985595703 0.09393310546875 -0.01340484619140625
17.54875 -0.04859161376953125 -0.1007232666015625 -1.4420166015625 3.0484619140625 -0.0007118582725524902 -0.0005853176116943359 0.09609222412109375 -0.015766143798828125
17.5585 -0.05872344970703125 -0.09613800048828125 -1.2100830078125 3.158447265625 -0.00021705776453018188 -2.5480985641479492e-06 0.09759902954101562 -0.01940155029296875
17.56825 -0.06342315673828125 -0.09148406982421875 -0.9786376953125 3.2567138671875 2.5600194931030273e-05 -0.000707477331161499 0.097930908203125 -0.022857666015625
17.578 -0.07123565673828125 -0.08460235595703125 -0.72119140625 3.3394775390625 -0.0009923577308654785 8.612871170043945e-05 0.10036468505859375 -0.025848388671875
17.58775 -0.074493408203125 -0.0789947509765625 -0.453857421875 3.404052734375 -0.0008092224597930908 -0.00011050701141357422 0.10033416748046875 -0.028362274169921875
17.5975 -0.079803466796875 -0.07376861572265625 -0.1712646484375 3.442626953125 -0.0017250776290893555 0.0002372264862060547 0.10013580322265625 -0.0318756103515625
17.60725 -0.0855712890625 -0.0674896240234375 0.108642578125 3.4462890625 -0.0010097026824951172 0.00019156932830810547 0.1010894775390625 -0.034862518310546875
17.617 -0.0899658203125 -0.0592041015625 0.3843994140625 3.4241943359375 -0.00040346384048461914 5.602836608886719e-05 0.1013031005859375 -0.040660858154296875
17.62675 -0.0970001220703125 -0.051788330078125 0.65087890625 3.37841796875 -0.0016224384307861328 -0.00018846988677978516 0.10034942626953125 -0.04328155517578125
17.6365 -0.09881591796875 -0.042449951171875 0.90869140625 3.3056640625 -0.0010042190551757812 0.0005980730056762695 0.10089111328125 -0.04882049560546875
17.64625 -0.10276031494140625 -0.03478240966796875 1.14306640625 3.2255859375 0.0004979968070983887 0.0007457733154296875 0.09663009643554688 -0.0527496337890625
17.656 -0.106048583984375 -0.027069091796875 1.3740234375 3.139892578125 -0.0014090538024902344 -0.0007337331771850586 0.0942535400390625 -0.058155059814453125
17.66575 -0.10765457153320312 -0.018035888671875 1.599365234375 3.049560546875 -0.0010969042778015137 0.00024276971817016602 0.09383010864257812 -0.062244415283203125
17.6755 -0.11182403564453125 -0.01151275634765625 1.827392578125 2.942626953125 -0.00044573843479156494 5.3510069847106934e-05 0.09063339233398438 -0.06604385375976562
17.68525 -0.11254119873046875 -0.001983642578125 2.0625 2.82958984375 -0.0005160272121429443 -7.241964340209961e-06 0.08954620361328125 -0.069427490234375
17.695 -0.11413955688476562 0.006977081298828125 2.30615234375 2.682373046875 9.556859731674194e-05 7.600337266921997e-05 0.08734130859375 -0.0731201171875
17.70475 -0.11439895629882812 0.01549530029296875 2.540771484375 2.499755859375 -0.000667572021484375 0.0008493363857269287 0.08549880981445312 -0.076568603515625
17.7145 -0.11499786376953125 0.02475738525390625 2.759765625 2.28271484375 0.00041031837463378906 -0.0008093416690826416 0.08040618896484375 -0.08066177368164062
17.72425 -0.11426544189453125 0.033786773681640625 2.94775390625 2.0419921875 -4.038214683532715e-05 -0.0006377696990966797 0.07744598388671875 -0.08490753173828125
17.734 -0.1142120361328125 0.04090118408203125 3.09912109375 1.78466796875 -0.0008815526962280273 -0.0009642839431762695 0.074005126953125 -0.0886993408203125
17.74375 -0.11323928833007812 0.050243377685546875 3.2060546875 1.523681640625 -0.0009781122207641602 5.179643630981445e-05 0.06851577758789062 -0.09253692626953125
17.7535 -0.11029052734375 0.0582427978515625 3.300048828125 1.27490234375 -0.0006664693355560303 0.000522315502166748 0.064178466796875 -0.09329605102539062
17.76325 -0.10841751098632812 0.0667724609375 3.380859375 1.0390625 -0.000972062349319458 0.0009702742099761963 0.0594024658203125 -0.095977783203125
17.773 -0.10584640502929688 0.0745086669921875 3.4501953125 0.802490234375 -0.0010294914245605469 0.0011606216430664062 0.0552825927734375 -0.09933090209960938
17.78275 -0.103515625 0.08347320556640625 3.51171875 0.553955078125 -0.00029543042182922363 -0.00022172927856445312 0.051349639892578125 -0.10042953491210938
17.7925 -0.09893798828125 0.09083938598632812 3.5714111328125 0.2955322265625 -0.0002516210079193115 -0.0005687475204467773 0.04676055908203125 -0.10239028930664062
17.80225 -0.09481430053710938 0.09711456298828125 3.626220703125 0.0164794921875 0.0002918541431427002 0.0004973411560058594 0.0417022705078125 -0.10398101806640625
17.812 -0.088592529296875 0.10724258422851562 3.642578125 -0.2783203125 -0.0010405778884887695 0.0001513361930847168 0.03617095947265625 -0.10239028930664062
17.82175 -0.083831787109375 0.11397552490234375 3.6312255859375 -0.5810546875 -0.0003629326820373535 0.0004964470863342285 0.03238677978515625 -0.10342788696289062
17.8315 -0.07877731323242188 0.121551513671875 3.5745849609375 -0.884765625 0.0012633800506591797 -0.00013124942779541016 0.024822235107421875 -0.10530853271484375
17.84125 -0.07407379150390625 0.1267242431640625 3.497314453125 -1.1751708984375 -0.0006056427955627441 0.0005199015140533447 0.0181732177734375 -0.10612869262695312
17.851 -0.06708526611328125 0.13550567626953125 3.3782958984375 -1.443115234375 -0.0005824267864227295 0.0008071660995483398 0.015338897705078125 -0.1063079833984375
17.86075 -0.06009674072265625 0.14013671875 3.256591796875 -1.6898193359375 -0.00021225214004516602 0.0007336437702178955 0.008762359619140625 -0.10439300537109375
17.8705 -0.05377197265625 0.14563751220703125 3.124755859375 -1.9259033203125 -0.0012790560722351074 3.3915042877197266e-05 0.0030517578125 -0.10368728637695312
17.88025 -0.0460205078125 0.15158843994140625 2.989501953125 -2.15869140625 -0.0008205175399780273 -0.0013701915740966797 -0.002349853515625 -0.10298919677734375
17.89 -0.04035186767578125 0.1566162109375 2.8460693359375 -2.386474609375 -0.0003489851951599121 0.0008456707000732422 -0.00580596923828125 -0.10063552856445312
17.89975 -0.032745361328125 0.16007232666015625 2.6708984375 -2.6226806640625 0.0006102323532104492 0.0013756752014160156 -0.01165008544921875 -0.10094833374023438
17.9095 -0.02570343017578125 0.16455841064453125 2.4793701171875 -2.8551025390625 0.0005640983581542969 0.0013970136642456055 -0.016872406005859375 -0.10013580322265625
17.91925 -0.016143798828125 0.1656951904296875 2.2493896484375 -3.068115234375 0.00016908347606658936 -3.5196542739868164e-05 -0.02265167236328125 -0.097412109375
17.929 -0.0092010498046875 0.1691741943359375 1.998779296875 -3.26318359375 -0.0005679130554199219 -0.00024449825286865234 -0.0290985107421875 -0.09442901611328125
17.93875 0.00090789794921875 0.17015838623046875 1.7222900390625 -3.42529296875 -0.0002841949462890625 -0.0004054903984069824 -0.03136444091796875 -0.09368896484375
17.9485 0.00984954833984375 0.171630859375 1.4447021484375 -3.5504150390625 0.00041663646697998047 -0.0008210837841033936 -0.03676605224609375 -0.08963775634765625
17.95825 0.0170440673828125 0.1743011474609375 1.158203125 -3.654052734375 -0.0007600784301757812 -0.0003056526184082031 -0.038867950439453125 -0.08516311645507812
17.968 0.025726318359375 0.17449188232421875 0.8795166015625 -3.734130859375 -0.000452578067779541 -0.0006951093673706055 -0.0447998046875 -0.08341217041015625
17.97775 0.03566741943359375 0.17353057861328125 0.5989990234375 -3.797119140625 -0.0003680288791656494 0.0005040168762207031 -0.049407958984375 -0.0788726806640625
17.9875 0.045074462890625 0.17366790771484375 0.30419921875 -3.8597412109375 0.00014346837997436523 0.0010707378387451172 -0.0509185791015625 -0.07476806640625
17.99725 0.05492401123046875 0.173736572265625 0.0032958984375 -3.9027099609375 0.0014753341674804688 -7.843971252441406e-05 -0.05664825439453125 -0.06896209716796875
18.007 0.06275177001953125 0.17156982421875 -0.314697265625 -3.9228515625 -0.0015096664428710938 0.00035077333450317383 -0.05965423583984375 -0.06673431396484375
18.01675 0.073028564453125 0.169769287109375 -0.645263671875 -3.9169921875 -0.0012357234954833984 0.000691831111907959 -0.06536865234375 -0.0635833740234375
18.0265 0.081512451171875 0.168365478515625 -0.9814453125 -3.869140625 0.0004075765609741211 0.00013184547424316406 -0.068817138671875 -0.05828857421875
18.03625 0.0902252197265625 0.166961669921875 -1.314697265625 -3.780029296875 -6.839632987976074e-06 0.00047366321086883545 -0.07029342651367188 -0.051662445068359375
18.046 0.098724365234375 0.1641845703125 -1.638427734375 -3.65576171875 -0.0006396174430847168 0.0007182657718658447 -0.07276153564453125 -0.047115325927734375
18.05575 0.1064300537109375 0.1591339111328125 -1.927490234375 -3.507080078125 0.00010079145431518555 -0.0005610287189483643 -0.07550811767578125 -0.0417938232421875
18.0655 0.114837646484375 0.156280517578125 -2.19775390625 -3.335205078125 2.734363079071045e-05 6.76959753036499e-05 -0.07838058471679688 -0.03440093994140625
18.07525 0.122039794921875 0.1517486572265625 -2.455810546875 -3.149169921875 -0.0003177225589752197 0.0006633996963500977 -0.07928848266601562 -0.03069305419921875
18.085 0.129302978515625 0.146728515625 -2.7080078125 -2.947998046875 1.564621925354004e-05 0.0002545267343521118 -0.08138656616210938 -0.025211334228515625
18.09475 0.1357421875 0.1417388916015625 -2.94384765625 -2.72705078125 -0.00039939582347869873 -6.766617298126221e-05 -0.08095550537109375 -0.0197601318359375
18.1045 0.1428680419921875 0.135498046875 -3.168212890625 -2.491455078125 -0.00033095479011535645 0.00036832690238952637 -0.0824127197265625 -0.0110931396484375
18.11425 0.1488037109375 0.131317138671875 -3.372314453125 -2.21484375 -0.0009111166000366211 -0.00011020898818969727 -0.08246231079101562 -0.006816864013671875
18.124 0.153717041015625 0.1231689453125 -3.552734375 -1.9306640625 0.0004323124885559082 0.00014388561248779297 -0.0806427001953125 0.00041961669921875
18.13375 0.1588592529296875 0.1193389892578125 -3.705810546875 -1.63037109375 -0.0005053281784057617 0.0002734363079071045 -0.0819091796875 0.00572967529296875
18.1435 0.1630401611328125 0.1102752685546875 -3.8193359375 -1.310302734375 1.9669532775878906e-05 0.0007879137992858887 -0.08148574829101562 0.01456451416015625
18.15325 0.16949462890625 0.1041259765625 -3.91162109375 -0.982421875 0.0003826022148132324 -0.0008741617202758789 -0.08063125610351562 0.017757415771484375
18.163 0.1741485595703125 0.0960235595703125 -3.9697265625 -0.659423828125 -4.565715789794922e-05 0.0005839169025421143 -0.0791473388671875 0.025615692138671875
18.17275 0.1771392822265625 0.0890350341796875 -4.003662109375 -0.332275390625 -0.00023317337036132812 -0.000769495964050293 -0.07529830932617188 0.029972076416015625
18.1825 0.18194580078125 0.0809783935546875 -4.020751953125 -0.009521484375 -0.0003165602684020996 0.0010606646537780762 -0.0732269287109375 0.038829803466796875
18.19225 0.183258056640625 0.0726776123046875 -4.00927734375 0.324462890625 0.0007542669773101807 -4.392862319946289e-05 -0.0696868896484375 0.043750762939453125
18.202 0.189239501953125 0.066131591796875 -3.97021484375 0.6474609375 0.00028011202812194824 -0.0003409385681152344 -0.06854248046875 0.0507354736328125
18.21175 0.1900634765625 0.0582122802734375 -3.894775390625 0.984130859375 -0.0005514025688171387 0.0003676414489746094 -0.063873291015625 0.0570831298828125
18.2215 0.193603515625 0.04843902587890625 -3.78076171875 1.3033447265625 -0.0003876239061355591 7.869303226470947e-05 -0.05891227722167969 0.06144142150878906
18.23125 0.1949920654296875 0.04228973388671875 -3.6483154296875 1.599365234375 -0.0007840394973754883 0.0008316636085510254 -0.05527496337890625 0.065399169921875
18.241 0.19577789306640625 0.0328521728515625 -3.4906005859375 1.8792724609375 0.0010169744491577148 -0.0003352165222167969 -0.052425384521484375 0.07062149047851562
18.25075 0.1970062255859375 0.02538299560546875 -3.3106689453125 2.1365966796875 0.0007537603378295898 2.390146255493164e-05 -0.0441741943359375 0.0749969482421875
18.2605 0.19722747802734375 0.01708984375 -3.119384765625 2.375244140625 -0.0011817216873168945 0.0005777478218078613 -0.039073944091796875 0.07861328125
18.27025 0.19775390625 0.0088348388671875 -2.9210205078125 2.604736328125 0.00017293542623519897 6.346404552459717e-05 -0.032588958740234375 0.08245468139648438
18.28 0.19765472412109375 -0.00096893310546875 -2.70263671875 2.8280029296875 -3.5762786865234375e-06 0.0013070106506347656 -0.028972625732421875 0.08547592163085938
18.28975 0.19763946533203125 -0.0088653564453125 -2.468505859375 3.0306396484375 0.000626981258392334 -2.205371856689453e-05 -0.020786285400390625 0.08977508544921875
18.2995 0.196258544921875 -0.0160369873046875 -2.209228515625 3.2171630859375 4.0028244256973267e-05 5.3454190492630005e-05 -0.014789581298828125 0.08994293212890625
18.30925 0.1932220458984375 -0.02587890625 -1.9287109375 3.37841796875 -0.0009982585906982422 0.0002589225769042969 -0.00678253173828125 0.09255218505859375
18.319 0.1916046142578125 -0.03234100341796875 -1.6363525390625 3.503173828125 -9.198486804962158e-05 0.000122852623462677 -0.000988006591796875 0.0943603515625
18.32875 0.18914794921875 -0.03867340087890625 -1.343017578125 3.599609375 -6.108358502388e-05 -5.854666233062744e-05 0.008480072021484375 0.09564971923828125
18.3385 0.1859588623046875 -0.04862213134765625 -1.0518798828125 3.6600341796875 0.0004945695400238037 -0.0003783702850341797 0.01578521728515625 0.09667587280273438
18.34825 0.18389129638671875 -0.055450439453125 -0.771240234375 3.716796875 0.00015035271644592285 0.0007249414920806885 0.02349853515625 0.0988006591796875
18.358 0.18119049072265625 -0.062530517578125 -0.491455078125 3.7493896484375 0.00025579333305358887 0.0006438791751861572 0.03124237060546875 0.0955963134765625
18.36775 0.17758941650390625 -0.070220947265625 -0.20458984375 3.7720947265625 -0.00014251470565795898 3.1299889087677e-05 0.03762054443359375 0.09477996826171875
18.3775 0.17314910888671875 -0.0765380859375 0.078125 3.779052734375 -0.0002963840961456299 0.0004170835018157959 0.044891357421875 0.09223175048828125
18.38725 0.1689910888671875 -0.08484649658203125 0.379638671875 3.760986328125 -0.0005567967891693115 0.00015351176261901855 0.0523223876953125 0.09151458740234375
18.397 0.1648101806640625 -0.089569091796875 0.67919921875 3.7119140625 0.00024434924125671387 -6.136298179626465e-05 0.0569000244140625 0.088287353515625
18.40675 0.1580047607421875 -0.096710205078125 0.9853515625 3.63671875 0.0003580749034881592 3.489851951599121e-05 0.0663299560546875 0.0843353271484375
18.4165 0.15349578857421875 -0.1026153564453125 1.265625 3.5234375 0.00017952919006347656 0.0015134811401367188 0.07318878173828125 0.08238983154296875
18.42625 0.1478729248046875 -0.1087799072265625 1.52880859375 3.3896484375 0.0008276998996734619 -0.00025475025177001953 0.079254150390625 0.07745361328125
18.436 0.14070892333984375 -0.11251068115234375 1.762451171875 3.24072265625 -0.0001989305019378662 0.0005908012390136719 0.0872344970703125 0.0725555419921875
18.44575 0.13527679443359375 -0.11881256103515625 1.984375 3.08349609375 -0.00035196542739868164 -0.00020697712898254395 0.09027099609375 0.06451416015625
18.4555 0.12857818603515625 -0.12323760986328125 2.196044921875 2.922119140625 0.0010858774185180664 -3.635883331298828e-05 0.09554290771484375 0.0596160888671875
18.46525 0.12261199951171875 -0.12896728515625 2.406494140625 2.762939453125 0.000598609447479248 0.0006777644157409668 0.10132598876953125 0.05158233642578125
18.475 0.1148681640625 -0.1320648193359375 2.612548828125 2.58349609375 0.0009943246841430664 0.0006647109985351562 0.1049652099609375 0.04651641845703125
18.48475 0.10965728759765625 -0.13604736328125 2.811767578125 2.376220703125 0.0011911988258361816 0.00025594234466552734 0.108795166015625 0.03737640380859375
18.4945 0.1016693115234375 -0.13803863525390625 2.99462890625 2.1396484375 0.0008404254913330078 -0.0011299848556518555 0.11270904541015625 0.02825164794921875
18.50425 0.093658447265625 -0.143280029296875 3.16455078125 1.8837890625 9.715557098388672e-05 0.0005564689636230469 0.11285400390625 0.0216217041015625
18.514 0.08831787109375 -0.1436767578125 3.29736328125 1.6103515625 -0.0002002716064453125 0.00048545002937316895 0.11541748046875 0.0142364501953125
18.52375 0.08001708984375 -0.14487457275390625 3.3876953125 1.328369140625 0.0008462667465209961 0.0009540915489196777 0.11609649658203125 0.006572723388671875
18.5335 0.07375335693359375 -0.14838409423828125 3.451171875 1.0576171875 0.0008462071418762207 -0.0012478232383728027 0.1173858642578125 -0.001445770263671875
18.54325 0.06695556640625 -0.14986419677734375 3.49853515625 0.794189453125 0.0008723735809326172 0.0005792975425720215 0.11638259887695312 -0.009033203125
18.553 0.06023406982421875 -0.15180206298828125 3.52587890625 0.533935546875 0.0009607076644897461 0.00043898820877075195 0.11451339721679688 -0.0161285400390625
18.56275 0.0539703369140625 -0.1501007080078125 3.551513671875 0.2772216796875 0.0006627142429351807 0.00031119585037231445 0.1141204833984375 -0.02312469482421875
18.5725 0.04511260986328125 -0.15090179443359375 3.5595703125 0.013427734375 0.0009437799453735352 0.0001252889633178711 0.1111602783203125 -0.0315704345703125
18.58225 0.03858184814453125 -0.15155029296875 3.5526123046875 -0.261474609375 0.0006808340549468994 0.00019103288650512695 0.10824966430664062 -0.040279388427734375
18.592 0.0307769775390625 -0.15145111083984375 3.5211181640625 -0.541015625 0.0007800459861755371 -0.00042116641998291016 0.1041107177734375 -0.045040130615234375
18.60175 0.0236358642578125 -0.150238037109375 3.466796875 -0.824951171875 0.0009398460388183594 -0.000270843505859375 0.10002899169921875 -0.05218505859375
18.6115 0.0175018310546875 -0.14809417724609375 3.368896484375 -1.09521484375 0.0016276836395263672 0.0004897117614746094 0.09712982177734375 -0.05982208251953125
18.62125 0.01192474365234375 -0.14778900146484375 3.25146484375 -1.3514404296875 -8.469820022583008e-05 -0.0005877017974853516 0.08981704711914062 -0.06662750244140625
18.631 0.005279541015625 -0.1467437744140625 3.114013671875 -1.572265625 0.0006611049175262451 -0.00019723176956176758 0.0859375 -0.0695648193359375
18.64075 -0.0014190673828125 -0.1440887451171875 2.968017578125 -1.78564453125 0.0016120672225952148 -0.00036412477493286133 0.08077239990234375 -0.0741729736328125
18.6505 -0.00632476806640625 -0.14288330078125 2.8177490234375 -1.9832763671875 0.0009317994117736816 5.364418029785156e-06 0.0755615234375 -0.07716751098632812
18.66025 -0.01485443115234375 -0.1417236328125 2.6658935546875 -2.17431640625 0.001505136489868164 -0.0005162954330444336 0.069061279296875 -0.08104324340820312
18.67 -0.0196533203125 -0.13886260986328125 2.498046875 -2.3638916015625 -0.00034818053245544434 0.0005663037300109863 0.0653533935546875 -0.08356094360351562
18.67975 -0.0256195068359375 -0.1362762451171875 2.317626953125 -2.54541015625 0.0005247592926025391 -0.0013965368270874023 0.056270599365234375 -0.0854339599609375
18.6895 -0.031158447265625 -0.1318817138671875 2.109375 -2.716796875 0.0004585385322570801 -0.00011722743511199951 0.050365447998046875 -0.08723068237304688
