!Created with skrf (http://scikit-rf.org).
# GHz S RI R 50.0 
!freq ReS11 ImS11 ReS21 ImS21 ReS12 ImS12 ReS22 ImS22
17.5 0.05609893798828125 -0.16907501220703125 -2.70654296875 2.5301513671875 0.00044727325439453125 0.0010547637939453125 0.08563232421875 -0.00565338134765625
17.50975 0.0459136962890625 -0.16961669921875 -2.4896240234375 2.7315673828125 -0.0001532137393951416 0.0006274282932281494 0.08712387084960938 -0.0070037841796875
17.5195 0.03907012939453125 -0.1683197021484375 -2.25634765625 2.9095458984375 -0.0016127824783325195 0.0003560781478881836 0.09163665771484375 -0.00801849365234375
17.52925 0.02956390380859375 -0.16658782958984375 -2.0172119140625 3.074462890625 -0.00047916173934936523 -0.0003453493118286133 0.091766357421875 -0.012020111083984375
17.539 0.022064208984375 -0.1646728515625 -1.774658203125 3.213134765625 -0.00012952089309692383 0.000751793384552002 0.09238433837890625 -0.01373291015625
17.54875 0.0121307373046875 -0.1642913818359375 -1.517333984375 3.3291015625 -0.0004146099090576172 0.002040863037109375 0.094696044921875 -0.01529693603515625
17.5585 0.0013427734375 -0.16207122802734375 -1.2606201171875 3.42919921875 0.0005895495414733887 0.0005446672439575195 0.09747314453125 -0.01978302001953125
17.56825 -0.0043182373046875 -0.15972900390625 -1.0052490234375 3.516357421875 -0.00045239925384521484 0.0010970234870910645 0.09729385375976562 -0.023036956787109375
17.578 -0.0132904052734375 -0.15538787841796875 -0.724365234375 3.5858154296875 -4.851818084716797e-05 0.0016102790832519531 0.09956741333007812 -0.027629852294921875
17.58775 -0.0229644775390625 -0.1534576416015625 -0.43798828125 3.636962890625 -5.175173282623291e-05 0.0004393458366394043 0.0997161865234375 -0.02872467041015625
17.5975 -0.02825927734375 -0.147796630859375 -0.1400146484375 3.6593017578125 0.0005258321762084961 0.0003089606761932373 0.10054779052734375 -0.0332794189453125
17.60725 -0.03857421875 -0.14641571044921875 0.153076171875 3.64599609375 -1.1265277862548828e-05 0.00023080408573150635 0.0992279052734375 -0.03508758544921875
17.617 -0.0445404052734375 -0.1376495361328125 0.438232421875 3.602294921875 0.001653909683227539 0.0007897615432739258 0.10003280639648438 -0.04024505615234375
17.62675 -0.0508880615234375 -0.1345977783203125 0.71142578125 3.53369140625 0.0005030035972595215 0.000718235969543457 0.10249710083007812 -0.041900634765625
17.6365 -0.057586669921875 -0.12945556640625 0.9697265625 3.4453125 0.000528872013092041 -0.0007924437522888184 0.099212646484375 -0.04938507080078125
17.64625 -0.063812255859375 -0.1205291748046875 1.204833984375 3.34765625 -0.0007850825786590576 0.0004099905490875244 0.09671401977539062 -0.05191802978515625
17.656 -0.0693359375 -0.1175689697265625 1.432861328125 3.24658203125 0.0011630058288574219 0.000774383544921875 0.0958709716796875 -0.0568695068359375
17.66575 -0.0743865966796875 -0.1091461181640625 1.655517578125 3.150146484375 -0.0008426904678344727 0.0011646151542663574 0.09397125244140625 -0.0611724853515625
17.6755 -0.08110809326171875 -0.10352325439453125 1.878173828125 3.029296875 0.00015059113502502441 0.0006952881813049316 0.092193603515625 -0.06565093994140625
17.68525 -0.0859375 -0.0958099365234375 2.10693359375 2.90869140625 0.0002473294734954834 -0.0008539259433746338 0.08903121948242188 -0.070220947265625
17.695 -0.09000396728515625 -0.08843994140625 2.341064453125 2.754638671875 -0.00017848610877990723 0.0003286302089691162 0.08654403686523438 -0.07308197021484375
17.70475 -0.094207763671875 -0.08087921142578125 2.56884765625 2.563720703125 6.26593828201294e-05 -0.0003392845392227173 0.08465194702148438 -0.07699203491210938
17.7145 -0.0997161865234375 -0.07257843017578125 2.7802734375 2.346923828125 0.0011418461799621582 0.0004966855049133301 0.08005905151367188 -0.0811309814453125
17.72425 -0.10311126708984375 -0.0660552978515625 2.95263671875 2.099609375 0.0015927553176879883 0.0008271932601928711 0.07548904418945312 -0.08488845825195312
17.734 -0.1075286865234375 -0.05747222900390625 3.09619140625 1.843994140625 0.0004330277442932129 0.0012679696083068848 0.07278823852539062 -0.08691787719726562
17.74375 -0.110504150390625 -0.049407958984375 3.1943359375 1.58740234375 0.00109100341796875 -0.00016510486602783203 0.0681304931640625 -0.09320831298828125
17.7535 -0.11029815673828125 -0.042327880859375 3.2744140625 1.342041015625 0.0017791986465454102 0.00031280517578125 0.064788818359375 -0.09482192993164062
17.76325 -0.112518310546875 -0.03432464599609375 3.349365234375 1.114013671875 -0.00037282705307006836 0.0019000768661499023 0.05878448486328125 -0.09637451171875
17.773 -0.11522674560546875 -0.026031494140625 3.4091796875 0.88720703125 3.757700324058533e-05 -2.6028603315353394e-05 0.0546722412109375 -0.09831619262695312
17.78275 -0.11716461181640625 -0.017364501953125 3.46533203125 0.64990234375 0.0007607936859130859 0.00036847591400146484 0.0501251220703125 -0.10001754760742188
17.7925 -0.117156982421875 -0.010467529296875 3.5234375 0.409423828125 0.0014709830284118652 -0.00027179718017578125 0.044891357421875 -0.10139083862304688
17.80225 -0.11599349975585938 -0.0019378662109375 3.568603515625 0.14453125 0.0008223354816436768 -0.0003420710563659668 0.041778564453125 -0.10385894775390625
17.812 -0.11419296264648438 0.006572723388671875 3.588134765625 -0.1322021484375 0.0007019639015197754 -1.6093254089355469e-06 0.035282135009765625 -0.10385894775390625
17.82175 -0.11388015747070312 0.01740264892578125 3.5760498046875 -0.4141845703125 7.374584674835205e-05 0.00030168890953063965 0.03212738037109375 -0.10414505004882812
17.8315 -0.1129302978515625 0.02542877197265625 3.532958984375 -0.701416015625 0.0011834502220153809 0.000414431095123291 0.02420806884765625 -0.10595703125
17.84125 -0.11067962646484375 0.03208160400390625 3.4638671875 -0.970703125 0.00023686885833740234 0.0007998943328857422 0.01824188232421875 -0.104400634765625
17.851 -0.10799789428710938 0.0423583984375 3.3570556640625 -1.2230224609375 0.000354081392288208 -0.00026260316371917725 0.01568603515625 -0.1063232421875
17.86075 -0.10591888427734375 0.048572540283203125 3.2513427734375 -1.4541015625 -0.0009339451789855957 0.0008452832698822021 0.0078887939453125 -0.1030731201171875
17.8705 -0.10370254516601562 0.056121826171875 3.13525390625 -1.6744384765625 -6.774067878723145e-05 -0.0006435215473175049 0.00238037109375 -0.1038818359375
17.88025 -0.0997161865234375 0.0657196044921875 3.01953125 -1.8907470703125 0.0012673139572143555 -0.00041937828063964844 -0.002040863037109375 -0.10291671752929688
17.89 -0.09590911865234375 0.07307052612304688 2.8980712890625 -2.1019287109375 0.000536501407623291 0.0012043118476867676 -0.00771331787109375 -0.10011672973632812
17.89975 -0.0917205810546875 0.07927322387695312 2.751708984375 -2.323486328125 0.0002689659595489502 -0.0007973313331604004 -0.0139312744140625 -0.09998703002929688
17.9095 -0.08928680419921875 0.08745193481445312 2.5906982421875 -2.54443359375 0.0007954537868499756 0.00013136863708496094 -0.018398284912109375 -0.09847259521484375
17.91925 -0.08154678344726562 0.09256744384765625 2.3961181640625 -2.746826171875 0.0003841519355773926 -0.0004447251558303833 -0.022853851318359375 -0.09719085693359375
17.929 -0.076446533203125 0.09880828857421875 2.183349609375 -2.9375 0.0016200542449951172 0.0010921955108642578 -0.0267486572265625 -0.0963287353515625
17.93875 -0.0715484619140625 0.10382843017578125 1.9466552734375 -3.100341796875 0.0011550188064575195 -0.00047725439071655273 -0.032115936279296875 -0.09196090698242188
17.9485 -0.06491851806640625 0.109649658203125 1.710205078125 -3.2332763671875 -0.0002588331699371338 -0.000691145658493042 -0.036762237548828125 -0.08788681030273438
17.95825 -0.059844970703125 0.11533737182617188 1.4661865234375 -3.3463134765625 0.0003255605697631836 -7.542967796325684e-05 -0.040546417236328125 -0.08499526977539062
17.968 -0.050968170166015625 0.12054443359375 1.2266845703125 -3.4434814453125 -0.0005048513412475586 0.00024637579917907715 -0.04522705078125 -0.084197998046875
17.97775 -0.04357147216796875 0.12376785278320312 0.9866943359375 -3.525390625 6.824731826782227e-05 -0.0009478628635406494 -0.04938507080078125 -0.07700347900390625
17.9875 -0.0365753173828125 0.12933349609375 0.7349853515625 -3.6072998046875 0.0008609890937805176 -0.0003936886787414551 -0.0532073974609375 -0.07512664794921875
17.99725 -0.02863311767578125 0.13231658935546875 0.4783935546875 -3.681640625 0.00026032328605651855 0.00013290345668792725 -0.056854248046875 -0.0704345703125
18.007 -0.02020263671875 0.13623809814453125 0.202880859375 -3.7392578125 0.0016928911209106445 -0.0009542107582092285 -0.06011199951171875 -0.0646209716796875
18.01675 -0.0124969482421875 0.13809967041015625 -0.086181640625 -3.769775390625 -5.8978796005249023e-05 -0.000519484281539917 -0.0650787353515625 -0.0605010986328125
18.0265 -0.00325775146484375 0.14173126220703125 -0.386962890625 -3.78271484375 -0.0007955431938171387 -0.0004507899284362793 -0.067779541015625 -0.0572357177734375
18.03625 0.005584716796875 0.145111083984375 -0.6904296875 -3.7470703125 0.0003123283386230469 -0.0013939142227172852 -0.06976318359375 -0.05109405517578125
18.046 0.01418304443359375 0.14626312255859375 -0.991455078125 -3.686767578125 -0.0008043646812438965 -0.00020736455917358398 -0.072296142578125 -0.046062469482421875
18.05575 0.02181243896484375 0.14585113525390625 -1.2685546875 -3.60498046875 -0.0002383887767791748 -0.0005569756031036377 -0.07544708251953125 -0.0413055419921875
18.0655 0.0307769775390625 0.14827728271484375 -1.533447265625 -3.505615234375 0.0008950233459472656 -0.0003674328327178955 -0.078125 -0.035655975341796875
18.07525 0.0404052734375 0.1483154296875 -1.792724609375 -3.388671875 0.00013554096221923828 -0.0010462403297424316 -0.08017730712890625 -0.029911041259765625
18.085 0.0504302978515625 0.146881103515625 -2.050537109375 -3.260009765625 0.00035628676414489746 0.00043141841888427734 -0.0820770263671875 -0.023975372314453125
18.09475 0.05731201171875 0.146820068359375 -2.302734375 -3.12060546875 0.0006598830223083496 0.00010147690773010254 -0.07970046997070312 -0.01940155029296875
18.1045 0.06649017333984375 0.14344024658203125 -2.549560546875 -2.95947265625 -0.00096893310546875 -0.0015517473220825195 -0.08218765258789062 -0.012454986572265625
18.11425 0.07584381103515625 0.143646240234375 -2.79541015625 -2.761474609375 0.0003477334976196289 -0.0008309781551361084 -0.08249664306640625 -0.007293701171875
18.124 0.08349609375 0.1402587890625 -3.02001953125 -2.54833984375 2.310052514076233e-05 -3.745220601558685e-05 -0.0818939208984375 0.002269744873046875
18.13375 0.0917510986328125 0.13774871826171875 -3.224853515625 -2.312744140625 -9.137392044067383e-05 -0.0009791254997253418 -0.08155059814453125 0.00676727294921875
18.1435 0.099578857421875 0.13448333740234375 -3.408935546875 -2.05810546875 4.079937934875488e-05 -0.0008164644241333008 -0.08155059814453125 0.01375579833984375
18.15325 0.107879638671875 0.1288299560546875 -3.572998046875 -1.782470703125 -0.00022301077842712402 -0.0006483495235443115 -0.08144760131835938 0.01950836181640625
18.163 0.11569976806640625 0.12285614013671875 -3.71044921875 -1.50341796875 -0.00038614869117736816 -0.00014767050743103027 -0.07959747314453125 0.025806427001953125
18.17275 0.123046875 0.118438720703125 -3.826904296875 -1.210205078125 -0.0004698038101196289 -0.00046503543853759766 -0.07501602172851562 0.030414581298828125
18.1825 0.13076019287109375 0.11136627197265625 -3.928955078125 -0.917236328125 -0.0005625486373901367 -0.0005298256874084473 -0.07262802124023438 0.038974761962890625
18.19225 0.136566162109375 0.10597991943359375 -4.014404296875 -0.603271484375 0.00047738850116729736 -0.0003716796636581421 -0.07003402709960938 0.04473114013671875
18.202 0.144073486328125 0.10030364990234375 -4.067626953125 -0.28515625 -0.0004462301731109619 9.226799011230469e-05 -0.0689849853515625 0.05011749267578125
18.21175 0.151092529296875 0.0933837890625 -4.09228515625 0.05224609375 -0.00045806169509887695 -0.0005123615264892578 -0.06379318237304688 0.05722808837890625
18.2215 0.1580047607421875 0.08484649658203125 -4.0791015625 0.390625 -0.0002311021089553833 0.0002446472644805908 -0.05991363525390625 0.06128120422363281
18.23125 0.16368865966796875 0.0787811279296875 -4.03759765625 0.71484375 -0.0011638998985290527 -0.0005159974098205566 -0.056179046630859375 0.065185546875
18.241 0.16686248779296875 0.06893157958984375 -3.9627685546875 1.03271484375 0.0007897019386291504 -0.0015211701393127441 -0.050983428955078125 0.07099151611328125
18.25075 0.1698455810546875 0.06103515625 -3.86962890625 1.338623046875 -0.00028415024280548096 0.00013659894466400146 -0.046192169189453125 0.07649612426757812
18.2605 0.17221832275390625 0.05399322509765625 -3.7542724609375 1.631591796875 -0.001098930835723877 -0.0002187490463256836 -0.040142059326171875 0.07852935791015625
18.27025 0.17740631103515625 0.0438995361328125 -3.6270751953125 1.9189453125 -0.0006127655506134033 -0.00012749433517456055 -0.033069610595703125 0.08269500732421875
18.28 0.18079376220703125 0.0349884033203125 -3.4781494140625 2.21337890625 -0.000519484281539917 0.000850290060043335 -0.027557373046875 0.08547592163085938
18.28975 0.18317413330078125 0.0263671875 -3.3070068359375 2.4930419921875 -6.236135959625244e-05 -0.00015267729759216309 -0.02046966552734375 0.08828353881835938
18.2995 0.18357086181640625 0.01740264892578125 -3.1019287109375 2.7626953125 -0.00028304755687713623 4.966557025909424e-05 -0.013820648193359375 0.08994293212890625
18.30925 0.1845245361328125 0.007904052734375 -2.86083984375 3.013427734375 -0.0010308027267456055 0.00017976760864257812 -0.00585174560546875 0.09244537353515625
18.319 0.18402099609375 -0.0006256103515625 -2.597900390625 3.23681640625 -0.00041544437408447266 -0.00014394521713256836 -0.00164031982421875 0.09526824951171875
18.32875 0.18308258056640625 -0.00771331787109375 -2.3212890625 3.42333984375 -0.0005829930305480957 0.0004596710205078125 0.00919342041015625 0.09624099731445312
18.3385 0.18228912353515625 -0.019073486328125 -2.036865234375 3.5819091796875 -0.0003323853015899658 -0.00011529028415679932 0.01670074462890625 0.09698486328125
18.34825 0.18239593505859375 -0.0275115966796875 -1.7569580078125 3.726318359375 -0.0011966228485107422 -0.0005152225494384766 0.022876739501953125 0.09662628173828125
18.358 0.18061065673828125 -0.0368194580078125 -1.472412109375 3.85009765625 -0.0008045434951782227 0.0011265873908996582 0.03127288818359375 0.095794677734375
18.36775 0.178955078125 -0.04441070556640625 -1.17041015625 3.958251953125 -0.001307368278503418 -0.0003975033760070801 0.0376739501953125 0.0945892333984375
18.3775 0.175811767578125 -0.05287933349609375 -0.867431640625 4.0517578125 -0.0005865097045898438 -0.0007990002632141113 0.04461669921875 0.0923919677734375
18.38725 0.1744842529296875 -0.0629730224609375 -0.5341796875 4.12060546875 -0.0007025599479675293 6.744265556335449e-05 0.05133819580078125 0.0917205810546875
18.397 0.170654296875 -0.0700531005859375 -0.19580078125 4.1494140625 -0.00034880638122558594 0.0005072951316833496 0.05828857421875 0.0882110595703125
18.40675 0.1662445068359375 -0.0767669677734375 0.15673828125 4.15625 -8.33272933959961e-05 0.00026988983154296875 0.0662689208984375 0.083465576171875
18.4165 0.16254425048828125 -0.0850830078125 0.494873046875 4.11474609375 0.000372469425201416 0.00050315260887146 0.0717315673828125 0.0804595947265625
18.42625 0.156768798828125 -0.09343719482421875 0.81982421875 4.037841796875 -1.5206634998321533e-05 -0.00015672296285629272 0.08039093017578125 0.0760345458984375
18.436 0.1521453857421875 -0.0984039306640625 1.12158203125 3.93505859375 0.000359952449798584 0.0010418891906738281 0.08728790283203125 0.07120513916015625
18.44575 0.1466217041015625 -0.10573577880859375 1.406982421875 3.82177734375 -0.0008486509323120117 0.00016230344772338867 0.09099578857421875 0.0633392333984375
18.4555 0.14083099365234375 -0.11215972900390625 1.68115234375 3.69775390625 0.0003692805767059326 4.9248337745666504e-05 0.09526824951171875 0.05756378173828125
18.46525 0.13478851318359375 -0.11806488037109375 1.9521484375 3.5703125 -0.0007298588752746582 0.0013388395309448242 0.100006103515625 0.0504608154296875
18.475 0.12830352783203125 -0.12372589111328125 2.224853515625 3.426025390625 0.0013020038604736328 0.0016117095947265625 0.1046905517578125 0.045166015625
18.48475 0.12408447265625 -0.13037109375 2.49560546875 3.246826171875 -0.0007439851760864258 -2.720952033996582e-05 0.10932159423828125 0.0363616943359375
18.4945 0.11566925048828125 -0.13275909423828125 2.7568359375 3.03125 -8.180737495422363e-05 0.0009070038795471191 0.112335205078125 0.028289794921875
18.50425 0.1086578369140625 -0.1390380859375 3.00537109375 2.7919921875 0.00021183490753173828 0.0011675357818603516 0.1133270263671875 0.0225677490234375
18.514 0.104400634765625 -0.142303466796875 3.21337890625 2.52294921875 0.0004404783248901367 0.000802159309387207 0.1160736083984375 0.0145721435546875
18.52375 0.095977783203125 -0.1446990966796875 3.382080078125 2.236083984375 0.000260084867477417 0.0006248950958251953 0.11658096313476562 0.00597381591796875
18.5335 0.08986663818359375 -0.14786529541015625 3.5166015625 1.951904296875 0.0004303455352783203 -6.221234798431396e-05 0.11792755126953125 -0.002742767333984375
18.54325 0.0827789306640625 -0.15373992919921875 3.6279296875 1.67578125 0.0007469654083251953 0.0004080533981323242 0.11680984497070312 -0.010265350341796875
18.553 0.0755462646484375 -0.15557098388671875 3.717041015625 1.396728515625 0.0004725456237792969 0.00019848346710205078 0.11493682861328125 -0.0160064697265625
18.56275 0.0686798095703125 -0.1571807861328125 3.80615234375 1.122314453125 5.117058753967285e-05 0.0007096529006958008 0.11350631713867188 -0.023845672607421875
18.5725 0.0601043701171875 -0.15752410888671875 3.876220703125 0.8388671875 0.00021895766258239746 0.0004044473171234131 0.11030197143554688 -0.030704498291015625
18.58225 0.0546417236328125 -0.15985870361328125 3.932861328125 0.542236328125 0.0007693767547607422 0.0005273222923278809 0.10715103149414062 -0.040454864501953125
18.592 0.046417236328125 -0.1627349853515625 3.96337890625 0.227294921875 0.00012248754501342773 0.0007423758506774902 0.10483169555664062 -0.0475616455078125
18.60175 0.0393829345703125 -0.1623382568359375 3.966796875 -0.0908203125 -0.0007417201995849609 0.000583648681640625 0.09889984130859375 -0.05245208740234375
18.6115 0.0322265625 -0.1631011962890625 3.926025390625 -0.404541015625 -0.00019231438636779785 -0.00027683377265930176 0.09667205810546875 -0.06006622314453125
18.62125 0.02516937255859375 -0.1630706787109375 3.8570556640625 -0.70556640625 0.0006905794143676758 0.00039768218994140625 0.09025192260742188 -0.06537628173828125
18.631 0.017364501953125 -0.16280364990234375 3.7666015625 -0.9747314453125 0.0003962665796279907 -0.0003234595060348511 0.0853424072265625 -0.06938934326171875
18.64075 0.0103759765625 -0.16272735595703125 3.6605224609375 -1.23486328125 0.0014382600784301758 -0.0001176595687866211 0.07967376708984375 -0.0741119384765625
18.6505 0.0052947998046875 -0.162872314453125 3.5516357421875 -1.4844970703125 0.0001433044672012329 -0.000272408127784729 0.07474517822265625 -0.07804107666015625
18.66025 -0.00370025634765625 -0.161865234375 3.4384765625 -1.726806640625 0.00038310885429382324 -0.0001573115587234497 0.0682373046875 -0.08226394653320312
18.67 -0.0088653564453125 -0.16152191162109375 3.308837890625 -1.970703125 0.0006310343742370605 0.00043267011642456055 0.06483078002929688 -0.08453750610351562
18.67975 -0.0184783935546875 -0.15961456298828125 3.165771484375 -2.2137451171875 -0.00023293495178222656 0.0013588666915893555 0.055660247802734375 -0.08768844604492188
18.6895 -0.02337646484375 -0.15865325927734375 2.9892578125 -2.45263671875 -0.0004507601261138916 -0.0005009174346923828 0.0506439208984375 -0.08655929565429688
