!Created with skrf (http://scikit-rf.org).
# GHz S RI R 50.0 
!freq ReS11 ImS11 ReS21 ImS21 ReS12 ImS12 ReS22 ImS22
27.5 0.01183319091796875 0.16241455078125 -0.01653003692626953 -0.006772041320800781 -0.01647663116455078 -0.006960868835449219 -0.03250885009765625 0.176910400390625
27.50875 0.01690673828125 0.15761566162109375 -0.017012596130371094 -0.0058078765869140625 -0.016999244689941406 -0.006049156188964844 -0.0290679931640625 0.17168426513671875
27.5175 0.0216522216796875 0.15244293212890625 -0.01731586456298828 -0.0046596527099609375 -0.017462730407714844 -0.004848480224609375 -0.0260772705078125 0.16652679443359375
27.52625 0.0260009765625 0.1472015380859375 -0.017432212829589844 -0.0036487579345703125 -0.017609596252441406 -0.003810882568359375 -0.0232391357421875 0.16152191162109375
27.535 0.02996826171875 0.14166259765625 -0.01743316650390625 -0.002887725830078125 -0.017686843872070312 -0.00278472900390625 -0.020751953125 0.156219482421875
27.54375 0.0334625244140625 0.1363677978515625 -0.01747894287109375 -0.001953125 -0.01787567138671875 -0.00171661376953125 -0.019073486328125 0.150970458984375
27.5525 0.036590576171875 0.130889892578125 -0.017561912536621094 -0.0011358261108398438 -0.0177764892578125 -0.0009307861328125 -0.01729583740234375 0.14556121826171875
27.56125 0.03924560546875 0.1251983642578125 -0.01771259307861328 -0.000347137451171875 -0.017803192138671875 1.9073486328125e-05 -0.016143798828125 0.13980865478515625
27.57 0.04164886474609375 0.11959075927734375 -0.017907142639160156 0.00034332275390625 -0.01792430877685547 0.000858306884765625 -0.01580810546875 0.13459014892578125
27.57875 0.04351806640625 0.11363983154296875 -0.01805877685546875 0.0014753341674804688 -0.017991065979003906 0.0016489028930664062 -0.01519775390625 0.12952423095703125
27.5875 0.044677734375 0.107696533203125 -0.01824188232421875 0.0026035308837890625 -0.017945289611816406 0.0027742385864257812 -0.0152435302734375 0.12415695190429688
27.59625 0.0453948974609375 0.10169219970703125 -0.0181732177734375 0.0037183761596679688 -0.017828941345214844 0.00382232666015625 -0.01556396484375 0.11888885498046875
27.605 0.04552459716796875 0.09572601318359375 -0.017912864685058594 0.004910469055175781 -0.017653465270996094 0.0049686431884765625 -0.01638031005859375 0.11378860473632812
27.61375 0.04601287841796875 0.0897674560546875 -0.017515182495117188 0.005825042724609375 -0.017171859741210938 0.005843162536621094 -0.017475128173828125 0.10857009887695312
27.6225 0.04592132568359375 0.0835418701171875 -0.01727294921875 0.00678253173828125 -0.016857147216796875 0.0067729949951171875 -0.018939971923828125 0.10380935668945312
27.63125 0.045154571533203125 0.07730484008789062 -0.016849517822265625 0.0077915191650390625 -0.016643524169921875 0.007697105407714844 -0.020572662353515625 0.0992279052734375
27.64 0.04412078857421875 0.07077789306640625 -0.016368865966796875 0.0088348388671875 -0.01625823974609375 0.008729934692382812 -0.022594451904296875 0.09479904174804688
27.64875 0.042110443115234375 0.06476974487304688 -0.015883445739746094 0.009638786315917969 -0.015605926513671875 0.00971221923828125 -0.02506256103515625 0.09080123901367188
27.6575 0.040416717529296875 0.05910491943359375 -0.015456676483154297 0.010474681854248047 -0.015172958374023438 0.010348320007324219 -0.027790069580078125 0.08703231811523438
27.66625 0.038593292236328125 0.05303955078125 -0.0147247314453125 0.011308670043945312 -0.014552116394042969 0.011244773864746094 -0.030605316162109375 0.08361434936523438
27.675 0.03627777099609375 0.047344207763671875 -0.014163970947265625 0.012053489685058594 -0.0139312744140625 0.01190948486328125 -0.03394317626953125 0.08054733276367188
27.68375 0.0338134765625 0.04196929931640625 -0.013612747192382812 0.012816429138183594 -0.01324462890625 0.012712478637695312 -0.03753662109375 0.077789306640625
27.6925 0.030853271484375 0.03658294677734375 -0.012922286987304688 0.013605117797851562 -0.012755393981933594 0.013423919677734375 -0.041259765625 0.07546234130859375
27.70125 0.027675628662109375 0.03182220458984375 -0.012105941772460938 0.014412879943847656 -0.0119171142578125 0.014163017272949219 -0.04532623291015625 0.07334136962890625
27.71 0.02414703369140625 0.0272979736328125 -0.011384963989257812 0.01506805419921875 -0.0110626220703125 0.014924049377441406 -0.04965972900390625 0.07152557373046875
27.71875 0.020341873168945312 0.023122787475585938 -0.010464668273925781 0.015555381774902344 -0.010455608367919922 0.015596389770507812 -0.05387115478515625 0.06985092163085938
27.7275 0.016132354736328125 0.0195770263671875 -0.009639739990234375 0.016202926635742188 -0.009531974792480469 0.016347885131835938 -0.058841705322265625 0.068634033203125
27.73625 0.011992454528808594 0.016178131103515625 -0.008632659912109375 0.016847610473632812 -0.008631706237792969 0.016907691955566406 -0.06343460083007812 0.06739044189453125
27.745 0.007548332214355469 0.012785911560058594 -0.007601737976074219 0.017293930053710938 -0.007567405700683594 0.017284393310546875 -0.06851959228515625 0.06699371337890625
27.75375 0.002491474151611328 0.010172843933105469 -0.006623268127441406 0.01774311065673828 -0.006481170654296875 0.01769542694091797 -0.073333740234375 0.06675338745117188
27.7625 -0.0025930404663085938 0.007350444793701172 -0.005642890930175781 0.017969131469726562 -0.0054187774658203125 0.018083572387695312 -0.07869720458984375 0.06632614135742188
27.77125 -0.008345603942871094 0.0053462982177734375 -0.0045680999755859375 0.018309593200683594 -0.004581451416015625 0.01826763153076172 -0.08355712890625 0.06674957275390625
27.78 -0.013985633850097656 0.0033860206604003906 -0.0036907196044921875 0.018497467041015625 -0.0035486221313476562 0.01853179931640625 -0.088409423828125 0.06733322143554688
27.78875 -0.02011394500732422 0.00189971923828125 -0.002681732177734375 0.018680572509765625 -0.0024023056030273438 0.01890277862548828 -0.09365463256835938 0.0679779052734375
27.7975 -0.026434898376464844 0.0007114410400390625 -0.0014057159423828125 0.019014358520507812 -0.0011606216430664062 0.01887035369873047 -0.09818649291992188 0.06925201416015625
27.80625 -0.032451629638671875 -0.0004863739013671875 -0.00037288665771484375 0.01894092559814453 -6.008148193359375e-05 0.018651962280273438 -0.1027679443359375 0.07110977172851562
27.815 -0.03896141052246094 -0.0011157989501953125 0.000698089599609375 0.0187530517578125 0.0009679794311523438 0.018662452697753906 -0.10744476318359375 0.0728759765625
27.82375 -0.04546356201171875 -0.0014438629150390625 0.0016508102416992188 0.01870441436767578 0.00182342529296875 0.018491744995117188 -0.11169815063476562 0.0747528076171875
27.8325 -0.05188751220703125 -0.0014400482177734375 0.002536773681640625 0.01867198944091797 0.002826690673828125 0.01838970184326172 -0.11579513549804688 0.077911376953125
27.84125 -0.05818367004394531 -0.000988006591796875 0.003749847412109375 0.018373489379882812 0.0039348602294921875 0.018149375915527344 -0.11932754516601562 0.08101272583007812
27.85 -0.0645904541015625 -0.00023651123046875 0.0046062469482421875 0.018047332763671875 0.004974365234375 0.017974853515625 -0.12327194213867188 0.0840606689453125
27.85875 -0.07059097290039062 0.000957489013671875 0.005580902099609375 0.017686843872070312 0.0058441162109375 0.017547607421875 -0.126678466796875 0.08791351318359375
27.8675 -0.07638931274414062 0.002582550048828125 0.006610870361328125 0.017375946044921875 0.006671905517578125 0.017188072204589844 -0.130462646484375 0.09174346923828125
27.87625 -0.08196640014648438 0.004169464111328125 0.007405281066894531 0.017075538635253906 0.0075778961181640625 0.016674041748046875 -0.1332855224609375 0.096405029296875
27.885 -0.08755111694335938 0.00682830810546875 0.008335113525390625 0.016666412353515625 0.008400917053222656 0.01643085479736328 -0.13604736328125 0.1009521484375
27.89375 -0.09281539916992188 0.009952545166015625 0.009331703186035156 0.016170501708984375 0.009333610534667969 0.015871047973632812 -0.13881683349609375 0.10584259033203125
27.9025 -0.09808731079101562 0.013050079345703125 0.010373115539550781 0.015702247619628906 0.010136604309082031 0.015428543090820312 -0.14160919189453125 0.11063385009765625
27.91125 -0.10263442993164062 0.016811370849609375 0.011262893676757812 0.015087127685546875 0.011225700378417969 0.014924049377441406 -0.14376068115234375 0.11583709716796875
27.92 -0.10726547241210938 0.020526885986328125 0.012238502502441406 0.014302253723144531 0.012106895446777344 0.014179229736328125 -0.14595794677734375 0.12143707275390625
27.92875 -0.11181640625 0.025211334228515625 0.01305389404296875 0.013483047485351562 0.012984275817871094 0.013415336608886719 -0.14800262451171875 0.1270599365234375
27.9375 -0.11597442626953125 0.029720306396484375 0.013484001159667969 0.012430191040039062 0.013529777526855469 0.012501716613769531 -0.14975738525390625 0.132965087890625
27.94625 -0.12042236328125 0.03455352783203125 0.01415252685546875 0.011339187622070312 0.014133453369140625 0.01153564453125 -0.150970458984375 0.138763427734375
27.955 -0.124481201171875 0.0397186279296875 0.014300346374511719 0.010431289672851562 0.014568328857421875 0.010790824890136719 -0.15167999267578125 0.144866943359375
27.96375 -0.1284637451171875 0.045318603515625 0.014758110046386719 0.009735107421875 0.014978408813476562 0.009980201721191406 -0.15242767333984375 0.15093231201171875
27.9725 -0.13201904296875 0.0513153076171875 0.015001296997070312 0.009159088134765625 0.015401840209960938 0.0092620849609375 -0.15242767333984375 0.15689849853515625
27.98125 -0.1352386474609375 0.056915283203125 0.01537322998046875 0.008545875549316406 0.015811920166015625 0.008575439453125 -0.15239715576171875 0.1625518798828125
27.99 -0.13816070556640625 0.0627899169921875 0.01586437225341797 0.00785064697265625 0.016341209411621094 0.007770538330078125 -0.1513519287109375 0.16846466064453125
27.99875 -0.1409759521484375 0.06874847412109375 0.016262054443359375 0.0071430206298828125 0.01677417755126953 0.006815910339355469 -0.15059661865234375 0.17493438720703125
28.0075 -0.14339447021484375 0.0745697021484375 0.016646385192871094 0.006377220153808594 0.017284393310546875 0.0058135986328125 -0.1490631103515625 0.18105316162109375
28.01625 -0.14532470703125 0.08113861083984375 0.017266273498535156 0.005412101745605469 0.017556190490722656 0.004825592041015625 -0.14743804931640625 0.18726348876953125
28.025 -0.14678192138671875 0.087127685546875 0.01778125762939453 0.004078865051269531 0.01763439178466797 0.0034532546997070312 -0.145233154296875 0.19284820556640625
28.03375 -0.14778900146484375 0.09389495849609375 0.017822265625 0.0030813217163085938 0.017656326293945312 0.0024356842041015625 -0.14249420166015625 0.1990814208984375
28.0425 -0.14818572998046875 0.10012054443359375 0.017889976501464844 0.0018634796142578125 0.017441749572753906 0.0014276504516601562 -0.1399688720703125 0.20543670654296875
28.05125 -0.1481170654296875 0.106475830078125 0.017724990844726562 0.0007114410400390625 0.017299652099609375 0.0005340576171875 -0.13720703125 0.211456298828125
28.06 -0.1480255126953125 0.11283111572265625 0.017560958862304688 -0.00032329559326171875 0.017124176025390625 -0.00025272369384765625 -0.1339111328125 0.217437744140625
28.06875 -0.14699554443359375 0.11977386474609375 0.017159461975097656 -0.0011568069458007812 0.016855239868164062 -0.0009603500366210938 -0.13043975830078125 0.223358154296875
28.0775 -0.145751953125 0.126678466796875 0.016791343688964844 -0.0018978118896484375 0.016760826110839844 -0.0015687942504882812 -0.12659454345703125 0.2291717529296875
28.08625 -0.144195556640625 0.133544921875 0.016710281372070312 -0.0024003982543945312 0.01670074462890625 -0.0020656585693359375 -0.1226806640625 0.2348175048828125
28.095 -0.14232635498046875 0.14078521728515625 0.01656341552734375 -0.0029802322387695312 0.016760826110839844 -0.0028009414672851562 -0.11847686767578125 0.24022674560546875
28.10375 -0.1399383544921875 0.147705078125 0.016590118408203125 -0.0036773681640625 0.016966819763183594 -0.0036725997924804688 -0.11419677734375 0.24542236328125
28.1125 -0.1372833251953125 0.15468597412109375 0.016561508178710938 -0.0045986175537109375 0.016885757446289062 -0.004883766174316406 -0.10943603515625 0.2501373291015625
28.12125 -0.13482666015625 0.161773681640625 0.016486167907714844 -0.00555419921875 0.016820907592773438 -0.005888938903808594 -0.10491943359375 0.255340576171875
28.13 -0.13172149658203125 0.168975830078125 0.016307830810546875 -0.00681304931640625 0.016304969787597656 -0.0072174072265625 -0.0995635986328125 0.259521484375
28.13875 -0.12841796875 0.17604827880859375 0.015753746032714844 -0.007790565490722656 0.015664100646972656 -0.008313179016113281 -0.09393310546875 0.2638397216796875
28.1475 -0.12502288818359375 0.1826324462890625 0.015026569366455078 -0.00875234603881836 0.01469278335571289 -0.009028434753417969 -0.0885467529296875 0.26739501953125
28.15625 -0.121337890625 0.1888275146484375 0.014263153076171875 -0.009396553039550781 0.013852119445800781 -0.009554862976074219 -0.082611083984375 0.2706298828125
28.165 -0.117706298828125 0.195037841796875 0.01346588134765625 -0.009860038757324219 0.013112068176269531 -0.01001739501953125 -0.0767822265625 0.27423095703125
28.17375 -0.113555908203125 0.20064544677734375 0.012916088104248047 -0.010401248931884766 0.01262664794921875 -0.010380268096923828 -0.0710601806640625 0.2774200439453125
28.1825 -0.109222412109375 0.2060089111328125 0.012425899505615234 -0.01088094711303711 0.012356281280517578 -0.01070404052734375 -0.0641937255859375 0.280181884765625
28.19125 -0.10504150390625 0.2110748291015625 0.012115478515625 -0.011228561401367188 0.011927127838134766 -0.011186599731445312 -0.0579681396484375 0.2824249267578125
28.2 -0.10009002685546875 0.2161865234375 0.01162099838256836 -0.011815071105957031 0.011563301086425781 -0.011944770812988281 -0.05108642578125 0.2841796875
28.20875 -0.09485626220703125 0.220245361328125 0.011342048645019531 -0.012434005737304688 0.010982036590576172 -0.012332916259765625 -0.0441741943359375 0.2863006591796875
28.2175 -0.08935546875 0.22422027587890625 0.010846138000488281 -0.01300048828125 0.010557174682617188 -0.013129234313964844 -0.037445068359375 0.288177490234375
28.22625 -0.08345794677734375 0.22788238525390625 0.010275840759277344 -0.013815879821777344 0.009976387023925781 -0.013859748840332031 -0.0305328369140625 0.289764404296875
28.235 -0.0774383544921875 0.23079681396484375 0.009527206420898438 -0.014575004577636719 0.008974075317382812 -0.014412879943847656 -0.0234222412109375 0.29095458984375
28.24375 -0.07117462158203125 0.2335052490234375 0.008449554443359375 -0.01522064208984375 0.008121490478515625 -0.014981269836425781 -0.0161895751953125 0.29205322265625
28.2525 -0.064239501953125 0.23626708984375 0.007313728332519531 -0.01584625244140625 0.0071201324462890625 -0.015371322631835938 -0.0092315673828125 0.2925567626953125
28.26125 -0.05748748779296875 0.2383575439453125 0.006171226501464844 -0.01610565185546875 0.0062007904052734375 -0.015604019165039062 -0.0021514892578125 0.2930450439453125
28.27 -0.0504913330078125 0.24063873291015625 0.005074501037597656 -0.016077041625976562 0.005359649658203125 -0.015621185302734375 0.004852294921875 0.2930450439453125
28.27875 -0.0428009033203125 0.242706298828125 0.0041408538818359375 -0.016002655029296875 0.004619598388671875 -0.015764236450195312 0.01177978515625 0.292724609375
28.2875 -0.03568267822265625 0.24422454833984375 0.0034456253051757812 -0.015821456909179688 0.003935813903808594 -0.015574932098388672 0.0184783935546875 0.2918853759765625
28.29625 -0.0277557373046875 0.245697021484375 0.0029239654541015625 -0.015419483184814453 0.0033388137817382812 -0.01583385467529297 0.0250091552734375 0.2911834716796875
28.305 -0.02044677734375 0.24704742431640625 0.0025272369384765625 -0.015680313110351562 0.0028543472290039062 -0.016042709350585938 0.0318450927734375 0.289764404296875
28.31375 -0.01253509521484375 0.24810791015625 0.0020303726196289062 -0.015995025634765625 0.002170562744140625 -0.01652050018310547 0.0387725830078125 0.2877655029296875
28.3225 -0.00506591796875 0.2483673095703125 0.001377105712890625 -0.01624011993408203 0.00106048583984375 -0.016900062561035156 0.045074462890625 0.2857513427734375
28.33125 0.00189208984375 0.2489471435546875 0.0005445480346679688 -0.01654529571533203 4.863739013671875e-05 -0.01703643798828125 0.051513671875 0.2834625244140625
28.34 0.0089263916015625 0.2486572265625 -0.0004062652587890625 -0.016793251037597656 -0.001079559326171875 -0.016798973083496094 0.057342529296875 0.280426025390625
28.34875 0.0156097412109375 0.2484130859375 -0.0012617111206054688 -0.016649246215820312 -0.0019779205322265625 -0.016529083251953125 0.0638427734375 0.2772979736328125
28.3575 0.022491455078125 0.2476043701171875 -0.0021953582763671875 -0.016786575317382812 -0.002777099609375 -0.01608753204345703 0.070098876953125 0.2741546630859375
28.36625 0.0286407470703125 0.246307373046875 -0.0031766891479492188 -0.016834259033203125 -0.0035800933837890625 -0.015943527221679688 0.0758056640625 0.270782470703125
28.375 0.035064697265625 0.2443695068359375 -0.004279136657714844 -0.016611099243164062 -0.0043354034423828125 -0.01577472686767578 0.0815277099609375 0.267120361328125
28.38375 0.04107666015625 0.242523193359375 -0.0051479339599609375 -0.016080856323242188 -0.0049114227294921875 -0.015344619750976562 0.087310791015625 0.263031005859375
28.3925 0.047149658203125 0.239837646484375 -0.0059528350830078125 -0.0158538818359375 -0.0055217742919921875 -0.015146255493164062 0.0926513671875 0.2587890625
28.40125 0.05322265625 0.237030029296875 -0.006737709045410156 -0.015355110168457031 -0.006213188171386719 -0.014921188354492188 0.09783935546875 0.254425048828125
28.41 0.0589447021484375 0.233734130859375 -0.007431983947753906 -0.014757156372070312 -0.0067234039306640625 -0.014735221862792969 0.102752685546875 0.2502288818359375
28.41875 0.0642852783203125 0.230133056640625 -0.007947921752929688 -0.014528274536132812 -0.0073394775390625 -0.014661788940429688 0.1071624755859375 0.245849609375
28.4275 0.070068359375 0.22601318359375 -0.008681297302246094 -0.014423370361328125 -0.008213043212890625 -0.014632225036621094 0.111541748046875 0.241241455078125
28.43625 0.0755157470703125 0.2218475341796875 -0.009601593017578125 -0.013912200927734375 -0.009209632873535156 -0.014183998107910156 0.115753173828125 0.2366485595703125
28.445 0.0807647705078125 0.2176971435546875 -0.010327339172363281 -0.013568878173828125 -0.010133743286132812 -0.013754844665527344 0.119415283203125 0.231536865234375
28.45375 0.0862579345703125 0.2128753662109375 -0.011004447937011719 -0.012961387634277344 -0.011084556579589844 -0.01312255859375 0.1228179931640625 0.226409912109375
28.4625 0.0910491943359375 0.208221435546875 -0.011737823486328125 -0.012340545654296875 -0.01183319091796875 -0.012294769287109375 0.12567138671875 0.221405029296875
28.47125 0.0960540771484375 0.2030487060546875 -0.012304306030273438 -0.011555671691894531 -0.012386322021484375 -0.011504173278808594 0.1277313232421875 0.2162628173828125
28.48 0.100616455078125 0.1982421875 -0.012889862060546875 -0.010861396789550781 -0.012956619262695312 -0.010763168334960938 0.12994384765625 0.2109375
28.48875 0.10491943359375 0.193267822265625 -0.013340950012207031 -0.010252952575683594 -0.013470649719238281 -0.010257720947265625 0.131927490234375 0.2056732177734375
28.4975 0.1087493896484375 0.1880340576171875 -0.013792037963867188 -0.009665489196777344 -0.013864517211914062 -0.009456634521484375 0.1334228515625 0.1997222900390625
28.50625 0.112060546875 0.182769775390625 -0.01434326171875 -0.009023666381835938 -0.0144195556640625 -0.008777618408203125 0.134735107421875 0.194183349609375
