!Created with skrf (http://scikit-rf.org).
# GHz S RI R 50.0 
!freq ReS11 ImS11 ReS21 ImS21 ReS12 ImS12 ReS22 ImS22
27.5 -0.0022430419921875 0.17224884033203125 -0.01976299285888672 -0.005214691162109375 -0.019723892211914062 -0.005764961242675781 0.00246429443359375 0.15164947509765625
27.50875 -0.00146484375 0.16709136962890625 -0.019786834716796875 -0.0040569305419921875 -0.020117759704589844 -0.004439353942871094 0.0074005126953125 0.146881103515625
27.5175 -0.00067138671875 0.162200927734375 -0.01999378204345703 -0.0027723312377929688 -0.02029132843017578 -0.0030689239501953125 0.01181793212890625 0.14205169677734375
27.52625 -0.00042724609375 0.157318115234375 -0.019951820373535156 -0.001781463623046875 -0.02025127410888672 -0.0019140243530273438 0.0159149169921875 0.1367340087890625
27.535 -0.00042724609375 0.15203857421875 -0.019678115844726562 -0.0008544921875 -0.020183563232421875 -0.00067138671875 0.0195770263671875 0.1311798095703125
27.54375 -0.0008544921875 0.1474151611328125 -0.019670486450195312 0.000186920166015625 -0.019910812377929688 0.00045013427734375 0.0227813720703125 0.1255950927734375
27.5525 -0.00159454345703125 0.1428375244140625 -0.01967906951904297 0.0010480880737304688 -0.019743919372558594 0.0015974044799804688 0.0256500244140625 0.1199951171875
27.56125 -0.00269317626953125 0.13790130615234375 -0.0197601318359375 0.0018815994262695312 -0.019545555114746094 0.0023450851440429688 0.028076171875 0.1141815185546875
27.57 -0.0042877197265625 0.13317108154296875 -0.01978302001953125 0.0029020309448242188 -0.019504547119140625 0.0033006668090820312 0.0300445556640625 0.10849761962890625
27.57875 -0.00618743896484375 0.128936767578125 -0.019611358642578125 0.0041179656982421875 -0.019260406494140625 0.0042705535888671875 0.03192138671875 0.10242462158203125
27.5875 -0.0083160400390625 0.1247711181640625 -0.019349098205566406 0.005028724670410156 -0.01905536651611328 0.005328178405761719 0.03318023681640625 0.09641265869140625
27.59625 -0.01091766357421875 0.12067794799804688 -0.019084930419921875 0.00647735595703125 -0.01877593994140625 0.006329536437988281 0.03427886962890625 0.0903167724609375
27.605 -0.0136871337890625 0.11696624755859375 -0.01867961883544922 0.007447242736816406 -0.018500328063964844 0.007260322570800781 0.03469085693359375 0.08423614501953125
27.61375 -0.01657867431640625 0.1132354736328125 -0.01814556121826172 0.00839996337890625 -0.01801300048828125 0.008157730102539062 0.035076141357421875 0.07820892333984375
27.6225 -0.0198822021484375 0.11014938354492188 -0.017759323120117188 0.009490966796875 -0.017621994018554688 0.009108543395996094 0.034908294677734375 0.07212066650390625
27.63125 -0.023345947265625 0.10741043090820312 -0.017377853393554688 0.010284423828125 -0.017190933227539062 0.010024070739746094 0.034671783447265625 0.06621170043945312
27.64 -0.0269622802734375 0.10482025146484375 -0.01657581329345703 0.011189460754394531 -0.016529083251953125 0.011098861694335938 0.03399658203125 0.060153961181640625
27.64875 -0.03055572509765625 0.10240554809570312 -0.01581573486328125 0.012089729309082031 -0.01601886749267578 0.011873245239257812 0.032909393310546875 0.05445098876953125
27.6575 -0.034061431884765625 0.10024261474609375 -0.01536703109741211 0.012868404388427734 -0.0153656005859375 0.012694835662841797 0.031444549560546875 0.04848480224609375
27.66625 -0.038455963134765625 0.09876251220703125 -0.014706134796142578 0.013559341430664062 -0.014766216278076172 0.013549327850341797 0.029750823974609375 0.043087005615234375
27.675 -0.042362213134765625 0.09772109985351562 -0.013720989227294922 0.01444864273071289 -0.013863563537597656 0.014317989349365234 0.027294158935546875 0.037532806396484375
27.68375 -0.04634857177734375 0.0966796875 -0.013006210327148438 0.014983177185058594 -0.013214111328125 0.015004158020019531 0.02484130859375 0.0325164794921875
27.6925 -0.0504302978515625 0.09600067138671875 -0.012308120727539062 0.015810012817382812 -0.012437820434570312 0.015756607055664062 0.02220916748046875 0.02764129638671875
27.70125 -0.05457305908203125 0.09577178955078125 -0.011547088623046875 0.016374588012695312 -0.01158905029296875 0.016492843627929688 0.018829345703125 0.022823333740234375
27.71 -0.058635711669921875 0.09567642211914062 -0.010691642761230469 0.01695537567138672 -0.010588645935058594 0.017253875732421875 0.015317916870117188 0.01806640625
27.71875 -0.06305694580078125 0.09619522094726562 -0.009684562683105469 0.017561912536621094 -0.009739875793457031 0.01757526397705078 0.011124610900878906 0.013741493225097656
27.7275 -0.0675048828125 0.09698486328125 -0.008739471435546875 0.01808929443359375 -0.008832931518554688 0.018218040466308594 0.006683349609375 0.009836196899414062
27.73625 -0.07164382934570312 0.09840774536132812 -0.0077190399169921875 0.01859760284423828 -0.007805824279785156 0.0186309814453125 0.002154827117919922 0.005916118621826172
27.745 -0.075958251953125 0.10009002685546875 -0.006730079650878906 0.01900196075439453 -0.006836891174316406 0.019067764282226562 -0.002613663673400879 0.0025545358657836914
27.75375 -0.08004379272460938 0.10235214233398438 -0.005847930908203125 0.01933002471923828 -0.0058345794677734375 0.019586563110351562 -0.007723331451416016 -0.0005426406860351562
27.7625 -0.08407211303710938 0.10420608520507812 -0.0046443939208984375 0.01965618133544922 -0.00475311279296875 0.019880294799804688 -0.013054847717285156 -0.0034589767456054688
27.77125 -0.08858108520507812 0.10693359375 -0.0034532546997070312 0.020044326782226562 -0.0035686492919921875 0.020155906677246094 -0.018815040588378906 -0.006100654602050781
27.78 -0.09252166748046875 0.10985946655273438 -0.002384185791015625 0.020145416259765625 -0.0024175643920898438 0.020669937133789062 -0.024312973022460938 -0.00830078125
27.78875 -0.09636306762695312 0.1132049560546875 -0.0012273788452148438 0.02029895782470703 -0.0009555816650390625 0.020676612854003906 -0.030315399169921875 -0.010099411010742188
27.7975 -0.09978103637695312 0.11693954467773438 -0.00013256072998046875 0.0203399658203125 0.00016117095947265625 0.02062511444091797 -0.03605842590332031 -0.011659622192382812
27.80625 -0.10295867919921875 0.12067413330078125 0.000949859619140625 0.020185470581054688 0.0014286041259765625 0.020498275756835938 -0.04198455810546875 -0.01255035400390625
27.815 -0.1061553955078125 0.1249847412109375 0.002201080322265625 0.020294189453125 0.0027027130126953125 0.020441055297851562 -0.04791259765625 -0.01371002197265625
27.82375 -0.1089019775390625 0.1290130615234375 0.003292083740234375 0.02015209197998047 0.0038366317749023438 0.0198974609375 -0.05364227294921875 -0.014095306396484375
27.8325 -0.11144256591796875 0.133270263671875 0.0046539306640625 0.019819259643554688 0.0048732757568359375 0.019512176513671875 -0.05980682373046875 -0.01396942138671875
27.84125 -0.113861083984375 0.13774871826171875 0.0056438446044921875 0.019347190856933594 0.005711555480957031 0.019059181213378906 -0.06565475463867188 -0.013362884521484375
27.85 -0.11597442626953125 0.14281463623046875 0.006691932678222656 0.01909351348876953 0.006583213806152344 0.018646240234375 -0.07163619995117188 -0.01267242431640625
27.85875 -0.1177978515625 0.14764404296875 0.0077304840087890625 0.018537521362304688 0.0074748992919921875 0.018385887145996094 -0.07757568359375 -0.01129150390625
27.8675 -0.11917877197265625 0.1525421142578125 0.008520126342773438 0.017841339111328125 0.008340835571289062 0.018029212951660156 -0.08350753784179688 -0.010040283203125
27.87625 -0.12009429931640625 0.15773773193359375 0.009471893310546875 0.017366409301757812 0.009181976318359375 0.017866134643554688 -0.089141845703125 -0.007961273193359375
27.885 -0.12104034423828125 0.1632232666015625 0.010179519653320312 0.016882896423339844 0.010249137878417969 0.017330169677734375 -0.094207763671875 -0.005580902099609375
27.89375 -0.1215057373046875 0.16851806640625 0.011124610900878906 0.016279220581054688 0.011368751525878906 0.016785621643066406 -0.1001739501953125 -0.0028076171875
27.9025 -0.12203216552734375 0.17404937744140625 0.0121002197265625 0.01571369171142578 0.012429237365722656 0.016187667846679688 -0.10554885864257812 -3.814697265625e-05
27.91125 -0.121551513671875 0.1802215576171875 0.012904167175292969 0.015079498291015625 0.0134429931640625 0.015456199645996094 -0.11082839965820312 0.003643035888671875
27.92 -0.120849609375 0.18613433837890625 0.013669967651367188 0.014384269714355469 0.014255523681640625 0.014319419860839844 -0.11577987670898438 0.007549285888671875
27.92875 -0.12006378173828125 0.1925201416015625 0.014479637145996094 0.013491630554199219 0.0148773193359375 0.013287544250488281 -0.12047958374023438 0.011627197265625
27.9375 -0.118865966796875 0.1986541748046875 0.015285491943359375 0.012574195861816406 0.015399932861328125 0.012487411499023438 -0.12532806396484375 0.01583099365234375
27.94625 -0.11722564697265625 0.2047576904296875 0.01597881317138672 0.011867523193359375 0.015878677368164062 0.011707305908203125 -0.1298828125 0.020416259765625
27.955 -0.1151275634765625 0.21051025390625 0.016422271728515625 0.010560989379882812 0.016328811645507812 0.010858535766601562 -0.13433837890625 0.0255584716796875
27.96375 -0.1131439208984375 0.21673583984375 0.016796112060546875 0.009792327880859375 0.016817092895507812 0.01010894775390625 -0.13818359375 0.03125
27.9725 -0.1103668212890625 0.22310638427734375 0.01714038848876953 0.008864402770996094 0.017660140991210938 0.009424209594726562 -0.14159393310546875 0.03638458251953125
27.98125 -0.10791015625 0.22858428955078125 0.017472267150878906 0.007953643798828125 0.018138885498046875 0.008520126342773438 -0.144775390625 0.04164886474609375
27.99 -0.10479736328125 0.234039306640625 0.017708778381347656 0.007312774658203125 0.01860523223876953 0.007479667663574219 -0.1477203369140625 0.04784393310546875
27.99875 -0.10143280029296875 0.239959716796875 0.018036842346191406 0.0066394805908203125 0.019148826599121094 0.006420135498046875 -0.150238037109375 0.05364990234375
28.0075 -0.09772491455078125 0.2452850341796875 0.018526077270507812 0.005809783935546875 0.019598007202148438 0.00518798828125 -0.152679443359375 0.059906005859375
28.01625 -0.0937957763671875 0.2503814697265625 0.019049644470214844 0.004851341247558594 0.01975250244140625 0.0037183761596679688 -0.154693603515625 0.06630706787109375
28.025 -0.0901641845703125 0.2552947998046875 0.019495010375976562 0.0037908554077148438 0.019647598266601562 0.0024518966674804688 -0.155975341796875 0.07289886474609375
28.03375 -0.08551025390625 0.2605438232421875 0.019629478454589844 0.0026302337646484375 0.019361495971679688 0.0014190673828125 -0.1572418212890625 0.07950592041015625
28.0425 -0.080841064453125 0.264862060546875 0.019763946533203125 0.00140380859375 0.019067764282226562 0.0005340576171875 -0.157958984375 0.0865631103515625
28.05125 -0.0756683349609375 0.26947021484375 0.019759178161621094 0.00030517578125 0.01879405975341797 -2.574920654296875e-05 -0.15824127197265625 0.093475341796875
28.06 -0.070526123046875 0.2734222412109375 0.01957988739013672 -0.0007486343383789062 0.0188446044921875 -0.0006513595581054688 -0.158355712890625 0.10030364990234375
28.06875 -0.0648040771484375 0.27679443359375 0.019537925720214844 -0.0017042160034179688 0.01891326904296875 -0.0013017654418945312 -0.15814208984375 0.10692596435546875
28.0775 -0.059173583984375 0.28057861328125 0.01924419403076172 -0.0027637481689453125 0.019182205200195312 -0.0020351409912109375 -0.1575775146484375 0.1139373779296875
28.08625 -0.0533294677734375 0.284271240234375 0.01895618438720703 -0.0036363601684570312 0.019542694091796875 -0.0030870437622070312 -0.15691375732421875 0.12108612060546875
28.095 -0.04736328125 0.2875213623046875 0.018590927124023438 -0.004549980163574219 0.01974773406982422 -0.004271507263183594 -0.1554412841796875 0.128021240234375
28.10375 -0.0405120849609375 0.29058837890625 0.018482208251953125 -0.005398750305175781 0.01984691619873047 -0.005732536315917969 -0.15373992919921875 0.13478851318359375
28.1125 -0.0339202880859375 0.2929534912109375 0.018573760986328125 -0.0060939788818359375 0.019575119018554688 -0.0072460174560546875 -0.15167999267578125 0.141326904296875
28.12125 -0.0274658203125 0.295684814453125 0.018405914306640625 -0.007361412048339844 0.018825531005859375 -0.008715629577636719 -0.14958953857421875 0.14797210693359375
28.13 -0.020416259765625 0.2981719970703125 0.01805877685546875 -0.008434295654296875 0.017889022827148438 -0.010031700134277344 -0.14687347412109375 0.154632568359375
28.13875 -0.013275146484375 0.300323486328125 0.017648696899414062 -0.009732246398925781 0.01674652099609375 -0.010973930358886719 -0.14397430419921875 0.16104888916015625
28.1475 -0.00634765625 0.30218505859375 0.01686573028564453 -0.010854721069335938 0.01566600799560547 -0.011595726013183594 -0.1406707763671875 0.1671600341796875
28.15625 0.000885009765625 0.303802490234375 0.01599407196044922 -0.011729240417480469 0.014708518981933594 -0.011780738830566406 -0.1368255615234375 0.1733245849609375
28.165 0.0081634521484375 0.304718017578125 0.015216827392578125 -0.012312889099121094 0.014224052429199219 -0.01210165023803711 -0.13245391845703125 0.17897796630859375
28.17375 0.015106201171875 0.305572509765625 0.014514923095703125 -0.012969970703125 0.013806343078613281 -0.012510299682617188 -0.12833404541015625 0.18441009521484375
28.1825 0.0220489501953125 0.305908203125 0.01366567611694336 -0.01357889175415039 0.013381481170654297 -0.012898445129394531 -0.12354278564453125 0.1899871826171875
28.19125 0.0288238525390625 0.3061981201171875 0.013200759887695312 -0.013871192932128906 0.013281822204589844 -0.013623714447021484 -0.118438720703125 0.1947479248046875
28.2 0.036163330078125 0.306488037109375 0.0127105712890625 -0.014587879180908203 0.013005733489990234 -0.01460123062133789 -0.11312103271484375 0.1992645263671875
28.20875 0.0433807373046875 0.3060302734375 0.012103080749511719 -0.01531982421875 0.012387275695800781 -0.01580047607421875 -0.1076507568359375 0.2042694091796875
28.2175 0.0501251220703125 0.305206298828125 0.011632919311523438 -0.01596546173095703 0.011358261108398438 -0.016752243041992188 -0.10211181640625 0.20871734619140625
28.22625 0.0570831298828125 0.3036956787109375 0.010945320129394531 -0.016991615295410156 0.01020050048828125 -0.017676353454589844 -0.09615325927734375 0.212860107421875
28.235 0.0641937255859375 0.3020172119140625 0.009914398193359375 -0.017856597900390625 0.008792877197265625 -0.01817798614501953 -0.08991241455078125 0.21697998046875
28.24375 0.0703887939453125 0.2997589111328125 0.009020805358886719 -0.018718719482421875 0.0076084136962890625 -0.018499374389648438 -0.08373260498046875 0.2206268310546875
28.2525 0.0772247314453125 0.297943115234375 0.007740974426269531 -0.019519805908203125 0.006603240966796875 -0.018728256225585938 -0.0772705078125 0.223968505859375
28.26125 0.0833282470703125 0.295074462890625 0.006251335144042969 -0.020195960998535156 0.005553245544433594 -0.01880359649658203 -0.07077789306640625 0.2273406982421875
28.27 0.08966064453125 0.292327880859375 0.0046539306640625 -0.020128250122070312 0.0045757293701171875 -0.018890380859375 -0.0641326904296875 0.229949951171875
28.27875 0.0958251953125 0.28936767578125 0.0033855438232421875 -0.0200347900390625 0.0037136077880859375 -0.018915176391601562 -0.0572662353515625 0.232574462890625
28.2875 0.1019287109375 0.2856292724609375 0.0021457672119140625 -0.01977825164794922 0.0030355453491210938 -0.019112586975097656 -0.05047607421875 0.23433685302734375
28.29625 0.1080780029296875 0.281768798828125 0.0012750625610351562 -0.019620895385742188 0.0022430419921875 -0.01933765411376953 -0.0435028076171875 0.236175537109375
28.305 0.113494873046875 0.2782440185546875 0.0005674362182617188 -0.019392013549804688 0.0013494491577148438 -0.01977825164794922 -0.03656005859375 0.2372589111328125
28.31375 0.1190185546875 0.2744903564453125 -8.678436279296875e-05 -0.019446372985839844 0.00040531158447265625 -0.020189285278320312 -0.0296630859375 0.23784637451171875
28.3225 0.124237060546875 0.270111083984375 -0.0008783340454101562 -0.019708633422851562 -0.0010557174682617188 -0.020513534545898438 -0.022918701171875 0.238494873046875
28.33125 0.129241943359375 0.2660064697265625 -0.0018596649169921875 -0.019800186157226562 -0.002521514892578125 -0.02038288116455078 -0.01584625244140625 0.2387847900390625
28.34 0.1341094970703125 0.2613525390625 -0.00307464599609375 -0.019962310791015625 -0.00386810302734375 -0.020061492919921875 -0.00905609130859375 0.23815155029296875
28.34875 0.1384429931640625 0.2568206787109375 -0.0041599273681640625 -0.019913673400878906 -0.005042076110839844 -0.019437789916992188 -0.0020294189453125 0.237518310546875
28.3575 0.1428680419921875 0.25164794921875 -0.005206108093261719 -0.0198211669921875 -0.006015777587890625 -0.018802642822265625 0.00502777099609375 0.23644256591796875
28.36625 0.1466827392578125 0.2466583251953125 -0.006591796875 -0.019644737243652344 -0.006760597229003906 -0.01830005645751953 0.0114593505859375 0.235198974609375
28.375 0.150360107421875 0.24151611328125 -0.007747650146484375 -0.018873214721679688 -0.0074863433837890625 -0.017885208129882812 0.01824951171875 0.233001708984375
28.38375 0.15380859375 0.2364501953125 -0.008758544921875 -0.018466949462890625 -0.008152008056640625 -0.017446517944335938 0.024810791015625 0.231109619140625
28.3925 0.1567230224609375 0.230712890625 -0.009891510009765625 -0.017930030822753906 -0.0089111328125 -0.017320632934570312 0.03118896484375 0.228912353515625
28.40125 0.15966796875 0.224945068359375 -0.010737419128417969 -0.017279624938964844 -0.009847640991210938 -0.017017364501953125 0.0377960205078125 0.2263336181640625
28.41 0.16241455078125 0.2195281982421875 -0.011755943298339844 -0.01653289794921875 -0.0107269287109375 -0.016564369201660156 0.0440521240234375 0.22357177734375
28.41875 0.164031982421875 0.2133026123046875 -0.012516975402832031 -0.01589202880859375 -0.011719703674316406 -0.01627635955810547 0.0501708984375 0.220184326171875
28.4275 0.1658172607421875 0.2070159912109375 -0.013349533081054688 -0.015167236328125 -0.012846946716308594 -0.01570892333984375 0.0559234619140625 0.2167510986328125
28.43625 0.1670684814453125 0.2013702392578125 -0.014095306396484375 -0.014600753784179688 -0.013823509216308594 -0.015005111694335938 0.06146240234375 0.2129058837890625
28.445 0.168487548828125 0.1957855224609375 -0.014973640441894531 -0.013879776000976562 -0.014971733093261719 -0.014225959777832031 0.066436767578125 0.209442138671875
28.45375 0.1696014404296875 0.1898956298828125 -0.015729904174804688 -0.012940406799316406 -0.01602649688720703 -0.013258934020996094 0.0714569091796875 0.20513916015625
28.4625 0.1701812744140625 0.18402099609375 -0.01650238037109375 -0.012113571166992188 -0.01688671112060547 -0.012176513671875 0.07623291015625 0.200714111328125
28.47125 0.1704254150390625 0.1781158447265625 -0.017136573791503906 -0.011042594909667969 -0.01750469207763672 -0.010836601257324219 0.080718994140625 0.19598388671875
28.48 0.1706390380859375 0.1726226806640625 -0.0177154541015625 -0.009970664978027344 -0.017884254455566406 -0.009765625 0.0850830078125 0.1910552978515625
28.48875 0.1701812744140625 0.1675262451171875 -0.0180206298828125 -0.008715629577636719 -0.01818370819091797 -0.00862884521484375 0.0885772705078125 0.185882568359375
28.4975 0.170135498046875 0.162506103515625 -0.018278121948242188 -0.00799560546875 -0.018198013305664062 -0.007579803466796875 0.0921630859375 0.1810302734375
28.50625 0.16912841796875 0.1573486328125 -0.018590927124023438 -0.0071315765380859375 -0.0186004638671875 -0.00676727294921875 0.09527587890625 0.17572021484375
28.515 0.16815185546875 0.1522216796875 -0.01898193359375 -0.00618743896484375 -0.018833160400390625 -0.0058269500732421875 0.098175048828125 0.170318603515625
