!Created with skrf (http://scikit-rf.org).
# GHz S RI R 50.0 
!freq ReS11 ImS11 ReS21 ImS21 ReS12 ImS12 ReS22 ImS22
27.5 -0.00177764892578125 0.1727447509765625 0.09100723266601562 -0.056026458740234375 0.09287643432617188 -0.05561065673828125 -0.01712799072265625 0.11838912963867188
27.50875 -0.00064849853515625 0.16748809814453125 0.08728790283203125 -0.060825347900390625 0.089630126953125 -0.061504364013671875 -0.01576995849609375 0.11329269409179688
27.5175 -3.0517578125e-05 0.16236114501953125 0.08348464965820312 -0.06516647338867188 0.0853424072265625 -0.066741943359375 -0.015045166015625 0.10795211791992188
27.52625 0.0003204345703125 0.1573028564453125 0.07950210571289062 -0.06915283203125 0.0807647705078125 -0.07137298583984375 -0.014369964599609375 0.10305404663085938
27.535 0.00040435791015625 0.1522216796875 0.07556915283203125 -0.07270050048828125 0.07631301879882812 -0.07519149780273438 -0.014110565185546875 0.098175048828125
27.54375 7.62939453125e-05 0.1475677490234375 0.07171630859375 -0.07601165771484375 0.07159423828125 -0.0782928466796875 -0.014404296875 0.0932464599609375
27.5525 -0.0006866455078125 0.1426544189453125 0.067962646484375 -0.07939910888671875 0.0672760009765625 -0.08150482177734375 -0.01491546630859375 0.08856964111328125
27.56125 -0.0017852783203125 0.13796234130859375 0.06421279907226562 -0.0828704833984375 0.06308364868164062 -0.08438491821289062 -0.015594482421875 0.08398056030273438
27.57 -0.0031280517578125 0.133636474609375 0.060298919677734375 -0.08594131469726562 0.058879852294921875 -0.08717727661132812 -0.0167694091796875 0.07952499389648438
27.57875 -0.0047454833984375 0.12906646728515625 0.05600738525390625 -0.08943557739257812 0.05483245849609375 -0.0900726318359375 -0.018100738525390625 0.0751953125
27.5875 -0.00688934326171875 0.1251220703125 0.051441192626953125 -0.09263229370117188 0.050441741943359375 -0.0930938720703125 -0.020069122314453125 0.07091903686523438
27.59625 -0.0092620849609375 0.12120437622070312 0.046489715576171875 -0.09587860107421875 0.04553985595703125 -0.09598159790039062 -0.021877288818359375 0.06702041625976562
27.605 -0.01160430908203125 0.11761856079101562 0.04111480712890625 -0.09863662719726562 0.040576934814453125 -0.0985565185546875 -0.024627685546875 0.06324386596679688
27.61375 -0.014499664306640625 0.11431121826171875 0.03580474853515625 -0.1010284423828125 0.03505706787109375 -0.10094451904296875 -0.027044296264648438 0.05966377258300781
27.6225 -0.0172576904296875 0.11130523681640625 0.030303955078125 -0.10283660888671875 0.02948760986328125 -0.10272979736328125 -0.029993057250976562 0.05641746520996094
27.63125 -0.02043914794921875 0.10828018188476562 0.02454376220703125 -0.10433197021484375 0.023990631103515625 -0.10419082641601562 -0.03317832946777344 0.05312156677246094
27.64 -0.023914337158203125 0.10532760620117188 0.018795013427734375 -0.10540008544921875 0.0181732177734375 -0.10526275634765625 -0.03621482849121094 0.05018806457519531
27.64875 -0.027675628662109375 0.1032867431640625 0.01291656494140625 -0.10625076293945312 0.012271881103515625 -0.1060638427734375 -0.039905548095703125 0.047412872314453125
27.6575 -0.0311126708984375 0.101348876953125 0.007221221923828125 -0.10670089721679688 0.00673675537109375 -0.10654067993164062 -0.04372596740722656 0.04494285583496094
27.66625 -0.035125732421875 0.0994110107421875 0.001277923583984375 -0.10666656494140625 0.00090789794921875 -0.1065673828125 -0.04756927490234375 0.04276275634765625
27.675 -0.039096832275390625 0.09822845458984375 -0.004425048828125 -0.1064605712890625 -0.004894256591796875 -0.10625839233398438 -0.051666259765625 0.041141510009765625
27.68375 -0.04311370849609375 0.0972747802734375 -0.009990692138671875 -0.10546112060546875 -0.010318756103515625 -0.10580825805664062 -0.05582237243652344 0.039875030517578125
27.6925 -0.047176361083984375 0.09619140625 -0.015560150146484375 -0.104888916015625 -0.01589202880859375 -0.10489654541015625 -0.059967041015625 0.038356781005859375
27.70125 -0.0515899658203125 0.09595489501953125 -0.0209503173828125 -0.10349273681640625 -0.02109527587890625 -0.10357666015625 -0.06433868408203125 0.0373687744140625
27.71 -0.055694580078125 0.095855712890625 -0.0261688232421875 -0.10205078125 -0.02618408203125 -0.1022796630859375 -0.06887054443359375 0.0365447998046875
27.71875 -0.06003570556640625 0.09644699096679688 -0.03144073486328125 -0.10034942626953125 -0.0314788818359375 -0.1009521484375 -0.07342147827148438 0.03636932373046875
27.7275 -0.064361572265625 0.09727859497070312 -0.03655242919921875 -0.09818267822265625 -0.0365753173828125 -0.0990447998046875 -0.07831954956054688 0.036281585693359375
27.73625 -0.06830978393554688 0.09867477416992188 -0.04164886474609375 -0.09615325927734375 -0.041748046875 -0.09717559814453125 -0.08276748657226562 0.03662109375
27.745 -0.07238006591796875 0.09991836547851562 -0.046539306640625 -0.0936126708984375 -0.046661376953125 -0.09484100341796875 -0.08739852905273438 0.03729248046875
27.75375 -0.07667922973632812 0.10180282592773438 -0.05129241943359375 -0.09102630615234375 -0.05171966552734375 -0.09230804443359375 -0.09204864501953125 0.03845977783203125
27.7625 -0.08070755004882812 0.10377120971679688 -0.05564117431640625 -0.0879974365234375 -0.05649566650390625 -0.08959197998046875 -0.09668731689453125 0.03964996337890625
27.77125 -0.08472061157226562 0.10620498657226562 -0.0599212646484375 -0.085296630859375 -0.06140899658203125 -0.0865936279296875 -0.10150527954101562 0.04132843017578125
27.78 -0.08855819702148438 0.10874557495117188 -0.06427001953125 -0.0822601318359375 -0.0662994384765625 -0.08319854736328125 -0.10603713989257812 0.043453216552734375
27.78875 -0.09251785278320312 0.11177825927734375 -0.068603515625 -0.0789337158203125 -0.07088470458984375 -0.07918548583984375 -0.11075592041015625 0.04560089111328125
27.7975 -0.09633636474609375 0.11512374877929688 -0.072967529296875 -0.07521820068359375 -0.07537078857421875 -0.0744171142578125 -0.11492538452148438 0.04854583740234375
27.80625 -0.09996414184570312 0.11861801147460938 -0.07694244384765625 -0.07096099853515625 -0.07889556884765625 -0.069580078125 -0.11920928955078125 0.051849365234375
27.815 -0.1033935546875 0.1229248046875 -0.080657958984375 -0.066497802734375 -0.0820465087890625 -0.064453125 -0.12322235107421875 0.0546875
27.82375 -0.10628509521484375 0.1269378662109375 -0.08365631103515625 -0.061767578125 -0.08428955078125 -0.05954742431640625 -0.12700653076171875 0.05806732177734375
27.8325 -0.109130859375 0.13088226318359375 -0.08660888671875 -0.05684661865234375 -0.08641815185546875 -0.05507659912109375 -0.130889892578125 0.0622711181640625
27.84125 -0.11165618896484375 0.1356658935546875 -0.0890960693359375 -0.052001953125 -0.0881500244140625 -0.050689697265625 -0.1343536376953125 0.06649017333984375
27.85 -0.11388397216796875 0.14044189453125 -0.0910186767578125 -0.04741668701171875 -0.0898895263671875 -0.04666900634765625 -0.1376953125 0.07086944580078125
27.85875 -0.1160430908203125 0.1455535888671875 -0.0928802490234375 -0.042755126953125 -0.0919952392578125 -0.04296875 -0.14068603515625 0.0755157470703125
27.8675 -0.11757659912109375 0.15041351318359375 -0.09467315673828125 -0.0380706787109375 -0.09445953369140625 -0.03899383544921875 -0.14374542236328125 0.07996368408203125
27.87625 -0.11859130859375 0.15576934814453125 -0.0967864990234375 -0.03359222412109375 -0.09722137451171875 -0.0345306396484375 -0.14595794677734375 0.08506011962890625
27.885 -0.11963653564453125 0.161224365234375 -0.09850311279296875 -0.02877044677734375 -0.0997772216796875 -0.0296478271484375 -0.14780426025390625 0.09012603759765625
27.89375 -0.1201934814453125 0.16657257080078125 -0.10025787353515625 -0.0233917236328125 -0.1020355224609375 -0.02375030517578125 -0.14971923828125 0.095550537109375
27.9025 -0.12053680419921875 0.17197418212890625 -0.10197067260742188 -0.017818450927734375 -0.10351181030273438 -0.01725006103515625 -0.15148162841796875 0.10052490234375
27.91125 -0.1204833984375 0.177978515625 -0.10272598266601562 -0.011661529541015625 -0.104217529296875 -0.010646820068359375 -0.152923583984375 0.10611724853515625
27.92 -0.119842529296875 0.18399810791015625 -0.10316085815429688 -0.005435943603515625 -0.10382080078125 -0.00408935546875 -0.15399169921875 0.11197662353515625
27.92875 -0.11898040771484375 0.1903228759765625 -0.1025390625 0.000942230224609375 -0.102783203125 0.002044677734375 -0.15479278564453125 0.11748504638671875
27.9375 -0.11768341064453125 0.1959228515625 -0.1009368896484375 0.006683349609375 -0.10102081298828125 0.007404327392578125 -0.15509796142578125 0.12353515625
27.94625 -0.116546630859375 0.202178955078125 -0.098968505859375 0.01215362548828125 -0.0991668701171875 0.01198577880859375 -0.155517578125 0.129364013671875
27.955 -0.1146392822265625 0.2081298828125 -0.09670257568359375 0.01638031005859375 -0.09786224365234375 0.01607513427734375 -0.1552886962890625 0.1357421875
27.96375 -0.11286163330078125 0.2143096923828125 -0.09485244750976562 0.020206451416015625 -0.09688186645507812 0.020084381103515625 -0.1551361083984375 0.14165496826171875
27.9725 -0.11058807373046875 0.22075653076171875 -0.09324264526367188 0.02346038818359375 -0.09626388549804688 0.024356842041015625 -0.1541900634765625 0.1476593017578125
27.98125 -0.10823822021484375 0.22650909423828125 -0.09240341186523438 0.026824951171875 -0.09554290771484375 0.0291900634765625 -0.1527862548828125 0.1539154052734375
27.99 -0.1050872802734375 0.232513427734375 -0.09194564819335938 0.0308074951171875 -0.09447860717773438 0.03459930419921875 -0.15129852294921875 0.15991973876953125
27.99875 -0.1016845703125 0.2376861572265625 -0.09140777587890625 0.035182952880859375 -0.092559814453125 0.040546417236328125 -0.14910888671875 0.16595458984375
28.0075 -0.098663330078125 0.2430572509765625 -0.09055709838867188 0.04048919677734375 -0.08959197998046875 0.046478271484375 -0.14697265625 0.1720733642578125
28.01625 -0.0951995849609375 0.2484283447265625 -0.08871078491210938 0.04596710205078125 -0.08554458618164062 0.0514373779296875 -0.14470672607421875 0.17807769775390625
28.025 -0.0911102294921875 0.2537994384765625 -0.08611297607421875 0.051967620849609375 -0.08086395263671875 0.055591583251953125 -0.14179229736328125 0.18389892578125
28.03375 -0.0868988037109375 0.2591094970703125 -0.0823974609375 0.056911468505859375 -0.0762939453125 0.058330535888671875 -0.13873291015625 0.1899261474609375
28.0425 -0.0823974609375 0.263519287109375 -0.07799530029296875 0.06163787841796875 -0.072235107421875 0.060272216796875 -0.134918212890625 0.1956939697265625
28.05125 -0.0772705078125 0.26776123046875 -0.0733489990234375 0.065155029296875 -0.0690460205078125 0.06168365478515625 -0.131317138671875 0.20111083984375
28.06 -0.072479248046875 0.2716217041015625 -0.0688323974609375 0.06795501708984375 -0.06681060791015625 0.06334686279296875 -0.1274566650390625 0.2061614990234375
28.06875 -0.0669708251953125 0.2753753662109375 -0.064422607421875 0.06998443603515625 -0.06530380249023438 0.06554794311523438 -0.12347412109375 0.21128082275390625
28.0775 -0.06109619140625 0.2791595458984375 -0.06078338623046875 0.0718536376953125 -0.06386566162109375 0.06874465942382812 -0.1188507080078125 0.21642303466796875
28.08625 -0.0548858642578125 0.2829132080078125 -0.057765960693359375 0.07364654541015625 -0.0617523193359375 0.0729827880859375 -0.1143646240234375 0.22135162353515625
28.095 -0.04876708984375 0.2860107421875 -0.054931640625 0.07561492919921875 -0.059070587158203125 0.07784271240234375 -0.10915374755859375 0.226226806640625
28.10375 -0.0420684814453125 0.289093017578125 -0.052112579345703125 0.07857513427734375 -0.054439544677734375 0.08286285400390625 -0.10378265380859375 0.23020172119140625
28.1125 -0.0350189208984375 0.2916259765625 -0.048717498779296875 0.08185958862304688 -0.048572540283203125 0.08725738525390625 -0.09835052490234375 0.2340850830078125
28.12125 -0.0282440185546875 0.29443359375 -0.044322967529296875 0.0852508544921875 -0.041568756103515625 0.09016036987304688 -0.09267425537109375 0.23822021484375
28.13 -0.020904541015625 0.296539306640625 -0.039302825927734375 0.08797836303710938 -0.03435516357421875 0.09126663208007812 -0.086883544921875 0.2412872314453125
28.13875 -0.0137481689453125 0.2988128662109375 -0.03386688232421875 0.090057373046875 -0.027942657470703125 0.0909881591796875 -0.0813446044921875 0.24481201171875
28.1475 -0.00640869140625 0.30059814453125 -0.02788543701171875 0.0911865234375 -0.0225982666015625 0.08946990966796875 -0.074981689453125 0.24725341796875
28.15625 0.0008544921875 0.302459716796875 -0.022491455078125 0.0912933349609375 -0.01847076416015625 0.08814239501953125 -0.0686798095703125 0.2503662109375
28.165 0.00799560546875 0.3036956787109375 -0.01784515380859375 0.090576171875 -0.015666961669921875 0.08693695068359375 -0.0621490478515625 0.25244140625
28.17375 0.014984130859375 0.3043670654296875 -0.013942718505859375 0.08986663818359375 -0.0134735107421875 0.08660125732421875 -0.0557708740234375 0.2545623779296875
28.1825 0.022247314453125 0.30499267578125 -0.010540008544921875 0.08962631225585938 -0.0111541748046875 0.08711624145507812 -0.0489349365234375 0.2559967041015625
28.19125 0.02880859375 0.30560302734375 -0.007476806640625 0.08958053588867188 -0.008579254150390625 0.08884429931640625 -0.0424041748046875 0.2568206787109375
28.2 0.03619384765625 0.3056793212890625 -0.004482269287109375 0.0904541015625 -0.004863739013671875 0.0908203125 -0.0357513427734375 0.2578277587890625
28.20875 0.04296875 0.3057708740234375 -0.000736236572265625 0.09189224243164062 8.7738037109375e-05 0.09279632568359375 -0.0290985107421875 0.2586669921875
28.2175 0.0496978759765625 0.3053741455078125 0.003841400146484375 0.09307479858398438 0.005855560302734375 0.09373855590820312 -0.0224609375 0.25909423828125
28.22625 0.05645751953125 0.3042144775390625 0.00919342041015625 0.09392547607421875 0.012210845947265625 0.09327316284179688 -0.015869140625 0.2590484619140625
28.235 0.06280517578125 0.3027496337890625 0.01508331298828125 0.09410476684570312 0.018238067626953125 0.09181594848632812 -0.008880615234375 0.25885009765625
28.24375 0.0694732666015625 0.3006591796875 0.02140045166015625 0.09301376342773438 0.023601531982421875 0.08928298950195312 -0.0023956298828125 0.25811767578125
28.2525 0.07586669921875 0.298919677734375 0.027454376220703125 0.09077835083007812 0.02777099609375 0.08642578125 0.0040283203125 0.25714111328125
28.26125 0.0817718505859375 0.29620361328125 0.032733917236328125 0.087615966796875 0.031093597412109375 0.08365631103515625 0.0105438232421875 0.2559814453125
28.27 0.087860107421875 0.29339599609375 0.03679656982421875 0.08438873291015625 0.03369903564453125 0.0813751220703125 0.0167236328125 0.25445556640625
28.27875 0.094146728515625 0.290435791015625 0.03998565673828125 0.08101654052734375 0.03629302978515625 0.07999420166015625 0.023193359375 0.25286865234375
28.2875 0.10003662109375 0.2868194580078125 0.04290008544921875 0.07810211181640625 0.0391082763671875 0.07920074462890625 0.029541015625 0.25030517578125
28.29625 0.1063079833984375 0.2828369140625 0.04521942138671875 0.07581329345703125 0.04290771484375 0.07835769653320312 0.0357818603515625 0.2479248046875
28.305 0.111968994140625 0.278961181640625 0.047519683837890625 0.07389068603515625 0.047245025634765625 0.07738494873046875 0.04150390625 0.2451934814453125
28.31375 0.1173553466796875 0.2747802734375 0.0501861572265625 0.07251739501953125 0.052215576171875 0.07549285888671875 0.0477294921875 0.2415771484375
28.3225 0.1229705810546875 0.2701416015625 0.05362701416015625 0.07134246826171875 0.05724334716796875 0.07269287109375 0.053070068359375 0.2382965087890625
28.33125 0.1280059814453125 0.2659759521484375 0.0576324462890625 0.0695343017578125 0.06183624267578125 0.06891632080078125 0.0587158203125 0.2349090576171875
28.34 0.1330718994140625 0.2609710693359375 0.06195068359375 0.0671539306640625 0.065704345703125 0.064453125 0.0635986328125 0.2306671142578125
28.34875 0.1376190185546875 0.2561492919921875 0.0662994384765625 0.0641632080078125 0.06866455078125 0.059661865234375 0.068817138671875 0.2265625
28.3575 0.1423492431640625 0.2510833740234375 0.07036590576171875 0.06012725830078125 0.07038116455078125 0.05492401123046875 0.0737457275390625 0.221893310546875
28.36625 0.1462249755859375 0.2458343505859375 0.0736083984375 0.05558013916015625 0.07173538208007812 0.0507965087890625 0.0777435302734375 0.217498779296875
28.375 0.149932861328125 0.2406005859375 0.076171875 0.0509796142578125 0.07281494140625 0.04761505126953125 0.082122802734375 0.21270751953125
28.38375 0.153411865234375 0.235626220703125 0.07830810546875 0.04647064208984375 0.0739288330078125 0.04468536376953125 0.085906982421875 0.2078857421875
28.3925 0.157012939453125 0.2301025390625 0.079925537109375 0.042144775390625 0.07546234130859375 0.042144775390625 0.08953857421875 0.2027130126953125
28.40125 0.1597137451171875 0.224639892578125 0.08129119873046875 0.038082122802734375 0.0776519775390625 0.03954315185546875 0.093048095703125 0.1973114013671875
28.41 0.162322998046875 0.2188873291015625 0.08266448974609375 0.03424835205078125 0.08023452758789062 0.03672027587890625 0.095794677734375 0.192535400390625
28.41875 0.164215087890625 0.2133636474609375 0.08411788940429688 0.03037261962890625 0.08307266235351562 0.03311920166015625 0.098419189453125 0.1870574951171875
28.4275 0.1661834716796875 0.2077484130859375 0.08577346801757812 0.02630615234375 0.08572769165039062 0.02886199951171875 0.1008758544921875 0.181854248046875
28.43625 0.16766357421875 0.2021331787109375 0.08722305297851562 0.02213287353515625 0.088134765625 0.023853302001953125 0.10272216796875 0.1763153076171875
28.445 0.168975830078125 0.1965484619140625 0.08829879760742188 0.017547607421875 0.089935302734375 0.018527984619140625 0.1046142578125 0.1713104248046875
28.45375 0.16986083984375 0.1906890869140625 0.08919525146484375 0.012943267822265625 0.09069442749023438 0.012969970703125 0.10595703125 0.1653900146484375
28.4625 0.17047119140625 0.1849517822265625 0.08965682983398438 0.008182525634765625 0.09108352661132812 0.0074462890625 0.10675048828125 0.15985107421875
28.47125 0.1707000732421875 0.179351806640625 0.08994293212890625 0.003444671630859375 0.09065628051757812 0.00222015380859375 0.10711669921875 0.1541595458984375
28.48 0.1706695556640625 0.173614501953125 0.08972930908203125 -0.00128936767578125 0.09008026123046875 -0.002643585205078125 0.1070404052734375 0.1488800048828125
28.48875 0.17010498046875 0.1685333251953125 0.0891571044921875 -0.005985260009765625 0.08919906616210938 -0.007251739501953125 0.1072845458984375 0.1439666748046875
28.4975 0.1697998046875 0.163543701171875 0.088653564453125 -0.0105133056640625 0.08800506591796875 -0.01186370849609375 0.106719970703125 0.1387786865234375
28.50625 0.168853759765625 0.158355712890625 0.08805084228515625 -0.0148468017578125 0.08673858642578125 -0.01621246337890625 0.1058807373046875 0.1330108642578125
28.515 0.1680908203125 0.1534423828125 0.086883544921875 -0.0189666748046875 0.08538818359375 -0.02024078369140625 0.1053009033203125 0.1278533935546875
28.52375 0.1670684814453125 0.1483306884765625 0.08591842651367188 -0.023250579833984375 0.0840606689453125 -0.02400970458984375 0.10355377197265625 0.12302398681640625
28.5325 0.1651763916015625 0.14373779296875 0.08484649658203125 -0.027462005615234375 0.08279037475585938 -0.027667999267578125 0.101898193359375 0.11823272705078125
28.54125 0.1633148193359375 0.1395111083984375 0.08323287963867188 -0.031917572021484375 0.08124160766601562 -0.03165435791015625 0.10015869140625 0.11370086669921875
28.55 0.16143798828125 0.1350555419921875 0.081512451171875 -0.03632354736328125 0.0796051025390625 -0.03556060791015625 0.09809112548828125 0.1092071533203125
