!Created with skrf (http://scikit-rf.org).
# GHz S RI R 50.0 
!freq ReS11 ImS11 ReS21 ImS21 ReS12 ImS12 ReS22 ImS22
27.5 0.02361297607421875 0.12656402587890625 -0.017386436462402344 -0.0100555419921875 -0.017162322998046875 -0.010294914245605469 -0.03102874755859375 0.2014923095703125
27.50875 0.02618408203125 0.12066650390625 -0.017882347106933594 -0.009016036987304688 -0.017621994018554688 -0.009160041809082031 -0.0246429443359375 0.1979827880859375
27.5175 0.02852630615234375 0.1149749755859375 -0.01799774169921875 -0.00782012939453125 -0.018164634704589844 -0.008183479309082031 -0.0188446044921875 0.19434356689453125
27.52625 0.0303497314453125 0.1092529296875 -0.018304824829101562 -0.0068645477294921875 -0.018627166748046875 -0.0071010589599609375 -0.012939453125 0.1903839111328125
27.535 0.0319976806640625 0.10308837890625 -0.018423080444335938 -0.0059223175048828125 -0.018785476684570312 -0.0058689117431640625 -0.0073699951171875 0.186004638671875
27.54375 0.03307342529296875 0.09752655029296875 -0.01849651336669922 -0.005038261413574219 -0.01894092559814453 -0.004879951477050781 -0.0025787353515625 0.18143463134765625
27.5525 0.033725738525390625 0.09154891967773438 -0.01884746551513672 -0.0042133331298828125 -0.018996238708496094 -0.0039014816284179688 0.0020751953125 0.176666259765625
27.56125 0.03409576416015625 0.08578872680664062 -0.0189971923828125 -0.0034875869750976562 -0.01904773712158203 -0.0030736923217773438 0.0064697265625 0.1714935302734375
27.57 0.03414154052734375 0.08047866821289062 -0.019105911254882812 -0.0025539398193359375 -0.01904773712158203 -0.0020294189453125 0.01013946533203125 0.16629791259765625
27.57875 0.0335540771484375 0.07490158081054688 -0.01944446563720703 -0.0015697479248046875 -0.01919078826904297 -0.0012187957763671875 0.01418304443359375 0.1610870361328125
27.5875 0.032833099365234375 0.06956863403320312 -0.01976490020751953 -0.0007581710815429688 -0.019256591796875 -0.000316619873046875 0.0174560546875 0.15532684326171875
27.59625 0.031421661376953125 0.06430435180664062 -0.019904136657714844 0.00044345855712890625 -0.019301414489746094 0.0006990432739257812 0.02046966552734375 0.14960479736328125
27.605 0.030017852783203125 0.059085845947265625 -0.019834518432617188 0.0017642974853515625 -0.019227027893066406 0.0018205642700195312 0.02294158935546875 0.14377593994140625
27.61375 0.028232574462890625 0.053913116455078125 -0.01963329315185547 0.0028009414672851562 -0.019063949584960938 0.0028467178344726562 0.02512359619140625 0.1377410888671875
27.6225 0.0260009765625 0.04906463623046875 -0.019537925720214844 0.003930091857910156 -0.018894195556640625 0.0038089752197265625 0.0272979736328125 0.1317901611328125
27.63125 0.023250579833984375 0.04419708251953125 -0.01928997039794922 0.0051136016845703125 -0.018804550170898438 0.004775047302246094 0.02904510498046875 0.1256561279296875
27.64 0.0201568603515625 0.039402008056640625 -0.01880931854248047 0.0061473846435546875 -0.018451690673828125 0.005866050720214844 0.0304107666015625 0.1194610595703125
27.64875 0.017072677612304688 0.03526115417480469 -0.01848125457763672 0.007094383239746094 -0.018044471740722656 0.006714820861816406 0.03118133544921875 0.1133880615234375
27.6575 0.01331329345703125 0.031036376953125 -0.017876625061035156 0.007829666137695312 -0.017848968505859375 0.007694244384765625 0.03179168701171875 0.10746002197265625
27.66625 0.009622573852539062 0.026769638061523438 -0.017526626586914062 0.008767127990722656 -0.017564773559570312 0.0084686279296875 0.0321044921875 0.10158538818359375
27.675 0.0055866241455078125 0.023241043090820312 -0.017168045043945312 0.009840011596679688 -0.017095565795898438 0.009511947631835938 0.03173828125 0.0958099365234375
27.68375 0.0015010833740234375 0.019842147827148438 -0.01660919189453125 0.01084136962890625 -0.0165863037109375 0.010622024536132812 0.0309295654296875 0.0901336669921875
27.6925 -0.0027828216552734375 0.01659393310546875 -0.015964508056640625 0.011587142944335938 -0.015888214111328125 0.011455535888671875 0.03003692626953125 0.08477783203125
27.70125 -0.007488250732421875 0.013985633850097656 -0.015280723571777344 0.012303352355957031 -0.015298843383789062 0.012193679809570312 0.0286407470703125 0.0795440673828125
27.71 -0.012211322784423828 0.01139974594116211 -0.014711856842041016 0.012794971466064453 -0.014734745025634766 0.012904167175292969 0.026760101318359375 0.07442855834960938
27.71875 -0.016931533813476562 0.009266853332519531 -0.014072418212890625 0.013718128204345703 -0.013972282409667969 0.013759613037109375 0.024623870849609375 0.06940078735351562
27.7275 -0.021932601928710938 0.0075588226318359375 -0.013289928436279297 0.014419078826904297 -0.013260364532470703 0.014400959014892578 0.02213287353515625 0.06470870971679688
27.73625 -0.027055740356445312 0.006183624267578125 -0.012596607208251953 0.015308380126953125 -0.012569904327392578 0.015377044677734375 0.01914215087890625 0.059906005859375
27.745 -0.0323944091796875 0.005092620849609375 -0.011750221252441406 0.01590728759765625 -0.011568069458007812 0.015897750854492188 0.016185760498046875 0.05554962158203125
27.75375 -0.03759002685546875 0.00424957275390625 -0.010835647583007812 0.016510963439941406 -0.010804176330566406 0.01656341552734375 0.012603759765625 0.051395416259765625
27.7625 -0.0431365966796875 0.003726959228515625 -0.009855270385742188 0.01687145233154297 -0.009979248046875 0.016828536987304688 0.008907318115234375 0.04726219177246094
27.77125 -0.04904747009277344 0.00380706787109375 -0.00914764404296875 0.017526626586914062 -0.009089469909667969 0.017446517944335938 0.004795074462890625 0.043247222900390625
27.78 -0.05471992492675781 0.0040187835693359375 -0.008305549621582031 0.01801776885986328 -0.008248329162597656 0.01811695098876953 0.0005702972412109375 0.03971672058105469
27.78875 -0.060619354248046875 0.0048198699951171875 -0.007274627685546875 0.01863861083984375 -0.0073223114013671875 0.01863861083984375 -0.0043048858642578125 0.03633308410644531
27.7975 -0.06618499755859375 0.00565338134765625 -0.00611114501953125 0.01906108856201172 -0.0060329437255859375 0.01921558380126953 -0.009014129638671875 0.03336906433105469
27.80625 -0.07210159301757812 0.006778717041015625 -0.0050525665283203125 0.0193023681640625 -0.004935264587402344 0.019415855407714844 -0.013861656188964844 0.030887603759765625
27.815 -0.07794952392578125 0.00878143310546875 -0.004158973693847656 0.019519805908203125 -0.0038633346557617188 0.019609451293945312 -0.018701553344726562 0.028400421142578125
27.82375 -0.08339309692382812 0.010684967041015625 -0.0030117034912109375 0.019817352294921875 -0.0027294158935546875 0.019858360290527344 -0.023777008056640625 0.0262298583984375
27.8325 -0.08876800537109375 0.01285552978515625 -0.0017757415771484375 0.019948959350585938 -0.0016345977783203125 0.019796371459960938 -0.029138565063476562 0.024753570556640625
27.84125 -0.09398651123046875 0.015655517578125 -0.0009098052978515625 0.019843101501464844 -0.0005674362182617188 0.01980304718017578 -0.034183502197265625 0.023677825927734375
27.85 -0.0987548828125 0.0184783935546875 0.00018024444580078125 0.01996898651123047 0.0004367828369140625 0.01970386505126953 -0.03974151611328125 0.022935867309570312
27.85875 -0.10340118408203125 0.02170562744140625 0.0014886856079101562 0.02007293701171875 0.0014810562133789062 0.01968097686767578 -0.04518890380859375 0.02280426025390625
27.8675 -0.10791397094726562 0.024837493896484375 0.002414703369140625 0.01961040496826172 0.0023651123046875 0.019342422485351562 -0.0505218505859375 0.022615432739257812
27.87625 -0.11215591430664062 0.028533935546875 0.0032281875610351562 0.019385337829589844 0.0032148361206054688 0.01929759979248047 -0.05610466003417969 0.02310943603515625
27.885 -0.11614608764648438 0.033161163330078125 0.0041675567626953125 0.01940441131591797 0.004033088684082031 0.019361495971679688 -0.06134796142578125 0.023817062377929688
27.89375 -0.1196746826171875 0.0377655029296875 0.005267143249511719 0.019262313842773438 0.005229949951171875 0.01928234100341797 -0.0668182373046875 0.025226593017578125
27.9025 -0.123046875 0.0419158935546875 0.006390571594238281 0.019010543823242188 0.006206512451171875 0.019237518310546875 -0.0721435546875 0.02687835693359375
27.91125 -0.12591552734375 0.0472259521484375 0.007434844970703125 0.018680572509765625 0.0074596405029296875 0.01888751983642578 -0.07751083374023438 0.028728485107421875
27.92 -0.12874603271484375 0.05225372314453125 0.008496284484863281 0.018177032470703125 0.008582115173339844 0.01847553253173828 -0.0825958251953125 0.031230926513671875
27.92875 -0.13123321533203125 0.05770111083984375 0.009406089782714844 0.01784229278564453 0.009578704833984375 0.017889976501464844 -0.08754730224609375 0.033924102783203125
27.9375 -0.13407135009765625 0.06330108642578125 0.010327339172363281 0.017276763916015625 0.010651588439941406 0.017210006713867188 -0.09275054931640625 0.03690338134765625
27.94625 -0.13640594482421875 0.06929779052734375 0.011511802673339844 0.016607284545898438 0.0116424560546875 0.01659679412841797 -0.09788894653320312 0.040119171142578125
27.955 -0.1379852294921875 0.075439453125 0.012247085571289062 0.01581573486328125 0.012479782104492188 0.015806198120117188 -0.10259246826171875 0.0439300537109375
27.96375 -0.139495849609375 0.081817626953125 0.013097763061523438 0.015122413635253906 0.013253211975097656 0.01522064208984375 -0.10695266723632812 0.048236846923828125
27.9725 -0.140838623046875 0.0880889892578125 0.013863563537597656 0.014315605163574219 0.013887405395507812 0.014698028564453125 -0.11096954345703125 0.05225372314453125
27.98125 -0.14200592041015625 0.09407806396484375 0.01436614990234375 0.013513565063476562 0.014768123626708984 0.013992786407470703 -0.11450576782226562 0.056652069091796875
27.99 -0.1426544189453125 0.10024261474609375 0.015104293823242188 0.012871742248535156 0.015587806701660156 0.013265609741210938 -0.11790847778320312 0.06118011474609375
27.99875 -0.143157958984375 0.106292724609375 0.015793800354003906 0.012165069580078125 0.01652812957763672 0.012377738952636719 -0.12126541137695312 0.0660552978515625
28.0075 -0.14324951171875 0.112518310546875 0.0164947509765625 0.011435508728027344 0.017358779907226562 0.011322975158691406 -0.124114990234375 0.07149505615234375
28.01625 -0.14312744140625 0.11882781982421875 0.01723194122314453 0.010530471801757812 0.017958641052246094 0.00989532470703125 -0.12691497802734375 0.0769500732421875
28.025 -0.1422271728515625 0.12482452392578125 0.017960548400878906 0.009532928466796875 0.018395423889160156 0.008764266967773438 -0.12903594970703125 0.08231353759765625
28.03375 -0.1411590576171875 0.131072998046875 0.018550872802734375 0.00853729248046875 0.01871490478515625 0.0074787139892578125 -0.13104248046875 0.08819580078125
28.0425 -0.1396484375 0.136810302734375 0.01900768280029297 0.0070972442626953125 0.018851280212402344 0.0064601898193359375 -0.132568359375 0.09465789794921875
28.05125 -0.1377105712890625 0.1425628662109375 0.019287109375 0.0060482025146484375 0.018667221069335938 0.0054225921630859375 -0.1338958740234375 0.1007080078125
28.06 -0.1355438232421875 0.1482696533203125 0.019378662109375 0.0051116943359375 0.01879596710205078 0.004618644714355469 -0.13504791259765625 0.107025146484375
28.06875 -0.13260650634765625 0.1537933349609375 0.01959991455078125 0.003914833068847656 0.018829345703125 0.003936767578125 -0.1358795166015625 0.11328887939453125
28.0775 -0.12975311279296875 0.1597900390625 0.019509315490722656 0.0028810501098632812 0.019013404846191406 0.0031251907348632812 -0.13643646240234375 0.1202239990234375
28.08625 -0.12662506103515625 0.16571044921875 0.019418716430664062 0.0018968582153320312 0.019422531127929688 0.0025472640991210938 -0.13663482666015625 0.12688446044921875
28.095 -0.122894287109375 0.17147064208984375 0.019475936889648438 0.0011758804321289062 0.01992034912109375 0.0016508102416992188 -0.1363372802734375 0.13336181640625
28.10375 -0.11893463134765625 0.17708587646484375 0.019777297973632812 0.00028228759765625 0.02020549774169922 0.0006093978881835938 -0.13596343994140625 0.1399688720703125
28.1125 -0.1145172119140625 0.18244171142578125 0.020049095153808594 -0.0005731582641601562 0.020700454711914062 -0.000720977783203125 -0.1351165771484375 0.14650726318359375
28.12125 -0.110321044921875 0.1876983642578125 0.02014923095703125 -0.0016984939575195312 0.02070903778076172 -0.0022230148315429688 -0.13387298583984375 0.15332794189453125
28.13 -0.10585784912109375 0.19284820556640625 0.02004718780517578 -0.0029726028442382812 0.020545005798339844 -0.0038318634033203125 -0.1318359375 0.15970611572265625
28.13875 -0.10115814208984375 0.19835662841796875 0.019967079162597656 -0.0042266845703125 0.019878387451171875 -0.0050983428955078125 -0.13019561767578125 0.1660308837890625
28.1475 -0.09621429443359375 0.20313262939453125 0.01959228515625 -0.0054416656494140625 0.019227027893066406 -0.0062732696533203125 -0.12767791748046875 0.17195892333984375
28.15625 -0.090911865234375 0.2077178955078125 0.019245147705078125 -0.0066967010498046875 0.018552780151367188 -0.0072174072265625 -0.124542236328125 0.1778106689453125
28.165 -0.0861358642578125 0.2115020751953125 0.018619537353515625 -0.0076351165771484375 0.017993927001953125 -0.007947921752929688 -0.1213531494140625 0.18359375
28.17375 -0.08101654052734375 0.21521759033203125 0.01799297332763672 -0.008509635925292969 0.017513275146484375 -0.008473396301269531 -0.1180267333984375 0.18970489501953125
28.1825 -0.07546234130859375 0.21855926513671875 0.01743793487548828 -0.009230613708496094 0.016956329345703125 -0.0091552734375 -0.11382293701171875 0.1952667236328125
28.19125 -0.07047271728515625 0.221435546875 0.016893386840820312 -0.010014533996582031 0.016805648803710938 -0.009990692138671875 -0.10939788818359375 0.20030975341796875
28.2 -0.06468963623046875 0.22454071044921875 0.01628398895263672 -0.010654449462890625 0.016516685485839844 -0.010675430297851562 -0.1045074462890625 0.2050628662109375
28.20875 -0.0587158203125 0.22711944580078125 0.016143798828125 -0.011368751525878906 0.016269683837890625 -0.011495590209960938 -0.099822998046875 0.2099761962890625
28.2175 -0.052337646484375 0.22858428955078125 0.01583099365234375 -0.012459754943847656 0.01584148406982422 -0.012789726257324219 -0.0950469970703125 0.2149658203125
28.22625 -0.04686737060546875 0.23011016845703125 0.015370368957519531 -0.01342010498046875 0.0151824951171875 -0.013858795166015625 -0.09001922607421875 0.21968841552734375
28.235 -0.04093170166015625 0.23089599609375 0.014818668365478516 -0.014629364013671875 0.014132976531982422 -0.01492166519165039 -0.08397674560546875 0.2243194580078125
28.24375 -0.03476715087890625 0.2314453125 0.013903617858886719 -0.015715599060058594 0.01316070556640625 -0.015842437744140625 -0.0782318115234375 0.22844696044921875
28.2525 -0.02831268310546875 0.232452392578125 0.012629508972167969 -0.01680278778076172 0.012066841125488281 -0.01647472381591797 -0.07222747802734375 0.23217010498046875
28.26125 -0.02178955078125 0.232421875 0.011364936828613281 -0.017482757568359375 0.010931015014648438 -0.016821861267089844 -0.06636810302734375 0.23600006103515625
28.27 -0.01511383056640625 0.23268890380859375 0.010067939758300781 -0.01792144775390625 0.009997367858886719 -0.01721668243408203 -0.06027984619140625 0.239166259765625
28.27875 -0.0081329345703125 0.2321624755859375 0.008928298950195312 -0.018310546875 0.009075164794921875 -0.017473220825195312 -0.0541229248046875 0.242584228515625
28.2875 -0.001678466796875 0.2313690185546875 0.007860183715820312 -0.018365859985351562 0.00847625732421875 -0.017740249633789062 -0.0476837158203125 0.2449493408203125
28.29625 0.0050506591796875 0.23058319091796875 0.0069789886474609375 -0.0184173583984375 0.007735252380371094 -0.01820659637451172 -0.04134368896484375 0.2476654052734375
28.305 0.01153564453125 0.229705810546875 0.006198883056640625 -0.01855182647705078 0.006805419921875 -0.018891334533691406 -0.034637451171875 0.2496185302734375
28.31375 0.01776885986328125 0.22863006591796875 0.005625724792480469 -0.018764495849609375 0.005867958068847656 -0.019468307495117188 -0.0282135009765625 0.2509002685546875
28.3225 0.0240020751953125 0.2269744873046875 0.004839897155761719 -0.01916980743408203 0.004691123962402344 -0.019911766052246094 -0.0213165283203125 0.2520294189453125
28.33125 0.02984619140625 0.22552490234375 0.0039157867431640625 -0.019529342651367188 0.0034074783325195312 -0.02015972137451172 -0.0145111083984375 0.253204345703125
28.34 0.0357818603515625 0.2234954833984375 0.0028772354125976562 -0.019884109497070312 0.002071380615234375 -0.02035045623779297 -0.007415771484375 0.25335693359375
28.34875 0.04119873046875 0.221099853515625 0.0018033981323242188 -0.020294189453125 0.000988006591796875 -0.020239830017089844 -0.00018310546875 0.2530059814453125
28.3575 0.046630859375 0.218414306640625 0.0006856918334960938 -0.02056884765625 -0.0001811981201171875 -0.020305633544921875 0.0070343017578125 0.2529754638671875
28.36625 0.051513671875 0.215362548828125 -0.0007219314575195312 -0.02068042755126953 -0.0015535354614257812 -0.020094871520996094 0.0141754150390625 0.252471923828125
28.375 0.0561065673828125 0.2120513916015625 -0.00200653076171875 -0.02053546905517578 -0.0024433135986328125 -0.019718170166015625 0.0212249755859375 0.251617431640625
28.38375 0.060546875 0.208831787109375 -0.0032558441162109375 -0.02025604248046875 -0.0032901763916015625 -0.019329071044921875 0.0284423828125 0.250244140625
28.3925 0.06463623046875 0.204803466796875 -0.004405975341796875 -0.01995849609375 -0.0041027069091796875 -0.01912689208984375 0.035675048828125 0.2484130859375
28.40125 0.068878173828125 0.2009735107421875 -0.00551605224609375 -0.019594192504882812 -0.004948616027832031 -0.01920795440673828 0.04302978515625 0.2465667724609375
28.41 0.0729217529296875 0.1965484619140625 -0.006367683410644531 -0.01913738250732422 -0.005837440490722656 -0.018785476684570312 0.04998779296875 0.24468994140625
28.41875 0.0764007568359375 0.1916351318359375 -0.007205009460449219 -0.01871013641357422 -0.006687164306640625 -0.01887989044189453 0.056671142578125 0.2421875
28.4275 0.0797882080078125 0.186920166015625 -0.008207321166992188 -0.018610000610351562 -0.007732391357421875 -0.018566131591796875 0.063323974609375 0.2394866943359375
28.43625 0.082855224609375 0.1821746826171875 -0.009189605712890625 -0.018248558044433594 -0.009022712707519531 -0.018297195434570312 0.0701141357421875 0.2368621826171875
28.445 0.0858154296875 0.1772308349609375 -0.010263442993164062 -0.017669677734375 -0.010133743286132812 -0.017885208129882812 0.0765533447265625 0.233642578125
28.45375 0.0884857177734375 0.1721649169921875 -0.011345863342285156 -0.01707744598388672 -0.011176109313964844 -0.01702404022216797 0.0821380615234375 0.2301483154296875
28.4625 0.090972900390625 0.166839599609375 -0.01233673095703125 -0.01631927490234375 -0.012206077575683594 -0.016571044921875 0.08770751953125 0.2264251708984375
28.47125 0.09320068359375 0.1615142822265625 -0.0132904052734375 -0.015685081481933594 -0.013277053833007812 -0.015755653381347656 0.09295654296875 0.2226715087890625
28.48 0.0948486328125 0.1563262939453125 -0.013997077941894531 -0.014746665954589844 -0.014143943786621094 -0.01473236083984375 0.09808349609375 0.218353271484375
28.48875 0.09613800048828125 0.15118408203125 -0.014678001403808594 -0.013875007629394531 -0.014735221862792969 -0.013829231262207031 0.1029052734375 0.21380615234375
28.4975 0.0971527099609375 0.146331787109375 -0.015375137329101562 -0.01324462890625 -0.015368461608886719 -0.013054847717285156 0.1069793701171875 0.209136962890625
28.50625 0.0974884033203125 0.1412353515625 -0.016202926635742188 -0.012365341186523438 -0.016241073608398438 -0.012231826782226562 0.111053466796875 0.203948974609375
