!Created with skrf (http://scikit-rf.org).
# GHz S RI R 50.0 
!freq ReS11 ImS11 ReS21 ImS21 ReS12 ImS12 ReS22 ImS22
27.5 0.0235595703125 0.1256103515625 -0.017945289611816406 -0.006649017333984375 -0.017490386962890625 -0.0071201324462890625 0.0086517333984375 0.15457916259765625
27.50875 0.02565765380859375 0.11989593505859375 -0.018108367919921875 -0.0054035186767578125 -0.017955780029296875 -0.0060138702392578125 0.01328277587890625 0.14984893798828125
27.5175 0.02765655517578125 0.11457061767578125 -0.01810932159423828 -0.004527091979980469 -0.01813983917236328 -0.004817962646484375 0.0172882080078125 0.14464569091796875
27.52625 0.029754638671875 0.10943603515625 -0.018207550048828125 -0.00370025634765625 -0.01842498779296875 -0.0038318634033203125 0.0214691162109375 0.1396331787109375
27.535 0.0318450927734375 0.103668212890625 -0.018369674682617188 -0.0027675628662109375 -0.018505096435546875 -0.0028362274169921875 0.0251922607421875 0.134368896484375
27.54375 0.0333404541015625 0.09781646728515625 -0.01838397979736328 -0.001651763916015625 -0.01858997344970703 -0.0020132064819335938 0.0286712646484375 0.12883758544921875
27.5525 0.033985137939453125 0.09155654907226562 -0.018301963806152344 -0.001068115234375 -0.018728256225585938 -0.0010766983032226562 0.031646728515625 0.1229095458984375
27.56125 0.03376007080078125 0.085693359375 -0.01822376251220703 -0.0005340576171875 -0.018776893615722656 -0.00020885467529296875 0.0338287353515625 0.11693572998046875
27.57 0.033657073974609375 0.080474853515625 -0.018657684326171875 0.00018787384033203125 -0.019005775451660156 0.0008649826049804688 0.035919189453125 0.1111297607421875
27.57875 0.033405303955078125 0.07518768310546875 -0.019371986389160156 0.0012493133544921875 -0.018993377685546875 0.0018301010131835938 0.0379486083984375 0.10488128662109375
27.5875 0.032581329345703125 0.06937408447265625 -0.01944255828857422 0.00286102294921875 -0.018982887268066406 0.0027561187744140625 0.0390625 0.09845733642578125
27.59625 0.030853271484375 0.0640716552734375 -0.019141197204589844 0.003960609436035156 -0.01874256134033203 0.0038480758666992188 0.04030609130859375 0.0923309326171875
27.605 0.02913665771484375 0.05928802490234375 -0.018967628479003906 0.005175590515136719 -0.01866626739501953 0.004986763000488281 0.0407867431640625 0.085968017578125
27.61375 0.027606964111328125 0.05428314208984375 -0.018601417541503906 0.006344795227050781 -0.01834583282470703 0.0060863494873046875 0.04077911376953125 0.07972335815429688
27.6225 0.02524566650390625 0.0490570068359375 -0.018075942993164062 0.007460594177246094 -0.018083572387695312 0.0069332122802734375 0.040714263916015625 0.07344818115234375
27.63125 0.0221405029296875 0.0442657470703125 -0.01781177520751953 0.008120536804199219 -0.017972946166992188 0.007900238037109375 0.0403289794921875 0.06744766235351562
27.64 0.019407272338867188 0.0397186279296875 -0.01758289337158203 0.009245872497558594 -0.01751232147216797 0.009084701538085938 0.039546966552734375 0.06118011474609375
27.64875 0.016017913818359375 0.03542137145996094 -0.016996383666992188 0.010519027709960938 -0.017052650451660156 0.010239601135253906 0.038372039794921875 0.055088043212890625
27.6575 0.01251983642578125 0.031280517578125 -0.01607227325439453 0.011693000793457031 -0.016330718994140625 0.01114654541015625 0.036792755126953125 0.049373626708984375
27.66625 0.008785247802734375 0.02732086181640625 -0.015369415283203125 0.012174606323242188 -0.015703201293945312 0.011983871459960938 0.03497314453125 0.04387664794921875
27.675 0.00505828857421875 0.0238037109375 -0.014692306518554688 0.01291656494140625 -0.015082359313964844 0.012746810913085938 0.03279876708984375 0.03857421875
27.68375 0.001171112060546875 0.020219802856445312 -0.014230728149414062 0.013698577880859375 -0.014309883117675781 0.013784408569335938 0.03000640869140625 0.033538818359375
27.6925 -0.0030574798583984375 0.01651763916015625 -0.013607978820800781 0.014710426330566406 -0.013401031494140625 0.014593124389648438 0.027225494384765625 0.028350830078125
27.70125 -0.007967472076416016 0.013454437255859375 -0.012745380401611328 0.015541553497314453 -0.012685775756835938 0.0154571533203125 0.02368927001953125 0.023685455322265625
27.71 -0.012833118438720703 0.010838985443115234 -0.011774063110351562 0.016164779663085938 -0.011572837829589844 0.016060829162597656 0.019954681396484375 0.0194244384765625
27.71875 -0.017973899841308594 0.009006500244140625 -0.010895729064941406 0.01692485809326172 -0.010745048522949219 0.016655921936035156 0.0159454345703125 0.015166282653808594
27.7275 -0.022994041442871094 0.007346153259277344 -0.009790420532226562 0.01749134063720703 -0.009779930114746094 0.017271995544433594 0.011626243591308594 0.01117706298828125
27.73625 -0.02800464630126953 0.0061473846435546875 -0.008662223815917969 0.017955780029296875 -0.008733749389648438 0.017709732055664062 0.006975650787353516 0.0074253082275390625
27.745 -0.033069610595703125 0.0049304962158203125 -0.007521629333496094 0.018424034118652344 -0.007695198059082031 0.01807880401611328 0.0021924972534179688 0.004144906997680664
27.75375 -0.038188934326171875 0.004486083984375 -0.00644683837890625 0.018585205078125 -0.006760597229003906 0.018438339233398438 -0.00305330753326416 0.0011141300201416016
27.7625 -0.0435943603515625 0.0039348602294921875 -0.0054225921630859375 0.018711090087890625 -0.0057926177978515625 0.0188751220703125 -0.008543014526367188 -0.0016360282897949219
27.77125 -0.04908561706542969 0.00402069091796875 -0.004427909851074219 0.018959999084472656 -0.004723548889160156 0.01914215087890625 -0.014163970947265625 -0.003975868225097656
27.78 -0.05456733703613281 0.004337310791015625 -0.003391265869140625 0.018947601318359375 -0.0037021636962890625 0.019262313842773438 -0.019634246826171875 -0.00588226318359375
27.78875 -0.06020545959472656 0.005077362060546875 -0.0024271011352539062 0.019082069396972656 -0.0026845932006835938 0.019472122192382812 -0.02524566650390625 -0.0077457427978515625
27.7975 -0.06578445434570312 0.00611114501953125 -0.0013494491577148438 0.01912403106689453 -0.0015268325805664062 0.019713401794433594 -0.03113555908203125 -0.009525299072265625
27.80625 -0.07140350341796875 0.007022857666015625 -0.000408172607421875 0.01909160614013672 -0.0003871917724609375 0.019623756408691406 -0.03713798522949219 -0.010303497314453125
27.815 -0.07733535766601562 0.008716583251953125 0.000492095947265625 0.019189834594726562 0.0007066726684570312 0.019789695739746094 -0.043224334716796875 -0.011005401611328125
27.82375 -0.083099365234375 0.01062774658203125 0.001678466796875 0.019224166870117188 0.0019207000732421875 0.019695281982421875 -0.0488433837890625 -0.011196136474609375
27.8325 -0.0882720947265625 0.0126800537109375 0.0028295516967773438 0.01919841766357422 0.0030727386474609375 0.019262313842773438 -0.055019378662109375 -0.010593414306640625
27.84125 -0.09352493286132812 0.01548004150390625 0.0038251876831054688 0.019011497497558594 0.004071235656738281 0.019002914428710938 -0.06060791015625 -0.01004791259765625
27.85 -0.09842681884765625 0.01828765869140625 0.004878997802734375 0.01877880096435547 0.004904747009277344 0.018707275390625 -0.06626510620117188 -0.00926971435546875
27.85875 -0.10317611694335938 0.021575927734375 0.005909919738769531 0.018594741821289062 0.005808830261230469 0.018370628356933594 -0.07237625122070312 -0.007900238037109375
27.8675 -0.1075439453125 0.024993896484375 0.00690460205078125 0.01826190948486328 0.006848335266113281 0.01802539825439453 -0.07830047607421875 -0.00612640380859375
27.87625 -0.1116790771484375 0.02880859375 0.007979393005371094 0.017798423767089844 0.007725715637207031 0.017747879028320312 -0.083892822265625 -0.003894805908203125
27.885 -0.11577606201171875 0.033260345458984375 0.008801460266113281 0.0173492431640625 0.008619308471679688 0.01746845245361328 -0.0892181396484375 -0.001068115234375
27.89375 -0.1190185546875 0.03760528564453125 0.009759902954101562 0.016805648803710938 0.009642601013183594 0.016941070556640625 -0.09472274780273438 0.002048492431640625
27.9025 -0.12277984619140625 0.042144775390625 0.010652542114257812 0.016351699829101562 0.010549545288085938 0.016386985778808594 -0.100067138671875 0.00505828857421875
27.91125 -0.1255035400390625 0.04746246337890625 0.01153564453125 0.015668869018554688 0.011625289916992188 0.015770912170410156 -0.10509109497070312 0.00890350341796875
27.92 -0.1284027099609375 0.05272674560546875 0.0123443603515625 0.015008926391601562 0.012457847595214844 0.015096664428710938 -0.110015869140625 0.012584686279296875
27.92875 -0.13088226318359375 0.05825042724609375 0.013284683227539062 0.014031410217285156 0.013401031494140625 0.014195442199707031 -0.11496353149414062 0.016750335693359375
27.9375 -0.13306427001953125 0.063812255859375 0.01403045654296875 0.013196945190429688 0.014054298400878906 0.013299942016601562 -0.11986160278320312 0.021427154541015625
27.94625 -0.13562774658203125 0.06951141357421875 0.014544486999511719 0.012277603149414062 0.014652252197265625 0.012328147888183594 -0.12410354614257812 0.0261993408203125
27.955 -0.1373748779296875 0.075531005859375 0.014928817749023438 0.011144638061523438 0.01509857177734375 0.0114593505859375 -0.12811279296875 0.0313720703125
27.96375 -0.13919830322265625 0.0816802978515625 0.015423774719238281 0.010194778442382812 0.015486717224121094 0.010561943054199219 -0.1319122314453125 0.03629302978515625
27.9725 -0.14058685302734375 0.0881805419921875 0.015605926513671875 0.00937652587890625 0.015839576721191406 0.009738922119140625 -0.135101318359375 0.04163360595703125
27.98125 -0.14174652099609375 0.09423065185546875 0.015836715698242188 0.008715629577636719 0.016175270080566406 0.009051322937011719 -0.1382293701171875 0.0471343994140625
27.99 -0.14221954345703125 0.10042572021484375 0.01617908477783203 0.007977485656738281 0.016716957092285156 0.008460044860839844 -0.14092254638671875 0.0530548095703125
27.99875 -0.143035888671875 0.106414794921875 0.016411781311035156 0.007365226745605469 0.01726245880126953 0.0074825286865234375 -0.143341064453125 0.058837890625
28.0075 -0.14302825927734375 0.11251068115234375 0.01700305938720703 0.00653839111328125 0.01792430877685547 0.006550788879394531 -0.14525604248046875 0.0652923583984375
28.01625 -0.14258575439453125 0.11875152587890625 0.017470359802246094 0.005939483642578125 0.01812458038330078 0.0052642822265625 -0.1470794677734375 0.07159423828125
28.025 -0.14189910888671875 0.1245880126953125 0.01777362823486328 0.005008697509765625 0.018276214599609375 0.004192352294921875 -0.148040771484375 0.07778167724609375
28.03375 -0.14090728759765625 0.13059234619140625 0.01793384552001953 0.0038404464721679688 0.01831817626953125 0.0030155181884765625 -0.1488800048828125 0.08448028564453125
28.0425 -0.13941192626953125 0.13611602783203125 0.018355369567871094 0.0028209686279296875 0.018070220947265625 0.0020380020141601562 -0.14959716796875 0.0912628173828125
28.05125 -0.137420654296875 0.14190673828125 0.01834869384765625 0.00165557861328125 0.018085479736328125 0.0013885498046875 -0.1500701904296875 0.0979156494140625
28.06 -0.13536834716796875 0.1474609375 0.01852703094482422 0.0006628036499023438 0.017899513244628906 0.0007266998291015625 -0.14984893798828125 0.10500335693359375
28.06875 -0.13275146484375 0.153076171875 0.018289566040039062 -0.0002994537353515625 0.01785755157470703 -0.00012874603271484375 -0.14954376220703125 0.11170196533203125
28.0775 -0.129852294921875 0.15886688232421875 0.018026351928710938 -0.0012559890747070312 0.017889976501464844 -0.0007944107055664062 -0.14874267578125 0.1189422607421875
28.08625 -0.12659454345703125 0.16466522216796875 0.017717361450195312 -0.002185821533203125 0.018091201782226562 -0.0015954971313476562 -0.1477508544921875 0.1259765625
28.095 -0.12311553955078125 0.17050933837890625 0.01743793487548828 -0.0030269622802734375 0.018281936645507812 -0.0025892257690429688 -0.14599609375 0.132568359375
28.10375 -0.11908721923828125 0.1762542724609375 0.01735973358154297 -0.0036468505859375 0.018320083618164062 -0.0035152435302734375 -0.1446380615234375 0.1391448974609375
28.1125 -0.114410400390625 0.1816558837890625 0.0172882080078125 -0.00438690185546875 0.018296241760253906 -0.004675865173339844 -0.142425537109375 0.14563751220703125
28.12125 -0.110260009765625 0.18714141845703125 0.017307281494140625 -0.005486488342285156 0.018004417419433594 -0.0060558319091796875 -0.1401824951171875 0.15235137939453125
28.13 -0.105438232421875 0.19232177734375 0.016956329345703125 -0.006573677062988281 0.01739788055419922 -0.0072612762451171875 -0.1375579833984375 0.1585693359375
28.13875 -0.10056304931640625 0.1975555419921875 0.016571044921875 -0.007480621337890625 0.0166778564453125 -0.008312225341796875 -0.13421630859375 0.16497039794921875
28.1475 -0.09598541259765625 0.202178955078125 0.015935897827148438 -0.008256912231445312 0.015825271606445312 -0.009203910827636719 -0.13071441650390625 0.170562744140625
28.15625 -0.0906829833984375 0.2067718505859375 0.015340805053710938 -0.00910186767578125 0.015003204345703125 -0.009642601013183594 -0.127044677734375 0.176605224609375
28.165 -0.085784912109375 0.2105255126953125 0.014668464660644531 -0.009627342224121094 0.0143585205078125 -0.009892463684082031 -0.12286376953125 0.18206787109375
28.17375 -0.08075714111328125 0.21436309814453125 0.014150619506835938 -0.010291576385498047 0.01381063461303711 -0.0106048583984375 -0.11827850341796875 0.18731689453125
28.1825 -0.075714111328125 0.21753692626953125 0.013714313507080078 -0.010763168334960938 0.013350963592529297 -0.010790348052978516 -0.1134490966796875 0.192901611328125
28.19125 -0.07114410400390625 0.2210235595703125 0.013288021087646484 -0.01125955581665039 0.013162612915039062 -0.011150360107421875 -0.108673095703125 0.1976165771484375
28.2 -0.06526947021484375 0.22414398193359375 0.012939929962158203 -0.011940956115722656 0.012902259826660156 -0.011909961700439453 -0.1028900146484375 0.2025299072265625
28.20875 -0.05933380126953125 0.22660064697265625 0.012456893920898438 -0.012468814849853516 0.012584686279296875 -0.012841224670410156 -0.0973663330078125 0.20677947998046875
28.2175 -0.05344390869140625 0.22849273681640625 0.011898040771484375 -0.013255119323730469 0.011864185333251953 -0.013588905334472656 -0.09148406982421875 0.2111968994140625
28.22625 -0.047698974609375 0.23026275634765625 0.01154470443725586 -0.013949871063232422 0.011132240295410156 -0.01436758041381836 -0.0857391357421875 0.21512603759765625
28.235 -0.0420074462890625 0.23077392578125 0.011006832122802734 -0.014979362487792969 0.0102691650390625 -0.01513051986694336 -0.07915496826171875 0.2190093994140625
28.24375 -0.03578948974609375 0.23152923583984375 0.009928703308105469 -0.01581096649169922 0.00927734375 -0.015738487243652344 -0.07292938232421875 0.2223968505859375
28.2525 -0.02935791015625 0.23233795166015625 0.008824348449707031 -0.016550064086914062 0.008214950561523438 -0.016101837158203125 -0.0664825439453125 0.22551727294921875
28.26125 -0.0228424072265625 0.23215484619140625 0.007678031921386719 -0.01685047149658203 0.007343292236328125 -0.01633930206298828 -0.0599517822265625 0.22844696044921875
28.27 -0.016448974609375 0.23215484619140625 0.006275177001953125 -0.01713085174560547 0.006526947021484375 -0.016490936279296875 -0.0532684326171875 0.23059844970703125
28.27875 -0.0097503662109375 0.231781005859375 0.0053386688232421875 -0.017084121704101562 0.0058383941650390625 -0.016595840454101562 -0.0465545654296875 0.2328033447265625
28.2875 -0.0035552978515625 0.2313079833984375 0.0045166015625 -0.017124176025390625 0.005157470703125 -0.016832351684570312 -0.0400390625 0.23419189453125
28.29625 0.00345611572265625 0.23043060302734375 0.003582000732421875 -0.01724720001220703 0.004515647888183594 -0.017116546630859375 -0.033111572265625 0.2356719970703125
28.305 0.0102996826171875 0.22930908203125 0.0030536651611328125 -0.017287254333496094 0.0036573410034179688 -0.017473220825195312 -0.026397705078125 0.236572265625
28.31375 0.0169677734375 0.22803497314453125 0.0025463104248046875 -0.017169952392578125 0.002880096435546875 -0.017852783203125 -0.01934051513671875 0.236785888671875
28.3225 0.0234222412109375 0.2260284423828125 0.0018644332885742188 -0.017370223999023438 0.0019054412841796875 -0.01821613311767578 -0.01251220703125 0.23671722412109375
28.33125 0.028717041015625 0.2244110107421875 0.0011072158813476562 -0.017813682556152344 0.0007658004760742188 -0.01832103729248047 -0.00568389892578125 0.2364501953125
28.34 0.0345001220703125 0.222564697265625 0.00021648406982421875 -0.017960548400878906 -0.0004253387451171875 -0.018408775329589844 0.00128173828125 0.23551177978515625
28.34875 0.0397796630859375 0.220245361328125 -0.0007915496826171875 -0.018093109130859375 -0.0014238357543945312 -0.01835918426513672 0.00824737548828125 0.23468017578125
28.3575 0.045501708984375 0.21746826171875 -0.001903533935546875 -0.01821136474609375 -0.0025482177734375 -0.017892837524414062 0.0152435302734375 0.2332305908203125
28.36625 0.050018310546875 0.2145538330078125 -0.0030193328857421875 -0.01832103729248047 -0.0035724639892578125 -0.017627716064453125 0.0222930908203125 0.2316741943359375
28.375 0.05499267578125 0.211334228515625 -0.0041046142578125 -0.01805591583251953 -0.004132270812988281 -0.01717090606689453 0.0290679931640625 0.2296600341796875
28.38375 0.0594482421875 0.208099365234375 -0.00511932373046875 -0.01786041259765625 -0.0048809051513671875 -0.0169525146484375 0.035736083984375 0.227203369140625
28.3925 0.0638427734375 0.204803466796875 -0.00598907470703125 -0.017400741577148438 -0.005519866943359375 -0.016752243041992188 0.0423583984375 0.224884033203125
28.40125 0.068328857421875 0.2003326416015625 -0.006939888000488281 -0.01686382293701172 -0.006194114685058594 -0.016570091247558594 0.04925537109375 0.22222900390625
28.41 0.0719757080078125 0.1958465576171875 -0.007485389709472656 -0.01654815673828125 -0.0068836212158203125 -0.016473770141601562 0.0554962158203125 0.219573974609375
28.41875 0.0750579833984375 0.1914520263671875 -0.008444786071777344 -0.01623058319091797 -0.007903099060058594 -0.01633739471435547 0.061676025390625 0.216339111328125
28.4275 0.07867431640625 0.1869964599609375 -0.009131431579589844 -0.015666961669921875 -0.008900642395019531 -0.016126632690429688 0.067840576171875 0.2128448486328125
28.43625 0.0821380615234375 0.1819000244140625 -0.009983062744140625 -0.01528167724609375 -0.009790420532226562 -0.015542984008789062 0.073516845703125 0.2093505859375
28.445 0.0849151611328125 0.1771240234375 -0.010781288146972656 -0.014581680297851562 -0.01058197021484375 -0.015097618103027344 0.0787506103515625 0.2057037353515625
28.45375 0.0876007080078125 0.1718902587890625 -0.011585235595703125 -0.014314651489257812 -0.0115966796875 -0.014641761779785156 0.08349609375 0.20159912109375
28.4625 0.0898590087890625 0.166473388671875 -0.012409210205078125 -0.013853073120117188 -0.0125579833984375 -0.013991355895996094 0.0882720947265625 0.197296142578125
28.47125 0.0918731689453125 0.1610565185546875 -0.013219833374023438 -0.013039588928222656 -0.013235092163085938 -0.013143539428710938 0.0925140380859375 0.1926422119140625
28.48 0.093505859375 0.1563568115234375 -0.013859748840332031 -0.012217521667480469 -0.013936042785644531 -0.012392044067382812 0.0965423583984375 0.18817138671875
28.48875 0.09494781494140625 0.15158843994140625 -0.014365196228027344 -0.011554718017578125 -0.014585494995117188 -0.011667251586914062 0.10015869140625 0.1828155517578125
28.4975 0.096435546875 0.1466217041015625 -0.015059471130371094 -0.010788917541503906 -0.01508331298828125 -0.010753631591796875 0.1034088134765625 0.177337646484375
28.50625 0.09698486328125 0.1414337158203125 -0.015359878540039062 -0.010152816772460938 -0.01557159423828125 -0.009981155395507812 0.106170654296875 0.17181396484375
