!Created with skrf (http://scikit-rf.org).
# GHz S RI R 50.0 
!freq ReS11 ImS11 ReS21 ImS21 ReS12 ImS12 ReS22 ImS22
27.5 0.010406494140625 0.16025543212890625 0.10866928100585938 -0.021488189697265625 0.11048507690429688 -0.020160675048828125 0.01645660400390625 0.1164093017578125
27.50875 0.0127410888671875 0.15474700927734375 0.10654449462890625 -0.0273284912109375 0.10888290405273438 -0.02703094482421875 0.01885986328125 0.11077117919921875
27.5175 0.0149688720703125 0.14935302734375 0.10419082641601562 -0.032306671142578125 0.10649490356445312 -0.03314208984375 0.0207977294921875 0.10509490966796875
27.52625 0.0169677734375 0.1436920166015625 0.10204696655273438 -0.037109375 0.10394287109375 -0.038867950439453125 0.022472381591796875 0.09937286376953125
27.535 0.0186614990234375 0.1382293701171875 0.1000518798828125 -0.041839599609375 0.1011199951171875 -0.04419708251953125 0.02375030517578125 0.093597412109375
27.54375 0.0199737548828125 0.132904052734375 0.097686767578125 -0.046539306640625 0.09799957275390625 -0.048919677734375 0.024658203125 0.08791351318359375
27.5525 0.0208892822265625 0.12732696533203125 0.09553146362304688 -0.051204681396484375 0.09506607055664062 -0.0535736083984375 0.0251312255859375 0.08188247680664062
27.56125 0.02140045166015625 0.1214752197265625 0.09294509887695312 -0.056285858154296875 0.09200286865234375 -0.057849884033203125 0.024898529052734375 0.07602691650390625
27.57 0.02164459228515625 0.1163330078125 0.09046554565429688 -0.06095123291015625 0.08896255493164062 -0.062061309814453125 0.024677276611328125 0.0704193115234375
27.57875 0.0214080810546875 0.11102294921875 0.087432861328125 -0.06595993041992188 0.08599472045898438 -0.0661468505859375 0.024188995361328125 0.06484603881835938
27.5875 0.02099609375 0.106109619140625 0.08405303955078125 -0.07068252563476562 0.08292770385742188 -0.07059097290039062 0.02318572998046875 0.059261322021484375
27.59625 0.02016448974609375 0.10128402709960938 0.08017730712890625 -0.07550430297851562 0.07929229736328125 -0.07492446899414062 0.021717071533203125 0.053920745849609375
27.605 0.0189056396484375 0.0966339111328125 0.07569122314453125 -0.0797119140625 0.07535552978515625 -0.07935714721679688 0.020107269287109375 0.048736572265625
27.61375 0.017925262451171875 0.09221267700195312 0.07129287719726562 -0.08372879028320312 0.07085037231445312 -0.08349609375 0.01812744140625 0.04336357116699219
27.6225 0.016254425048828125 0.08776092529296875 0.06651687622070312 -0.08722686767578125 0.06606292724609375 -0.0870361328125 0.01609039306640625 0.03853034973144531
27.63125 0.01444244384765625 0.0834197998046875 0.061492919921875 -0.09049606323242188 0.06134796142578125 -0.0901336669921875 0.01386260986328125 0.03353691101074219
27.64 0.012073516845703125 0.07900619506835938 0.056671142578125 -0.09308242797851562 0.05646514892578125 -0.0931243896484375 0.011137008666992188 0.028776168823242188
27.64875 0.00923919677734375 0.07529067993164062 0.0517120361328125 -0.09601211547851562 0.0514373779296875 -0.09583663940429688 0.008016586303710938 0.02433013916015625
27.6575 0.006557464599609375 0.07149505615234375 0.046703338623046875 -0.09844970703125 0.046298980712890625 -0.0982513427734375 0.004703521728515625 0.020219802856445312
27.66625 0.00310516357421875 0.06801605224609375 0.041416168212890625 -0.10051727294921875 0.041263580322265625 -0.10051727294921875 0.0012569427490234375 0.016214370727539062
27.675 -0.00035858154296875 0.06495285034179688 0.0359649658203125 -0.10234832763671875 0.035633087158203125 -0.10234451293945312 -0.0025691986083984375 0.012862205505371094
27.68375 -0.003932952880859375 0.0619964599609375 0.03055572509765625 -0.10364532470703125 0.03025054931640625 -0.104095458984375 -0.0066356658935546875 0.009568214416503906
27.6925 -0.007678985595703125 0.05902862548828125 0.02496337890625 -0.10489654541015625 0.02490997314453125 -0.10535430908203125 -0.010539054870605469 0.006427764892578125
27.70125 -0.011837005615234375 0.056446075439453125 0.01969146728515625 -0.10588836669921875 0.01921844482421875 -0.10626983642578125 -0.015036582946777344 0.0035343170166015625
27.71 -0.01638031005859375 0.053890228271484375 0.0141448974609375 -0.1067657470703125 0.01378631591796875 -0.10694122314453125 -0.019914627075195312 0.000946044921875
27.71875 -0.02106475830078125 0.05224418640136719 0.00832366943359375 -0.10728836059570312 0.00830841064453125 -0.107574462890625 -0.024872779846191406 -0.00119781494140625
27.7275 -0.026004791259765625 0.05092620849609375 0.002719879150390625 -0.10712814331054688 0.002742767333984375 -0.107452392578125 -0.030305862426757812 -0.002895355224609375
27.73625 -0.0303802490234375 0.050052642822265625 -0.00281524658203125 -0.10703277587890625 -0.002803802490234375 -0.1074066162109375 -0.03549385070800781 -0.00440216064453125
27.745 -0.03480720520019531 0.04910469055175781 -0.008480072021484375 -0.10656356811523438 -0.00803375244140625 -0.10695648193359375 -0.040790557861328125 -0.005451202392578125
27.75375 -0.039516448974609375 0.04857826232910156 -0.014129638671875 -0.10576629638671875 -0.013683319091796875 -0.10625076293945312 -0.04604339599609375 -0.0062618255615234375
27.7625 -0.043964385986328125 0.0479583740234375 -0.019390106201171875 -0.1045074462890625 -0.01903533935546875 -0.10540390014648438 -0.05164337158203125 -0.0069904327392578125
27.77125 -0.04908943176269531 0.047943115234375 -0.0244293212890625 -0.10324859619140625 -0.0246124267578125 -0.104248046875 -0.057491302490234375 -0.0074462890625
27.78 -0.05410957336425781 0.04823493957519531 -0.02953338623046875 -0.1016998291015625 -0.03009033203125 -0.10298919677734375 -0.06299209594726562 -0.00725555419921875
27.78875 -0.05896949768066406 0.049129486083984375 -0.03469085693359375 -0.09995269775390625 -0.035491943359375 -0.10095977783203125 -0.06881332397460938 -0.006412506103515625
27.7975 -0.06361007690429688 0.050235748291015625 -0.039886474609375 -0.09820556640625 -0.041168212890625 -0.09883880615234375 -0.07435226440429688 -0.00553131103515625
27.80625 -0.06822586059570312 0.0511932373046875 -0.04471588134765625 -0.09593963623046875 -0.04621124267578125 -0.09589385986328125 -0.079498291015625 -0.004039764404296875
27.815 -0.072845458984375 0.052951812744140625 -0.04990386962890625 -0.09334564208984375 -0.05136871337890625 -0.09282684326171875 -0.08456039428710938 -0.002777099609375
27.82375 -0.0778045654296875 0.0546112060546875 -0.0547027587890625 -0.090423583984375 -0.0557708740234375 -0.089324951171875 -0.08957672119140625 -0.0012664794921875
27.8325 -0.08232498168945312 0.056804656982421875 -0.059356689453125 -0.08707427978515625 -0.0598602294921875 -0.0859222412109375 -0.09476852416992188 0.001190185546875
27.84125 -0.08665847778320312 0.059783935546875 -0.06353759765625 -0.08367919921875 -0.0634613037109375 -0.082366943359375 -0.09975051879882812 0.0039520263671875
27.85 -0.09102630615234375 0.06274795532226562 -0.0674285888671875 -0.0799102783203125 -0.06691741943359375 -0.07898712158203125 -0.10478591918945312 0.006916046142578125
27.85875 -0.09490203857421875 0.06603240966796875 -0.07097625732421875 -0.07611846923828125 -0.0705718994140625 -0.0758514404296875 -0.10953140258789062 0.01056671142578125
27.8675 -0.0982513427734375 0.06941604614257812 -0.0743865966796875 -0.07207489013671875 -0.07398223876953125 -0.07251739501953125 -0.11389923095703125 0.014362335205078125
27.87625 -0.1015167236328125 0.07284164428710938 -0.0777130126953125 -0.0685882568359375 -0.07769012451171875 -0.06915283203125 -0.11787796020507812 0.0182952880859375
27.885 -0.1053619384765625 0.07680892944335938 -0.08075714111328125 -0.06463623046875 -0.0815582275390625 -0.06554412841796875 -0.12172317504882812 0.0223541259765625
27.89375 -0.108489990234375 0.08111572265625 -0.08461761474609375 -0.060577392578125 -0.0853118896484375 -0.06121063232421875 -0.1259613037109375 0.02700042724609375
27.9025 -0.1114044189453125 0.08567428588867188 -0.0879364013671875 -0.0561676025390625 -0.089141845703125 -0.0564422607421875 -0.12982177734375 0.031707763671875
27.91125 -0.1136322021484375 0.09065628051757812 -0.091033935546875 -0.0511627197265625 -0.09221649169921875 -0.05110931396484375 -0.13336944580078125 0.036834716796875
27.92 -0.11562347412109375 0.09558868408203125 -0.09381866455078125 -0.045867919921875 -0.09455108642578125 -0.04531097412109375 -0.13648223876953125 0.04201507568359375
27.92875 -0.11751937866210938 0.10072708129882812 -0.09600830078125 -0.0400543212890625 -0.0964813232421875 -0.03943634033203125 -0.1392364501953125 0.047210693359375
27.9375 -0.11927413940429688 0.10577011108398438 -0.09737396240234375 -0.03403472900390625 -0.0976409912109375 -0.0337371826171875 -0.14214324951171875 0.05245208740234375
27.94625 -0.12111663818359375 0.11117935180664062 -0.0980224609375 -0.0281829833984375 -0.09814453125 -0.02823638916015625 -0.14464569091796875 0.05794525146484375
27.955 -0.12215423583984375 0.1167144775390625 -0.0980987548828125 -0.022735595703125 -0.098388671875 -0.02341461181640625 -0.14691162109375 0.063873291015625
27.96375 -0.12337875366210938 0.12251663208007812 -0.09787750244140625 -0.01798248291015625 -0.09879302978515625 -0.018939971923828125 -0.14893341064453125 0.0698394775390625
27.9725 -0.12387847900390625 0.128570556640625 -0.09748077392578125 -0.0138092041015625 -0.09955215454101562 -0.0146331787109375 -0.150146484375 0.075592041015625
27.98125 -0.124237060546875 0.1340789794921875 -0.09735488891601562 -0.00995635986328125 -0.10040283203125 -0.009918212890625 -0.15117645263671875 0.0817413330078125
27.99 -0.12380218505859375 0.13976287841796875 -0.09785079956054688 -0.005863189697265625 -0.1012420654296875 -0.004627227783203125 -0.1517333984375 0.08757781982421875
27.99875 -0.1235809326171875 0.14528656005859375 -0.09862899780273438 -0.001850128173828125 -0.10177993774414062 0.00104522705078125 -0.1517333984375 0.0935211181640625
28.0075 -0.12306976318359375 0.15074920654296875 -0.09951019287109375 0.0029449462890625 -0.10150146484375 0.007114410400390625 -0.15181732177734375 0.09967803955078125
28.01625 -0.12229156494140625 0.1567535400390625 -0.09975051879882812 0.008205413818359375 -0.10045623779296875 0.01329803466796875 -0.15177154541015625 0.10602569580078125
28.025 -0.12090301513671875 0.16213226318359375 -0.09981918334960938 0.0141448974609375 -0.098236083984375 0.01911163330078125 -0.15084075927734375 0.11215972900390625
28.03375 -0.1192474365234375 0.16815948486328125 -0.09865188598632812 0.02010345458984375 -0.09554290771484375 0.02419281005859375 -0.149566650390625 0.11884307861328125
28.0425 -0.11700439453125 0.17337799072265625 -0.09690475463867188 0.026233673095703125 -0.09264755249023438 0.0282135009765625 -0.1481170654296875 0.12538909912109375
28.05125 -0.114227294921875 0.178802490234375 -0.0943603515625 0.0315704345703125 -0.08994293212890625 0.03144073486328125 -0.146392822265625 0.13153076171875
28.06 -0.11151123046875 0.18395233154296875 -0.0914459228515625 0.03610992431640625 -0.0877838134765625 0.0342864990234375 -0.14443206787109375 0.1376800537109375
28.06875 -0.10832977294921875 0.1890869140625 -0.08834075927734375 0.040096282958984375 -0.08646774291992188 0.037006378173828125 -0.1422119140625 0.14377593994140625
28.0775 -0.10489654541015625 0.19419097900390625 -0.08534622192382812 0.043491363525390625 -0.08555221557617188 0.040248870849609375 -0.1396942138671875 0.1500396728515625
28.08625 -0.101226806640625 0.19948577880859375 -0.08282089233398438 0.04663848876953125 -0.08518600463867188 0.044277191162109375 -0.1370849609375 0.156158447265625
28.095 -0.09737396240234375 0.20461273193359375 -0.08059310913085938 0.049633026123046875 -0.0841827392578125 0.049015045166015625 -0.1339569091796875 0.16190338134765625
28.10375 -0.09313201904296875 0.2096710205078125 -0.0789947509765625 0.053195953369140625 -0.08227920532226562 0.0546875 -0.13067626953125 0.167572021484375
28.1125 -0.08831024169921875 0.21429443359375 -0.07685470581054688 0.057224273681640625 -0.07932281494140625 0.06048583984375 -0.1270904541015625 0.1728363037109375
28.12125 -0.08371734619140625 0.21926116943359375 -0.07445526123046875 0.06131744384765625 -0.07511138916015625 0.06605911254882812 -0.12348175048828125 0.17809295654296875
28.13 -0.0784759521484375 0.2235870361328125 -0.0712738037109375 0.0659942626953125 -0.06943511962890625 0.07062530517578125 -0.11943817138671875 0.18289947509765625
28.13875 -0.073577880859375 0.22789764404296875 -0.06710433959960938 0.07036972045898438 -0.06367874145507812 0.07381439208984375 -0.1150970458984375 0.18768310546875
28.1475 -0.06871795654296875 0.23189544677734375 -0.06220245361328125 0.07378768920898438 -0.058124542236328125 0.07537078857421875 -0.1104888916015625 0.191497802734375
28.15625 -0.0633392333984375 0.2358856201171875 -0.0572357177734375 0.07640838623046875 -0.05306243896484375 0.07630157470703125 -0.1054534912109375 0.195770263671875
28.165 -0.058197021484375 0.2393798828125 -0.05251312255859375 0.0780181884765625 -0.04913330078125 0.0767974853515625 -0.1005401611328125 0.199951171875
28.17375 -0.05222320556640625 0.242340087890625 -0.0482177734375 0.07915496826171875 -0.04616546630859375 0.07721328735351562 -0.09471893310546875 0.2032470703125
28.1825 -0.047088623046875 0.244659423828125 -0.044635772705078125 0.0802001953125 -0.043788909912109375 0.07848739624023438 -0.08907318115234375 0.2063751220703125
28.19125 -0.04192352294921875 0.247100830078125 -0.041412353515625 0.08136749267578125 -0.041431427001953125 0.08049392700195312 -0.0836181640625 0.2090911865234375
28.2 -0.036163330078125 0.2493438720703125 -0.038356781005859375 0.08292388916015625 -0.038543701171875 0.08308029174804688 -0.07744598388671875 0.2116241455078125
28.20875 -0.0301666259765625 0.251068115234375 -0.03558349609375 0.08490753173828125 -0.034969329833984375 0.0859375 -0.071380615234375 0.2142181396484375
28.2175 -0.0246429443359375 0.2523956298828125 -0.031810760498046875 0.08753204345703125 -0.030536651611328125 0.08880615234375 -0.06505584716796875 0.21611785888671875
28.22625 -0.0185546875 0.2534027099609375 -0.027587890625 0.09027481079101562 -0.02492523193359375 0.09117507934570312 -0.05869293212890625 0.21790313720703125
28.235 -0.0122833251953125 0.25396728515625 -0.02236175537109375 0.09267044067382812 -0.01891326904296875 0.0921478271484375 -0.05193328857421875 0.219390869140625
28.24375 -0.0063018798828125 0.25347900390625 -0.01647186279296875 0.0941925048828125 -0.0131072998046875 0.0924072265625 -0.0455322265625 0.220550537109375
28.2525 -0.0002288818359375 0.2535858154296875 -0.01019287109375 0.09476470947265625 -0.00798797607421875 0.09180068969726562 -0.0390625 0.2213897705078125
28.26125 0.0062408447265625 0.2532501220703125 -0.004077911376953125 0.09428787231445312 -0.003261566162109375 0.090576171875 -0.03279876708984375 0.222320556640625
28.27 0.01251220703125 0.2525482177734375 0.001300811767578125 0.09301376342773438 0.00052642822265625 0.08934402465820312 -0.02657318115234375 0.22254180908203125
28.27875 0.01910400390625 0.25152587890625 0.0059967041015625 0.09107208251953125 0.00376129150390625 0.08852386474609375 -0.0200653076171875 0.2227325439453125
28.2875 0.0252532958984375 0.250335693359375 0.00972747802734375 0.08936691284179688 0.00684356689453125 0.08849716186523438 -0.0137481689453125 0.2219085693359375
28.29625 0.0319976806640625 0.248687744140625 0.0131378173828125 0.087921142578125 0.010677337646484375 0.08872222900390625 -0.00775146484375 0.22144317626953125
28.305 0.038177490234375 0.247344970703125 0.016384124755859375 0.08701705932617188 0.01485443115234375 0.08904266357421875 -0.00174713134765625 0.220306396484375
28.31375 0.0444488525390625 0.245452880859375 0.019504547119140625 0.08623886108398438 0.01959991455078125 0.08903884887695312 0.00396728515625 0.2190704345703125
28.3225 0.0500946044921875 0.2432098388671875 0.023021697998046875 0.08611679077148438 0.024906158447265625 0.0885162353515625 0.00981903076171875 0.217254638671875
28.33125 0.055755615234375 0.241455078125 0.02724456787109375 0.08559799194335938 0.030422210693359375 0.08698272705078125 0.015625 0.21555328369140625
28.34 0.0615234375 0.2386627197265625 0.03173065185546875 0.08498382568359375 0.0356903076171875 0.08446502685546875 0.02161407470703125 0.213287353515625
28.34875 0.0665435791015625 0.23590087890625 0.036693572998046875 0.0835723876953125 0.040134429931640625 0.0814666748046875 0.02727508544921875 0.2104644775390625
28.3575 0.07171630859375 0.2327728271484375 0.041656494140625 0.08179473876953125 0.04407501220703125 0.07802200317382812 0.03310394287109375 0.20729827880859375
28.36625 0.076324462890625 0.2294464111328125 0.04654693603515625 0.078887939453125 0.047359466552734375 0.07464599609375 0.0380401611328125 0.20394134521484375
28.375 0.0806732177734375 0.225860595703125 0.050689697265625 0.075531005859375 0.049892425537109375 0.07143783569335938 0.04312896728515625 0.200225830078125
28.38375 0.08453369140625 0.222442626953125 0.0541839599609375 0.0721435546875 0.0519256591796875 0.0688018798828125 0.0480804443359375 0.1967315673828125
28.3925 0.0885009765625 0.218353271484375 0.0572662353515625 0.06865692138671875 0.054168701171875 0.06667327880859375 0.053009033203125 0.1928253173828125
28.40125 0.0922393798828125 0.213836669921875 0.060070037841796875 0.06531906127929688 0.056896209716796875 0.06470489501953125 0.0580902099609375 0.18854522705078125
28.41 0.0952301025390625 0.2096710205078125 0.0625762939453125 0.062290191650390625 0.059844970703125 0.06290054321289062 0.06232452392578125 0.1842041015625
28.41875 0.0980072021484375 0.20501708984375 0.065399169921875 0.059261322021484375 0.06341934204101562 0.0606689453125 0.06623077392578125 0.17966461181640625
28.4275 0.10089111328125 0.2002716064453125 0.0680389404296875 0.056079864501953125 0.0671234130859375 0.05768585205078125 0.0696868896484375 0.17504119873046875
28.43625 0.1033477783203125 0.19537353515625 0.07094955444335938 0.05287933349609375 0.07086944580078125 0.05419921875 0.07285308837890625 0.17057037353515625
28.445 0.1055755615234375 0.1905059814453125 0.07374954223632812 0.049083709716796875 0.07428741455078125 0.05019378662109375 0.07587432861328125 0.165985107421875
28.45375 0.107666015625 0.18536376953125 0.07604598999023438 0.04512786865234375 0.076873779296875 0.045562744140625 0.0784759521484375 0.1614837646484375
28.4625 0.1092987060546875 0.180084228515625 0.07809829711914062 0.040985107421875 0.079254150390625 0.0409393310546875 0.08092498779296875 0.15654754638671875
28.47125 0.1109466552734375 0.1750030517578125 0.08004379272460938 0.036865234375 0.08104705810546875 0.036376953125 0.08272552490234375 0.15191650390625
28.48 0.1123809814453125 0.170166015625 0.08165359497070312 0.0326690673828125 0.08253097534179688 0.031688690185546875 0.0841064453125 0.1469268798828125
28.48875 0.1131744384765625 0.1651763916015625 0.08304977416992188 0.028217315673828125 0.08343505859375 0.026988983154296875 0.08527374267578125 0.14170074462890625
28.4975 0.1141510009765625 0.1603546142578125 0.08395767211914062 0.023830413818359375 0.0843505859375 0.022533416748046875 0.08618927001953125 0.1367034912109375
28.50625 0.114501953125 0.155364990234375 0.08499908447265625 0.01952362060546875 0.08467864990234375 0.0179901123046875 0.0861663818359375 0.13140869140625
28.515 0.1146240234375 0.1505126953125 0.0854644775390625 0.0152435302734375 0.08493804931640625 0.01363372802734375 0.0865020751953125 0.126190185546875
28.52375 0.114410400390625 0.14569091796875 0.08596038818359375 0.0111083984375 0.08509063720703125 0.009613037109375 0.0862884521484375 0.121246337890625
28.5325 0.11376953125 0.14129638671875 0.0863800048828125 0.006832122802734375 0.0851593017578125 0.00579833984375 0.08599853515625 0.11614990234375
28.54125 0.11267852783203125 0.13704681396484375 0.08675765991210938 0.002483367919921875 0.08512496948242188 0.0018310546875 0.08541107177734375 0.11106109619140625
