!Created with skrf (http://scikit-rf.org).
# GHz S RI R 50.0 
!freq ReS11 ImS11 ReS21 ImS21 ReS12 ImS12 ReS22 ImS22
27.5 0.01023101806640625 0.16022491455078125 0.025969505310058594 -0.014293670654296875 0.02633190155029297 -0.014225006103515625 0.00177764892578125 0.15421295166015625
27.50875 0.0131683349609375 0.154632568359375 0.02469921112060547 -0.015738487243652344 0.025422096252441406 -0.015822410583496094 0.00666046142578125 0.14963531494140625
27.5175 0.015625 0.14904022216796875 0.023698806762695312 -0.016864776611328125 0.024353981018066406 -0.017266273498535156 0.01111602783203125 0.14438629150390625
27.52625 0.01753997802734375 0.143310546875 0.022718429565429688 -0.017920494079589844 0.02325725555419922 -0.018576622009277344 0.0154571533203125 0.13953399658203125
27.535 0.01904296875 0.137664794921875 0.021951675415039062 -0.018810272216796875 0.022090911865234375 -0.019723892211914062 0.019378662109375 0.13421630859375
27.54375 0.0203704833984375 0.1323394775390625 0.02118682861328125 -0.020076751708984375 0.020956039428710938 -0.021127700805664062 0.022918701171875 0.1288909912109375
27.5525 0.02130889892578125 0.12685394287109375 0.020171165466308594 -0.02132129669189453 0.019730567932128906 -0.02212238311767578 0.02582550048828125 0.123321533203125
27.56125 0.02201080322265625 0.121337890625 0.01908397674560547 -0.022686004638671875 0.018499374389648438 -0.023261070251464844 0.028533935546875 0.117462158203125
27.57 0.0224151611328125 0.11614227294921875 0.017780303955078125 -0.023871421813964844 0.017045021057128906 -0.024095535278320312 0.0310211181640625 0.111572265625
27.57875 0.0224456787109375 0.11072540283203125 0.016223907470703125 -0.025007247924804688 0.015671730041503906 -0.024982452392578125 0.0330047607421875 0.1053009033203125
27.5875 0.02191925048828125 0.1055755615234375 0.015175819396972656 -0.025876998901367188 0.014611244201660156 -0.025618553161621094 0.0343475341796875 0.09941864013671875
27.59625 0.02074432373046875 0.10076141357421875 0.013596534729003906 -0.02687358856201172 0.013284683227539062 -0.026624679565429688 0.03557586669921875 0.0934295654296875
27.605 0.019420623779296875 0.0960235595703125 0.011923789978027344 -0.027784347534179688 0.011834144592285156 -0.027254104614257812 0.036342620849609375 0.0872344970703125
27.61375 0.018276214599609375 0.09151458740234375 0.010258674621582031 -0.02849292755126953 0.010103225708007812 -0.02823162078857422 0.03690338134765625 0.0810699462890625
27.6225 0.016452789306640625 0.08709335327148438 0.008502006530761719 -0.028947830200195312 0.008488655090332031 -0.028673171997070312 0.03702545166015625 0.07471466064453125
27.63125 0.0141754150390625 0.08254241943359375 0.0066165924072265625 -0.02921581268310547 0.0068759918212890625 -0.02911663055419922 0.036617279052734375 0.06851959228515625
27.64 0.0118865966796875 0.07843017578125 0.004955291748046875 -0.029409408569335938 0.0052433013916015625 -0.02931690216064453 0.03614044189453125 0.0624542236328125
27.64875 0.0086822509765625 0.07448196411132812 0.0035247802734375 -0.02948284149169922 0.0036020278930664062 -0.02967357635498047 0.035167694091796875 0.056575775146484375
27.6575 0.005817413330078125 0.07080078125 0.0019693374633789062 -0.029726028442382812 0.0020608901977539062 -0.02987957000732422 0.0338592529296875 0.050647735595703125
27.66625 0.00263214111328125 0.06726837158203125 0.00020503997802734375 -0.02995586395263672 0.00041866302490234375 -0.030091285705566406 0.03228759765625 0.045116424560546875
27.675 -0.0008087158203125 0.0641326904296875 -0.001247406005859375 -0.029857635498046875 -0.00128173828125 -0.02986907958984375 0.0299224853515625 0.0398101806640625
27.68375 -0.004329681396484375 0.061054229736328125 -0.002948760986328125 -0.029842376708984375 -0.0028839111328125 -0.030040740966796875 0.027637481689453125 0.034473419189453125
27.6925 -0.00821685791015625 0.0580902099609375 -0.004642486572265625 -0.029689788818359375 -0.004611968994140625 -0.030025482177734375 0.024810791015625 0.029277801513671875
27.70125 -0.012098312377929688 0.05558586120605469 -0.0064258575439453125 -0.029397964477539062 -0.0065288543701171875 -0.029529571533203125 0.021291732788085938 0.024450302124023438
27.71 -0.01642608642578125 0.053070068359375 -0.007940292358398438 -0.028875350952148438 -0.0081634521484375 -0.0291290283203125 0.017656326293945312 0.02005767822265625
27.71875 -0.020872116088867188 0.05101203918457031 -0.009370803833007812 -0.028245925903320312 -0.009698867797851562 -0.02852630615234375 0.013807296752929688 0.015839576721191406
27.7275 -0.025630950927734375 0.049587249755859375 -0.0110015869140625 -0.027956008911132812 -0.011074066162109375 -0.027996063232421875 0.00939178466796875 0.01178741455078125
27.73625 -0.030242919921875 0.04813575744628906 -0.01275634765625 -0.027416229248046875 -0.012754440307617188 -0.027530670166015625 0.004890918731689453 0.007533550262451172
27.745 -0.03485679626464844 0.047458648681640625 -0.014423370361328125 -0.026691436767578125 -0.014293670654296875 -0.02667236328125 3.0994415283203125e-05 0.0039157867431640625
27.75375 -0.03968048095703125 0.046764373779296875 -0.016002655029296875 -0.025701522827148438 -0.0159454345703125 -0.0258026123046875 -0.005202054977416992 0.0005784034729003906
27.7625 -0.04449653625488281 0.046237945556640625 -0.017339706420898438 -0.024686813354492188 -0.017414093017578125 -0.024801254272460938 -0.010770797729492188 -0.0024633407592773438
27.77125 -0.04978752136230469 0.04666328430175781 -0.018701553344726562 -0.023599624633789062 -0.01862335205078125 -0.023784637451171875 -0.01671600341796875 -0.005196571350097656
27.78 -0.05480384826660156 0.04704856872558594 -0.019817352294921875 -0.022508621215820312 -0.019903182983398438 -0.02265167236328125 -0.02212047576904297 -0.007376670837402344
27.78875 -0.060001373291015625 0.04808235168457031 -0.02098846435546875 -0.021352767944335938 -0.020967483520507812 -0.02152252197265625 -0.028024673461914062 -0.009374618530273438
27.7975 -0.064727783203125 0.049335479736328125 -0.022264480590820312 -0.020244598388671875 -0.022241592407226562 -0.020360946655273438 -0.034137725830078125 -0.011043548583984375
27.80625 -0.069549560546875 0.05081939697265625 -0.023319244384765625 -0.019021987915039062 -0.023370742797851562 -0.019023895263671875 -0.0401763916015625 -0.012187957763671875
27.815 -0.07418060302734375 0.053009033203125 -0.02419281005859375 -0.017673492431640625 -0.02429962158203125 -0.017635345458984375 -0.04615020751953125 -0.01325225830078125
27.82375 -0.07857513427734375 0.05513763427734375 -0.025127410888671875 -0.01638031005859375 -0.025318145751953125 -0.01641845703125 -0.0518035888671875 -0.0138702392578125
27.8325 -0.08254241943359375 0.05727386474609375 -0.02614593505859375 -0.014856338500976562 -0.026203155517578125 -0.014896392822265625 -0.05783843994140625 -0.0138397216796875
27.84125 -0.08703231811523438 0.05991363525390625 -0.026927947998046875 -0.013460159301757812 -0.026769638061523438 -0.01335906982421875 -0.06340408325195312 -0.013164520263671875
27.85 -0.09106063842773438 0.06278228759765625 -0.027463912963867188 -0.011831283569335938 -0.027414321899414062 -0.011882781982421875 -0.06925201416015625 -0.01265716552734375
27.85875 -0.09521484375 0.06600189208984375 -0.0279541015625 -0.01044464111328125 -0.027801513671875 -0.010601043701171875 -0.07500076293945312 -0.011608123779296875
27.8675 -0.0988922119140625 0.0694122314453125 -0.028453826904296875 -0.009256362915039062 -0.028491973876953125 -0.009456634521484375 -0.08090972900390625 -0.010494232177734375
27.87625 -0.10211563110351562 0.0732574462890625 -0.029241561889648438 -0.0075054168701171875 -0.029291152954101562 -0.007905960083007812 -0.08650970458984375 -0.0084686279296875
27.885 -0.10537338256835938 0.0773773193359375 -0.0297088623046875 -0.0059719085693359375 -0.030134201049804688 -0.0061187744140625 -0.0921173095703125 -0.006053924560546875
27.89375 -0.1085205078125 0.08118438720703125 -0.029981613159179688 -0.004001617431640625 -0.030485153198242188 -0.0041522979736328125 -0.09763336181640625 -0.003322601318359375
27.9025 -0.11160659790039062 0.08556365966796875 -0.030359268188476562 -0.0023174285888671875 -0.030727386474609375 -0.002285003662109375 -0.10297775268554688 -0.0003204345703125
27.91125 -0.11449813842773438 0.09089279174804688 -0.03035736083984375 -0.0005664825439453125 -0.030811309814453125 -0.0002918243408203125 -0.10819625854492188 0.003265380859375
27.92 -0.11673355102539062 0.09595108032226562 -0.03048419952392578 0.0012636184692382812 -0.03058338165283203 0.0014467239379882812 -0.11319732666015625 0.006862640380859375
27.92875 -0.11827850341796875 0.101531982421875 -0.030196189880371094 0.0029630661010742188 -0.030109405517578125 0.0033235549926757812 -0.118255615234375 0.01071929931640625
27.9375 -0.1200103759765625 0.1068572998046875 -0.029895782470703125 0.004908561706542969 -0.0296783447265625 0.0050811767578125 -0.12322616577148438 0.015285491943359375
27.94625 -0.12142181396484375 0.11230087280273438 -0.02931499481201172 0.006748199462890625 -0.0291595458984375 0.006764411926269531 -0.1277923583984375 0.02020263671875
27.955 -0.12220001220703125 0.11775970458984375 -0.028409957885742188 0.0084381103515625 -0.028512954711914062 0.008190155029296875 -0.1321563720703125 0.025115966796875
27.96375 -0.12343597412109375 0.12328720092773438 -0.027566909790039062 0.00986480712890625 -0.027906417846679688 0.009595870971679688 -0.1358489990234375 0.03067779541015625
27.9725 -0.12412261962890625 0.12906646728515625 -0.026546478271484375 0.010873794555664062 -0.02717876434326172 0.010779380798339844 -0.13915252685546875 0.0359039306640625
27.98125 -0.124664306640625 0.1347808837890625 -0.026000022888183594 0.011713981628417969 -0.0269012451171875 0.011776924133300781 -0.1424407958984375 0.04129791259765625
27.99 -0.1242828369140625 0.14090728759765625 -0.025612831115722656 0.012732505798339844 -0.026510238647460938 0.013460159301757812 -0.145355224609375 0.04676055908203125
27.99875 -0.12384796142578125 0.14630889892578125 -0.025129318237304688 0.013815879821777344 -0.02598094940185547 0.015158653259277344 -0.1479644775390625 0.0527191162109375
28.0075 -0.1229095458984375 0.15171051025390625 -0.02492809295654297 0.015279769897460938 -0.025110244750976562 0.016725540161132812 -0.150177001953125 0.05899810791015625
28.01625 -0.12183380126953125 0.15718841552734375 -0.024389266967773438 0.01689624786376953 -0.02379131317138672 0.018491744995117188 -0.152130126953125 0.06554412841796875
28.025 -0.12076568603515625 0.16214752197265625 -0.023220062255859375 0.01858806610107422 -0.022459030151367188 0.019751548767089844 -0.15351104736328125 0.07159423828125
28.03375 -0.11879730224609375 0.16811370849609375 -0.02232074737548828 0.01987934112548828 -0.02080821990966797 0.02061176300048828 -0.154632568359375 0.0782623291015625
28.0425 -0.11708831787109375 0.1735992431640625 -0.021079063415527344 0.021440505981445312 -0.019596099853515625 0.0211944580078125 -0.15550994873046875 0.08499908447265625
28.05125 -0.1139068603515625 0.178985595703125 -0.019809722900390625 0.02251434326171875 -0.01857757568359375 0.021892547607421875 -0.1563568115234375 0.091827392578125
28.06 -0.1109161376953125 0.18436431884765625 -0.01840686798095703 0.023725509643554688 -0.017507553100585938 0.02272319793701172 -0.15673828125 0.09893798828125
28.06875 -0.1074371337890625 0.18921661376953125 -0.016631126403808594 0.024698257446289062 -0.016631126403808594 0.023511886596679688 -0.15674591064453125 0.105865478515625
28.0775 -0.104095458984375 0.194183349609375 -0.015201568603515625 0.025262832641601562 -0.015645980834960938 0.02429485321044922 -0.15624237060546875 0.11328887939453125
28.08625 -0.10019683837890625 0.1996917724609375 -0.013844490051269531 0.025739669799804688 -0.014803886413574219 0.025388717651367188 -0.15546417236328125 0.12023162841796875
28.095 -0.0962066650390625 0.204620361328125 -0.012586593627929688 0.02626800537109375 -0.013586997985839844 0.026576995849609375 -0.15421295166015625 0.12705230712890625
28.10375 -0.09197235107421875 0.2097625732421875 -0.011259078979492188 0.02682971954345703 -0.01209259033203125 0.02792835235595703 -0.1530609130859375 0.13373565673828125
28.1125 -0.08699798583984375 0.2147979736328125 -0.01016998291015625 0.027612686157226562 -0.01024627685546875 0.02888965606689453 -0.151397705078125 0.14052581787109375
28.12125 -0.08229827880859375 0.21954345703125 -0.008609771728515625 0.028336524963378906 -0.00807952880859375 0.029776573181152344 -0.14947509765625 0.14739990234375
28.13 -0.07704925537109375 0.22385406494140625 -0.006901741027832031 0.029203414916992188 -0.005599021911621094 0.030139923095703125 -0.14678955078125 0.1540679931640625
28.13875 -0.07196807861328125 0.22809600830078125 -0.005087852478027344 0.0297088623046875 -0.0034847259521484375 0.029860496520996094 -0.1437835693359375 0.16042327880859375
28.1475 -0.06740570068359375 0.23187255859375 -0.003143310546875 0.02965831756591797 -0.0016508102416992188 0.029397010803222656 -0.1403045654296875 0.1665496826171875
28.15625 -0.0621795654296875 0.2357635498046875 -0.0011806488037109375 0.029741287231445312 -0.0001964569091796875 0.028873443603515625 -0.136322021484375 0.1727142333984375
28.165 -0.0571441650390625 0.239166259765625 0.00055694580078125 0.0293426513671875 0.001094818115234375 0.028394699096679688 -0.1322479248046875 0.1783905029296875
28.17375 -0.05217742919921875 0.24228668212890625 0.00217437744140625 0.028715133666992188 0.0021266937255859375 0.027879714965820312 -0.12790679931640625 0.18343353271484375
28.1825 -0.04662322998046875 0.2446746826171875 0.0033311843872070312 0.02813243865966797 0.0032024383544921875 0.02774524688720703 -0.12347412109375 0.189208984375
28.19125 -0.041046142578125 0.24707794189453125 0.004202842712402344 0.02776622772216797 0.004021644592285156 0.027665138244628906 -0.1183624267578125 0.19403839111328125
28.2 -0.03505706787109375 0.24906158447265625 0.0052661895751953125 0.027799606323242188 0.0051403045654296875 0.028013229370117188 -0.11293792724609375 0.19867706298828125
28.20875 -0.02960205078125 0.250152587890625 0.006534576416015625 0.027936935424804688 0.00690460205078125 0.028379440307617188 -0.1072998046875 0.20330047607421875
28.2175 -0.0242462158203125 0.2513580322265625 0.007999420166015625 0.02790069580078125 0.008642196655273438 0.028181076049804688 -0.1014251708984375 0.20786285400390625
28.22625 -0.0184783935546875 0.2527008056640625 0.009740829467773438 0.027830123901367188 0.01082611083984375 0.027681350708007812 -0.09578704833984375 0.2118988037109375
28.235 -0.011627197265625 0.2530670166015625 0.011568069458007812 0.027574539184570312 0.012643814086914062 0.026845932006835938 -0.0894622802734375 0.2159423828125
28.24375 -0.005584716796875 0.2530517578125 0.013490676879882812 0.026872634887695312 0.014169692993164062 0.025724411010742188 -0.0833892822265625 0.21967315673828125
28.2525 0.0006561279296875 0.2531280517578125 0.0153350830078125 0.025959014892578125 0.015420913696289062 0.024572372436523438 -0.07706451416015625 0.2232208251953125
28.26125 0.007293701171875 0.2524261474609375 0.016950607299804688 0.024547576904296875 0.016374588012695312 0.023418426513671875 -0.07091522216796875 0.226715087890625
28.27 0.01348876953125 0.251556396484375 0.018194198608398438 0.023294448852539062 0.0172271728515625 0.022418975830078125 -0.06421661376953125 0.2294158935546875
28.27875 0.019805908203125 0.250640869140625 0.019317626953125 0.021846771240234375 0.01811981201171875 0.021640777587890625 -0.0574493408203125 0.232330322265625
28.2875 0.0260009765625 0.249755859375 0.020069122314453125 0.020526885986328125 0.01900482177734375 0.020885467529296875 -0.0508575439453125 0.2340850830078125
28.29625 0.0328826904296875 0.24853515625 0.020559310913085938 0.019275665283203125 0.019992828369140625 0.02007293701171875 -0.04381561279296875 0.23627471923828125
28.305 0.039581298828125 0.2470245361328125 0.0210723876953125 0.018434524536132812 0.021097183227539062 0.019353866577148438 -0.03725433349609375 0.23737335205078125
28.31375 0.04583740234375 0.24493408203125 0.021924972534179688 0.0178070068359375 0.022481918334960938 0.018321990966796875 -0.03034210205078125 0.23822784423828125
28.3225 0.0516815185546875 0.2426300048828125 0.022661209106445312 0.016941070556640625 0.023637771606445312 0.017328262329101562 -0.02349853515625 0.2386932373046875
28.33125 0.0571136474609375 0.2405853271484375 0.023813247680664062 0.01627349853515625 0.025066375732421875 0.016054153442382812 -0.01641845703125 0.2394256591796875
28.34 0.0620880126953125 0.2376861572265625 0.025106430053710938 0.01523590087890625 0.026224136352539062 0.014312744140625 -0.00945281982421875 0.23860931396484375
28.34875 0.0666046142578125 0.235595703125 0.026365280151367188 0.013702392578125 0.026933670043945312 0.012365341186523438 -0.0025177001953125 0.23813629150390625
28.3575 0.0717620849609375 0.2328338623046875 0.027326583862304688 0.012117385864257812 0.027177810668945312 0.010660171508789062 0.00438690185546875 0.23642730712890625
28.36625 0.0766143798828125 0.229736328125 0.028028488159179688 0.010591506958007812 0.027402877807617188 0.009235382080078125 0.0109405517578125 0.235321044921875
28.375 0.08056640625 0.2260894775390625 0.028919219970703125 0.008813858032226562 0.027666091918945312 0.00792694091796875 0.0178070068359375 0.2335662841796875
28.38375 0.08416748046875 0.222503662109375 0.029399871826171875 0.007068634033203125 0.027923583984375 0.00656890869140625 0.024627685546875 0.231353759765625
28.3925 0.087677001953125 0.218048095703125 0.029598236083984375 0.005069732666015625 0.028228759765625 0.0053558349609375 0.03125 0.229034423828125
28.40125 0.091339111328125 0.21435546875 0.029693603515625 0.003387451171875 0.028703689575195312 0.0040912628173828125 0.0382232666015625 0.2262725830078125
28.41 0.0946197509765625 0.209930419921875 0.02957916259765625 0.00167083740234375 0.029203414916992188 0.0027408599853515625 0.0446014404296875 0.223388671875
28.41875 0.0973663330078125 0.2057342529296875 0.029642105102539062 0.00022220611572265625 0.02944183349609375 0.0010986328125 0.0504913330078125 0.22003173828125
28.4275 0.10052490234375 0.20074462890625 0.029404640197753906 -0.0011425018310546875 0.029601097106933594 -0.0005340576171875 0.0561981201171875 0.2167816162109375
28.43625 0.103240966796875 0.1956787109375 0.029419898986816406 -0.0025691986083984375 0.029829025268554688 -0.002178192138671875 0.0618133544921875 0.21356201171875
28.445 0.1057281494140625 0.190673828125 0.02953624725341797 -0.004294395446777344 0.029921531677246094 -0.0040645599365234375 0.0679168701171875 0.2100830078125
28.45375 0.107666015625 0.18524169921875 0.029376983642578125 -0.005995750427246094 0.02980327606201172 -0.00606536865234375 0.0730438232421875 0.2058258056640625
28.4625 0.109283447265625 0.1801910400390625 0.028876304626464844 -0.007870674133300781 0.029207229614257812 -0.008024215698242188 0.0779876708984375 0.20159912109375
28.47125 0.1110687255859375 0.174835205078125 0.028192520141601562 -0.0093231201171875 0.02838611602783203 -0.009706497192382812 0.0823211669921875 0.1963348388671875
28.48 0.1124725341796875 0.169830322265625 0.02764415740966797 -0.010933876037597656 0.027612686157226562 -0.011091232299804688 0.086212158203125 0.1919097900390625
28.48875 0.113525390625 0.16461181640625 0.026935577392578125 -0.012219429016113281 0.02669525146484375 -0.012579917907714844 0.0901641845703125 0.187042236328125
28.4975 0.1141204833984375 0.1596221923828125 0.026154518127441406 -0.013470649719238281 0.026014328002929688 -0.0136871337890625 0.093505859375 0.181976318359375
28.50625 0.1142578125 0.1546630859375 0.025640487670898438 -0.014795303344726562 0.0252685546875 -0.014955520629882812 0.097076416015625 0.17620849609375
