!Created with skrf (http://scikit-rf.org).
# GHz S RI R 50.0 
!freq ReS11 ImS11 ReS21 ImS21 ReS12 ImS12 ReS22 ImS22
27.5 0.01375579833984375 0.15769195556640625 -0.01958465576171875 -0.005166053771972656 -0.019616127014160156 -0.005421638488769531 -0.0347900390625 0.178375244140625
27.50875 0.01619720458984375 0.1520843505859375 -0.01974201202392578 -0.0038499832153320312 -0.01990509033203125 -0.004124641418457031 -0.03081512451171875 0.173431396484375
27.5175 0.01844024658203125 0.14664459228515625 -0.019804000854492188 -0.0026788711547851562 -0.019908905029296875 -0.0028095245361328125 -0.02758026123046875 0.1680908203125
27.52625 0.02010345458984375 0.1410064697265625 -0.01964282989501953 -0.0016651153564453125 -0.01998424530029297 -0.0017633438110351562 -0.02504730224609375 0.16301727294921875
27.535 0.021484375 0.1355743408203125 -0.019483566284179688 -0.0007152557373046875 -0.019811630249023438 -0.00058746337890625 -0.0225982666015625 0.157867431640625
27.54375 0.022918701171875 0.130157470703125 -0.019529342651367188 0.000148773193359375 -0.01964569091796875 9.5367431640625e-05 -0.0209197998046875 0.1524658203125
27.5525 0.02355194091796875 0.124725341796875 -0.01964092254638672 0.0008249282836914062 -0.019700050354003906 0.0013294219970703125 -0.0189971923828125 0.1472015380859375
27.56125 0.02410125732421875 0.11919403076171875 -0.01959705352783203 0.001766204833984375 -0.019685745239257812 0.0021944046020507812 -0.018035888671875 0.14165496826171875
27.57 0.02422332763671875 0.11391448974609375 -0.019741058349609375 0.0028400421142578125 -0.01942157745361328 0.003162384033203125 -0.0175323486328125 0.13625335693359375
27.57875 0.023468017578125 0.10857391357421875 -0.01944446563720703 0.003922462463378906 -0.019309043884277344 0.0042781829833984375 -0.01694488525390625 0.13086700439453125
27.5875 0.022857666015625 0.10369873046875 -0.019425392150878906 0.005112648010253906 -0.01912212371826172 0.005284309387207031 -0.01702117919921875 0.12545013427734375
27.59625 0.02169036865234375 0.09899139404296875 -0.019109725952148438 0.0061740875244140625 -0.01877117156982422 0.006196022033691406 -0.017559051513671875 0.1202392578125
27.605 0.020618438720703125 0.09417343139648438 -0.018585205078125 0.0072078704833984375 -0.018507957458496094 0.00728607177734375 -0.018444061279296875 0.11510086059570312
27.61375 0.019191741943359375 0.08955001831054688 -0.018477439880371094 0.00844573974609375 -0.018113136291503906 0.008271217346191406 -0.019527435302734375 0.1100616455078125
27.6225 0.01718902587890625 0.08499908447265625 -0.018045425415039062 0.009407997131347656 -0.017609596252441406 0.009234428405761719 -0.020618438720703125 0.10520172119140625
27.63125 0.0146636962890625 0.080780029296875 -0.017342567443847656 0.010404586791992188 -0.01710224151611328 0.010231971740722656 -0.022144317626953125 0.10049057006835938
27.64 0.011783599853515625 0.0767669677734375 -0.016655921936035156 0.011155128479003906 -0.016561508178710938 0.011189460754394531 -0.02408599853515625 0.09578323364257812
27.64875 0.00913238525390625 0.07310867309570312 -0.015882492065429688 0.012157440185546875 -0.01575946807861328 0.011877059936523438 -0.02645111083984375 0.0915679931640625
27.6575 0.00579833984375 0.06940841674804688 -0.015368461608886719 0.01273202896118164 -0.015192985534667969 0.012779712677001953 -0.0290069580078125 0.08777236938476562
27.66625 0.00255584716796875 0.06613540649414062 -0.01466989517211914 0.013423919677734375 -0.01455545425415039 0.01335287094116211 -0.031612396240234375 0.08437728881835938
27.675 -0.001003265380859375 0.06296539306640625 -0.014021873474121094 0.01422882080078125 -0.013803482055664062 0.014116764068603516 -0.03462982177734375 0.08136367797851562
27.68375 -0.00461578369140625 0.06005096435546875 -0.013254642486572266 0.01508951187133789 -0.013190269470214844 0.01499319076538086 -0.037914276123046875 0.07843399047851562
27.6925 -0.008602142333984375 0.057102203369140625 -0.012483596801757812 0.015832901000976562 -0.012392044067382812 0.01564788818359375 -0.04154205322265625 0.0757598876953125
27.70125 -0.01285552978515625 0.05495452880859375 -0.011690139770507812 0.016530990600585938 -0.011571884155273438 0.016378402709960938 -0.04552459716796875 0.07324981689453125
27.71 -0.017253875732421875 0.05274391174316406 -0.010763168334960938 0.017050743103027344 -0.010733604431152344 0.016956329345703125 -0.04987335205078125 0.07128524780273438
27.71875 -0.021791458129882812 0.050994873046875 -0.009869575500488281 0.017427444458007812 -0.009816169738769531 0.017487525939941406 -0.054080963134765625 0.0699005126953125
27.7275 -0.0264434814453125 0.049777984619140625 -0.008905410766601562 0.018054962158203125 -0.008797645568847656 0.018007278442382812 -0.05889129638671875 0.06859588623046875
27.73625 -0.030832290649414062 0.04852485656738281 -0.007862091064453125 0.018723487854003906 -0.007905006408691406 0.01865673065185547 -0.06344223022460938 0.06732940673828125
27.745 -0.035381317138671875 0.04741096496582031 -0.00685882568359375 0.019002914428710938 -0.0068416595458984375 0.01907825469970703 -0.06809616088867188 0.06673049926757812
27.75375 -0.0406036376953125 0.04693031311035156 -0.0058574676513671875 0.019334793090820312 -0.005900382995605469 0.019423484802246094 -0.07307815551757812 0.06626510620117188
27.7625 -0.04547882080078125 0.04671669006347656 -0.004852294921875 0.019629478454589844 -0.0048465728759765625 0.0198211669921875 -0.07822799682617188 0.06591796875
27.77125 -0.050724029541015625 0.04709625244140625 -0.00394439697265625 0.0197601318359375 -0.0037393569946289062 0.02005481719970703 -0.08346939086914062 0.06626129150390625
27.78 -0.05542755126953125 0.047657012939453125 -0.0029516220092773438 0.020162582397460938 -0.002719879150390625 0.0201873779296875 -0.0882720947265625 0.06696319580078125
27.78875 -0.060596466064453125 0.048694610595703125 -0.0018281936645507812 0.020377159118652344 -0.0015783309936523438 0.02043628692626953 -0.09315109252929688 0.06760025024414062
27.7975 -0.06534957885742188 0.049724578857421875 -0.0005998611450195312 0.020557403564453125 -0.00026988983154296875 0.020662307739257812 -0.09771728515625 0.0685272216796875
27.80625 -0.07025146484375 0.0512542724609375 0.00048160552978515625 0.02057170867919922 0.0009241104125976562 0.020563125610351562 -0.10251617431640625 0.07009506225585938
27.815 -0.07520675659179688 0.053318023681640625 0.001743316650390625 0.02039051055908203 0.0021800994873046875 0.020402908325195312 -0.10713958740234375 0.07126998901367188
27.82375 -0.07975006103515625 0.055614471435546875 0.0027647018432617188 0.02021312713623047 0.0031757354736328125 0.020097732543945312 -0.11142349243164062 0.07331466674804688
27.8325 -0.08411407470703125 0.05805206298828125 0.00388336181640625 0.020299911499023438 0.004314422607421875 0.02000713348388672 -0.11604690551757812 0.0760040283203125
27.84125 -0.08842086791992188 0.061199188232421875 0.004971504211425781 0.01999950408935547 0.0052280426025390625 0.019751548767089844 -0.1196746826171875 0.07870101928710938
27.85 -0.09226608276367188 0.0642852783203125 0.0062122344970703125 0.019899368286132812 0.006342887878417969 0.01949596405029297 -0.12371063232421875 0.08184432983398438
27.85875 -0.096160888671875 0.06763458251953125 0.007300376892089844 0.019437789916992188 0.007323265075683594 0.01911640167236328 -0.12731170654296875 0.08548736572265625
27.8675 -0.0998077392578125 0.071380615234375 0.008260726928710938 0.019073486328125 0.008312225341796875 0.018728256225585938 -0.1310272216796875 0.08922576904296875
27.87625 -0.10303878784179688 0.0750732421875 0.009246826171875 0.018491744995117188 0.009332656860351562 0.01836109161376953 -0.1343841552734375 0.09336090087890625
27.885 -0.10612869262695312 0.07963180541992188 0.010230064392089844 0.01798725128173828 0.010354042053222656 0.018077850341796875 -0.13692474365234375 0.09787750244140625
27.89375 -0.1090240478515625 0.08409881591796875 0.011394500732421875 0.017449378967285156 0.01145172119140625 0.01754474639892578 -0.13995361328125 0.10283660888671875
27.9025 -0.11166763305664062 0.08869552612304688 0.012481689453125 0.01697540283203125 0.012577056884765625 0.016966819763183594 -0.1425018310546875 0.107513427734375
27.91125 -0.11376953125 0.09380340576171875 0.013753890991210938 0.0160675048828125 0.013728141784667969 0.01610851287841797 -0.14495086669921875 0.112701416015625
27.92 -0.11563491821289062 0.0987091064453125 0.014607429504394531 0.015204429626464844 0.014883995056152344 0.015036582946777344 -0.14697265625 0.1182098388671875
27.92875 -0.11736297607421875 0.1041412353515625 0.015526771545410156 0.014010429382324219 0.015610694885253906 0.014148712158203125 -0.1490631103515625 0.1237640380859375
27.9375 -0.11883163452148438 0.10931777954101562 0.01604175567626953 0.012971878051757812 0.01619434356689453 0.012979507446289062 -0.15099334716796875 0.12950897216796875
27.94625 -0.12038421630859375 0.11455535888671875 0.016546249389648438 0.011852264404296875 0.016691207885742188 0.012081146240234375 -0.1522674560546875 0.135223388671875
27.955 -0.12140655517578125 0.120361328125 0.017012596130371094 0.010817527770996094 0.017242431640625 0.01105499267578125 -0.153350830078125 0.1416168212890625
27.96375 -0.12207794189453125 0.1262664794921875 0.017394065856933594 0.010003089904785156 0.017763137817382812 0.010166168212890625 -0.15431976318359375 0.1477813720703125
27.9725 -0.12241363525390625 0.1320953369140625 0.017742156982421875 0.009050369262695312 0.018301963806152344 0.009293556213378906 -0.15439605712890625 0.15338134765625
27.98125 -0.12256622314453125 0.1373138427734375 0.018022537231445312 0.008174896240234375 0.018619537353515625 0.008196830749511719 -0.154388427734375 0.1599273681640625
27.99 -0.122406005859375 0.14311981201171875 0.018225669860839844 0.0076847076416015625 0.01917266845703125 0.0072174072265625 -0.1537628173828125 0.165802001953125
27.99875 -0.121734619140625 0.14868927001953125 0.018812179565429688 0.006770133972167969 0.019562721252441406 0.0061664581298828125 -0.15305328369140625 0.171905517578125
28.0075 -0.12129974365234375 0.154022216796875 0.019365310668945312 0.005812644958496094 0.019924163818359375 0.0050182342529296875 -0.15210723876953125 0.17852020263671875
28.01625 -0.11986541748046875 0.15973663330078125 0.019888877868652344 0.00475311279296875 0.02012157440185547 0.003749847412109375 -0.150360107421875 0.18457794189453125
28.025 -0.1183929443359375 0.1650390625 0.020511627197265625 0.0034818649291992188 0.020193099975585938 0.0024890899658203125 -0.14833831787109375 0.1901397705078125
28.03375 -0.11624908447265625 0.17089080810546875 0.020658493041992188 0.0020160675048828125 0.020018577575683594 0.001117706298828125 -0.1462554931640625 0.19643402099609375
28.0425 -0.1137542724609375 0.176177978515625 0.02053546905517578 0.0006961822509765625 0.019731521606445312 0.00026607513427734375 -0.1436004638671875 0.202880859375
28.05125 -0.1109771728515625 0.1812744140625 0.020250320434570312 -0.0004138946533203125 0.019336700439453125 -0.000522613525390625 -0.1409454345703125 0.2087554931640625
28.06 -0.1077728271484375 0.186492919921875 0.019861221313476562 -0.0014867782592773438 0.019166946411132812 -0.0011968612670898438 -0.13776397705078125 0.21489715576171875
28.06875 -0.10396575927734375 0.1914825439453125 0.019598960876464844 -0.0023565292358398438 0.01917552947998047 -0.0018224716186523438 -0.134613037109375 0.2206573486328125
28.0775 -0.10053253173828125 0.19655609130859375 0.01948261260986328 -0.0031299591064453125 0.01934051513671875 -0.0025072097778320312 -0.13092041015625 0.22653961181640625
28.08625 -0.09648895263671875 0.20183563232421875 0.019306182861328125 -0.003931999206542969 0.0195159912109375 -0.00334930419921875 -0.1270904541015625 0.23212432861328125
28.095 -0.09217071533203125 0.206787109375 0.01910400390625 -0.004548072814941406 0.019945144653320312 -0.0045318603515625 -0.12279510498046875 0.2377166748046875
28.10375 -0.08754730224609375 0.21161651611328125 0.019209861755371094 -0.0057315826416015625 0.01980113983154297 -0.0058727264404296875 -0.11870574951171875 0.242889404296875
28.1125 -0.08272552490234375 0.216094970703125 0.019056320190429688 -0.006793022155761719 0.01950359344482422 -0.007317543029785156 -0.1139373779296875 0.2476348876953125
28.12125 -0.07787322998046875 0.2206573486328125 0.018723487854003906 -0.00772857666015625 0.019071578979492188 -0.008687973022460938 -0.109344482421875 0.2525787353515625
28.13 -0.07293701171875 0.22495269775390625 0.018548965454101562 -0.009088516235351562 0.01839447021484375 -0.009900093078613281 -0.104400634765625 0.2570037841796875
28.13875 -0.06763458251953125 0.2294464111328125 0.0182342529296875 -0.010405540466308594 0.017416000366210938 -0.011155128479003906 -0.0993499755859375 0.261474609375
28.1475 -0.0625152587890625 0.2335205078125 0.017302513122558594 -0.011693954467773438 0.01661968231201172 -0.012020111083984375 -0.0941162109375 0.2653961181640625
28.15625 -0.056884765625 0.2371063232421875 0.0163726806640625 -0.012765884399414062 0.015570640563964844 -0.012866973876953125 -0.088165283203125 0.26904296875
28.165 -0.051788330078125 0.2402801513671875 0.015347480773925781 -0.013469696044921875 0.014678001403808594 -0.013251304626464844 -0.082183837890625 0.2725830078125
28.17375 -0.04669189453125 0.2432403564453125 0.01442098617553711 -0.013808250427246094 0.014020442962646484 -0.013659954071044922 -0.076324462890625 0.276031494140625
28.1825 -0.04091644287109375 0.24521636962890625 0.01363992691040039 -0.014249801635742188 0.013576507568359375 -0.014043807983398438 -0.0701446533203125 0.2786865234375
28.19125 -0.0356903076171875 0.247589111328125 0.013195037841796875 -0.014938831329345703 0.013142108917236328 -0.014819145202636719 -0.0635833740234375 0.2816925048828125
28.2 -0.0297088623046875 0.249481201171875 0.01273202896118164 -0.015452384948730469 0.012725353240966797 -0.015558242797851562 -0.0569000244140625 0.2836761474609375
28.20875 -0.02386474609375 0.251007080078125 0.012166976928710938 -0.016358375549316406 0.011977195739746094 -0.01654052734375 -0.0500030517578125 0.286041259765625
28.2175 -0.01800537109375 0.25201416015625 0.011399269104003906 -0.017299652099609375 0.010924339294433594 -0.01753520965576172 -0.0430755615234375 0.28790283203125
28.22625 -0.012115478515625 0.252288818359375 0.0103607177734375 -0.018222808837890625 0.009682655334472656 -0.018251419067382812 -0.0362701416015625 0.2899932861328125
28.235 -0.006103515625 0.2525787353515625 0.009344100952148438 -0.019019126892089844 0.008505821228027344 -0.018804550170898438 -0.0291900634765625 0.291351318359375
28.24375 -0.0001220703125 0.2524566650390625 0.007862091064453125 -0.019733428955078125 0.0072784423828125 -0.019147872924804688 -0.0218353271484375 0.29241943359375
28.2525 0.0064849853515625 0.2523956298828125 0.006314277648925781 -0.020090103149414062 0.005980491638183594 -0.019310951232910156 -0.0147552490234375 0.29315185546875
28.26125 0.0125885009765625 0.251617431640625 0.0049304962158203125 -0.02023601531982422 0.004935264587402344 -0.019237518310546875 -0.0079193115234375 0.294036865234375
28.27 0.0189208984375 0.250640869140625 0.0036029815673828125 -0.020111083984375 0.0040149688720703125 -0.019224166870117188 -0.001251220703125 0.29412841796875
28.27875 0.0255126953125 0.24969482421875 0.002471923828125 -0.019683837890625 0.0032672882080078125 -0.0192108154296875 0.005615234375 0.294464111328125
28.2875 0.0316619873046875 0.2482452392578125 0.0016508102416992188 -0.019636154174804688 0.0025453567504882812 -0.01941967010498047 0.0126190185546875 0.29339599609375
28.29625 0.0381927490234375 0.2467498779296875 0.0010700225830078125 -0.01930522918701172 0.0019207000732421875 -0.01965808868408203 0.019256591796875 0.2930908203125
28.305 0.0444488525390625 0.2450408935546875 0.00030517578125 -0.019346237182617188 0.0009508132934570312 -0.020076751708984375 0.0259552001953125 0.2919769287109375
28.31375 0.05059814453125 0.243255615234375 -0.0003337860107421875 -0.01954174041748047 -0.00018024444580078125 -0.020369529724121094 0.0326995849609375 0.2903900146484375
28.3225 0.0565338134765625 0.2409515380859375 -0.0011882781982421875 -0.019829750061035156 -0.0016117095947265625 -0.02056884765625 0.039306640625 0.288818359375
28.33125 0.06182861328125 0.2390594482421875 -0.0021572113037109375 -0.020114898681640625 -0.002887725830078125 -0.020432472229003906 0.04559326171875 0.28662109375
28.34 0.0674285888671875 0.23614501953125 -0.0032367706298828125 -0.02017688751220703 -0.0042171478271484375 -0.020143508911132812 0.051605224609375 0.2839202880859375
28.34875 0.0722808837890625 0.2333526611328125 -0.0045604705810546875 -0.020406723022460938 -0.005511283874511719 -0.019744873046875 0.0582122802734375 0.28118896484375
28.3575 0.0768280029296875 0.23040771484375 -0.0059661865234375 -0.020145416259765625 -0.006626129150390625 -0.019031524658203125 0.0643768310546875 0.2779998779296875
28.36625 0.0811309814453125 0.2270050048828125 -0.007225990295410156 -0.01975727081298828 -0.0073871612548828125 -0.01847076416015625 0.0703277587890625 0.2746124267578125
28.375 0.0853118896484375 0.223236083984375 -0.00846099853515625 -0.019280433654785156 -0.008173942565917969 -0.01804351806640625 0.0760955810546875 0.2710113525390625
28.38375 0.08892822265625 0.21966552734375 -0.009609222412109375 -0.0185394287109375 -0.008943557739257812 -0.017656326293945312 0.08197021484375 0.26708984375
28.3925 0.092529296875 0.215240478515625 -0.010463714599609375 -0.0177459716796875 -0.0096893310546875 -0.017162322998046875 0.087493896484375 0.262939453125
28.40125 0.0960693359375 0.2109222412109375 -0.011302947998046875 -0.017059326171875 -0.010476112365722656 -0.016831398010253906 0.0928497314453125 0.25860595703125
28.41 0.098876953125 0.2062835693359375 -0.011918067932128906 -0.01656627655029297 -0.011402130126953125 -0.016625404357910156 0.0977020263671875 0.254241943359375
28.41875 0.1013031005859375 0.2013702392578125 -0.013111114501953125 -0.015870094299316406 -0.012363433837890625 -0.0161895751953125 0.1023712158203125 0.2497711181640625
28.4275 0.104034423828125 0.1966552734375 -0.013958930969238281 -0.015236854553222656 -0.013443946838378906 -0.015674591064453125 0.1068267822265625 0.245269775390625
28.43625 0.1062469482421875 0.1915740966796875 -0.014608383178710938 -0.014553070068359375 -0.014500617980957031 -0.014882087707519531 0.1110382080078125 0.240570068359375
28.445 0.108489990234375 0.18670654296875 -0.015533447265625 -0.0136566162109375 -0.0155181884765625 -0.013959884643554688 0.1148529052734375 0.236083984375
28.45375 0.1104583740234375 0.181396484375 -0.01619434356689453 -0.012801170349121094 -0.016307830810546875 -0.012969970703125 0.1183319091796875 0.2307586669921875
28.4625 0.1121368408203125 0.1761016845703125 -0.01688861846923828 -0.01184844970703125 -0.017142295837402344 -0.011957168579101562 0.1213836669921875 0.2261810302734375
28.47125 0.1137542724609375 0.17071533203125 -0.017706871032714844 -0.010915756225585938 -0.017722129821777344 -0.010744094848632812 0.1236724853515625 0.2209320068359375
28.48 0.1148223876953125 0.1655426025390625 -0.01844024658203125 -0.009778976440429688 -0.018509864807128906 -0.009636878967285156 0.126007080078125 0.2154541015625
28.48875 0.1155242919921875 0.160888671875 -0.018830299377441406 -0.008587837219238281 -0.01886749267578125 -0.008387565612792969 0.1285247802734375 0.210296630859375
28.4975 0.116180419921875 0.1561279296875 -0.019054412841796875 -0.00736236572265625 -0.0190582275390625 -0.0071735382080078125 0.129974365234375 0.2049560546875
28.50625 0.116912841796875 0.151458740234375 -0.019243240356445312 -0.0064296722412109375 -0.01929473876953125 -0.0061397552490234375 0.131256103515625 0.198638916015625
28.515 0.11712646484375 0.14654541015625 -0.019474029541015625 -0.0056095123291015625 -0.01935577392578125 -0.0051555633544921875 0.1322021484375 0.19354248046875
