!Created with skrf (http://scikit-rf.org).
# GHz S RI R 50.0 
!freq ReS11 ImS11 ReS21 ImS21 ReS12 ImS12 ReS22 ImS22
27.5 0.02260589599609375 0.12708282470703125 -0.017820358276367188 -0.03636741638183594 -0.017398834228515625 -0.03678703308105469 0.01117706298828125 0.1431121826171875
27.50875 0.0251922607421875 0.12123870849609375 -0.0196685791015625 -0.034992218017578125 -0.019540786743164062 -0.035633087158203125 0.01526641845703125 0.13796234130859375
27.5175 0.02748870849609375 0.11571502685546875 -0.021406173706054688 -0.03353691101074219 -0.02143096923828125 -0.034290313720703125 0.0189056396484375 0.13228607177734375
27.52625 0.0295562744140625 0.1098175048828125 -0.022815704345703125 -0.032108306884765625 -0.023181915283203125 -0.032901763916015625 0.0222930908203125 0.1267242431640625
27.535 0.0312347412109375 0.1038970947265625 -0.024181365966796875 -0.030841827392578125 -0.024799346923828125 -0.031360626220703125 0.0253143310546875 0.120635986328125
27.54375 0.032440185546875 0.09810638427734375 -0.025787353515625 -0.029684066772460938 -0.026224136352539062 -0.029813766479492188 0.02811431884765625 0.11505889892578125
27.5525 0.0334320068359375 0.092498779296875 -0.026876449584960938 -0.02841949462890625 -0.027681350708007812 -0.028284072875976562 0.030517578125 0.10875701904296875
27.56125 0.033870697021484375 0.08668136596679688 -0.028301239013671875 -0.027368545532226562 -0.028705596923828125 -0.026948928833007812 0.0321044921875 0.10234832763671875
27.57 0.033843994140625 0.08123779296875 -0.0297393798828125 -0.026292800903320312 -0.029836654663085938 -0.025623321533203125 0.03348541259765625 0.09613800048828125
27.57875 0.03336334228515625 0.07585525512695312 -0.031307220458984375 -0.02468109130859375 -0.0313720703125 -0.02431488037109375 0.034503936767578125 0.089996337890625
27.5875 0.032497406005859375 0.07067489624023438 -0.03285980224609375 -0.022874832153320312 -0.03260231018066406 -0.022762298583984375 0.03516387939453125 0.08364486694335938
27.59625 0.03104400634765625 0.06562423706054688 -0.03430366516113281 -0.020986557006835938 -0.0338897705078125 -0.0208587646484375 0.03578948974609375 0.07744216918945312
27.605 0.029781341552734375 0.060394287109375 -0.0352783203125 -0.018896102905273438 -0.03502845764160156 -0.019062042236328125 0.035816192626953125 0.07104873657226562
27.61375 0.028087615966796875 0.055393218994140625 -0.03629112243652344 -0.016979217529296875 -0.03597068786621094 -0.017147064208984375 0.03540802001953125 0.06451416015625
27.6225 0.02564239501953125 0.050525665283203125 -0.037052154541015625 -0.014995574951171875 -0.03686332702636719 -0.015247344970703125 0.0345458984375 0.05850982666015625
27.63125 0.023143768310546875 0.045528411865234375 -0.037693023681640625 -0.013032913208007812 -0.03754997253417969 -0.013383865356445312 0.033473968505859375 0.052387237548828125
27.64 0.020185470581054688 0.04063224792480469 -0.0382080078125 -0.01105499267578125 -0.03817176818847656 -0.011301040649414062 0.03211212158203125 0.046466827392578125
27.64875 0.016702651977539062 0.03618049621582031 -0.03875923156738281 -0.008890151977539062 -0.038806915283203125 -0.009210586547851562 0.030487060546875 0.040660858154296875
27.6575 0.013263702392578125 0.031894683837890625 -0.03910064697265625 -0.0068645477294921875 -0.039127349853515625 -0.0070171356201171875 0.028423309326171875 0.034923553466796875
27.66625 0.009502410888671875 0.027400970458984375 -0.039272308349609375 -0.0046539306640625 -0.039295196533203125 -0.00519561767578125 0.0260467529296875 0.029632568359375
27.675 0.0054607391357421875 0.0236053466796875 -0.039295196533203125 -0.002758026123046875 -0.039218902587890625 -0.00299072265625 0.0227813720703125 0.02442169189453125
27.68375 0.0013370513916015625 0.019832611083984375 -0.039440155029296875 -0.000782012939453125 -0.039398193359375 -0.001163482666015625 0.019306182861328125 0.01955413818359375
27.6925 -0.0031223297119140625 0.01636505126953125 -0.03936004638671875 0.001239776611328125 -0.039371490478515625 0.0008392333984375 0.015798568725585938 0.015169143676757812
27.70125 -0.007647514343261719 0.013229846954345703 -0.03930091857910156 0.0032215118408203125 -0.03938102722167969 0.0029144287109375 0.011753082275390625 0.01085662841796875
27.71 -0.012335777282714844 0.010614395141601562 -0.039066314697265625 0.0053119659423828125 -0.0390777587890625 0.0051784515380859375 0.0076446533203125 0.006688117980957031
27.71875 -0.01720905303955078 0.008676528930664062 -0.03848457336425781 0.0073795318603515625 -0.0387420654296875 0.0071868896484375 0.0032312870025634766 0.0027451515197753906
27.7275 -0.022068023681640625 0.006886482238769531 -0.038005828857421875 0.009286880493164062 -0.03809165954589844 0.009153366088867188 -0.00196683406829834 -0.0008499622344970703
27.73625 -0.026971817016601562 0.005375862121582031 -0.0374298095703125 0.011075973510742188 -0.03756523132324219 0.011066436767578125 -0.007248878479003906 -0.004307746887207031
27.745 -0.03227043151855469 0.0041103363037109375 -0.03674507141113281 0.013088226318359375 -0.03691864013671875 0.012857437133789062 -0.012510299682617188 -0.007197380065917969
27.75375 -0.03769111633300781 0.003387451171875 -0.03610801696777344 0.014997482299804688 -0.03628730773925781 0.01468658447265625 -0.018054962158203125 -0.009781837463378906
27.7625 -0.04302787780761719 0.0030803680419921875 -0.0353546142578125 0.016887664794921875 -0.03557777404785156 0.016633987426757812 -0.02370452880859375 -0.012071609497070312
27.77125 -0.04860115051269531 0.003101348876953125 -0.03428459167480469 0.01853179931640625 -0.034786224365234375 0.018415451049804688 -0.029630661010742188 -0.014219284057617188
27.78 -0.054046630859375 0.0033740997314453125 -0.033184051513671875 0.02034759521484375 -0.0338592529296875 0.020479202270507812 -0.03534698486328125 -0.015857696533203125
27.78875 -0.059696197509765625 0.0041561126708984375 -0.032100677490234375 0.022130966186523438 -0.03262138366699219 0.022212982177734375 -0.0414886474609375 -0.017183303833007812
27.7975 -0.06533432006835938 0.00499725341796875 -0.030922889709472656 0.02369976043701172 -0.03121185302734375 0.023998260498046875 -0.047641754150390625 -0.017974853515625
27.80625 -0.07108306884765625 0.005970001220703125 -0.029664993286132812 0.025293350219726562 -0.029798507690429688 0.025613784790039062 -0.053615570068359375 -0.018100738525390625
27.815 -0.07671737670898438 0.007816314697265625 -0.028230667114257812 0.02673625946044922 -0.028151512145996094 0.02720165252685547 -0.059268951416015625 -0.018215179443359375
27.82375 -0.0824127197265625 0.0097503662109375 -0.026584625244140625 0.028238296508789062 -0.026676177978515625 0.028554916381835938 -0.064849853515625 -0.017913818359375
27.8325 -0.08761978149414062 0.011844635009765625 -0.025051116943359375 0.029633522033691406 -0.024896621704101562 0.029715538024902344 -0.07075881958007812 -0.01666259765625
27.84125 -0.09277725219726562 0.014629364013671875 -0.023438453674316406 0.030770301818847656 -0.02312183380126953 0.03072071075439453 -0.07627105712890625 -0.015323638916015625
27.85 -0.09774017333984375 0.01725006103515625 -0.02158355712890625 0.031734466552734375 -0.0215606689453125 0.03176307678222656 -0.08169937133789062 -0.013751983642578125
27.85875 -0.10261917114257812 0.020389556884765625 -0.019672393798828125 0.032680511474609375 -0.019739151000976562 0.032440185546875 -0.08768844604492188 -0.01174163818359375
27.8675 -0.10709381103515625 0.023834228515625 -0.017925262451171875 0.03324317932128906 -0.0180816650390625 0.03298187255859375 -0.09371566772460938 -0.00921630859375
27.87625 -0.11124038696289062 0.02732086181640625 -0.01645660400390625 0.03398895263671875 -0.016973495483398438 0.033695220947265625 -0.09871673583984375 -0.006031036376953125
27.885 -0.11548233032226562 0.0316925048828125 -0.015085220336914062 0.03467750549316406 -0.015533447265625 0.03472900390625 -0.10369110107421875 -0.002826690673828125
27.89375 -0.11936187744140625 0.0361175537109375 -0.01329803466796875 0.03553009033203125 -0.013763427734375 0.0358428955078125 -0.10921478271484375 0.000736236572265625
27.9025 -0.122772216796875 0.040618896484375 -0.011510848999023438 0.03632164001464844 -0.011821746826171875 0.03676605224609375 -0.1142578125 0.004425048828125
27.91125 -0.1255950927734375 0.0456695556640625 -0.00966644287109375 0.037052154541015625 -0.009637832641601562 0.037555694580078125 -0.1192169189453125 0.008548736572265625
27.92 -0.128631591796875 0.05088043212890625 -0.007564544677734375 0.03760719299316406 -0.007511138916015625 0.038005828857421875 -0.12410736083984375 0.01300811767578125
27.92875 -0.13137054443359375 0.0565185546875 -0.0052700042724609375 0.03795623779296875 -0.00524139404296875 0.0381011962890625 -0.1286773681640625 0.017578125
27.9375 -0.13401031494140625 0.0622406005859375 -0.003143310546875 0.037998199462890625 -0.0029888153076171875 0.03812599182128906 -0.1332244873046875 0.0230255126953125
27.94625 -0.13639068603515625 0.06789398193359375 -0.0010585784912109375 0.03779792785644531 -0.001087188720703125 0.037960052490234375 -0.1371307373046875 0.02835845947265625
27.955 -0.138427734375 0.0739898681640625 0.000835418701171875 0.037494659423828125 0.000431060791015625 0.037860870361328125 -0.1409454345703125 0.0337066650390625
27.96375 -0.14019775390625 0.080322265625 0.002811431884765625 0.03719139099121094 0.0025196075439453125 0.03778076171875 -0.1443023681640625 0.03910064697265625
27.9725 -0.14148712158203125 0.086761474609375 0.0045680999755859375 0.036617279052734375 0.0043048858642578125 0.037654876708984375 -0.14710235595703125 0.044525146484375
27.98125 -0.14298248291015625 0.0927276611328125 0.0060882568359375 0.03613471984863281 0.0062236785888671875 0.03744316101074219 -0.14992523193359375 0.05042266845703125
27.99 -0.14362335205078125 0.0991363525390625 0.007472991943359375 0.035888671875 0.008087158203125 0.037136077880859375 -0.15204620361328125 0.05664825439453125
27.99875 -0.14424896240234375 0.10518646240234375 0.009105682373046875 0.03571319580078125 0.01006317138671875 0.036937713623046875 -0.153839111328125 0.0626678466796875
28.0075 -0.1446380615234375 0.111480712890625 0.01085662841796875 0.035381317138671875 0.012372970581054688 0.036346435546875 -0.1551666259765625 0.06916046142578125
28.01625 -0.14435577392578125 0.11772918701171875 0.012603759765625 0.03527259826660156 0.014444351196289062 0.03533935546875 -0.15643310546875 0.07540130615234375
28.025 -0.14383697509765625 0.12346649169921875 0.014741897583007812 0.03466987609863281 0.016557693481445312 0.034214019775390625 -0.1573638916015625 0.0820770263671875
28.03375 -0.1428680419921875 0.12987518310546875 0.016839981079101562 0.033992767333984375 0.018218994140625 0.03280830383300781 -0.15755462646484375 0.08884429931640625
28.0425 -0.14144134521484375 0.13555908203125 0.019054412841796875 0.03282356262207031 0.019596099853515625 0.031209945678710938 -0.1576995849609375 0.09581756591796875
28.05125 -0.1394805908203125 0.1411285400390625 0.020931243896484375 0.031391143798828125 0.02059173583984375 0.02982330322265625 -0.157440185546875 0.1027679443359375
28.06 -0.137786865234375 0.1468963623046875 0.022302627563476562 0.029825210571289062 0.021512985229492188 0.028757095336914062 -0.15695953369140625 0.10977935791015625
28.06875 -0.1346588134765625 0.15297698974609375 0.023618698120117188 0.02809906005859375 0.022298812866210938 0.027761459350585938 -0.15631866455078125 0.1165924072265625
28.0775 -0.13162994384765625 0.15875244140625 0.0245819091796875 0.026929855346679688 0.023267745971679688 0.0270538330078125 -0.1549835205078125 0.1237640380859375
28.08625 -0.12834930419921875 0.16445159912109375 0.025394439697265625 0.025585174560546875 0.024770736694335938 0.026645660400390625 -0.153533935546875 0.1305389404296875
28.095 -0.12499237060546875 0.17015838623046875 0.026388168334960938 0.024641036987304688 0.026447296142578125 0.02593231201171875 -0.15157318115234375 0.13719940185546875
28.10375 -0.12090301513671875 0.1757965087890625 0.027826309204101562 0.023561477661132812 0.02838897705078125 0.024808883666992188 -0.15007781982421875 0.14377593994140625
28.1125 -0.11643218994140625 0.18114471435546875 0.028934478759765625 0.022083282470703125 0.030363082885742188 0.022953033447265625 -0.14781951904296875 0.15016937255859375
28.12125 -0.11249542236328125 0.18663787841796875 0.030107498168945312 0.020742416381835938 0.031780242919921875 0.02094268798828125 -0.14528656005859375 0.15683746337890625
28.13 -0.107696533203125 0.191925048828125 0.03138923645019531 0.019311904907226562 0.03299140930175781 0.01876068115234375 -0.14221954345703125 0.16259765625
28.13875 -0.10289764404296875 0.197235107421875 0.03272819519042969 0.01761627197265625 0.033870697021484375 0.016407012939453125 -0.13899993896484375 0.16843414306640625
28.1475 -0.09812164306640625 0.2019500732421875 0.03372955322265625 0.015411376953125 0.03423309326171875 0.013990402221679688 -0.1352996826171875 0.17380523681640625
28.15625 -0.0931243896484375 0.2065277099609375 0.034152984619140625 0.013153076171875 0.03404998779296875 0.011936187744140625 -0.1314239501953125 0.179290771484375
28.165 -0.0884246826171875 0.21075439453125 0.03437042236328125 0.01125335693359375 0.03386688232421875 0.01032257080078125 -0.1270904541015625 0.1844024658203125
28.17375 -0.0830535888671875 0.2147064208984375 0.03425407409667969 0.009487152099609375 0.033779144287109375 0.008962631225585938 -0.12225341796875 0.18947601318359375
28.1825 -0.07782745361328125 0.21791839599609375 0.03442192077636719 0.007968902587890625 0.03384590148925781 0.007863998413085938 -0.117523193359375 0.1939697265625
28.19125 -0.07277679443359375 0.22116851806640625 0.03436088562011719 0.006778717041015625 0.03425025939941406 0.0067996978759765625 -0.11236572265625 0.1984100341796875
28.2 -0.06728363037109375 0.22393798828125 0.03487396240234375 0.005519866943359375 0.03500175476074219 0.0055942535400390625 -0.10671234130859375 0.20226287841796875
28.20875 -0.0612640380859375 0.22679901123046875 0.03546142578125 0.004131317138671875 0.03563880920410156 0.004116058349609375 -0.10108184814453125 0.20641326904296875
28.2175 -0.0555877685546875 0.228546142578125 0.03599357604980469 0.0026149749755859375 0.03635597229003906 0.0021686553955078125 -0.09500885009765625 0.21024322509765625
28.22625 -0.0498046875 0.22991180419921875 0.03664398193359375 0.0008258819580078125 0.03681373596191406 -0.00012969970703125 -0.08889007568359375 0.213775634765625
28.235 -0.04383087158203125 0.2314605712890625 0.03714942932128906 -0.0012226104736328125 0.03679466247558594 -0.002475738525390625 -0.08242034912109375 0.217071533203125
28.24375 -0.037750244140625 0.2320556640625 0.03732490539550781 -0.003826141357421875 0.03650093078613281 -0.0046539306640625 -0.07601165771484375 0.220184326171875
28.2525 -0.03107452392578125 0.23284912109375 0.03690528869628906 -0.006465911865234375 0.03582191467285156 -0.0068492889404296875 -0.06940460205078125 0.222930908203125
28.26125 -0.02484893798828125 0.23294830322265625 0.036067962646484375 -0.008752822875976562 0.03488922119140625 -0.008512496948242188 -0.0625152587890625 0.22550201416015625
28.27 -0.0181732177734375 0.23271942138671875 0.03526496887207031 -0.010648727416992188 0.03411674499511719 -0.01003265380859375 -0.0560150146484375 0.2274017333984375
28.27875 -0.0114898681640625 0.2327728271484375 0.034084320068359375 -0.012439727783203125 0.033596038818359375 -0.0113067626953125 -0.0493621826171875 0.229278564453125
28.2875 -0.004913330078125 0.232147216796875 0.03307342529296875 -0.013843536376953125 0.033203125 -0.0127410888671875 -0.0427398681640625 0.2301025390625
28.29625 0.0018463134765625 0.2313385009765625 0.032169342041015625 -0.015316009521484375 0.0326385498046875 -0.0142669677734375 -0.03604888916015625 0.2312469482421875
28.305 0.00830841064453125 0.23035430908203125 0.03125953674316406 -0.016378402709960938 0.03223609924316406 -0.01598358154296875 -0.02960205078125 0.23184967041015625
28.31375 0.0147552490234375 0.22936248779296875 0.030546188354492188 -0.01762866973876953 0.03177452087402344 -0.0178680419921875 -0.0230255126953125 0.2319793701171875
28.3225 0.020965576171875 0.227783203125 0.030012130737304688 -0.018938064575195312 0.03078746795654297 -0.01986408233642578 -0.01663970947265625 0.23200225830078125
28.33125 0.02703857421875 0.226409912109375 0.029379844665527344 -0.020418167114257812 0.029596328735351562 -0.02164745330810547 -0.00974273681640625 0.231597900390625
28.34 0.032806396484375 0.2239990234375 0.028493881225585938 -0.02217864990234375 0.028125762939453125 -0.023469924926757812 -0.0033416748046875 0.230377197265625
28.34875 0.0381622314453125 0.221771240234375 0.027606964111328125 -0.024026870727539062 0.026505470275878906 -0.02483844757080078 0.00308990478515625 0.22888946533203125
28.3575 0.0436248779296875 0.2191314697265625 0.026315689086914062 -0.025755882263183594 0.024768829345703125 -0.026182174682617188 0.00969696044921875 0.2273406982421875
28.36625 0.048492431640625 0.2164459228515625 0.024555206298828125 -0.027191162109375 0.023011207580566406 -0.026986122131347656 0.0157928466796875 0.22547149658203125
28.375 0.0533447265625 0.21319580078125 0.02282238006591797 -0.02850627899169922 0.021514892578125 -0.027896881103515625 0.0223541259765625 0.2235107421875
28.38375 0.05780029296875 0.20947265625 0.020975112915039062 -0.02962493896484375 0.020170211791992188 -0.028356552124023438 0.0286865234375 0.22113037109375
28.3925 0.06219482421875 0.20550537109375 0.019290924072265625 -0.030406951904296875 0.018999099731445312 -0.02906036376953125 0.034698486328125 0.218170166015625
28.40125 0.066680908203125 0.201690673828125 0.017629623413085938 -0.030945777893066406 0.017935752868652344 -0.02978801727294922 0.0407867431640625 0.21490478515625
28.41 0.0703277587890625 0.1972503662109375 0.016315460205078125 -0.03158378601074219 0.01685810089111328 -0.03063678741455078 0.0462646484375 0.21142578125
28.41875 0.0740203857421875 0.1927032470703125 0.014911651611328125 -0.03246498107910156 0.015636444091796875 -0.03191375732421875 0.0513916015625 0.2080230712890625
28.4275 0.0776824951171875 0.18768310546875 0.01328277587890625 -0.03338432312011719 0.014064788818359375 -0.03314971923828125 0.056610107421875 0.2047119140625
28.43625 0.080963134765625 0.1829681396484375 0.011508941650390625 -0.03404998779296875 0.01212310791015625 -0.034137725830078125 0.0617218017578125 0.2011566162109375
28.445 0.08404541015625 0.178009033203125 0.009626388549804688 -0.03465461730957031 0.0100555419921875 -0.034992218017578125 0.0663604736328125 0.1973876953125
28.45375 0.086944580078125 0.1729736328125 0.007785797119140625 -0.03517723083496094 0.008062362670898438 -0.03540611267089844 0.0709991455078125 0.1927490234375
28.4625 0.0892791748046875 0.167694091796875 0.0059452056884765625 -0.03554534912109375 0.0059719085693359375 -0.035625457763671875 0.07470703125 0.1881866455078125
28.47125 0.09149169921875 0.162506103515625 0.0040721893310546875 -0.0356292724609375 0.004001617431640625 -0.03581428527832031 0.0779876708984375 0.183197021484375
28.48 0.0935821533203125 0.15753173828125 0.0021762847900390625 -0.035861968994140625 0.0020923614501953125 -0.03592872619628906 0.08111572265625 0.1784515380859375
28.48875 0.09479522705078125 0.15267181396484375 0.0002899169921875 -0.03590965270996094 0.0001964569091796875 -0.03606224060058594 0.08428955078125 0.1738128662109375
28.4975 0.095855712890625 0.1475982666015625 -0.00167083740234375 -0.03593635559082031 -0.00185394287109375 -0.03583717346191406 0.087066650390625 0.1686859130859375
28.50625 0.096343994140625 0.14288330078125 -0.003536224365234375 -0.035549163818359375 -0.0037841796875 -0.035614013671875 0.089935302734375 0.16290283203125
28.515 0.0969696044921875 0.1380462646484375 -0.005130767822265625 -0.0353240966796875 -0.00553131103515625 -0.035022735595703125 0.092041015625 0.157501220703125
