!Created with skrf (http://scikit-rf.org).
# GHz S RI R 50.0 
!freq ReS11 ImS11 ReS21 ImS21 ReS12 ImS12 ReS22 ImS22
27.5 0.02779388427734375 0.1607513427734375 -0.01587963104248047 -0.0077686309814453125 -0.015657424926757812 -0.007948875427246094 -0.03101348876953125 0.20012664794921875
27.50875 0.03221893310546875 0.15512847900390625 -0.016251564025878906 -0.006741523742675781 -0.01629161834716797 -0.006909370422363281 -0.024932861328125 0.1965484619140625
27.5175 0.0361175537109375 0.14934539794921875 -0.016592979431152344 -0.0057010650634765625 -0.016656875610351562 -0.00594329833984375 -0.01906585693359375 0.19280242919921875
27.52625 0.03975677490234375 0.14296722412109375 -0.016756057739257812 -0.004712104797363281 -0.01686573028564453 -0.004910469055175781 -0.01311492919921875 0.1888885498046875
27.535 0.0426177978515625 0.1366729736328125 -0.016733169555664062 -0.003955841064453125 -0.016939163208007812 -0.004009246826171875 -0.0075225830078125 0.1847686767578125
27.54375 0.04515838623046875 0.1308746337890625 -0.016889572143554688 -0.003246307373046875 -0.017024993896484375 -0.0032024383544921875 -0.00240325927734375 0.1800079345703125
27.5525 0.04746246337890625 0.12465667724609375 -0.016988754272460938 -0.00258636474609375 -0.017325401306152344 -0.0023708343505859375 0.0023040771484375 0.17540740966796875
27.56125 0.0495452880859375 0.11865234375 -0.017337799072265625 -0.0018091201782226562 -0.01735210418701172 -0.00156402587890625 0.0066070556640625 0.169921875
27.57 0.05100250244140625 0.11232757568359375 -0.017536163330078125 -0.0009479522705078125 -0.01756763458251953 -0.0006685256958007812 0.0103912353515625 0.1650238037109375
27.57875 0.05178070068359375 0.10625457763671875 -0.017749786376953125 -0.00013065338134765625 -0.017722129821777344 0.00011348724365234375 0.0143585205078125 0.1598358154296875
27.5875 0.05217742919921875 0.10022735595703125 -0.017940521240234375 0.000701904296875 -0.017783164978027344 0.00107574462890625 0.01747894287109375 0.154296875
27.59625 0.05199432373046875 0.09435272216796875 -0.01808452606201172 0.001934051513671875 -0.017762184143066406 0.0020751953125 0.02065277099609375 0.148773193359375
27.605 0.05150604248046875 0.08843231201171875 -0.01824951171875 0.0029020309448242188 -0.01781463623046875 0.0031747817993164062 0.023345947265625 0.1430206298828125
27.61375 0.05095672607421875 0.082550048828125 -0.018111228942871094 0.003951072692871094 -0.017745018005371094 0.003998756408691406 0.02544403076171875 0.1370391845703125
27.6225 0.0499420166015625 0.0767364501953125 -0.017930984497070312 0.005227088928222656 -0.01750659942626953 0.0050716400146484375 0.0274505615234375 0.13094329833984375
27.63125 0.048534393310546875 0.0708465576171875 -0.017518043518066406 0.006308555603027344 -0.017284393310546875 0.006098747253417969 0.02899169921875 0.12502288818359375
27.64 0.046478271484375 0.06487274169921875 -0.017203330993652344 0.007229804992675781 -0.01684284210205078 0.0070648193359375 0.030426025390625 0.11888885498046875
27.64875 0.043766021728515625 0.059246063232421875 -0.016778945922851562 0.008234024047851562 -0.01649951934814453 0.008112907409667969 0.0311431884765625 0.11310577392578125
27.6575 0.041259765625 0.05376434326171875 -0.01625823974609375 0.009126663208007812 -0.016042709350585938 0.008879661560058594 0.03188323974609375 0.10720062255859375
27.66625 0.03826904296875 0.04827117919921875 -0.015718460083007812 0.009981155395507812 -0.015570640563964844 0.009726524353027344 0.0321044921875 0.101318359375
27.675 0.0351104736328125 0.04300689697265625 -0.01514434814453125 0.010775566101074219 -0.015048027038574219 0.010571479797363281 0.03167724609375 0.095550537109375
27.68375 0.0316009521484375 0.0382232666015625 -0.014594078063964844 0.011712074279785156 -0.014636993408203125 0.011527061462402344 0.03086090087890625 0.08990478515625
27.6925 0.02782440185546875 0.0332489013671875 -0.013902664184570312 0.012578964233398438 -0.013967514038085938 0.012334823608398438 0.02983856201171875 0.0844573974609375
27.70125 0.023839950561523438 0.028697967529296875 -0.013117313385009766 0.013175487518310547 -0.0131072998046875 0.013074874877929688 0.0281982421875 0.07897186279296875
27.71 0.019561767578125 0.024610519409179688 -0.012409210205078125 0.013833999633789062 -0.012439250946044922 0.013708114624023438 0.026153564453125 0.07401657104492188
27.71875 0.01497650146484375 0.020923614501953125 -0.011843681335449219 0.014313220977783203 -0.011874198913574219 0.01429605484008789 0.024036407470703125 0.06899261474609375
27.7275 0.010392189025878906 0.017543792724609375 -0.011126518249511719 0.015088558197021484 -0.011063575744628906 0.015193939208984375 0.021099090576171875 0.0641632080078125
27.73625 0.005509376525878906 0.014500617980957031 -0.010320663452148438 0.01590251922607422 -0.010316848754882812 0.016012191772460938 0.0183868408203125 0.05921173095703125
27.745 5.2928924560546875e-05 0.011809349060058594 -0.009377479553222656 0.0164947509765625 -0.009342193603515625 0.016376495361328125 0.015010833740234375 0.054843902587890625
27.75375 -0.005217552185058594 0.009838104248046875 -0.008533477783203125 0.016958236694335938 -0.008474349975585938 0.017002105712890625 0.011312484741210938 0.05056571960449219
27.7625 -0.010694503784179688 0.008080482482910156 -0.007633209228515625 0.017554283142089844 -0.007521629333496094 0.017436981201171875 0.0075130462646484375 0.04659843444824219
27.77125 -0.016298294067382812 0.006661415100097656 -0.006545066833496094 0.017991065979003906 -0.006488800048828125 0.017900466918945312 0.003200531005859375 0.04284477233886719
27.78 -0.02214813232421875 0.005615234375 -0.005550384521484375 0.018301010131835938 -0.0054721832275390625 0.01827239990234375 -0.000919342041015625 0.03933906555175781
27.78875 -0.02840900421142578 0.0050907135009765625 -0.004486083984375 0.01859569549560547 -0.004319190979003906 0.018576622009277344 -0.0055828094482421875 0.03605461120605469
27.7975 -0.03430747985839844 0.0050201416015625 -0.0032863616943359375 0.018790245056152344 -0.003185272216796875 0.01880359649658203 -0.010227203369140625 0.03297233581542969
27.80625 -0.04045295715332031 0.0049571990966796875 -0.0022134780883789062 0.01893138885498047 -0.0021543502807617188 0.019060134887695312 -0.014850616455078125 0.030277252197265625
27.815 -0.04674530029296875 0.005741119384765625 -0.0011386871337890625 0.018985748291015625 -0.001068115234375 0.0190582275390625 -0.020102500915527344 0.027634620666503906
27.82375 -0.05286216735839844 0.0064544677734375 5.626678466796875e-05 0.019056320190429688 -5.054473876953125e-05 0.019018173217773438 -0.024862289428710938 0.025716781616210938
27.8325 -0.058879852294921875 0.007671356201171875 0.0011119842529296875 0.018934249877929688 0.0011463165283203125 0.018888473510742188 -0.03015899658203125 0.02448272705078125
27.84125 -0.064788818359375 0.009517669677734375 0.002105712890625 0.018724441528320312 0.0021209716796875 0.018611907958984375 -0.03520965576171875 0.0233612060546875
27.85 -0.07085418701171875 0.011394500732421875 0.0031061172485351562 0.018457412719726562 0.0033769607543945312 0.018347740173339844 -0.04071617126464844 0.022401809692382812
27.85875 -0.07660293579101562 0.013637542724609375 0.003949165344238281 0.018238067626953125 0.00402069091796875 0.018021583557128906 -0.046154022216796875 0.022237777709960938
27.8675 -0.082000732421875 0.016033172607421875 0.005023956298828125 0.01786041259765625 0.00495147705078125 0.01775360107421875 -0.051799774169921875 0.022212982177734375
27.87625 -0.087249755859375 0.0187225341796875 0.005801200866699219 0.01775074005126953 0.005818367004394531 0.01746082305908203 -0.05702972412109375 0.022901535034179688
27.885 -0.092559814453125 0.022159576416015625 0.006737709045410156 0.017282485961914062 0.0066432952880859375 0.017292022705078125 -0.062488555908203125 0.023876190185546875
27.89375 -0.09747314453125 0.026035308837890625 0.007809638977050781 0.01704692840576172 0.007662773132324219 0.016953468322753906 -0.06784439086914062 0.025146484375
27.9025 -0.10210800170898438 0.029880523681640625 0.008568763732910156 0.016632080078125 0.008546829223632812 0.016655921936035156 -0.0733184814453125 0.02689361572265625
27.91125 -0.10625457763671875 0.034358978271484375 0.009560585021972656 0.016008377075195312 0.009507179260253906 0.016290664672851562 -0.0785980224609375 0.028942108154296875
27.92 -0.11053085327148438 0.038898468017578125 0.010438919067382812 0.015597343444824219 0.010570526123046875 0.01563262939453125 -0.0836334228515625 0.031375885009765625
27.92875 -0.11426925659179688 0.044178009033203125 0.011320114135742188 0.014796257019042969 0.011445999145507812 0.015001296997070312 -0.08882522583007812 0.033916473388671875
27.9375 -0.11800765991210938 0.0492095947265625 0.012255668640136719 0.014081001281738281 0.012223243713378906 0.014111518859863281 -0.0939483642578125 0.036960601806640625
27.94625 -0.12186813354492188 0.054676055908203125 0.012990951538085938 0.013139724731445312 0.013024330139160156 0.01337432861328125 -0.09878158569335938 0.040225982666015625
27.955 -0.12517547607421875 0.0605010986328125 0.01338958740234375 0.01239776611328125 0.013513565063476562 0.01258087158203125 -0.10373687744140625 0.0441436767578125
27.96375 -0.12813568115234375 0.0665435791015625 0.013914108276367188 0.011717796325683594 0.014225006103515625 0.011737823486328125 -0.10800552368164062 0.048053741455078125
27.9725 -0.13068389892578125 0.07277679443359375 0.0143585205078125 0.010833740234375 0.014746665954589844 0.011130332946777344 -0.11193084716796875 0.051929473876953125
27.98125 -0.133270263671875 0.07872772216796875 0.014865875244140625 0.010239601135253906 0.015177726745605469 0.010397911071777344 -0.11555862426757812 0.056476593017578125
27.99 -0.13520050048828125 0.08525848388671875 0.015193939208984375 0.009386062622070312 0.015862464904785156 0.009534835815429688 -0.11900711059570312 0.061031341552734375
27.99875 -0.13678741455078125 0.0914459228515625 0.0156402587890625 0.008717536926269531 0.016347885131835938 0.008681297302246094 -0.12220382690429688 0.06600189208984375
28.0075 -0.13819122314453125 0.09757232666015625 0.016180992126464844 0.007960319519042969 0.016901016235351562 0.007737159729003906 -0.12508392333984375 0.0713958740234375
28.01625 -0.13922119140625 0.10394287109375 0.016722679138183594 0.007237434387207031 0.017436981201171875 0.006657600402832031 -0.1278533935546875 0.07663726806640625
28.025 -0.13974761962890625 0.1102142333984375 0.017220497131347656 0.006299018859863281 0.017608642578125 0.005385398864746094 -0.130126953125 0.08216094970703125
28.03375 -0.139984130859375 0.11676025390625 0.01764392852783203 0.00511932373046875 0.01773548126220703 0.004378318786621094 -0.13173675537109375 0.0880889892578125
28.0425 -0.13973236083984375 0.12302398681640625 0.017917633056640625 0.00399017333984375 0.017775535583496094 0.0032930374145507812 -0.1333770751953125 0.09438323974609375
28.05125 -0.1386260986328125 0.129364013671875 0.01804351806640625 0.002811431884765625 0.017513275146484375 0.002330780029296875 -0.1349945068359375 0.1005401611328125
28.06 -0.1375732421875 0.13567352294921875 0.01790618896484375 0.0017795562744140625 0.017345428466796875 0.001728057861328125 -0.136016845703125 0.1071319580078125
28.06875 -0.13570404052734375 0.141815185546875 0.017686843872070312 0.000743865966796875 0.017168045043945312 0.001079559326171875 -0.13686370849609375 0.113616943359375
28.0775 -0.134063720703125 0.1482086181640625 0.017488479614257812 0.000102996826171875 0.01724529266357422 0.00045871734619140625 -0.13687896728515625 0.12055206298828125
28.08625 -0.13184356689453125 0.1548919677734375 0.017559051513671875 -0.00078582763671875 0.01744365692138672 -0.00017452239990234375 -0.136993408203125 0.12720489501953125
28.095 -0.12914276123046875 0.16162109375 0.01740264892578125 -0.0014829635620117188 0.017653465270996094 -0.0012006759643554688 -0.13654327392578125 0.13379669189453125
28.10375 -0.12570953369140625 0.1679229736328125 0.017304420471191406 -0.0023136138916015625 0.017942428588867188 -0.0020990371704101562 -0.13611602783203125 0.1406097412109375
28.1125 -0.1221466064453125 0.17415618896484375 0.01730060577392578 -0.0031137466430664062 0.01805400848388672 -0.0033140182495117188 -0.1349945068359375 0.14685821533203125
28.12125 -0.11865234375 0.18038177490234375 0.016996383666992188 -0.004315376281738281 0.017635345458984375 -0.004645347595214844 -0.13382720947265625 0.15350341796875
28.13 -0.11429595947265625 0.18653106689453125 0.016854286193847656 -0.0049953460693359375 0.017168045043945312 -0.005700111389160156 -0.1322784423828125 0.15991973876953125
28.13875 -0.11016845703125 0.1924896240234375 0.016584396362304688 -0.0058994293212890625 0.01660633087158203 -0.006583213806152344 -0.1300811767578125 0.16609954833984375
28.1475 -0.106109619140625 0.198150634765625 0.01629352569580078 -0.006911277770996094 0.015938758850097656 -0.007529258728027344 -0.12773895263671875 0.172210693359375
28.15625 -0.10160064697265625 0.20384979248046875 0.015661239624023438 -0.007794380187988281 0.015225410461425781 -0.008218765258789062 -0.12465667724609375 0.1781768798828125
28.165 -0.09698486328125 0.209228515625 0.015104293823242188 -0.008574485778808594 0.014430999755859375 -0.008802413940429688 -0.1216278076171875 0.1840057373046875
28.17375 -0.09186553955078125 0.21431732177734375 0.014388561248779297 -0.009298324584960938 0.01402425765991211 -0.009281635284423828 -0.1179656982421875 0.18944549560546875
28.1825 -0.0867156982421875 0.21848297119140625 0.013678550720214844 -0.009745121002197266 0.013494014739990234 -0.009622573852539062 -0.114166259765625 0.1952667236328125
28.19125 -0.08174896240234375 0.2229461669921875 0.013254165649414062 -0.010103702545166016 0.013184547424316406 -0.009974956512451172 -0.10997772216796875 0.2001495361328125
28.2 -0.0760040283203125 0.22728729248046875 0.01304769515991211 -0.010354042053222656 0.012943267822265625 -0.010394096374511719 -0.1052703857421875 0.20526123046875
28.20875 -0.07050323486328125 0.2311859130859375 0.012822628021240234 -0.010996818542480469 0.012852668762207031 -0.0112762451171875 -0.10036468505859375 0.21027374267578125
28.2175 -0.06450653076171875 0.23418426513671875 0.012470245361328125 -0.011776924133300781 0.012524127960205078 -0.012242794036865234 -0.09527587890625 0.21503448486328125
28.22625 -0.05887603759765625 0.23720550537109375 0.012120723724365234 -0.012889385223388672 0.011817455291748047 -0.013266563415527344 -0.09053802490234375 0.21991729736328125
28.235 -0.0525665283203125 0.23984527587890625 0.011248588562011719 -0.01372528076171875 0.010747909545898438 -0.013902664184570312 -0.08440399169921875 0.22414398193359375
28.24375 -0.04620361328125 0.241973876953125 0.010338306427001953 -0.014327526092529297 0.009769439697265625 -0.014530658721923828 -0.0785675048828125 0.22823333740234375
28.2525 -0.03961181640625 0.24365234375 0.009421348571777344 -0.015153884887695312 0.008756637573242188 -0.014821529388427734 -0.0727691650390625 0.23191070556640625
28.26125 -0.033111572265625 0.2451324462890625 0.008311271667480469 -0.015501976013183594 0.007945060729980469 -0.014999866485595703 -0.06689453125 0.23596954345703125
28.27 -0.026336669921875 0.24672698974609375 0.0073642730712890625 -0.015845298767089844 0.007189750671386719 -0.01513814926147461 -0.06069183349609375 0.2391204833984375
28.27875 -0.0191192626953125 0.2476043701171875 0.0064220428466796875 -0.015989303588867188 0.006484031677246094 -0.015380859375 -0.05419921875 0.242462158203125
28.2875 -0.012451171875 0.2483367919921875 0.0054569244384765625 -0.016187667846679688 0.006028175354003906 -0.015649795532226562 -0.0475921630859375 0.244781494140625
28.29625 -0.00494384765625 0.24880218505859375 0.004740715026855469 -0.016170501708984375 0.005204200744628906 -0.015981674194335938 -0.04119873046875 0.24733734130859375
28.305 0.0021209716796875 0.2491302490234375 0.0041332244873046875 -0.01603984832763672 0.004474639892578125 -0.016344070434570312 -0.0344696044921875 0.24916839599609375
28.31375 0.009246826171875 0.248565673828125 0.0034923553466796875 -0.015951156616210938 0.0037813186645507812 -0.016524314880371094 -0.02764892578125 0.2503509521484375
28.3225 0.0158538818359375 0.24761962890625 0.003032684326171875 -0.01635265350341797 0.0029973983764648438 -0.016938209533691406 -0.020965576171875 0.2514801025390625
28.33125 0.02215576171875 0.2471466064453125 0.0023870468139648438 -0.016637802124023438 0.0020656585693359375 -0.01726531982421875 -0.0138092041015625 0.2526702880859375
28.34 0.0287322998046875 0.2459259033203125 0.0017423629760742188 -0.016981124877929688 0.0010433197021484375 -0.017333984375 -0.006866455078125 0.2530975341796875
28.34875 0.0349273681640625 0.2445526123046875 0.0007619857788085938 -0.017213821411132812 -0.000141143798828125 -0.017342567443847656 0.0003814697265625 0.253204345703125
28.3575 0.0414886474609375 0.2427978515625 -0.00027942657470703125 -0.017548561096191406 -0.0010576248168945312 -0.01724720001220703 0.0079498291015625 0.25262451171875
28.36625 0.0476837158203125 0.24053955078125 -0.0015277862548828125 -0.017375946044921875 -0.0020542144775390625 -0.016666412353515625 0.014892578125 0.251953125
28.375 0.0539093017578125 0.2376556396484375 -0.0024280548095703125 -0.01713848114013672 -0.0026903152465820312 -0.016290664672851562 0.0222015380859375 0.250732421875
28.38375 0.059326171875 0.2349853515625 -0.0032196044921875 -0.017049789428710938 -0.0031909942626953125 -0.01607513427734375 0.02923583984375 0.249664306640625
28.3925 0.064605712890625 0.2318115234375 -0.0041408538818359375 -0.016763687133789062 -0.0039272308349609375 -0.015995025634765625 0.03619384765625 0.248321533203125
28.40125 0.0701751708984375 0.22821044921875 -0.004885673522949219 -0.016490936279296875 -0.004460334777832031 -0.015840530395507812 0.0435638427734375 0.2464599609375
28.41 0.07550048828125 0.22454833984375 -0.005639076232910156 -0.01613140106201172 -0.005161285400390625 -0.015979766845703125 0.0504608154296875 0.244537353515625
28.41875 0.0809326171875 0.220367431640625 -0.006382942199707031 -0.015870094299316406 -0.0060253143310546875 -0.015802383422851562 0.0571746826171875 0.242156982421875
28.4275 0.0858154296875 0.215972900390625 -0.0072422027587890625 -0.0156707763671875 -0.0067958831787109375 -0.015750885009765625 0.0635223388671875 0.2394256591796875
28.43625 0.090301513671875 0.2115020751953125 -0.007940292358398438 -0.015414237976074219 -0.007905006408691406 -0.015456199645996094 0.0696563720703125 0.23675537109375
28.445 0.09490966796875 0.2069091796875 -0.008833885192871094 -0.014908790588378906 -0.008768081665039062 -0.015263557434082031 0.0759124755859375 0.2340087890625
28.45375 0.0991668701171875 0.202117919921875 -0.009736061096191406 -0.014522552490234375 -0.009798049926757812 -0.014678001403808594 0.0817108154296875 0.2306976318359375
28.4625 0.1030731201171875 0.197052001953125 -0.010554313659667969 -0.013921737670898438 -0.010506629943847656 -0.013873100280761719 0.087158203125 0.227203369140625
28.47125 0.10662841796875 0.192138671875 -0.011270523071289062 -0.013281822204589844 -0.011397361755371094 -0.013251304626464844 0.0926666259765625 0.2225799560546875
28.48 0.1102142333984375 0.187255859375 -0.011935234069824219 -0.012547492980957031 -0.012036323547363281 -0.012461662292480469 0.0973968505859375 0.218505859375
28.48875 0.1130523681640625 0.1822509765625 -0.012255668640136719 -0.011879920959472656 -0.012613296508789062 -0.011795997619628906 0.10205078125 0.2138214111328125
28.4975 0.11572265625 0.1774139404296875 -0.013014793395996094 -0.011332511901855469 -0.012999534606933594 -0.011096000671386719 0.1065673828125 0.20916748046875
28.50625 0.11810302734375 0.17205810546875 -0.013471603393554688 -0.010660171508789062 -0.013559341430664062 -0.010402679443359375 0.110595703125 0.20367431640625
