!Created with skrf (http://scikit-rf.org).
# GHz S RI R 50.0 
!freq ReS11 ImS11 ReS21 ImS21 ReS12 ImS12 ReS22 ImS22
27.5 0.02384185791015625 0.1219635009765625 -0.0076444149017333984 0.0030870437622070312 -0.0075016021728515625 0.0028595924377441406 -0.0356597900390625 0.17885589599609375
27.50875 0.0258636474609375 0.11600494384765625 -0.007002353668212891 0.0033540725708007812 -0.006899356842041016 0.003233671188354492 -0.03186798095703125 0.17388916015625
27.5175 0.0278167724609375 0.110626220703125 -0.006486415863037109 0.003634929656982422 -0.006706714630126953 0.003505229949951172 -0.02851104736328125 0.16889190673828125
27.52625 0.02960968017578125 0.10516357421875 -0.006414651870727539 0.0038962364196777344 -0.006522417068481445 0.00372314453125 -0.02557373046875 0.1635894775390625
27.535 0.0311431884765625 0.099334716796875 -0.006072998046875 0.004111289978027344 -0.006212711334228516 0.004019737243652344 -0.023284912109375 0.1584930419921875
27.54375 0.03208160400390625 0.093475341796875 -0.006008148193359375 0.00433349609375 -0.005975008010864258 0.0043523311614990234 -0.02114105224609375 0.15329742431640625
27.5525 0.032718658447265625 0.08770370483398438 -0.005707502365112305 0.004863262176513672 -0.0057373046875 0.0048525333404541016 -0.01969146728515625 0.14795684814453125
27.56125 0.03267669677734375 0.08189010620117188 -0.005251646041870117 0.005274772644042969 -0.005331993103027344 0.0051496028900146484 -0.01804351806640625 0.14239501953125
27.57 0.0322418212890625 0.07622146606445312 -0.0048673152923583984 0.005364418029785156 -0.004819631576538086 0.005459785461425781 -0.0174407958984375 0.13721466064453125
27.57875 0.031406402587890625 0.07103347778320312 -0.004579782485961914 0.005559444427490234 -0.004596233367919922 0.005650043487548828 -0.0166778564453125 0.13205718994140625
27.5875 0.03055572509765625 0.06598281860351562 -0.0045375823974609375 0.005802631378173828 -0.004357576370239258 0.005942821502685547 -0.0164794921875 0.12654876708984375
27.59625 0.029346466064453125 0.06084442138671875 -0.004212617874145508 0.006231784820556641 -0.004160165786743164 0.00623321533203125 -0.016876220703125 0.12137222290039062
27.605 0.02776336669921875 0.0556793212890625 -0.0036551952362060547 0.006675004959106445 -0.0036220550537109375 0.006529569625854492 -0.017467498779296875 0.116241455078125
27.61375 0.02565765380859375 0.05065155029296875 -0.003012418746948242 0.007071495056152344 -0.0031478404998779297 0.006903886795043945 -0.01837921142578125 0.11100387573242188
27.6225 0.023212432861328125 0.0457763671875 -0.002457141876220703 0.007348537445068359 -0.002586841583251953 0.007149457931518555 -0.019649505615234375 0.10605239868164062
27.63125 0.020345687866210938 0.04119873046875 -0.001943826675415039 0.007316112518310547 -0.0019435882568359375 0.007225513458251953 -0.0211639404296875 0.10137939453125
27.64 0.017232894897460938 0.03691864013671875 -0.001386404037475586 0.0072286128997802734 -0.0013530254364013672 0.007306098937988281 -0.022991180419921875 0.09656143188476562
27.64875 0.013935089111328125 0.032928466796875 -0.0009264945983886719 0.007256746292114258 -0.0009605884552001953 0.007155895233154297 -0.02545166015625 0.09233474731445312
27.6575 0.010644912719726562 0.0289459228515625 -0.0005102157592773438 0.007285356521606445 -0.0004596710205078125 0.007230997085571289 -0.028026580810546875 0.088409423828125
27.66625 0.0068359375 0.024896621704101562 -2.0742416381835938e-05 0.0073032379150390625 -3.0517578125e-05 0.0072743892669677734 -0.0306854248046875 0.08464813232421875
27.675 0.0025968551635742188 0.02144908905029297 0.0007638931274414062 0.0074310302734375 0.000621795654296875 0.007294654846191406 -0.03387451171875 0.08145904541015625
27.68375 -0.001621246337890625 0.01810169219970703 0.0011434555053710938 0.007119655609130859 0.0010361671447753906 0.007127285003662109 -0.037364959716796875 0.0785675048828125
27.6925 -0.006268978118896484 0.015117168426513672 0.0016732215881347656 0.007050991058349609 0.0016045570373535156 0.0070323944091796875 -0.0408935546875 0.07611083984375
27.70125 -0.010901451110839844 0.012468338012695312 0.0021028518676757812 0.006733894348144531 0.0020732879638671875 0.0067462921142578125 -0.0448760986328125 0.07373046875
27.71 -0.015775680541992188 0.010152816772460938 0.002620697021484375 0.006519317626953125 0.00258636474609375 0.0063915252685546875 -0.04901123046875 0.07175445556640625
27.71875 -0.02081584930419922 0.00807952880859375 0.0028514862060546875 0.006208896636962891 0.0028214454650878906 0.006117343902587891 -0.05316925048828125 0.07027816772460938
27.7275 -0.02600383758544922 0.006440162658691406 0.003097057342529297 0.006093502044677734 0.0030241012573242188 0.00611114501953125 -0.057621002197265625 0.0689544677734375
27.73625 -0.031223297119140625 0.00524139404296875 0.00353240966796875 0.005946636199951172 0.0035572052001953125 0.005789279937744141 -0.06212615966796875 0.067291259765625
27.745 -0.036590576171875 0.0041332244873046875 0.0038471221923828125 0.005494594573974609 0.0038433074951171875 0.0056629180908203125 -0.066986083984375 0.06678390502929688
27.75375 -0.04195213317871094 0.0038928985595703125 0.0042877197265625 0.005281925201416016 0.004352092742919922 0.005336284637451172 -0.07201766967773438 0.06634521484375
27.7625 -0.04720115661621094 0.00372314453125 0.00463104248046875 0.0050563812255859375 0.004590511322021484 0.005103588104248047 -0.0771026611328125 0.06620407104492188
27.77125 -0.05249977111816406 0.0038471221923828125 0.004809856414794922 0.004700183868408203 0.005027294158935547 0.004626274108886719 -0.0818939208984375 0.06631088256835938
27.78 -0.05788230895996094 0.00400543212890625 0.005330562591552734 0.004157066345214844 0.005387783050537109 0.0043315887451171875 -0.08655929565429688 0.06665420532226562
27.78875 -0.06331634521484375 0.004756927490234375 0.005545616149902344 0.0039014816284179688 0.005595684051513672 0.003972530364990234 -0.09166717529296875 0.06701278686523438
27.7975 -0.06882095336914062 0.00567626953125 0.005683422088623047 0.0033278465270996094 0.005877971649169922 0.003501415252685547 -0.09673690795898438 0.0679473876953125
27.80625 -0.07435226440429688 0.0068817138671875 0.005927085876464844 0.002768993377685547 0.0061130523681640625 0.0028252601623535156 -0.10146713256835938 0.06959915161132812
27.815 -0.07991409301757812 0.00913238525390625 0.006024837493896484 0.002391815185546875 0.006308078765869141 0.0023136138916015625 -0.1063232421875 0.07109832763671875
27.82375 -0.08510208129882812 0.01117706298828125 0.006039619445800781 0.0018239021301269531 0.006176471710205078 0.0018415451049804688 -0.11041641235351562 0.0729217529296875
27.8325 -0.08997344970703125 0.013275146484375 0.006093502044677734 0.0014619827270507812 0.006224155426025391 0.0013408660888671875 -0.1149749755859375 0.0757904052734375
27.84125 -0.09536361694335938 0.016178131103515625 0.006031990051269531 0.0010256767272949219 0.00622105598449707 0.0009133815765380859 -0.1187591552734375 0.07861328125
27.85 -0.10056304931640625 0.019275665283203125 0.006193876266479492 0.0005478858947753906 0.006134748458862305 0.00044274330139160156 -0.12298965454101562 0.08152008056640625
27.85875 -0.10521316528320312 0.022624969482421875 0.005808830261230469 9.059906005859375e-05 0.0058934688568115234 1.6689300537109375e-06 -0.1264801025390625 0.08510589599609375
27.8675 -0.10955810546875 0.02655029296875 0.005637645721435547 -0.0001761913299560547 0.005748748779296875 -0.0002970695495605469 -0.1303253173828125 0.08882904052734375
27.87625 -0.11342239379882812 0.030517578125 0.0054895877838134766 -0.00037384033203125 0.00559544563293457 -0.00030422210693359375 -0.1334686279296875 0.09316253662109375
27.885 -0.11774063110351562 0.0348663330078125 0.00553584098815918 -0.0005407333374023438 0.005461931228637695 -0.0007441043853759766 -0.13619232177734375 0.09767913818359375
27.89375 -0.12122726440429688 0.0397796630859375 0.005466938018798828 -0.0007731914520263672 0.005445957183837891 -0.0009658336639404297 -0.13897705078125 0.10260009765625
27.9025 -0.124847412109375 0.04413604736328125 0.005526065826416016 -0.0012416839599609375 0.00548243522644043 -0.0013408660888671875 -0.14156341552734375 0.10729217529296875
27.91125 -0.1278228759765625 0.04940032958984375 0.005525112152099609 -0.0016336441040039062 0.00551295280456543 -0.0015003681182861328 -0.1438751220703125 0.11254119873046875
27.92 -0.13065338134765625 0.05481719970703125 0.005296945571899414 -0.0019779205322265625 0.005432605743408203 -0.001909494400024414 -0.145904541015625 0.11767578125
27.92875 -0.13323974609375 0.0605926513671875 0.005131244659423828 -0.0025222301483154297 0.005138874053955078 -0.0023124217987060547 -0.14801025390625 0.12316131591796875
27.9375 -0.13543701171875 0.0662078857421875 0.004750251770019531 -0.002760648727416992 0.004923820495605469 -0.0026340484619140625 -0.1498565673828125 0.1289215087890625
27.94625 -0.1377410888671875 0.0717010498046875 0.004534721374511719 -0.0029277801513671875 0.004738330841064453 -0.0027933120727539062 -0.1515350341796875 0.135009765625
27.955 -0.139373779296875 0.07767486572265625 0.004206418991088867 -0.003034353256225586 0.0044972896575927734 -0.0028629302978515625 -0.15252685546875 0.14116668701171875
27.96375 -0.14096832275390625 0.08373260498046875 0.004132747650146484 -0.0031630992889404297 0.004468679428100586 -0.003171682357788086 -0.1533050537109375 0.1473236083984375
27.9725 -0.142364501953125 0.0901031494140625 0.004123687744140625 -0.003395557403564453 0.004400491714477539 -0.0035355091094970703 -0.15343475341796875 0.15306854248046875
27.98125 -0.14353179931640625 0.09600830078125 0.003809332847595215 -0.0037720203399658203 0.004121541976928711 -0.0040166378021240234 -0.15350341796875 0.15911865234375
27.99 -0.14379119873046875 0.10230255126953125 0.0035126209259033203 -0.004042625427246094 0.003640413284301758 -0.004441976547241211 -0.15308380126953125 0.1654052734375
27.99875 -0.1441650390625 0.10814666748046875 0.003139019012451172 -0.004136562347412109 0.0032384395599365234 -0.004356861114501953 -0.1523284912109375 0.17179107666015625
28.0075 -0.14409637451171875 0.11394500732421875 0.0029413700103759766 -0.004343271255493164 0.0029213428497314453 -0.004513978958129883 -0.15143585205078125 0.1779632568359375
28.01625 -0.1433868408203125 0.12012481689453125 0.0028052330017089844 -0.0045015811920166016 0.0026254653930664062 -0.004680633544921875 -0.14978790283203125 0.18412017822265625
28.025 -0.14269256591796875 0.12579345703125 0.0024271011352539062 -0.004754781723022461 0.0023970603942871094 -0.004830598831176758 -0.1477813720703125 0.19012451171875
28.03375 -0.14151763916015625 0.13219451904296875 0.002210378646850586 -0.004865169525146484 0.001953601837158203 -0.004906654357910156 -0.14554595947265625 0.19625091552734375
28.0425 -0.13986968994140625 0.13796234130859375 0.001972675323486328 -0.005047798156738281 0.0017158985137939453 -0.004923582077026367 -0.1432647705078125 0.20240020751953125
28.05125 -0.137481689453125 0.143829345703125 0.0012998580932617188 -0.005255222320556641 0.0013608932495117188 -0.005091190338134766 -0.14068603515625 0.2086181640625
28.06 -0.1350555419921875 0.14951324462890625 0.0007832050323486328 -0.00496673583984375 0.0007891654968261719 -0.004819154739379883 -0.13790130615234375 0.2144317626953125
28.06875 -0.13177490234375 0.1552276611328125 0.0004057884216308594 -0.004853725433349609 0.0007314682006835938 -0.0045697689056396484 -0.13477325439453125 0.22032928466796875
28.0775 -0.12872314453125 0.16077423095703125 0.0004894733428955078 -0.004614353179931641 0.0007426738739013672 -0.004536151885986328 -0.1313018798828125 0.22631072998046875
28.08625 -0.125335693359375 0.1664886474609375 0.0004904270172119141 -0.004563331604003906 0.0006835460662841797 -0.004632234573364258 -0.12734222412109375 0.23211669921875
28.095 -0.121795654296875 0.17212677001953125 0.0002810955047607422 -0.004791736602783203 0.0005381107330322266 -0.004881143569946289 -0.123138427734375 0.23735809326171875
28.10375 -0.11767578125 0.17784881591796875 -0.00010037422180175781 -0.004942417144775391 0.0001652240753173828 -0.0050411224365234375 -0.1191864013671875 0.2423858642578125
28.1125 -0.11315155029296875 0.1833038330078125 -0.00019240379333496094 -0.004945993423461914 -0.0002079010009765625 -0.0052280426025390625 -0.114471435546875 0.2472991943359375
28.12125 -0.10868072509765625 0.18871307373046875 -0.0006694793701171875 -0.00513458251953125 -0.0007424354553222656 -0.005199909210205078 -0.110198974609375 0.2523956298828125
28.13 -0.1036834716796875 0.1935577392578125 -0.0009565353393554688 -0.004920005798339844 -0.0011377334594726562 -0.004880428314208984 -0.105194091796875 0.2570343017578125
28.13875 -0.09906005859375 0.19837188720703125 -0.0012745857238769531 -0.00482630729675293 -0.0012221336364746094 -0.004638671875 -0.099517822265625 0.26123046875
28.1475 -0.09455108642578125 0.20298004150390625 -0.001447916030883789 -0.004549264907836914 -0.0013213157653808594 -0.0045168399810791016 -0.094268798828125 0.2653656005859375
28.15625 -0.0897369384765625 0.20733642578125 -0.0015730857849121094 -0.004738807678222656 -0.0015854835510253906 -0.004588603973388672 -0.08807373046875 0.269073486328125
28.165 -0.084991455078125 0.211639404296875 -0.00183868408203125 -0.004662036895751953 -0.0019106864929199219 -0.004550933837890625 -0.08209228515625 0.272674560546875
28.17375 -0.07961273193359375 0.2154083251953125 -0.002490997314453125 -0.004603147506713867 -0.002362489700317383 -0.004449367523193359 -0.0760040283203125 0.27545166015625
28.1825 -0.07398223876953125 0.2187652587890625 -0.0027616024017333984 -0.004333019256591797 -0.002628326416015625 -0.004099845886230469 -0.0695037841796875 0.2786407470703125
28.19125 -0.068878173828125 0.221527099609375 -0.0029382705688476562 -0.003922224044799805 -0.002749919891357422 -0.003956794738769531 -0.0631103515625 0.2814178466796875
28.2 -0.0632476806640625 0.223785400390625 -0.002770662307739258 -0.0036144256591796875 -0.0027675628662109375 -0.003604412078857422 -0.055999755859375 0.283721923828125
28.20875 -0.058013916015625 0.22679901123046875 -0.0029573440551757812 -0.0035963058471679688 -0.0028696060180664062 -0.0037224292755126953 -0.04937744140625 0.285858154296875
28.2175 -0.05224609375 0.22834014892578125 -0.0031468868255615234 -0.003583192825317383 -0.003255605697631836 -0.0037026405334472656 -0.04248046875 0.287750244140625
28.22625 -0.0465240478515625 0.2303009033203125 -0.0033922195434570312 -0.0035943984985351562 -0.0035772323608398438 -0.003528118133544922 -0.0358428955078125 0.28955078125
28.235 -0.04015350341796875 0.23138427734375 -0.0038824081420898438 -0.0033943653106689453 -0.003870725631713867 -0.0031626224517822266 -0.0286102294921875 0.2908477783203125
28.24375 -0.033782958984375 0.23175811767578125 -0.004349231719970703 -0.003053426742553711 -0.004035472869873047 -0.0027229785919189453 -0.0219573974609375 0.2922210693359375
28.2525 -0.02703857421875 0.23211669921875 -0.004361867904663086 -0.002521514892578125 -0.004175424575805664 -0.002443075180053711 -0.014892578125 0.29290771484375
28.26125 -0.021026611328125 0.2317352294921875 -0.0043811798095703125 -0.002040863037109375 -0.004088640213012695 -0.0020322799682617188 -0.0081329345703125 0.2938385009765625
28.27 -0.01458740234375 0.2314605712890625 -0.004209041595458984 -0.0016472339630126953 -0.00397944450378418 -0.001825094223022461 -0.00128173828125 0.29412841796875
28.27875 -0.008209228515625 0.231048583984375 -0.003937721252441406 -0.001659393310546875 -0.003796100616455078 -0.0017542839050292969 0.005706787109375 0.294342041015625
28.2875 -0.00189208984375 0.23050689697265625 -0.00401616096496582 -0.0015828609466552734 -0.003991127014160156 -0.0019047260284423828 0.0123443603515625 0.29345703125
28.29625 0.00498199462890625 0.229766845703125 -0.0041730403900146484 -0.0016291141510009766 -0.004152059555053711 -0.0018482208251953125 0.01904296875 0.2933197021484375
28.305 0.01166534423828125 0.22864532470703125 -0.004488706588745117 -0.0013682842254638672 -0.004462718963623047 -0.0014293193817138672 0.0260009765625 0.292205810546875
28.31375 0.0181427001953125 0.22686767578125 -0.004423856735229492 -0.0010144710540771484 -0.004559993743896484 -0.0011632442474365234 0.032379150390625 0.2905426025390625
28.3225 0.02404022216796875 0.22492218017578125 -0.004419803619384766 -0.0009524822235107422 -0.004586458206176758 -0.0008137226104736328 0.0389404296875 0.2889404296875
28.33125 0.0295562744140625 0.2234344482421875 -0.004519462585449219 -0.0009098052978515625 -0.004568815231323242 -0.0007641315460205078 0.045654296875 0.2867431640625
28.34 0.0352325439453125 0.2211456298828125 -0.004663944244384766 -0.0005910396575927734 -0.004524707794189453 -0.0005319118499755859 0.05194091796875 0.2839202880859375
28.34875 0.040435791015625 0.219085693359375 -0.004721641540527344 -0.0006031990051269531 -0.004664897918701172 -0.0003848075866699219 0.0584869384765625 0.2808990478515625
28.3575 0.0460205078125 0.2165985107421875 -0.004990816116333008 -0.0004055500030517578 -0.00483250617980957 -0.0002532005310058594 0.064605712890625 0.277496337890625
28.36625 0.0510406494140625 0.213775634765625 -0.005367755889892578 0.0002090930938720703 -0.004961729049682617 0.00018715858459472656 0.07012939453125 0.2743682861328125
28.375 0.0557861328125 0.2100677490234375 -0.005396366119384766 0.0006814002990722656 -0.005023479461669922 0.0005860328674316406 0.0760955810546875 0.270751953125
28.38375 0.059967041015625 0.206329345703125 -0.005069732666015625 0.0010862350463867188 -0.0047931671142578125 0.0009970664978027344 0.08184814453125 0.267059326171875
28.3925 0.064056396484375 0.202178955078125 -0.004717350006103516 0.0014090538024902344 -0.004731655120849609 0.0009636878967285156 0.08721923828125 0.2628173828125
28.40125 0.0682220458984375 0.19854736328125 -0.004767894744873047 0.0014734268188476562 -0.004627227783203125 0.0011723041534423828 0.0928955078125 0.2584991455078125
28.41 0.072021484375 0.1941986083984375 -0.004595041275024414 0.0016050338745117188 -0.004647016525268555 0.0013751983642578125 0.097930908203125 0.2542266845703125
28.41875 0.07513427734375 0.189453125 -0.004615306854248047 0.0015413761138916016 -0.004790782928466797 0.0015020370483398438 0.1024932861328125 0.249542236328125
28.4275 0.0784759521484375 0.1844024658203125 -0.004762172698974609 0.001943826675415039 -0.004857301712036133 0.001909017562866211 0.1068115234375 0.2452392578125
28.43625 0.081512451171875 0.1795654296875 -0.004639625549316406 0.0024847984313964844 -0.004827737808227539 0.0023572444915771484 0.111053466796875 0.2406005859375
28.445 0.0839691162109375 0.1748504638671875 -0.004510164260864258 0.0027010440826416016 -0.004558086395263672 0.0027501583099365234 0.1150360107421875 0.236053466796875
28.45375 0.08648681640625 0.1694793701171875 -0.004302024841308594 0.002872943878173828 -0.0044023990631103516 0.003070831298828125 0.1185150146484375 0.2307586669921875
28.4625 0.0883941650390625 0.1646575927734375 -0.004126310348510742 0.003174304962158203 -0.004082679748535156 0.0033638477325439453 0.1215057373046875 0.226043701171875
28.47125 0.090423583984375 0.159637451171875 -0.004053831100463867 0.0033020973205566406 -0.003888845443725586 0.003407120704650879 0.1239013671875 0.2209014892578125
28.48 0.0921630859375 0.1546478271484375 -0.004008769989013672 0.003582477569580078 -0.0038930177688598633 0.0035294294357299805 0.126312255859375 0.2157745361328125
28.48875 0.093597412109375 0.1497802734375 -0.0038862228393554688 0.003870725631713867 -0.0038775205612182617 0.0038143396377563477 0.12890625 0.210540771484375
28.4975 0.0948944091796875 0.144805908203125 -0.0037009716033935547 0.004164934158325195 -0.0036270618438720703 0.004094123840332031 0.1304473876953125 0.2048187255859375
