!Created with skrf (http://scikit-rf.org).
# GHz S RI R 50.0 
!freq ReS11 ImS11 ReS21 ImS21 ReS12 ImS12 ReS22 ImS22
27.5 -0.00734710693359375 0.12798309326171875 -0.020498275756835938 -0.004519462585449219 -0.02050495147705078 -0.005202293395996094 0.01023101806640625 0.1432647705078125
27.50875 -0.006221771240234375 0.12279891967773438 -0.020771026611328125 -0.0032062530517578125 -0.0209197998046875 -0.0037031173706054688 0.01461029052734375 0.13782501220703125
27.5175 -0.00530242919921875 0.11800765991210938 -0.020371437072753906 -0.0018329620361328125 -0.020872116088867188 -0.0022554397583007812 0.01827239990234375 0.13222503662109375
27.52625 -0.004749298095703125 0.11328506469726562 -0.019901275634765625 -0.0007801055908203125 -0.020608901977539062 -0.0008554458618164062 0.021575927734375 0.12671661376953125
27.535 -0.004730224609375 0.108184814453125 -0.019742965698242188 -8.7738037109375e-05 -0.020122528076171875 0.0001125335693359375 0.02484130859375 0.1209259033203125
27.54375 -0.00467681884765625 0.10353851318359375 -0.019561767578125 0.00064849853515625 -0.019891738891601562 0.0009746551513671875 0.0275115966796875 0.115020751953125
27.5525 -0.005260467529296875 0.09878158569335938 -0.019708633422851562 0.001499176025390625 -0.019779205322265625 0.001804351806640625 0.029693603515625 0.10894012451171875
27.56125 -0.0059661865234375 0.09405136108398438 -0.019751548767089844 0.0025968551635742188 -0.01958751678466797 0.002716064453125 0.03147125244140625 0.10250091552734375
27.57 -0.007274627685546875 0.08958053588867188 -0.019689559936523438 0.003490447998046875 -0.019476890563964844 0.0036869049072265625 0.03299713134765625 0.0961761474609375
27.57875 -0.008792877197265625 0.08518218994140625 -0.019509315490722656 0.0046749114990234375 -0.019331932067871094 0.00472259521484375 0.034099578857421875 0.08990859985351562
27.5875 -0.010692596435546875 0.08107376098632812 -0.01922321319580078 0.0058879852294921875 -0.01895618438720703 0.005803108215332031 0.034488677978515625 0.08327102661132812
27.59625 -0.012981414794921875 0.0770111083984375 -0.018776893615722656 0.0068817138671875 -0.01854705810546875 0.0067386627197265625 0.0345001220703125 0.07695388793945312
27.605 -0.0154266357421875 0.07291030883789062 -0.01813507080078125 0.007672309875488281 -0.017937660217285156 0.0074920654296875 0.034122467041015625 0.07062149047851562
27.61375 -0.018482208251953125 0.06904983520507812 -0.017850875854492188 0.008517265319824219 -0.017719268798828125 0.008295059204101562 0.0333709716796875 0.06438446044921875
27.6225 -0.0214691162109375 0.06597137451171875 -0.017370223999023438 0.009552955627441406 -0.01735687255859375 0.009127616882324219 0.03253173828125 0.058300018310546875
27.63125 -0.024990081787109375 0.06271743774414062 -0.0169525146484375 0.010531425476074219 -0.016892433166503906 0.010097503662109375 0.03108978271484375 0.05210113525390625
27.64 -0.02870941162109375 0.05978202819824219 -0.016063690185546875 0.011503219604492188 -0.0163726806640625 0.011181831359863281 0.0293121337890625 0.046142578125
27.64875 -0.03235626220703125 0.05718994140625 -0.015429973602294922 0.01218271255493164 -0.01565265655517578 0.011904716491699219 0.027118682861328125 0.0405426025390625
27.6575 -0.036174774169921875 0.054775238037109375 -0.014771461486816406 0.012836456298828125 -0.015007495880126953 0.01265573501586914 0.024934768676757812 0.03516578674316406
27.66625 -0.040378570556640625 0.05242156982421875 -0.01390981674194336 0.013439178466796875 -0.014209747314453125 0.01341867446899414 0.0222625732421875 0.029956817626953125
27.675 -0.04437065124511719 0.050689697265625 -0.013202190399169922 0.013890266418457031 -0.013400077819824219 0.013803482055664062 0.019292831420898438 0.025119781494140625
27.68375 -0.04850578308105469 0.04878425598144531 -0.01267862319946289 0.014462471008300781 -0.012866020202636719 0.014449119567871094 0.016178131103515625 0.02027130126953125
27.6925 -0.05282020568847656 0.047336578369140625 -0.012099742889404297 0.01505899429321289 -0.012211799621582031 0.015113353729248047 0.012567520141601562 0.015662193298339844
27.70125 -0.057292938232421875 0.04627227783203125 -0.011419296264648438 0.015712738037109375 -0.011503219604492188 0.015842437744140625 0.008794784545898438 0.011415481567382812
27.71 -0.06180763244628906 0.04560279846191406 -0.010736465454101562 0.016368865966796875 -0.010621070861816406 0.01648712158203125 0.004564762115478516 0.007151126861572266
27.71875 -0.06650924682617188 0.045246124267578125 -0.009675025939941406 0.01692962646484375 -0.009904861450195312 0.01704120635986328 0.00018525123596191406 0.0032340288162231445
27.7275 -0.07112884521484375 0.045627593994140625 -0.008927345275878906 0.01751708984375 -0.008909225463867188 0.017702102661132812 -0.004855155944824219 -0.00028777122497558594
27.73625 -0.07562637329101562 0.045864105224609375 -0.008000373840332031 0.017876625061035156 -0.007975578308105469 0.018030166625976562 -0.009892463684082031 -0.0035948753356933594
27.745 -0.08007431030273438 0.04674530029296875 -0.00710296630859375 0.018373489379882812 -0.007174491882324219 0.01838970184326172 -0.015061378479003906 -0.006274223327636719
27.75375 -0.08473968505859375 0.0480194091796875 -0.0062808990478515625 0.018754959106445312 -0.006424903869628906 0.018749237060546875 -0.02058124542236328 -0.008677482604980469
27.7625 -0.08942413330078125 0.049549102783203125 -0.0053615570068359375 0.019214630126953125 -0.005511283874511719 0.019499778747558594 -0.026132583618164062 -0.011266708374023438
27.77125 -0.09411239624023438 0.05182647705078125 -0.004184722900390625 0.01965618133544922 -0.004328727722167969 0.020002365112304688 -0.03232765197753906 -0.013118743896484375
27.78 -0.09853744506835938 0.053955078125 -0.0029306411743164062 0.019736289978027344 -0.0029888153076171875 0.020435333251953125 -0.03822135925292969 -0.014348983764648438
27.78875 -0.10321044921875 0.056743621826171875 -0.0017032623291015625 0.020139694213867188 -0.0017232894897460938 0.020638465881347656 -0.04469871520996094 -0.015361785888671875
27.7975 -0.10726547241210938 0.05995941162109375 -0.00066375732421875 0.019997596740722656 -0.000331878662109375 0.020508766174316406 -0.050750732421875 -0.0160675048828125
27.80625 -0.11165618896484375 0.06305313110351562 0.00043010711669921875 0.02000904083251953 0.0008373260498046875 0.020494461059570312 -0.05690765380859375 -0.015888214111328125
27.815 -0.115692138671875 0.06684112548828125 0.001323699951171875 0.019893646240234375 0.0020008087158203125 0.020284652709960938 -0.06279754638671875 -0.0157318115234375
27.82375 -0.1195526123046875 0.07047271728515625 0.0025348663330078125 0.0197906494140625 0.003093719482421875 0.019960403442382812 -0.06847381591796875 -0.0153961181640625
27.8325 -0.12321090698242188 0.07445526123046875 0.0035467147827148438 0.01970672607421875 0.00396728515625 0.01958179473876953 -0.07462310791015625 -0.01412200927734375
27.84125 -0.126678466796875 0.07891845703125 0.004588127136230469 0.0193634033203125 0.0049877166748046875 0.019118309020996094 -0.08037948608398438 -0.012706756591796875
27.85 -0.12998199462890625 0.08336639404296875 0.005654335021972656 0.019098281860351562 0.005812644958496094 0.018769264221191406 -0.08649826049804688 -0.010921478271484375
27.85875 -0.132843017578125 0.0879058837890625 0.006665229797363281 0.018836021423339844 0.00672149658203125 0.01851367950439453 -0.0921783447265625 -0.008563995361328125
27.8675 -0.13535308837890625 0.092376708984375 0.007573127746582031 0.018296241760253906 0.007445335388183594 0.018204689025878906 -0.0978546142578125 -0.006099700927734375
27.87625 -0.13784027099609375 0.09710693359375 0.0086212158203125 0.017826080322265625 0.008399009704589844 0.01803112030029297 -0.1031951904296875 -0.003154754638671875
27.885 -0.14034271240234375 0.1025390625 0.009336471557617188 0.01740741729736328 0.009230613708496094 0.017908096313476562 -0.1084747314453125 0.0003509521484375
27.89375 -0.14192962646484375 0.108001708984375 0.010119438171386719 0.017165184020996094 0.01020050048828125 0.017548561096191406 -0.11367034912109375 0.004058837890625
27.9025 -0.1432342529296875 0.1134796142578125 0.011037826538085938 0.01680278778076172 0.01142120361328125 0.017347335815429688 -0.11868667602539062 0.007923126220703125
27.91125 -0.14424896240234375 0.11925506591796875 0.012146949768066406 0.01639556884765625 0.012881278991699219 0.016725540161132812 -0.123504638671875 0.0121612548828125
27.92 -0.14470672607421875 0.125152587890625 0.013423919677734375 0.015662193298339844 0.013989448547363281 0.015716552734375 -0.12799072265625 0.0166778564453125
27.92875 -0.144989013671875 0.13088226318359375 0.014441490173339844 0.014804840087890625 0.014802932739257812 0.014766693115234375 -0.13225555419921875 0.0213470458984375
27.9375 -0.1453857421875 0.13702392578125 0.015286445617675781 0.013796806335449219 0.015519142150878906 0.013663291931152344 -0.13660430908203125 0.02642822265625
27.94625 -0.14510345458984375 0.14348602294921875 0.016083717346191406 0.012747764587402344 0.01608562469482422 0.012726783752441406 -0.140380859375 0.031494140625
27.955 -0.1443023681640625 0.14984130859375 0.016445159912109375 0.011610031127929688 0.01659393310546875 0.01186370849609375 -0.144134521484375 0.03692626953125
27.96375 -0.143341064453125 0.1563873291015625 0.01682567596435547 0.010723114013671875 0.01718902587890625 0.011145591735839844 -0.1471710205078125 0.04271697998046875
27.9725 -0.1419525146484375 0.16286468505859375 0.017348289489746094 0.009932518005371094 0.01787567138671875 0.010311126708984375 -0.1499176025390625 0.0480499267578125
27.98125 -0.14043426513671875 0.16890716552734375 0.01781463623046875 0.009061813354492188 0.018464088439941406 0.009342193603515625 -0.152313232421875 0.05389404296875
27.99 -0.1386871337890625 0.17498016357421875 0.018218994140625 0.008072853088378906 0.019054412841796875 0.00832366943359375 -0.15474700927734375 0.05977630615234375
27.99875 -0.13671875 0.1808319091796875 0.01849842071533203 0.007271766662597656 0.01966094970703125 0.007183074951171875 -0.15660858154296875 0.0659332275390625
28.0075 -0.1346893310546875 0.1864013671875 0.01889801025390625 0.0063991546630859375 0.020032882690429688 0.00572967529296875 -0.1581573486328125 0.072509765625
28.01625 -0.13217926025390625 0.1924591064453125 0.019504547119140625 0.0055637359619140625 0.020349502563476562 0.004614830017089844 -0.159576416015625 0.0791168212890625
28.025 -0.1295013427734375 0.19821929931640625 0.019977569580078125 0.0046024322509765625 0.02031707763671875 0.0032901763916015625 -0.16004180908203125 0.085601806640625
28.03375 -0.1264801025390625 0.20388031005859375 0.02039051055908203 0.0035123825073242188 0.02022266387939453 0.0021142959594726562 -0.16051483154296875 0.09229278564453125
28.0425 -0.1231231689453125 0.2088470458984375 0.020864486694335938 0.0021409988403320312 0.020092010498046875 0.000972747802734375 -0.16066741943359375 0.099212646484375
28.05125 -0.1192779541015625 0.2139129638671875 0.0207366943359375 0.0005741119384765625 0.0198211669921875 0.000110626220703125 -0.1604156494140625 0.1061553955078125
28.06 -0.1153411865234375 0.2190399169921875 0.020310401916503906 -0.0008249282836914062 0.019593238830566406 -0.0006008148193359375 -0.16014862060546875 0.11324310302734375
28.06875 -0.11035919189453125 0.2234649658203125 0.02019214630126953 -0.0017528533935546875 0.019552230834960938 -0.0013685226440429688 -0.15911102294921875 0.12026214599609375
28.0775 -0.105682373046875 0.2279815673828125 0.01997089385986328 -0.0026922225952148438 0.019814491271972656 -0.0019273757934570312 -0.15764617919921875 0.12715911865234375
28.08625 -0.10070037841796875 0.2324676513671875 0.019677162170410156 -0.0035762786865234375 0.020058631896972656 -0.0028562545776367188 -0.15604400634765625 0.134033203125
28.095 -0.0955963134765625 0.23644256591796875 0.01966381072998047 -0.0045528411865234375 0.020368576049804688 -0.003983497619628906 -0.1539764404296875 0.1408538818359375
28.10375 -0.089996337890625 0.240692138671875 0.01940155029296875 -0.005436897277832031 0.02062225341796875 -0.005667686462402344 -0.1520538330078125 0.1473846435546875
28.1125 -0.083709716796875 0.244232177734375 0.01925373077392578 -0.006470680236816406 0.020392417907714844 -0.0072193145751953125 -0.149169921875 0.15360260009765625
28.12125 -0.0778045654296875 0.247711181640625 0.019087791442871094 -0.007796287536621094 0.019695281982421875 -0.008960723876953125 -0.14633941650390625 0.15998077392578125
28.13 -0.0712738037109375 0.2507781982421875 0.01860332489013672 -0.009006500244140625 0.018655776977539062 -0.010152816772460938 -0.14319610595703125 0.1657867431640625
28.13875 -0.06488037109375 0.253936767578125 0.017839431762695312 -0.009940147399902344 0.017581939697265625 -0.011249542236328125 -0.1397857666015625 0.1720428466796875
28.1475 -0.0584716796875 0.25665283203125 0.017213821411132812 -0.011217117309570312 0.01665782928466797 -0.011919021606445312 -0.1358795166015625 0.17700958251953125
28.15625 -0.052001953125 0.259368896484375 0.016628265380859375 -0.0120849609375 0.015662193298339844 -0.012459754943847656 -0.1313934326171875 0.182525634765625
28.165 -0.04571533203125 0.2613525390625 0.015654563903808594 -0.012909889221191406 0.014894485473632812 -0.012765884399414062 -0.126800537109375 0.1878662109375
28.17375 -0.03936767578125 0.263519287109375 0.014621257781982422 -0.013590812683105469 0.014363288879394531 -0.013288021087646484 -0.1221923828125 0.192657470703125
28.1825 -0.0326690673828125 0.264739990234375 0.01404428482055664 -0.01408529281616211 0.013943195343017578 -0.013581275939941406 -0.11690521240234375 0.19716644287109375
28.19125 -0.026580810546875 0.266571044921875 0.013242244720458984 -0.014508724212646484 0.013493061065673828 -0.01433420181274414 -0.11188507080078125 0.2012786865234375
28.2 -0.0196533203125 0.2672271728515625 0.012677669525146484 -0.014997005462646484 0.013083934783935547 -0.015050888061523438 -0.10628509521484375 0.20534515380859375
28.20875 -0.012725830078125 0.2684326171875 0.012232780456542969 -0.015553951263427734 0.012503623962402344 -0.01604747772216797 -0.10065460205078125 0.20946502685546875
28.2175 -0.00634765625 0.2684173583984375 0.011689186096191406 -0.016318321228027344 0.01175689697265625 -0.01701831817626953 -0.0947418212890625 0.2131195068359375
28.22625 -0.0001220703125 0.268096923828125 0.011209487915039062 -0.017388343811035156 0.010707855224609375 -0.01801300048828125 -0.08902740478515625 0.21660614013671875
28.235 0.006134033203125 0.267974853515625 0.010064125061035156 -0.018381118774414062 0.009402275085449219 -0.018613815307617188 -0.082427978515625 0.219940185546875
28.24375 0.01263427734375 0.267120361328125 0.008797645568847656 -0.019077301025390625 0.008131980895996094 -0.019005775451660156 -0.075927734375 0.22286224365234375
28.2525 0.019317626953125 0.2660675048828125 0.00740814208984375 -0.019697189331054688 0.006844520568847656 -0.019394874572753906 -0.069549560546875 0.22568511962890625
28.26125 0.025604248046875 0.2645263671875 0.006211280822753906 -0.020101547241210938 0.005756378173828125 -0.01949596405029297 -0.063079833984375 0.2282562255859375
28.27 0.031951904296875 0.26251220703125 0.0048465728759765625 -0.02016925811767578 0.004794120788574219 -0.019494056701660156 -0.05648040771484375 0.22994232177734375
28.27875 0.03839111328125 0.260467529296875 0.003528594970703125 -0.020059585571289062 0.00383758544921875 -0.019496917724609375 -0.049652099609375 0.2321624755859375
28.2875 0.044586181640625 0.2578125 0.00249481201171875 -0.019948959350585938 0.0030460357666015625 -0.019687652587890625 -0.0428619384765625 0.233062744140625
28.29625 0.050750732421875 0.2549591064453125 0.0015096664428710938 -0.01980304718017578 0.0022706985473632812 -0.019933700561523438 -0.03606414794921875 0.23410797119140625
28.305 0.0564727783203125 0.2520904541015625 0.0009374618530273438 -0.01990032196044922 0.0012502670288085938 -0.02034473419189453 -0.02933502197265625 0.234832763671875
28.31375 0.062286376953125 0.2490234375 -4.9591064453125e-05 -0.019906044006347656 0.0001888275146484375 -0.0206298828125 -0.02280426025390625 0.23455047607421875
28.3225 0.06793212890625 0.2454376220703125 -0.0008792877197265625 -0.019994735717773438 -0.0011892318725585938 -0.020748138427734375 -0.01589202880859375 0.234283447265625
28.33125 0.07305908203125 0.241973876953125 -0.001667022705078125 -0.02025604248046875 -0.0025568008422851562 -0.020818710327148438 -0.0094757080078125 0.233612060546875
28.34 0.0781097412109375 0.237762451171875 -0.0029783248901367188 -0.02041912078857422 -0.004004478454589844 -0.02040576934814453 -0.00295257568359375 0.23259735107421875
28.34875 0.082611083984375 0.233734130859375 -0.004317283630371094 -0.02026844024658203 -0.0052947998046875 -0.01983165740966797 0.00389862060546875 0.23096466064453125
28.3575 0.0871124267578125 0.2295684814453125 -0.00566864013671875 -0.01997852325439453 -0.0061969757080078125 -0.01919269561767578 0.01071929931640625 0.2290191650390625
28.36625 0.0912628173828125 0.225311279296875 -0.006655693054199219 -0.019746780395507812 -0.007029533386230469 -0.018530845642089844 0.0167236328125 0.2268218994140625
28.375 0.0953216552734375 0.220550537109375 -0.007824897766113281 -0.01917743682861328 -0.007533073425292969 -0.017993927001953125 0.0230255126953125 0.224273681640625
28.38375 0.098602294921875 0.215606689453125 -0.009050369262695312 -0.018756866455078125 -0.008337020874023438 -0.017854690551757812 0.029022216796875 0.22161865234375
28.3925 0.101898193359375 0.210418701171875 -0.0099639892578125 -0.0179595947265625 -0.009031295776367188 -0.017416000366210938 0.035003662109375 0.21875
28.40125 0.1046142578125 0.2052459716796875 -0.010698318481445312 -0.017383575439453125 -0.009953498840332031 -0.017120361328125 0.0412139892578125 0.215484619140625
28.41 0.1075286865234375 0.2000274658203125 -0.011675834655761719 -0.016904830932617188 -0.010849952697753906 -0.016872406005859375 0.0467987060546875 0.21221923828125
28.41875 0.1100616455078125 0.194610595703125 -0.012567520141601562 -0.01618671417236328 -0.01177215576171875 -0.016366004943847656 0.0523681640625 0.20849609375
28.4275 0.1123504638671875 0.1887969970703125 -0.013242721557617188 -0.015408515930175781 -0.012799263000488281 -0.01575756072998047 0.0574493408203125 0.2047271728515625
28.43625 0.113800048828125 0.1830291748046875 -0.014046669006347656 -0.014935493469238281 -0.013823509216308594 -0.015207290649414062 0.0623931884765625 0.2009735107421875
28.445 0.1153411865234375 0.1777801513671875 -0.014842033386230469 -0.014291763305664062 -0.014941215515136719 -0.014499664306640625 0.0670166015625 0.196868896484375
28.45375 0.1165618896484375 0.1722564697265625 -0.016013145446777344 -0.013417243957519531 -0.015967369079589844 -0.0135040283203125 0.071441650390625 0.1925048828125
28.4625 0.117706298828125 0.16668701171875 -0.016816139221191406 -0.012169837951660156 -0.01683807373046875 -0.012362480163574219 0.075439453125 0.1880645751953125
28.47125 0.1185455322265625 0.160919189453125 -0.017195701599121094 -0.011298179626464844 -0.01739788055419922 -0.011218070983886719 0.0787200927734375 0.1832733154296875
28.48 0.118621826171875 0.1555938720703125 -0.017813682556152344 -0.010411262512207031 -0.017726898193359375 -0.010051727294921875 0.0817718505859375 0.1788330078125
28.48875 0.1184844970703125 0.1506500244140625 -0.01845073699951172 -0.009351730346679688 -0.018320083618164062 -0.009065628051757812 0.08514404296875 0.17376708984375
28.4975 0.118377685546875 0.145538330078125 -0.0188446044921875 -0.008306503295898438 -0.018594741821289062 -0.007999420166015625 0.087860107421875 0.1688232421875
28.50625 0.117767333984375 0.140380859375 -0.019145965576171875 -0.007251739501953125 -0.01880645751953125 -0.00682830810546875 0.0899658203125 0.163177490234375
