!Created with skrf (http://scikit-rf.org).
# GHz S RI R 50.0 
!freq ReS11 ImS11 ReS21 ImS21 ReS12 ImS12 ReS22 ImS22
27.5 -0.0075225830078125 0.12711334228515625 -0.01784992218017578 -0.0019330978393554688 -0.01813793182373047 -0.0026407241821289062 0.02344512939453125 0.1106109619140625
27.50875 -0.006381988525390625 0.12215042114257812 -0.01818084716796875 -0.0010538101196289062 -0.01837921142578125 -0.00144195556640625 0.02508544921875 0.1041717529296875
27.5175 -0.005603790283203125 0.11727523803710938 -0.01827716827392578 -0.0001049041748046875 -0.018906593322753906 -0.00023174285888671875 0.0263824462890625 0.09758758544921875
27.52625 -0.005176544189453125 0.11217498779296875 -0.018433570861816406 0.0009298324584960938 -0.019057273864746094 0.0008344650268554688 0.0275115966796875 0.09170150756835938
27.535 -0.00514984130859375 0.1071624755859375 -0.018726348876953125 0.0017852783203125 -0.019128799438476562 0.0020275115966796875 0.028228759765625 0.0852508544921875
27.54375 -0.00511932373046875 0.1025390625 -0.018747329711914062 0.002960205078125 -0.019197463989257812 0.0031757354736328125 0.02832794189453125 0.07883453369140625
27.5525 -0.00568389892578125 0.0977935791015625 -0.018886566162109375 0.003963470458984375 -0.018909454345703125 0.00443267822265625 0.0276336669921875 0.07257080078125
27.56125 -0.00661468505859375 0.09317779541015625 -0.0189361572265625 0.005183219909667969 -0.018651962280273438 0.0055027008056640625 0.02693939208984375 0.06649017333984375
27.57 -0.007984161376953125 0.08883285522460938 -0.01881885528564453 0.006360054016113281 -0.018476486206054688 0.00662994384765625 0.025341033935546875 0.060573577880859375
27.57875 -0.00958251953125 0.08444595336914062 -0.0186309814453125 0.007666587829589844 -0.018178939819335938 0.007595062255859375 0.02373504638671875 0.054874420166015625
27.5875 -0.011348724365234375 0.08032989501953125 -0.01838970184326172 0.008764266967773438 -0.01811981201171875 0.008737564086914062 0.02158355712890625 0.04947662353515625
27.59625 -0.01364898681640625 0.0760955810546875 -0.017934799194335938 0.010018348693847656 -0.017658233642578125 0.010051727294921875 0.0193023681640625 0.044189453125
27.605 -0.0162200927734375 0.07222366333007812 -0.017293930053710938 0.011463165283203125 -0.017120361328125 0.011118888854980469 0.016630172729492188 0.03916358947753906
27.61375 -0.018947601318359375 0.068817138671875 -0.016771316528320312 0.012475967407226562 -0.016547203063964844 0.012274742126464844 0.0136260986328125 0.033885955810546875
27.6225 -0.021728515625 0.065338134765625 -0.016046524047851562 0.013563156127929688 -0.015995025634765625 0.013352394104003906 0.010402679443359375 0.029369354248046875
27.63125 -0.024919509887695312 0.06205558776855469 -0.015238761901855469 0.014708518981933594 -0.015055656433105469 0.014173507690429688 0.006793975830078125 0.024883270263671875
27.64 -0.028507232666015625 0.05874061584472656 -0.014539718627929688 0.015463829040527344 -0.014402389526367188 0.015207290649414062 0.0031185150146484375 0.02076244354248047
27.64875 -0.032711029052734375 0.056583404541015625 -0.013630867004394531 0.01625823974609375 -0.01357269287109375 0.01610088348388672 -0.0009212493896484375 0.016864776611328125
27.6575 -0.03632545471191406 0.054290771484375 -0.012732505798339844 0.01732921600341797 -0.012871742248535156 0.017297744750976562 -0.004987239837646484 0.013466358184814453
27.66625 -0.04047203063964844 0.051937103271484375 -0.011598587036132812 0.018349647521972656 -0.011646270751953125 0.018157958984375 -0.008881092071533203 0.010408401489257812
27.675 -0.04490852355957031 0.05019187927246094 -0.010405540466308594 0.019132614135742188 -0.010583877563476562 0.019052505493164062 -0.013369560241699219 0.007641792297363281
27.68375 -0.04879570007324219 0.04862785339355469 -0.009265899658203125 0.019759178161621094 -0.009405136108398438 0.019759178161621094 -0.01798248291015625 0.0051937103271484375
27.6925 -0.05327796936035156 0.04729652404785156 -0.007914543151855469 0.0204010009765625 -0.007968902587890625 0.020501136779785156 -0.022562026977539062 0.0031633377075195312
27.70125 -0.05782127380371094 0.04650688171386719 -0.006755828857421875 0.02094268798828125 -0.006591796875 0.02094268798828125 -0.027169227600097656 0.0011348724365234375
27.71 -0.062068939208984375 0.045825958251953125 -0.00551605224609375 0.021411895751953125 -0.0051822662353515625 0.021312713623046875 -0.032123565673828125 -0.0003814697265625
27.71875 -0.06669998168945312 0.0457763671875 -0.004119873046875 0.021642684936523438 -0.003912925720214844 0.021673202514648438 -0.03695487976074219 -0.0015544891357421875
27.7275 -0.07141876220703125 0.04604339599609375 -0.002651214599609375 0.02169036865234375 -0.0025205612182617188 0.02180957794189453 -0.041828155517578125 -0.0023021697998046875
27.73625 -0.07602691650390625 0.04666900634765625 -0.0011739730834960938 0.022011756896972656 -0.0012493133544921875 0.021913528442382812 -0.04659461975097656 -0.003173828125
27.745 -0.080352783203125 0.04747772216796875 0.00030040740966796875 0.02191448211669922 0.000217437744140625 0.022003173828125 -0.05148506164550781 -0.00323486328125
27.75375 -0.08491897583007812 0.049068450927734375 0.0017518997192382812 0.02177715301513672 0.0015649795532226562 0.021727561950683594 -0.05638885498046875 -0.003162384033203125
27.7625 -0.08926773071289062 0.050136566162109375 0.0029535293579101562 0.021439552307128906 0.0027837753295898438 0.021533966064453125 -0.06121063232421875 -0.00311279296875
27.77125 -0.09395599365234375 0.052371978759765625 0.0041255950927734375 0.021183013916015625 0.004115104675292969 0.02135181427001953 -0.06600570678710938 -0.0028228759765625
27.78 -0.09875869750976562 0.054595947265625 0.0052585601806640625 0.02086162567138672 0.005336761474609375 0.021074295043945312 -0.0706787109375 -0.00217437744140625
27.78875 -0.10365676879882812 0.057270050048828125 0.006453514099121094 0.0205230712890625 0.006618499755859375 0.020612716674804688 -0.07569122314453125 -0.001369476318359375
27.7975 -0.1079254150390625 0.060367584228515625 0.0077362060546875 0.02006053924560547 0.008008003234863281 0.020211219787597656 -0.08032608032226562 0.00018310546875
27.80625 -0.112030029296875 0.06357192993164062 0.0089874267578125 0.0193939208984375 0.009120941162109375 0.019622802734375 -0.08496475219726562 0.0016937255859375
27.815 -0.11651229858398438 0.06760787963867188 0.010258674621582031 0.01874065399169922 0.010387420654296875 0.01860809326171875 -0.08942413330078125 0.003147125244140625
27.82375 -0.120361328125 0.0711517333984375 0.011081695556640625 0.018152236938476562 0.0112457275390625 0.017847061157226562 -0.09369659423828125 0.00492095947265625
27.8325 -0.12395858764648438 0.07493209838867188 0.012009620666503906 0.01738262176513672 0.012029647827148438 0.01710224151611328 -0.09856796264648438 0.0074310302734375
27.84125 -0.12720489501953125 0.0793914794921875 0.012966156005859375 0.01658344268798828 0.012876510620117188 0.016391754150390625 -0.1028594970703125 0.0101165771484375
27.85 -0.13033294677734375 0.0839080810546875 0.014051437377929688 0.015634536743164062 0.013726234436035156 0.01585102081298828 -0.10715484619140625 0.0129852294921875
27.85875 -0.13336181640625 0.088714599609375 0.014892578125 0.014653205871582031 0.01457977294921875 0.014734268188476562 -0.11114883422851562 0.01630401611328125
27.8675 -0.13599395751953125 0.09334564208984375 0.015639305114746094 0.013735771179199219 0.015475273132324219 0.014005661010742188 -0.11542129516601562 0.01978302001953125
27.87625 -0.13828277587890625 0.09808349609375 0.016353607177734375 0.012654304504394531 0.016216278076171875 0.013051986694335938 -0.11915969848632812 0.02349853515625
27.885 -0.14044189453125 0.103607177734375 0.01702594757080078 0.011775970458984375 0.016961097717285156 0.012230873107910156 -0.122711181640625 0.02734375
27.89375 -0.14206695556640625 0.10900115966796875 0.01747417449951172 0.010636329650878906 0.01774883270263672 0.01111602783203125 -0.12631988525390625 0.0316925048828125
27.9025 -0.143310546875 0.1143798828125 0.01806354522705078 0.009534835815429688 0.018340110778808594 0.009919166564941406 -0.12972259521484375 0.0357513427734375
27.91125 -0.143951416015625 0.12017059326171875 0.018617630004882812 0.008609771728515625 0.01905059814453125 0.008606910705566406 -0.1329498291015625 0.04042816162109375
27.92 -0.144287109375 0.125762939453125 0.018967628479003906 0.007233619689941406 0.01952362060546875 0.007050514221191406 -0.13599395751953125 0.0450592041015625
27.92875 -0.1444549560546875 0.1319122314453125 0.019171714782714844 0.005785942077636719 0.019600868225097656 0.005677223205566406 -0.13885498046875 0.04996490478515625
27.9375 -0.1444091796875 0.13800048828125 0.01912975311279297 0.0043392181396484375 0.019443511962890625 0.004263877868652344 -0.1415252685546875 0.05521392822265625
27.94625 -0.1442718505859375 0.14421844482421875 0.018912315368652344 0.0030546188354492188 0.019130706787109375 0.0031652450561523438 -0.143707275390625 0.06024169921875
27.955 -0.1435089111328125 0.150299072265625 0.0186767578125 0.002178192138671875 0.01911163330078125 0.0023250579833984375 -0.1458740234375 0.0656280517578125
27.96375 -0.142730712890625 0.1568450927734375 0.01844024658203125 0.0012941360473632812 0.01891326904296875 0.0015935897827148438 -0.14800262451171875 0.07115936279296875
27.9725 -0.14116668701171875 0.16338348388671875 0.01823139190673828 0.0005397796630859375 0.018845558166503906 0.0008707046508789062 -0.14916229248046875 0.076568603515625
27.98125 -0.1397705078125 0.169097900390625 0.01819896697998047 -0.00022602081298828125 0.0189208984375 -8.7738037109375e-05 -0.1504058837890625 0.0823822021484375
27.99 -0.137603759765625 0.1755523681640625 0.01799774169921875 -0.001186370849609375 0.018965721130371094 -0.0010728836059570312 -0.150787353515625 0.08795166015625
27.99875 -0.13594818115234375 0.18128204345703125 0.01810169219970703 -0.0019626617431640625 0.01889514923095703 -0.0023546218872070312 -0.15116119384765625 0.093780517578125
28.0075 -0.1336822509765625 0.1873321533203125 0.017896652221679688 -0.0026407241821289062 0.018395423889160156 -0.0034923553466796875 -0.1513824462890625 0.09976959228515625
28.01625 -0.13134765625 0.193695068359375 0.017594337463378906 -0.0035181045532226562 0.01794910430908203 -0.004580497741699219 -0.15132904052734375 0.10573577880859375
28.025 -0.12848663330078125 0.1993865966796875 0.017492294311523438 -0.0045680999755859375 0.017244338989257812 -0.005532264709472656 -0.15047454833984375 0.1116180419921875
28.03375 -0.1251373291015625 0.20481109619140625 0.017104148864746094 -0.005547523498535156 0.016536712646484375 -0.006283760070800781 -0.14978790283203125 0.117950439453125
28.0425 -0.121368408203125 0.20967864990234375 0.01653766632080078 -0.0064792633056640625 0.0160064697265625 -0.00691986083984375 -0.14865875244140625 0.12483978271484375
28.05125 -0.11724853515625 0.2144317626953125 0.016101837158203125 -0.0076580047607421875 0.015394210815429688 -0.007342338562011719 -0.147216796875 0.1310272216796875
28.06 -0.1135406494140625 0.21935272216796875 0.015372753143310547 -0.008497238159179688 0.014982223510742188 -0.00786733627319336 -0.14580535888671875 0.13742828369140625
28.06875 -0.10890960693359375 0.2238922119140625 0.014738082885742188 -0.008972644805908203 0.014481544494628906 -0.008221149444580078 -0.1436920166015625 0.14359283447265625
28.0775 -0.10416412353515625 0.2285614013671875 0.01412200927734375 -0.00935220718383789 0.014146804809570312 -0.0086212158203125 -0.141448974609375 0.14992523193359375
28.08625 -0.0989532470703125 0.23293304443359375 0.013465404510498047 -0.009602546691894531 0.01412057876586914 -0.00926971435546875 -0.1386871337890625 0.15619659423828125
28.095 -0.09394073486328125 0.237091064453125 0.013119220733642578 -0.010035514831542969 0.013859748840332031 -0.010012626647949219 -0.13556671142578125 0.16184234619140625
28.10375 -0.08843231201171875 0.24090576171875 0.012621879577636719 -0.010442256927490234 0.013561248779296875 -0.010928630828857422 -0.132537841796875 0.1678619384765625
28.1125 -0.0823822021484375 0.244140625 0.01226806640625 -0.010957717895507812 0.012897968292236328 -0.01192331314086914 -0.1288604736328125 0.17327117919921875
28.12125 -0.07659912109375 0.2474365234375 0.01172018051147461 -0.011797904968261719 0.01209402084350586 -0.012710094451904297 -0.125091552734375 0.1786651611328125
28.13 -0.07012939453125 0.25054931640625 0.011015892028808594 -0.012710094451904297 0.010983943939208984 -0.013405799865722656 -0.12087249755859375 0.18360137939453125
28.13875 -0.0637054443359375 0.253753662109375 0.01032114028930664 -0.01338815689086914 0.009955406188964844 -0.013829231262207031 -0.11640167236328125 0.188568115234375
28.1475 -0.0572509765625 0.2567901611328125 0.009458541870117188 -0.013801097869873047 0.008881568908691406 -0.013770580291748047 -0.1115570068359375 0.1926727294921875
28.15625 -0.050445556640625 0.25933837890625 0.008812904357910156 -0.013936996459960938 0.00818634033203125 -0.013838768005371094 -0.1064605712890625 0.19659423828125
28.165 -0.044219970703125 0.26153564453125 0.008358955383300781 -0.014225959777832031 0.007765769958496094 -0.013746261596679688 -0.1015167236328125 0.2005462646484375
28.17375 -0.0377044677734375 0.26361083984375 0.007775783538818359 -0.014327526092529297 0.007449626922607422 -0.013957977294921875 -0.0961761474609375 0.20426177978515625
28.1825 -0.031219482421875 0.2648468017578125 0.006983757019042969 -0.014433860778808594 0.006881237030029297 -0.014286994934082031 -0.09058380126953125 0.20751953125
28.19125 -0.0252685546875 0.2663421630859375 0.006390571594238281 -0.014696121215820312 0.0064105987548828125 -0.014655590057373047 -0.08455657958984375 0.2101593017578125
28.2 -0.0179290771484375 0.2673187255859375 0.005739688873291016 -0.014903068542480469 0.005933284759521484 -0.015043258666992188 -0.07852935791015625 0.2130126953125
28.20875 -0.01141357421875 0.267974853515625 0.00518035888671875 -0.015268802642822266 0.0053348541259765625 -0.015530586242675781 -0.072265625 0.215728759765625
28.2175 -0.0053253173828125 0.268341064453125 0.004502296447753906 -0.0157623291015625 0.0045146942138671875 -0.016073226928710938 -0.06580352783203125 0.21779632568359375
28.22625 0.0009765625 0.267486572265625 0.0038137435913085938 -0.016277313232421875 0.0035028457641601562 -0.016599655151367188 -0.05957794189453125 0.21976470947265625
28.235 0.0079498291015625 0.2669830322265625 0.00286865234375 -0.01686382293701172 0.0024700164794921875 -0.016531944274902344 -0.053009033203125 0.221649169921875
28.24375 0.014129638671875 0.265960693359375 0.001750946044921875 -0.017213821411132812 0.001392364501953125 -0.016611099243164062 -0.04634857177734375 0.223114013671875
28.2525 0.0206756591796875 0.265167236328125 0.0007390975952148438 -0.017294883728027344 0.00048351287841796875 -0.016437530517578125 -0.03973388671875 0.22415924072265625
28.26125 0.026885986328125 0.2635040283203125 -0.0002117156982421875 -0.017004966735839844 -0.0003070831298828125 -0.01616191864013672 -0.0331878662109375 0.225189208984375
28.27 0.03314208984375 0.261749267578125 -0.0011997222900390625 -0.016530990600585938 -0.0010471343994140625 -0.015748977661132812 -0.0267181396484375 0.2252349853515625
28.27875 0.039581298828125 0.259613037109375 -0.0018672943115234375 -0.016155242919921875 -0.001407623291015625 -0.01546478271484375 -0.020355224609375 0.2255401611328125
28.2875 0.0454559326171875 0.257171630859375 -0.0025072097778320312 -0.015750885009765625 -0.0017824172973632812 -0.015453338623046875 -0.0139617919921875 0.22478485107421875
28.29625 0.05169677734375 0.254150390625 -0.0030717849731445312 -0.015408515930175781 -0.0022983551025390625 -0.015462875366210938 -0.0076141357421875 0.22472381591796875
28.305 0.0572967529296875 0.25115966796875 -0.0033464431762695312 -0.015198707580566406 -0.0029134750366210938 -0.015710830688476562 -0.00141143798828125 0.2233428955078125
28.31375 0.0633087158203125 0.24786376953125 -0.00392913818359375 -0.015232086181640625 -0.00385284423828125 -0.015932083129882812 0.00481414794921875 0.221893310546875
28.3225 0.0687713623046875 0.2442474365234375 -0.004638671875 -0.015316009521484375 -0.004779815673828125 -0.015702247619628906 0.01061248779296875 0.2199554443359375
28.33125 0.0739593505859375 0.24078369140625 -0.005227088928222656 -0.015303611755371094 -0.00567626953125 -0.015484809875488281 0.0166015625 0.2177734375
28.34 0.0789794921875 0.2368316650390625 -0.0059337615966796875 -0.015307426452636719 -0.006458282470703125 -0.015102386474609375 0.02251434326171875 0.2151947021484375
28.34875 0.0838775634765625 0.2328338623046875 -0.00666046142578125 -0.0154571533203125 -0.007160186767578125 -0.014764785766601562 0.028350830078125 0.212066650390625
28.3575 0.088470458984375 0.228729248046875 -0.007555961608886719 -0.015187263488769531 -0.007829666137695312 -0.014461517333984375 0.03404998779296875 0.2088470458984375
28.36625 0.0923614501953125 0.224151611328125 -0.008439064025878906 -0.014932632446289062 -0.008488655090332031 -0.01404571533203125 0.039154052734375 0.2052764892578125
28.375 0.0960693359375 0.21923828125 -0.009197235107421875 -0.014394760131835938 -0.008939743041992188 -0.013607025146484375 0.0444488525390625 0.2010955810546875
28.38375 0.099090576171875 0.214752197265625 -0.0099945068359375 -0.014108657836914062 -0.009569168090820312 -0.013479232788085938 0.04925537109375 0.197052001953125
28.3925 0.102386474609375 0.2095947265625 -0.01088714599609375 -0.013357162475585938 -0.010204315185546875 -0.013147354125976562 0.0538482666015625 0.1929168701171875
28.40125 0.1053009033203125 0.2047119140625 -0.01155853271484375 -0.012808799743652344 -0.010904312133789062 -0.012865066528320312 0.05847930908203125 0.1884765625
28.41 0.1078948974609375 0.1995849609375 -0.012230873107910156 -0.012073516845703125 -0.011620521545410156 -0.012505531311035156 0.06292724609375 0.18424224853515625
28.41875 0.110107421875 0.1941680908203125 -0.012986183166503906 -0.01157379150390625 -0.012472152709960938 -0.012075424194335938 0.066864013671875 0.17937469482421875
28.4275 0.11248779296875 0.1881866455078125 -0.013669967651367188 -0.010933876037597656 -0.01343536376953125 -0.0113983154296875 0.07036590576171875 0.1744842529296875
28.43625 0.113983154296875 0.1822509765625 -0.014418601989746094 -0.010403633117675781 -0.014174461364746094 -0.010865211486816406 0.07343292236328125 0.16982269287109375
28.445 0.115081787109375 0.17694091796875 -0.015024185180664062 -0.00966644287109375 -0.014891624450683594 -0.010000228881835938 0.07645416259765625 0.16527557373046875
28.45375 0.11627197265625 0.1712799072265625 -0.015622138977050781 -0.009031295776367188 -0.015620231628417969 -0.009166717529296875 0.07878875732421875 0.16030120849609375
28.4625 0.1171722412109375 0.165679931640625 -0.016170501708984375 -0.008211135864257812 -0.01620006561279297 -0.008251190185546875 0.08110809326171875 0.1553497314453125
28.47125 0.118011474609375 0.159759521484375 -0.016701698303222656 -0.007343292236328125 -0.016715049743652344 -0.0071468353271484375 0.08278656005859375 0.15042877197265625
28.48 0.11846923828125 0.154449462890625 -0.017073631286621094 -0.00638580322265625 -0.01685810089111328 -0.0062770843505859375 0.08402252197265625 0.1450653076171875
28.48875 0.1180419921875 0.1492156982421875 -0.017274856567382812 -0.0056362152099609375 -0.017020225524902344 -0.005457878112792969 0.085296630859375 0.13995361328125
28.4975 0.117828369140625 0.144317626953125 -0.017574310302734375 -0.005008697509765625 -0.017307281494140625 -0.004669189453125 0.0855865478515625 0.1347198486328125
28.50625 0.1170654296875 0.139190673828125 -0.0178985595703125 -0.00421905517578125 -0.017793655395507812 -0.00377655029296875 0.0854339599609375 0.1293182373046875
