!Created with skrf (http://scikit-rf.org).
# GHz S RI R 50.0 
!freq ReS11 ImS11 ReS21 ImS21 ReS12 ImS12 ReS22 ImS22
27.5 0.010650634765625 0.1600799560546875 -0.008282184600830078 0.000614166259765625 -0.008017539978027344 0.0005197525024414062 -0.03521728515625 0.20328521728515625
27.50875 0.0133209228515625 0.1544952392578125 -0.007998943328857422 0.001262664794921875 -0.007834911346435547 0.0011057853698730469 -0.02861785888671875 0.19977569580078125
27.5175 0.01564788818359375 0.14910888671875 -0.0076673030853271484 0.001772165298461914 -0.007737874984741211 0.0015578269958496094 -0.0225677490234375 0.1960906982421875
27.52625 0.01747894287109375 0.14340972900390625 -0.00751185417175293 0.002178668975830078 -0.007452487945556641 0.002129793167114258 -0.01668548583984375 0.1922760009765625
27.535 0.019073486328125 0.137847900390625 -0.007289409637451172 0.0024309158325195312 -0.007174015045166016 0.002529621124267578 -0.0110321044921875 0.1882781982421875
27.54375 0.0203094482421875 0.1325531005859375 -0.006898403167724609 0.0031027793884277344 -0.007044315338134766 0.0029706954956054688 -0.0059051513671875 0.1839141845703125
27.5525 0.02129364013671875 0.12717437744140625 -0.006716251373291016 0.0034584999084472656 -0.006650686264038086 0.003497600555419922 -0.001007080078125 0.17942047119140625
27.56125 0.021942138671875 0.1216888427734375 -0.006468534469604492 0.0038847923278808594 -0.006472110748291016 0.0038313865661621094 0.0034637451171875 0.17400360107421875
27.57 0.02245330810546875 0.116546630859375 -0.0063304901123046875 0.004225254058837891 -0.006110429763793945 0.0041048526763916016 0.007537841796875 0.1691131591796875
27.57875 0.02252197265625 0.11107635498046875 -0.006055593490600586 0.0044384002685546875 -0.005871772766113281 0.004586696624755859 0.01137542724609375 0.164093017578125
27.5875 0.02204132080078125 0.10584259033203125 -0.0057299137115478516 0.004954338073730469 -0.005705356597900391 0.004948854446411133 0.01485443115234375 0.15862274169921875
27.59625 0.020832061767578125 0.10088729858398438 -0.005247354507446289 0.00536036491394043 -0.0052912235260009766 0.0052874088287353516 0.0180816650390625 0.1532135009765625
27.605 0.01969146728515625 0.09613037109375 -0.005011558532714844 0.005850076675415039 -0.004940032958984375 0.005715131759643555 0.02091217041015625 0.1474456787109375
27.61375 0.01834869384765625 0.09149551391601562 -0.004547595977783203 0.006163358688354492 -0.004437923431396484 0.006193399429321289 0.02361297607421875 0.14153289794921875
27.6225 0.016689300537109375 0.08686065673828125 -0.004005908966064453 0.006410837173461914 -0.003906965255737305 0.006375789642333984 0.0258331298828125 0.13578033447265625
27.63125 0.0142822265625 0.08269882202148438 -0.003482818603515625 0.006589174270629883 -0.003378629684448242 0.006554841995239258 0.02790069580078125 0.12963104248046875
27.64 0.0120086669921875 0.0784454345703125 -0.003024578094482422 0.006873607635498047 -0.002891063690185547 0.006791591644287109 0.0294189453125 0.12348175048828125
27.64875 0.0091705322265625 0.07442855834960938 -0.00247955322265625 0.0071413516998291016 -0.0023899078369140625 0.0068814754486083984 0.03046417236328125 0.11750030517578125
27.6575 0.005924224853515625 0.070526123046875 -0.0018978118896484375 0.00712895393371582 -0.0018181800842285156 0.0069332122802734375 0.03145599365234375 0.11171722412109375
27.66625 0.002635955810546875 0.06698226928710938 -0.0012543201446533203 0.007213592529296875 -0.0012710094451904297 0.007031679153442383 0.031890869140625 0.10577392578125
27.675 -0.00072479248046875 0.0640106201171875 -0.0008554458618164062 0.007139682769775391 -0.0008478164672851562 0.006990909576416016 0.031707763671875 0.09979248046875
27.68375 -0.00432586669921875 0.060871124267578125 -0.00035953521728515625 0.007107734680175781 -0.00028896331787109375 0.007088184356689453 0.0311279296875 0.0941619873046875
27.6925 -0.008319854736328125 0.05780792236328125 5.14984130859375e-05 0.006920337677001953 0.0002560615539550781 0.007075786590576172 0.0301971435546875 0.0886383056640625
27.70125 -0.012542724609375 0.055362701416015625 0.0005092620849609375 0.006762981414794922 0.0006728172302246094 0.006871700286865234 0.028656005859375 0.08306884765625
27.71 -0.01670074462890625 0.053356170654296875 0.0009915828704833984 0.006594657897949219 0.0011026859283447266 0.0066335201263427734 0.0267333984375 0.07806396484375
27.71875 -0.021129608154296875 0.05141448974609375 0.0013685226440429688 0.0063934326171875 0.0015304088592529297 0.00626373291015625 0.024730682373046875 0.07296371459960938
27.7275 -0.025836944580078125 0.05008888244628906 0.0016803741455078125 0.006011247634887695 0.0017910003662109375 0.006164073944091797 0.0219879150390625 0.06800460815429688
27.73625 -0.0302581787109375 0.04872322082519531 0.0019888877868652344 0.006028652191162109 0.001957416534423828 0.005972385406494141 0.0194091796875 0.06310653686523438
27.745 -0.03473663330078125 0.04763031005859375 0.002246856689453125 0.006166934967041016 0.0022411346435546875 0.0060138702392578125 0.016292572021484375 0.058780670166015625
27.75375 -0.039630889892578125 0.04697227478027344 0.0028586387634277344 0.006083965301513672 0.002883434295654297 0.005920886993408203 0.0128326416015625 0.0543670654296875
27.7625 -0.044460296630859375 0.04648399353027344 0.0034112930297851562 0.005719184875488281 0.0032777786254882812 0.005608081817626953 0.008947372436523438 0.04991340637207031
27.77125 -0.04946708679199219 0.04659843444824219 0.003643512725830078 0.005130767822265625 0.0036606788635253906 0.005060672760009766 0.0051021575927734375 0.04586029052734375
27.78 -0.05441093444824219 0.04697608947753906 0.0037488937377929688 0.004859447479248047 0.003734588623046875 0.0049190521240234375 0.000957489013671875 0.04229545593261719
27.78875 -0.059543609619140625 0.04771995544433594 0.003978729248046875 0.004542827606201172 0.003980159759521484 0.004752159118652344 -0.0034503936767578125 0.03862953186035156
27.7975 -0.06441497802734375 0.0487060546875 0.00408935546875 0.004453182220458984 0.0043354034423828125 0.004506587982177734 -0.007974624633789062 0.03521156311035156
27.80625 -0.06930160522460938 0.05007171630859375 0.004569530487060547 0.0041599273681640625 0.004672050476074219 0.004323005676269531 -0.012781143188476562 0.03238868713378906
27.815 -0.07401275634765625 0.052181243896484375 0.0048274993896484375 0.0037055015563964844 0.005003452301025391 0.0038499832153320312 -0.017867088317871094 0.029509544372558594
27.82375 -0.0788116455078125 0.0541229248046875 0.0051174163818359375 0.0032682418823242188 0.0053234100341796875 0.00336456298828125 -0.022708892822265625 0.02696990966796875
27.8325 -0.0835723876953125 0.0567779541015625 0.005309581756591797 0.002758026123046875 0.005344390869140625 0.0028319358825683594 -0.027971267700195312 0.025528907775878906
27.84125 -0.08792495727539062 0.059856414794921875 0.005324363708496094 0.002443552017211914 0.005318403244018555 0.0023047924041748047 -0.03315162658691406 0.0242156982421875
27.85 -0.09186935424804688 0.0628814697265625 0.00501704216003418 0.002206563949584961 0.005255460739135742 0.0021076202392578125 -0.0385284423828125 0.023097991943359375
27.85875 -0.09560012817382812 0.06634902954101562 0.005118846893310547 0.0019474029541015625 0.005177974700927734 0.00191497802734375 -0.04409217834472656 0.02275848388671875
27.8675 -0.09914779663085938 0.0697784423828125 0.0053272247314453125 0.0016624927520751953 0.00528407096862793 0.0016007423400878906 -0.0493927001953125 0.0226898193359375
27.87625 -0.1026458740234375 0.07357025146484375 0.005589008331298828 0.0013022422790527344 0.005442142486572266 0.0013341903686523438 -0.054477691650390625 0.022924423217773438
27.885 -0.10595703125 0.0778656005859375 0.005276203155517578 0.0009899139404296875 0.0055811405181884766 0.001032114028930664 -0.059906005859375 0.023702621459960938
27.89375 -0.1085968017578125 0.08189010620117188 0.00533604621887207 0.0005593299865722656 0.005539417266845703 0.0005865097045898438 -0.06544113159179688 0.02490997314453125
27.9025 -0.11144638061523438 0.0863494873046875 0.0053827762603759766 0.00020623207092285156 0.005536556243896484 0.00030732154846191406 -0.07089614868164062 0.026248931884765625
27.91125 -0.1139373779296875 0.09130096435546875 0.005662202835083008 7.343292236328125e-05 0.005590677261352539 2.8133392333984375e-05 -0.07604598999023438 0.028347015380859375
27.92 -0.11599349975585938 0.0961456298828125 0.005434513092041016 -0.00022268295288085938 0.005459785461425781 -0.0003681182861328125 -0.08101654052734375 0.03057861328125
27.92875 -0.11809539794921875 0.101348876953125 0.005388021469116211 -0.0005242824554443359 0.005527973175048828 -0.0006215572357177734 -0.0860137939453125 0.03289794921875
27.9375 -0.119659423828125 0.10658645629882812 0.005444765090942383 -0.0010612010955810547 0.005291461944580078 -0.0009865760803222656 -0.09113311767578125 0.0358734130859375
27.94625 -0.12150192260742188 0.11187362670898438 0.0054111480712890625 -0.0013699531555175781 0.005355119705200195 -0.0013532638549804688 -0.09626388549804688 0.038845062255859375
27.955 -0.12255859375 0.1174163818359375 0.005354881286621094 -0.0017848014831542969 0.005224704742431641 -0.0017046928405761719 -0.10107421875 0.042449951171875
27.96375 -0.12351226806640625 0.12316131591796875 0.005083560943603516 -0.0020699501037597656 0.005081892013549805 -0.002039194107055664 -0.10560226440429688 0.04633331298828125
27.9725 -0.1241455078125 0.1289215087890625 0.00472712516784668 -0.0022819042205810547 0.005021810531616211 -0.0022735595703125 -0.10938644409179688 0.05017852783203125
27.98125 -0.12474822998046875 0.134552001953125 0.004619598388671875 -0.002675294876098633 0.0048122406005859375 -0.002724170684814453 -0.11345291137695312 0.0542755126953125
27.99 -0.12451171875 0.140289306640625 0.004485130310058594 -0.0029053688049316406 0.004771709442138672 -0.003039836883544922 -0.1169891357421875 0.058704376220703125
27.99875 -0.12422943115234375 0.14593505859375 0.004414558410644531 -0.003163576126098633 0.00452876091003418 -0.0034618377685546875 -0.12067031860351562 0.06343841552734375
28.0075 -0.1236419677734375 0.151763916015625 0.00419306755065918 -0.003492116928100586 0.004036426544189453 -0.00395655632019043 -0.12381744384765625 0.0685577392578125
28.01625 -0.122528076171875 0.157623291015625 0.0037647485733032227 -0.003762483596801758 0.003724813461303711 -0.004068613052368164 -0.1268157958984375 0.07373809814453125
28.025 -0.1211700439453125 0.1627960205078125 0.0035686492919921875 -0.003972530364990234 0.0033440589904785156 -0.0041332244873046875 -0.12921905517578125 0.07940673828125
28.03375 -0.11907958984375 0.1689300537109375 0.003197908401489258 -0.004118680953979492 0.0029616355895996094 -0.00429987907409668 -0.131500244140625 0.08531951904296875
28.0425 -0.1167144775390625 0.17415618896484375 0.002911806106567383 -0.004290103912353516 0.0025708675384521484 -0.004389047622680664 -0.13300323486328125 0.0915069580078125
28.05125 -0.1140899658203125 0.1792449951171875 0.0024614334106445312 -0.0045261383056640625 0.0023589134216308594 -0.004275321960449219 -0.134765625 0.097564697265625
28.06 -0.1109771728515625 0.1847686767578125 0.0021169185638427734 -0.004395246505737305 0.0022039413452148438 -0.004331350326538086 -0.1360321044921875 0.1038970947265625
28.06875 -0.10747528076171875 0.189697265625 0.001874685287475586 -0.004492282867431641 0.001979351043701172 -0.004275798797607422 -0.13719940185546875 0.11031341552734375
28.0775 -0.103851318359375 0.1948699951171875 0.0015947818756103516 -0.004355907440185547 0.0017850399017333984 -0.004308462142944336 -0.137603759765625 0.1173095703125
28.08625 -0.09992218017578125 0.2001800537109375 0.0016217231750488281 -0.004447221755981445 0.0015976428985595703 -0.0044438838958740234 -0.137847900390625 0.12406158447265625
28.095 -0.0958099365234375 0.2051544189453125 0.0012845993041992188 -0.004341602325439453 0.0016326904296875 -0.004533529281616211 -0.13738250732421875 0.130645751953125
28.10375 -0.09124755859375 0.21007537841796875 0.0010433197021484375 -0.004492998123168945 0.0011396408081054688 -0.004868268966674805 -0.1368408203125 0.13720703125
28.1125 -0.08664703369140625 0.2145538330078125 0.0009260177612304688 -0.0045506954193115234 0.0009808540344238281 -0.004831075668334961 -0.13587188720703125 0.14347076416015625
28.12125 -0.08197784423828125 0.21921539306640625 0.0005514621734619141 -0.0047588348388671875 0.00040221214294433594 -0.004865407943725586 -0.13477325439453125 0.15018463134765625
28.13 -0.0770111083984375 0.2235565185546875 0.0003936290740966797 -0.00476527214050293 7.677078247070312e-05 -0.004804372787475586 -0.1336822509765625 0.1564178466796875
28.13875 -0.07207489013671875 0.22788238525390625 0.00011467933654785156 -0.004768848419189453 -0.00011205673217773438 -0.004750728607177734 -0.13169097900390625 0.162872314453125
28.1475 -0.0670013427734375 0.23195648193359375 -1.7881393432617188e-05 -0.004822731018066406 -0.00033736228942871094 -0.004636526107788086 -0.12938690185546875 0.1689605712890625
28.15625 -0.06182861328125 0.2355194091796875 -0.0004687309265136719 -0.004819393157958984 -0.0006957054138183594 -0.004595756530761719 -0.1266632080078125 0.1748504638671875
28.165 -0.056884765625 0.2389373779296875 -0.0007605552673339844 -0.004743099212646484 -0.000823974609375 -0.004443645477294922 -0.1237945556640625 0.181365966796875
28.17375 -0.0513916015625 0.24158477783203125 -0.0009424686431884766 -0.0045320987701416016 -0.0009834766387939453 -0.004262447357177734 -0.120361328125 0.186920166015625
28.1825 -0.046051025390625 0.244293212890625 -0.001253366470336914 -0.004513740539550781 -0.0011103153228759766 -0.004225015640258789 -0.11629486083984375 0.1925506591796875
28.19125 -0.0409393310546875 0.24664306640625 -0.001432657241821289 -0.0044040679931640625 -0.0012559890747070312 -0.004322528839111328 -0.1122283935546875 0.19782257080078125
28.2 -0.03502655029296875 0.24921417236328125 -0.0017371177673339844 -0.004253864288330078 -0.0015375614166259766 -0.004178524017333984 -0.1079559326171875 0.20304107666015625
28.20875 -0.0292205810546875 0.25091552734375 -0.0017659664154052734 -0.004140138626098633 -0.0017147064208984375 -0.004217863082885742 -0.1028289794921875 0.20818328857421875
28.2175 -0.023651123046875 0.25177001953125 -0.0017611980438232422 -0.004084110260009766 -0.0017762184143066406 -0.004231929779052734 -0.097869873046875 0.21350860595703125
28.22625 -0.017913818359375 0.252349853515625 -0.002143383026123047 -0.004364490509033203 -0.002062082290649414 -0.004298686981201172 -0.09272003173828125 0.2182159423828125
28.235 -0.0115814208984375 0.25286865234375 -0.0025081634521484375 -0.0041921138763427734 -0.002492666244506836 -0.004163980484008789 -0.08676910400390625 0.22280120849609375
28.24375 -0.0060577392578125 0.2530059814453125 -0.002871990203857422 -0.004045724868774414 -0.002705097198486328 -0.003992795944213867 -0.08097076416015625 0.22728729248046875
28.2525 0.000640869140625 0.2533721923828125 -0.0031664371490478516 -0.0038437843322753906 -0.0029931068420410156 -0.0036630630493164062 -0.0752410888671875 0.2311553955078125
28.26125 0.006927490234375 0.2524566650390625 -0.0033648014068603516 -0.003566265106201172 -0.0031745433807373047 -0.0034852027893066406 -0.0694732666015625 0.235321044921875
28.27 0.0133056640625 0.2518310546875 -0.0034673213958740234 -0.003349781036376953 -0.0032727718353271484 -0.0033922195434570312 -0.06342315673828125 0.23880767822265625
28.27875 0.02001953125 0.250946044921875 -0.0037560462951660156 -0.0032029151916503906 -0.0034399032592773438 -0.0033140182495117188 -0.057220458984375 0.242340087890625
28.2875 0.026092529296875 0.24981689453125 -0.0037012100219726562 -0.003025531768798828 -0.0035753250122070312 -0.0031585693359375 -0.05072021484375 0.2448577880859375
28.29625 0.032806396484375 0.2484283447265625 -0.003947019577026367 -0.003009796142578125 -0.0039038658142089844 -0.003017425537109375 -0.04437255859375 0.2476959228515625
28.305 0.03924560546875 0.24676513671875 -0.004090070724487305 -0.002560853958129883 -0.004218578338623047 -0.0028858184814453125 -0.0380401611328125 0.24981689453125
28.31375 0.045196533203125 0.24505615234375 -0.004274606704711914 -0.0022623538970947266 -0.004351377487182617 -0.0024824142456054688 -0.0315093994140625 0.2514801025390625
28.3225 0.05120849609375 0.242767333984375 -0.004477024078369141 -0.0022377967834472656 -0.004638671875 -0.002176046371459961 -0.02459716796875 0.253265380859375
28.33125 0.0569305419921875 0.2408447265625 -0.0046503543853759766 -0.001912832260131836 -0.004690408706665039 -0.0017511844635009766 -0.0179443359375 0.2541961669921875
28.34 0.0622711181640625 0.238037109375 -0.0046999454498291016 -0.0018584728240966797 -0.004726886749267578 -0.00154876708984375 -0.0114288330078125 0.25482177734375
28.34875 0.06707763671875 0.235687255859375 -0.004795551300048828 -0.001706838607788086 -0.004766941070556641 -0.0012125968933105469 -0.004180908203125 0.2551422119140625
28.3575 0.072235107421875 0.232513427734375 -0.005153656005859375 -0.0013887882232666016 -0.005007028579711914 -0.0010368824005126953 0.0029144287109375 0.2551116943359375
28.36625 0.0766448974609375 0.2292633056640625 -0.005206584930419922 -0.0008857250213623047 -0.0051043033599853516 -0.0005748271942138672 0.0098876953125 0.254608154296875
28.375 0.0807342529296875 0.225982666015625 -0.005192756652832031 -0.0002396106719970703 -0.004923820495605469 -0.00023221969604492188 0.0172576904296875 0.253814697265625
28.38375 0.08453369140625 0.2220458984375 -0.00490570068359375 1.049041748046875e-05 -0.004772663116455078 -7.62939453125e-06 0.024139404296875 0.252899169921875
28.3925 0.08831787109375 0.217803955078125 -0.004833698272705078 0.00017309188842773438 -0.004670143127441406 0.00022840499877929688 0.031341552734375 0.2510986328125
28.40125 0.091827392578125 0.2138214111328125 -0.0049037933349609375 0.0003981590270996094 -0.004618406295776367 0.0003154277801513672 0.0386505126953125 0.2492828369140625
28.41 0.094696044921875 0.20928955078125 -0.0047075748443603516 0.0006012916564941406 -0.004582405090332031 0.0003764629364013672 0.0454559326171875 0.2473602294921875
28.41875 0.0975189208984375 0.2046966552734375 -0.004727602005004883 0.0007357597351074219 -0.004709959030151367 0.0004687309265136719 0.0522003173828125 0.2448883056640625
28.4275 0.1004180908203125 0.2000274658203125 -0.004859209060668945 0.0008873939514160156 -0.004851818084716797 0.0007784366607666016 0.058807373046875 0.242279052734375
28.43625 0.1027069091796875 0.194976806640625 -0.004853963851928711 0.001264333724975586 -0.004737377166748047 0.0010912418365478516 0.065216064453125 0.239471435546875
28.445 0.104888916015625 0.1900634765625 -0.0047299861907958984 0.0014431476593017578 -0.0047149658203125 0.0013222694396972656 0.0717620849609375 0.23681640625
28.45375 0.1067657470703125 0.1849517822265625 -0.0045452117919921875 0.0016586780548095703 -0.004622697830200195 0.0016186237335205078 0.07757568359375 0.2327117919921875
28.4625 0.108673095703125 0.17999267578125 -0.004580497741699219 0.001809835433959961 -0.0045931339263916016 0.0017273426055908203 0.083038330078125 0.2295989990234375
28.47125 0.1104278564453125 0.174896240234375 -0.004582643508911133 0.0019583702087402344 -0.0045855045318603516 0.0018839836120605469 0.08831787109375 0.2255401611328125
28.48 0.1118621826171875 0.169921875 -0.004645109176635742 0.0022509098052978516 -0.004573345184326172 0.0021903514862060547 0.0933837890625 0.22125244140625
28.48875 0.1128082275390625 0.1650848388671875 -0.004559516906738281 0.0025756359100341797 -0.004660606384277344 0.0025725364685058594 0.098358154296875 0.21685791015625
28.4975 0.1140289306640625 0.16064453125 -0.004615068435668945 0.002820253372192383 -0.004555940628051758 0.0029861927032470703 0.10302734375 0.2121124267578125
