!Created with skrf (http://scikit-rf.org).
# GHz S RI R 50.0 
!freq ReS11 ImS11 ReS21 ImS21 ReS12 ImS12 ReS22 ImS22
27.5 -0.006500244140625 0.12798309326171875 -0.01960277557373047 -9.5367431640625e-06 -0.019547462463378906 -0.000125885009765625 -0.0350189208984375 0.1778564453125
27.50875 -0.005573272705078125 0.12215042114257812 -0.019563674926757812 0.0014200210571289062 -0.019469261169433594 0.0012454986572265625 -0.03125 0.1726226806640625
27.5175 -0.004093170166015625 0.1171722412109375 -0.018982887268066406 0.0025281906127929688 -0.019268035888671875 0.0023851394653320312 -0.0283203125 0.167633056640625
27.52625 -0.003536224365234375 0.11290740966796875 -0.01866912841796875 0.003582000732421875 -0.018897056579589844 0.0034399032592773438 -0.0251922607421875 0.16272735595703125
27.535 -0.004180908203125 0.10770416259765625 -0.0183258056640625 0.0044078826904296875 -0.01861572265625 0.0044879913330078125 -0.022613525390625 0.15728759765625
27.54375 -0.00411224365234375 0.103179931640625 -0.01800537109375 0.00539398193359375 -0.01808929443359375 0.005512237548828125 -0.02081298828125 0.151885986328125
27.5525 -0.00412750244140625 0.098419189453125 -0.01761341094970703 0.006031990051269531 -0.017899513244628906 0.006400108337402344 -0.0192108154296875 0.146484375
27.56125 -0.004878997802734375 0.0937957763671875 -0.017342567443847656 0.0069103240966796875 -0.01754474639892578 0.007282257080078125 -0.018280029296875 0.140960693359375
27.57 -0.006317138671875 0.08913421630859375 -0.01727008819580078 0.007906913757324219 -0.017127037048339844 0.008336067199707031 -0.017791748046875 0.13573455810546875
27.57875 -0.00821685791015625 0.08465576171875 -0.01681995391845703 0.008795738220214844 -0.01668071746826172 0.009057998657226562 -0.0170745849609375 0.1306610107421875
27.5875 -0.010242462158203125 0.08081436157226562 -0.016439437866210938 0.009784698486328125 -0.016165733337402344 0.010105133056640625 -0.01703643798828125 0.1251678466796875
27.59625 -0.0128936767578125 0.07698440551757812 -0.016040802001953125 0.010746955871582031 -0.015530586242675781 0.010799407958984375 -0.017284393310546875 0.11989974975585938
27.605 -0.01534271240234375 0.07343292236328125 -0.015343189239501953 0.011950016021728516 -0.015283584594726562 0.011767387390136719 -0.01795196533203125 0.1149444580078125
27.61375 -0.018001556396484375 0.06964874267578125 -0.01473855972290039 0.012857437133789062 -0.01425027847290039 0.012806415557861328 -0.019001007080078125 0.10934829711914062
27.6225 -0.021228790283203125 0.0662078857421875 -0.014008045196533203 0.013697624206542969 -0.013624191284179688 0.013625144958496094 -0.02057647705078125 0.10477447509765625
27.63125 -0.02506256103515625 0.0630340576171875 -0.013019084930419922 0.014511585235595703 -0.01290273666381836 0.01433420181274414 -0.022258758544921875 0.10010910034179688
27.64 -0.028467178344726562 0.06035804748535156 -0.012308597564697266 0.015192985534667969 -0.012094497680664062 0.015049457550048828 -0.0241546630859375 0.09566879272460938
27.64875 -0.03234672546386719 0.05795097351074219 -0.011485099792480469 0.015806198120117188 -0.011304855346679688 0.015641212463378906 -0.02640533447265625 0.09133148193359375
27.6575 -0.03597450256347656 0.055767059326171875 -0.010499000549316406 0.016439437866210938 -0.010255813598632812 0.01629352569580078 -0.02899932861328125 0.08721160888671875
27.66625 -0.03997802734375 0.05316734313964844 -0.009433746337890625 0.01713085174560547 -0.009310722351074219 0.016809463500976562 -0.031829833984375 0.08338546752929688
27.675 -0.044078826904296875 0.05109405517578125 -0.00843048095703125 0.017540931701660156 -0.008228302001953125 0.017325401306152344 -0.035488128662109375 0.08019256591796875
27.68375 -0.04849433898925781 0.04947471618652344 -0.007336616516113281 0.01779460906982422 -0.0073795318603515625 0.017749786376953125 -0.0389862060546875 0.07736587524414062
27.6925 -0.05279350280761719 0.04791259765625 -0.006516456604003906 0.018186569213867188 -0.006317138671875 0.01822662353515625 -0.04265594482421875 0.07473373413085938
27.70125 -0.05738067626953125 0.046939849853515625 -0.005397796630859375 0.018499374389648438 -0.005260467529296875 0.018405914306640625 -0.04657745361328125 0.07257843017578125
27.71 -0.061725616455078125 0.04619789123535156 -0.004313468933105469 0.018698692321777344 -0.004246711730957031 0.018692970275878906 -0.050800323486328125 0.07040023803710938
27.71875 -0.06604385375976562 0.04601287841796875 -0.003192901611328125 0.0187835693359375 -0.0033006668090820312 0.018890380859375 -0.0550537109375 0.06882095336914062
27.7275 -0.0707244873046875 0.045864105224609375 -0.0021514892578125 0.01900959014892578 -0.0020961761474609375 0.01891803741455078 -0.0597686767578125 0.06763839721679688
27.73625 -0.0753173828125 0.046234130859375 -0.0013790130615234375 0.018939971923828125 -0.0011129379272460938 0.019084930419921875 -0.06422805786132812 0.06626129150390625
27.745 -0.07994842529296875 0.046993255615234375 -0.00017642974853515625 0.018899917602539062 -4.673004150390625e-05 0.019041061401367188 -0.06892776489257812 0.06578445434570312
27.75375 -0.08474349975585938 0.0483856201171875 0.000885009765625 0.018898963928222656 0.0008974075317382812 0.01902484893798828 -0.073760986328125 0.06529998779296875
27.7625 -0.0891876220703125 0.050090789794921875 0.0019006729125976562 0.018731117248535156 0.0018930435180664062 0.01906299591064453 -0.07875823974609375 0.0654144287109375
27.77125 -0.0939788818359375 0.052032470703125 0.0028238296508789062 0.018777847290039062 0.0030374526977539062 0.018817901611328125 -0.08362197875976562 0.0657196044921875
27.78 -0.09834671020507812 0.054378509521484375 0.0040435791015625 0.01842212677001953 0.004265785217285156 0.018703460693359375 -0.08812713623046875 0.06629562377929688
27.78875 -0.10309600830078125 0.05728912353515625 0.005108833312988281 0.018197059631347656 0.005259513854980469 0.01820659637451172 -0.09312820434570312 0.06696701049804688
27.7975 -0.10692214965820312 0.060359954833984375 0.00626373291015625 0.01794910430908203 0.006412506103515625 0.018019676208496094 -0.0976104736328125 0.0679931640625
27.80625 -0.11143112182617188 0.06357192993164062 0.007016181945800781 0.017279624938964844 0.007415771484375 0.017388343811035156 -0.1025390625 0.06964874267578125
27.815 -0.11554718017578125 0.06746673583984375 0.008077621459960938 0.016965866088867188 0.0083465576171875 0.01679229736328125 -0.10690689086914062 0.07149505615234375
27.82375 -0.11962127685546875 0.071319580078125 0.008716583251953125 0.0163726806640625 0.00917816162109375 0.016063690185546875 -0.11127471923828125 0.07353973388671875
27.8325 -0.12319183349609375 0.07532501220703125 0.0096435546875 0.01570606231689453 0.009858131408691406 0.015188217163085938 -0.11575698852539062 0.07641983032226562
27.84125 -0.12652587890625 0.08011627197265625 0.010408401489257812 0.014987945556640625 0.010502815246582031 0.014603614807128906 -0.11949920654296875 0.07929611206054688
27.85 -0.1297760009765625 0.0846405029296875 0.010820388793945312 0.014453887939453125 0.011019706726074219 0.014223098754882812 -0.12379074096679688 0.0821990966796875
27.85875 -0.1324920654296875 0.089324951171875 0.011724472045898438 0.0139923095703125 0.011583328247070312 0.013690948486328125 -0.1275634765625 0.08606719970703125
27.8675 -0.13483428955078125 0.09421539306640625 0.012399673461914062 0.013181686401367188 0.012129783630371094 0.013222694396972656 -0.13123321533203125 0.08995819091796875
27.87625 -0.13709259033203125 0.09903717041015625 0.012899398803710938 0.012642860412597656 0.012856483459472656 0.012729644775390625 -0.1342620849609375 0.094146728515625
27.885 -0.13947296142578125 0.1045074462890625 0.013551712036132812 0.012091636657714844 0.013749122619628906 0.012160301208496094 -0.13721466064453125 0.0985870361328125
27.89375 -0.1410369873046875 0.10996246337890625 0.01439666748046875 0.011321067810058594 0.014555931091308594 0.011312484741210938 -0.1400909423828125 0.10347747802734375
27.9025 -0.14206695556640625 0.11547088623046875 0.015079498291015625 0.010448455810546875 0.015203475952148438 0.010529518127441406 -0.14292144775390625 0.10823822021484375
27.91125 -0.14313507080078125 0.121002197265625 0.015543937683105469 0.00959014892578125 0.015870094299316406 0.009637832641601562 -0.14521026611328125 0.11345672607421875
27.92 -0.14392852783203125 0.12696075439453125 0.01619720458984375 0.00882720947265625 0.016251564025878906 0.00849151611328125 -0.14746856689453125 0.11890411376953125
27.92875 -0.1440277099609375 0.1331024169921875 0.016635894775390625 0.007830619812011719 0.01656055450439453 0.007465362548828125 -0.149200439453125 0.1245269775390625
27.9375 -0.14405059814453125 0.13909912109375 0.01683521270751953 0.006373405456542969 0.016893386840820312 0.0064563751220703125 -0.15058135986328125 0.1301116943359375
27.94625 -0.144378662109375 0.14520263671875 0.017042160034179688 0.0054531097412109375 0.017091751098632812 0.0055904388427734375 -0.151947021484375 0.1358642578125
27.955 -0.14349365234375 0.1514434814453125 0.016867637634277344 0.004576683044433594 0.017244338989257812 0.0046558380126953125 -0.15338897705078125 0.14218902587890625
27.96375 -0.1425628662109375 0.15782928466796875 0.016897201538085938 0.0038461685180664062 0.017278671264648438 0.0037240982055664062 -0.1538543701171875 0.1480255126953125
27.9725 -0.14113616943359375 0.16429901123046875 0.017058372497558594 0.0031785964965820312 0.017324447631835938 0.003269195556640625 -0.15411376953125 0.1538848876953125
27.98125 -0.13993072509765625 0.17031097412109375 0.017090797424316406 0.002407073974609375 0.01783275604248047 0.0024709701538085938 -0.154083251953125 0.15984344482421875
27.99 -0.13784027099609375 0.17636871337890625 0.017296791076660156 0.001895904541015625 0.017998695373535156 0.0015707015991210938 -0.15346527099609375 0.16570281982421875
27.99875 -0.13574981689453125 0.182342529296875 0.017670631408691406 0.0011854171752929688 0.018157005310058594 0.00048828125 -0.15241241455078125 0.171844482421875
28.0075 -0.13344573974609375 0.18799591064453125 0.01801300048828125 6.198883056640625e-05 0.018227577209472656 -0.0007791519165039062 -0.1512603759765625 0.1779327392578125
28.01625 -0.13079833984375 0.19417572021484375 0.01801776885986328 -0.00112152099609375 0.018050193786621094 -0.0019741058349609375 -0.14997100830078125 0.18384552001953125
28.025 -0.12795257568359375 0.1992950439453125 0.018064498901367188 -0.0021295547485351562 0.01772785186767578 -0.0029544830322265625 -0.147918701171875 0.18996429443359375
28.03375 -0.12430572509765625 0.205230712890625 0.017797470092773438 -0.00331878662109375 0.01711750030517578 -0.003993988037109375 -0.14574432373046875 0.1961212158203125
28.0425 -0.1205596923828125 0.21010589599609375 0.017495155334472656 -0.004535675048828125 0.016648292541503906 -0.0046863555908203125 -0.14308929443359375 0.20232391357421875
28.05125 -0.1165008544921875 0.214935302734375 0.0167694091796875 -0.005580902099609375 0.016035079956054688 -0.0052089691162109375 -0.1402130126953125 0.208160400390625
28.06 -0.11226654052734375 0.21984100341796875 0.016401290893554688 -0.0062656402587890625 0.015878677368164062 -0.005862236022949219 -0.1374053955078125 0.21413421630859375
28.06875 -0.1075439453125 0.2242889404296875 0.01597309112548828 -0.007065773010253906 0.015687942504882812 -0.006318092346191406 -0.13428497314453125 0.2197723388671875
28.0775 -0.1027679443359375 0.22872161865234375 0.015297412872314453 -0.007797718048095703 0.015639305114746094 -0.0069217681884765625 -0.13062286376953125 0.2254791259765625
28.08625 -0.09760284423828125 0.23321533203125 0.014864444732666016 -0.00836801528930664 0.01544952392578125 -0.007771492004394531 -0.1269378662109375 0.2311859130859375
28.095 -0.09232330322265625 0.2374420166015625 0.014504432678222656 -0.008810997009277344 0.015356063842773438 -0.00875091552734375 -0.1226043701171875 0.23665618896484375
28.10375 -0.086456298828125 0.241302490234375 0.0142669677734375 -0.009323596954345703 0.014942646026611328 -0.009922027587890625 -0.1185150146484375 0.2419586181640625
28.1125 -0.0806121826171875 0.2448272705078125 0.014029502868652344 -0.009976387023925781 0.01457977294921875 -0.010798454284667969 -0.11383056640625 0.2466888427734375
28.12125 -0.0747833251953125 0.24847412109375 0.013715267181396484 -0.011112213134765625 0.013785839080810547 -0.01194143295288086 -0.1093902587890625 0.2516021728515625
28.13 -0.068695068359375 0.251556396484375 0.013167381286621094 -0.012160301208496094 0.012684345245361328 -0.01290750503540039 -0.1041412353515625 0.256195068359375
28.13875 -0.062591552734375 0.255126953125 0.012100696563720703 -0.012954235076904297 0.01161050796508789 -0.013537406921386719 -0.099151611328125 0.2609405517578125
28.1475 -0.0564117431640625 0.2580718994140625 0.011090278625488281 -0.013422966003417969 0.010385990142822266 -0.013634204864501953 -0.0934295654296875 0.2645721435546875
28.15625 -0.049835205078125 0.260528564453125 0.010334968566894531 -0.013833045959472656 0.009531974792480469 -0.013792991638183594 -0.087127685546875 0.2684326171875
28.165 -0.04296875 0.262603759765625 0.009549140930175781 -0.01410675048828125 0.008835792541503906 -0.013910293579101562 -0.081268310546875 0.27227783203125
28.17375 -0.036376953125 0.26434326171875 0.008811473846435547 -0.014238357543945312 0.008414745330810547 -0.014017105102539062 -0.0750274658203125 0.275421142578125
28.1825 -0.0301971435546875 0.265289306640625 0.008270740509033203 -0.014630794525146484 0.008189201354980469 -0.01435232162475586 -0.0688629150390625 0.27850341796875
28.19125 -0.0239105224609375 0.2669677734375 0.008015155792236328 -0.014916419982910156 0.007717132568359375 -0.01490163803100586 -0.062225341796875 0.2808990478515625
28.2 -0.0169219970703125 0.2677764892578125 0.007303714752197266 -0.015369892120361328 0.007086277008056641 -0.015501022338867188 -0.055450439453125 0.2835235595703125
28.20875 -0.0102386474609375 0.268402099609375 0.006714820861816406 -0.01578998565673828 0.006388664245605469 -0.016050338745117188 -0.04888916015625 0.28558349609375
28.2175 -0.0035552978515625 0.2683868408203125 0.0059871673583984375 -0.016364097595214844 0.00559234619140625 -0.01648998260498047 -0.0421295166015625 0.28753662109375
28.22625 0.002593994140625 0.2674560546875 0.005138397216796875 -0.01712799072265625 0.0046329498291015625 -0.017145156860351562 -0.0352783203125 0.289306640625
28.235 0.0093536376953125 0.266876220703125 0.0039691925048828125 -0.01760387420654297 0.00335693359375 -0.017248153686523438 -0.0278167724609375 0.2906951904296875
28.24375 0.0153350830078125 0.26556396484375 0.002899169921875 -0.017879486083984375 0.0022993087768554688 -0.01730823516845703 -0.0210418701171875 0.2915496826171875
28.2525 0.0217742919921875 0.264801025390625 0.001537322998046875 -0.017991065979003906 0.0014781951904296875 -0.017243385314941406 -0.0140380859375 0.292327880859375
28.26125 0.027923583984375 0.2630462646484375 0.00039005279541015625 -0.017978668212890625 0.00045108795166015625 -0.01715373992919922 -0.007232666015625 0.2929840087890625
28.27 0.033966064453125 0.261383056640625 -0.0008029937744140625 -0.017717361450195312 -0.00026702880859375 -0.0168304443359375 -0.000396728515625 0.293121337890625
28.27875 0.04071044921875 0.259429931640625 -0.0018520355224609375 -0.017091751098632812 -0.0010013580322265625 -0.016649246215820312 0.006744384765625 0.293701171875
28.2875 0.0464630126953125 0.256866455078125 -0.00244903564453125 -0.01672077178955078 -0.0016241073608398438 -0.016678810119628906 0.0135345458984375 0.2925567626953125
28.29625 0.05291748046875 0.2538909912109375 -0.0029296875 -0.01647186279296875 -0.002349853515625 -0.01677703857421875 0.020538330078125 0.2919158935546875
28.305 0.058441162109375 0.251190185546875 -0.003444671630859375 -0.016313552856445312 -0.0032320022583007812 -0.01691150665283203 0.0272674560546875 0.29095458984375
28.31375 0.06439208984375 0.24822998046875 -0.004012107849121094 -0.016267776489257812 -0.004199981689453125 -0.017006874084472656 0.0336761474609375 0.2894134521484375
28.3225 0.0699615478515625 0.2448577880859375 -0.004683494567871094 -0.01627349853515625 -0.005196571350097656 -0.016826629638671875 0.0400238037109375 0.287628173828125
28.33125 0.07525634765625 0.2413177490234375 -0.0054378509521484375 -0.016510963439941406 -0.006247520446777344 -0.01657867431640625 0.0466461181640625 0.285736083984375
28.34 0.080352783203125 0.23712158203125 -0.006493568420410156 -0.016501426696777344 -0.007373809814453125 -0.01616191864013672 0.0526123046875 0.2831268310546875
28.34875 0.085052490234375 0.2330780029296875 -0.0077304840087890625 -0.016143798828125 -0.008240699768066406 -0.01544952392578125 0.0590667724609375 0.280242919921875
28.3575 0.0894927978515625 0.2284393310546875 -0.008686065673828125 -0.015748023986816406 -0.008919715881347656 -0.014818191528320312 0.06512451171875 0.277099609375
28.36625 0.093475341796875 0.2238311767578125 -0.009715080261230469 -0.015166282653808594 -0.009609222412109375 -0.014169692993164062 0.0706024169921875 0.273895263671875
28.375 0.097412109375 0.2191314697265625 -0.010594367980957031 -0.014599800109863281 -0.010203361511230469 -0.013749122619628906 0.076446533203125 0.27020263671875
28.38375 0.1011962890625 0.21405029296875 -0.011323928833007812 -0.013761520385742188 -0.010683059692382812 -0.013273239135742188 0.081939697265625 0.266510009765625
28.3925 0.10406494140625 0.208648681640625 -0.011880874633789062 -0.01309967041015625 -0.011304855346679688 -0.012922286987304688 0.087249755859375 0.262603759765625
28.40125 0.1072540283203125 0.2034912109375 -0.0127410888671875 -0.012503623962402344 -0.011981964111328125 -0.012604713439941406 0.0924072265625 0.2584991455078125
28.41 0.109771728515625 0.1983489990234375 -0.013233184814453125 -0.011693954467773438 -0.012677192687988281 -0.012049674987792969 0.09722900390625 0.25433349609375
28.41875 0.1119232177734375 0.1925201416015625 -0.013719558715820312 -0.010982513427734375 -0.013378143310546875 -0.011389732360839844 0.101837158203125 0.2497406005859375
28.4275 0.1142425537109375 0.1872406005859375 -0.014168739318847656 -0.010242462158203125 -0.0140228271484375 -0.010684967041015625 0.10614013671875 0.2449798583984375
28.43625 0.11572265625 0.181549072265625 -0.014655113220214844 -0.009540557861328125 -0.014652252197265625 -0.009885787963867188 0.1101531982421875 0.2403411865234375
28.445 0.117218017578125 0.176239013671875 -0.015276908874511719 -0.008841514587402344 -0.015355110168457031 -0.009200096130371094 0.11419677734375 0.2356719970703125
28.45375 0.11834716796875 0.170654296875 -0.015831947326660156 -0.008047103881835938 -0.015966415405273438 -0.008282661437988281 0.1175537109375 0.23052978515625
28.4625 0.1192474365234375 0.16510009765625 -0.016429901123046875 -0.0069828033447265625 -0.016470909118652344 -0.007167816162109375 0.12060546875 0.2256622314453125
28.47125 0.11993408203125 0.1595306396484375 -0.016658782958984375 -0.006117820739746094 -0.01681804656982422 -0.0061740875244140625 0.123504638671875 0.220306396484375
28.48 0.12005615234375 0.154083251953125 -0.016867637634277344 -0.005194664001464844 -0.016816139221191406 -0.00508880615234375 0.125885009765625 0.21502685546875
28.48875 0.1197967529296875 0.14892578125 -0.017049789428710938 -0.004235267639160156 -0.01696300506591797 -0.004123687744140625 0.128448486328125 0.20947265625
28.4975 0.11920166015625 0.1444091796875 -0.017147064208984375 -0.0035839080810546875 -0.016977310180664062 -0.0033721923828125 0.1298828125 0.20391845703125
28.50625 0.1185302734375 0.13934326171875 -0.017292022705078125 -0.0029087066650390625 -0.0171356201171875 -0.0026721954345703125 0.131317138671875 0.198211669921875
28.515 0.117401123046875 0.134307861328125 -0.017469406127929688 -0.0020046234130859375 -0.017236709594726562 -0.00177764892578125 0.132537841796875 0.192718505859375
