!Created with skrf (http://scikit-rf.org).
# GHz S RI R 50.0 
!freq ReS11 ImS11 ReS21 ImS21 ReS12 ImS12 ReS22 ImS22
27.5 -0.00324249267578125 0.173370361328125 -0.017381668090820312 0.00067901611328125 -0.017534255981445312 0.00040149688720703125 0.0072784423828125 0.14336395263671875
27.50875 -0.00231170654296875 0.16799163818359375 -0.017360687255859375 0.0017023086547851562 -0.017526626586914062 0.0015459060668945312 0.00925445556640625 0.13767242431640625
27.5175 -0.0017547607421875 0.1627655029296875 -0.01722240447998047 0.002384185791015625 -0.01735687255859375 0.0024824142456054688 0.01088714599609375 0.13205718994140625
27.52625 -0.001617431640625 0.15766143798828125 -0.016890525817871094 0.0034475326538085938 -0.01723003387451172 0.0035963058471679688 0.01220703125 0.12648773193359375
27.535 -0.0016937255859375 0.15264892578125 -0.016614913940429688 0.004283905029296875 -0.016876220703125 0.0043010711669921875 0.0133056640625 0.120880126953125
27.54375 -0.0019683837890625 0.14801025390625 -0.01647186279296875 0.0048465728759765625 -0.0166473388671875 0.00514984130859375 0.013671875 0.1150360107421875
27.5525 -0.002777099609375 0.14279937744140625 -0.016595840454101562 0.0055828094482421875 -0.0163726806640625 0.0059375762939453125 0.0136566162109375 0.1094970703125
27.56125 -0.003662109375 0.13797760009765625 -0.01653289794921875 0.0064373016357421875 -0.016265869140625 0.006579399108886719 0.013217926025390625 0.10408782958984375
27.57 -0.005096435546875 0.13349151611328125 -0.01634502410888672 0.0073699951171875 -0.016080856323242188 0.007573127746582031 0.012302398681640625 0.09918975830078125
27.57875 -0.00679779052734375 0.12920379638671875 -0.01609516143798828 0.008270263671875 -0.015530109405517578 0.00834035873413086 0.011646270751953125 0.09403610229492188
27.5875 -0.008544921875 0.12493133544921875 -0.015717506408691406 0.009282112121582031 -0.01525735855102539 0.009196281433105469 0.010334014892578125 0.08929443359375
27.59625 -0.01079559326171875 0.12099075317382812 -0.015001773834228516 0.010227680206298828 -0.014780044555664062 0.009952545166015625 0.00868988037109375 0.08438491821289062
27.605 -0.012786865234375 0.11744308471679688 -0.01471853256225586 0.011071205139160156 -0.01455545425415039 0.010837078094482422 0.006610870361328125 0.0798492431640625
27.61375 -0.015674591064453125 0.11393356323242188 -0.014272212982177734 0.011870861053466797 -0.013959407806396484 0.011682987213134766 0.004241943359375 0.075439453125
27.6225 -0.01848602294921875 0.11073684692382812 -0.013741493225097656 0.012866020202636719 -0.013600826263427734 0.01254129409790039 0.002178192138671875 0.07143020629882812
27.63125 -0.021663665771484375 0.10776519775390625 -0.013088226318359375 0.013891220092773438 -0.012882232666015625 0.013356208801269531 -0.000446319580078125 0.0673065185546875
27.64 -0.0249786376953125 0.10537338256835938 -0.012393474578857422 0.014589309692382812 -0.012257099151611328 0.014321327209472656 -0.00321197509765625 0.06345748901367188
27.64875 -0.028270721435546875 0.10305023193359375 -0.011571884155273438 0.015284538269042969 -0.011431217193603516 0.015262603759765625 -0.006420135498046875 0.05974388122558594
27.6575 -0.031879425048828125 0.10094070434570312 -0.010694503784179688 0.016144752502441406 -0.0105133056640625 0.015868186950683594 -0.009405136108398438 0.056613922119140625
27.66625 -0.0359039306640625 0.09902572631835938 -0.009806632995605469 0.0167236328125 -0.0095977783203125 0.016571998596191406 -0.012836456298828125 0.05391883850097656
27.675 -0.0397491455078125 0.09780120849609375 -0.00899505615234375 0.017217636108398438 -0.008958816528320312 0.01713275909423828 -0.016300201416015625 0.05106544494628906
27.68375 -0.043842315673828125 0.09642410278320312 -0.008004188537597656 0.01781940460205078 -0.008141517639160156 0.017704010009765625 -0.02004241943359375 0.04868888854980469
27.6925 -0.0481109619140625 0.09560394287109375 -0.00707244873046875 0.018217086791992188 -0.00699615478515625 0.018260955810546875 -0.02376556396484375 0.0466461181640625
27.70125 -0.0524139404296875 0.0953521728515625 -0.0059413909912109375 0.018848419189453125 -0.0059795379638671875 0.01886749267578125 -0.027828216552734375 0.044696807861328125
27.71 -0.056835174560546875 0.09536361694335938 -0.004694938659667969 0.019194602966308594 -0.004860877990722656 0.019140243530273438 -0.03208160400390625 0.043163299560546875
27.71875 -0.060886383056640625 0.09583663940429688 -0.003658294677734375 0.019431114196777344 -0.0037431716918945312 0.01935291290283203 -0.036136627197265625 0.04194450378417969
27.7275 -0.06551361083984375 0.096466064453125 -0.00249481201171875 0.019544601440429688 -0.0025691986083984375 0.019733428955078125 -0.04035758972167969 0.040843963623046875
27.73625 -0.06980514526367188 0.09752655029296875 -0.00152587890625 0.0197296142578125 -0.00151824951171875 0.019896507263183594 -0.044628143310546875 0.03989982604980469
27.745 -0.07410812377929688 0.09915542602539062 -0.00037479400634765625 0.019852638244628906 -0.0003414154052734375 0.019949913024902344 -0.04875946044921875 0.03952598571777344
27.75375 -0.077880859375 0.10089492797851562 0.0007476806640625 0.019811630249023438 0.0007753372192382812 0.0200653076171875 -0.05325889587402344 0.03950691223144531
27.7625 -0.08200836181640625 0.10278701782226562 0.00188446044921875 0.01977252960205078 0.0017461776733398438 0.020178794860839844 -0.05769157409667969 0.03959465026855469
27.77125 -0.0858917236328125 0.10518646240234375 0.0028781890869140625 0.019926071166992188 0.0029821395874023438 0.0202178955078125 -0.06217193603515625 0.0399932861328125
27.78 -0.08965682983398438 0.10773849487304688 0.004291534423828125 0.019721031188964844 0.004319190979003906 0.020236968994140625 -0.06631851196289062 0.0409393310546875
27.78875 -0.09377670288085938 0.11083221435546875 0.0055942535400390625 0.019372940063476562 0.0058193206787109375 0.01982593536376953 -0.07087326049804688 0.041782379150390625
27.7975 -0.09746932983398438 0.11394500732421875 0.0067291259765625 0.01898193359375 0.0071010589599609375 0.01933765411376953 -0.0751953125 0.042797088623046875
27.80625 -0.10095977783203125 0.11753082275390625 0.007794380187988281 0.018529891967773438 0.008332252502441406 0.018674850463867188 -0.07952880859375 0.0445556640625
27.815 -0.10427093505859375 0.121917724609375 0.008771896362304688 0.01788330078125 0.00926971435546875 0.017948150634765625 -0.08362579345703125 0.04602813720703125
27.82375 -0.10711669921875 0.1257476806640625 0.009592056274414062 0.017520904541015625 0.010152816772460938 0.017335891723632812 -0.08747100830078125 0.0478515625
27.8325 -0.10971832275390625 0.130096435546875 0.010746002197265625 0.016946792602539062 0.011058807373046875 0.016594886779785156 -0.09159469604492188 0.050502777099609375
27.84125 -0.11241912841796875 0.134857177734375 0.011782646179199219 0.016219139099121094 0.01183319091796875 0.01613330841064453 -0.09503936767578125 0.0530548095703125
27.85 -0.1148681640625 0.13948822021484375 0.012800216674804688 0.015497207641601562 0.012803077697753906 0.015480995178222656 -0.09920883178710938 0.055755615234375
27.85875 -0.11708831787109375 0.1446380615234375 0.013631820678710938 0.014658927917480469 0.01364898681640625 0.014684677124023438 -0.10287857055664062 0.058841705322265625
27.8675 -0.11858367919921875 0.149688720703125 0.014324188232421875 0.013729095458984375 0.014307022094726562 0.013939857482910156 -0.10641860961914062 0.061962127685546875
27.87625 -0.11993408203125 0.155120849609375 0.014955520629882812 0.012858390808105469 0.014979362487792969 0.013263702392578125 -0.10955429077148438 0.0655975341796875
27.885 -0.12079620361328125 0.16101837158203125 0.0155029296875 0.012259483337402344 0.015893936157226562 0.012536048889160156 -0.11248397827148438 0.06933975219726562
27.89375 -0.12117767333984375 0.166229248046875 0.01649761199951172 0.011473655700683594 0.016839981079101562 0.011641502380371094 -0.11541366577148438 0.07324600219726562
27.9025 -0.121734619140625 0.17154693603515625 0.017099380493164062 0.010467529296875 0.01763629913330078 0.010523796081542969 -0.11823272705078125 0.07724761962890625
27.91125 -0.121673583984375 0.1775360107421875 0.01782703399658203 0.009227752685546875 0.018270492553710938 0.009108543395996094 -0.12086105346679688 0.0815277099609375
27.92 -0.12122344970703125 0.183258056640625 0.018108367919921875 0.008211135864257812 0.018611907958984375 0.007853507995605469 -0.12321853637695312 0.08624649047851562
27.92875 -0.1204833984375 0.1894989013671875 0.01873779296875 0.0069561004638671875 0.018980026245117188 0.006606101989746094 -0.125274658203125 0.09093475341796875
27.9375 -0.11946868896484375 0.195281982421875 0.018891334533691406 0.005579948425292969 0.019057273864746094 0.005383491516113281 -0.1271514892578125 0.0958709716796875
27.94625 -0.1181182861328125 0.2013702392578125 0.018985748291015625 0.0044765472412109375 0.0189666748046875 0.0042266845703125 -0.128814697265625 0.1009521484375
27.955 -0.116485595703125 0.207122802734375 0.018827438354492188 0.00344085693359375 0.018850326538085938 0.0034503936767578125 -0.13018798828125 0.1063079833984375
27.96375 -0.1146087646484375 0.21307373046875 0.018876075744628906 0.0027284622192382812 0.018883705139160156 0.0026140213012695312 -0.13116455078125 0.11135101318359375
27.9725 -0.112335205078125 0.21935272216796875 0.01902484893798828 0.001743316650390625 0.019155502319335938 0.00170135498046875 -0.13165283203125 0.1165008544921875
27.98125 -0.1101531982421875 0.225372314453125 0.019003868103027344 0.0007266998291015625 0.01935291290283203 0.0007381439208984375 -0.1322479248046875 0.1219482421875
27.99 -0.1067352294921875 0.23097991943359375 0.018957138061523438 -0.00019359588623046875 0.019618988037109375 -0.0006246566772460938 -0.132080078125 0.127197265625
27.99875 -0.103912353515625 0.2370147705078125 0.019043922424316406 -0.0012578964233398438 0.019629478454589844 -0.0018835067749023438 -0.13170623779296875 0.13271331787109375
28.0075 -0.100555419921875 0.24283599853515625 0.018837928771972656 -0.0023775100708007812 0.019104957580566406 -0.003185272216796875 -0.131500244140625 0.13866424560546875
28.01625 -0.0965576171875 0.248138427734375 0.018914222717285156 -0.0034379959106445312 0.018622398376464844 -0.004336357116699219 -0.13080596923828125 0.1441650390625
28.025 -0.092681884765625 0.2532958984375 0.018632888793945312 -0.004496574401855469 0.01803874969482422 -0.0054416656494140625 -0.129547119140625 0.14974212646484375
28.03375 -0.088409423828125 0.2586669921875 0.018163681030273438 -0.0057220458984375 0.01739025115966797 -0.006192207336425781 -0.1282958984375 0.155364990234375
28.0425 -0.083740234375 0.263427734375 0.017566680908203125 -0.0068874359130859375 0.016876220703125 -0.00689697265625 -0.126617431640625 0.16156005859375
28.05125 -0.0788726806640625 0.2678375244140625 0.01711750030517578 -0.007932662963867188 0.01628875732421875 -0.007416725158691406 -0.12467193603515625 0.1670379638671875
28.06 -0.0740509033203125 0.271881103515625 0.016243934631347656 -0.008780479431152344 0.015745162963867188 -0.0080108642578125 -0.1222991943359375 0.172760009765625
28.06875 -0.0684967041015625 0.2759246826171875 0.01548004150390625 -0.009426593780517578 0.015558242797851562 -0.008465766906738281 -0.11972808837890625 0.17816162109375
28.0775 -0.062835693359375 0.2797698974609375 0.014750480651855469 -0.009770870208740234 0.015474319458007812 -0.008983612060546875 -0.116668701171875 0.18377685546875
28.08625 -0.056976318359375 0.2832794189453125 0.014266490936279297 -0.010329246520996094 0.015305519104003906 -0.009904861450195312 -0.113677978515625 0.18926239013671875
28.095 -0.050872802734375 0.2867279052734375 0.013937950134277344 -0.010860919952392578 0.015119552612304688 -0.010974884033203125 -0.10999298095703125 0.1944122314453125
28.10375 -0.0447235107421875 0.2899017333984375 0.013463020324707031 -0.011658668518066406 0.014534950256347656 -0.012164592742919922 -0.10639190673828125 0.19933319091796875
28.1125 -0.037841796875 0.292266845703125 0.013096809387207031 -0.012315750122070312 0.013607501983642578 -0.013310909271240234 -0.10227203369140625 0.20378875732421875
28.12125 -0.0314178466796875 0.2949371337890625 0.012430667877197266 -0.013312816619873047 0.012441635131835938 -0.01437997817993164 -0.0980987548828125 0.20879364013671875
28.13 -0.0245819091796875 0.297149658203125 0.011458873748779297 -0.013985633850097656 0.011017799377441406 -0.015006065368652344 -0.093597412109375 0.21297454833984375
28.13875 -0.0175018310546875 0.2996063232421875 0.01064920425415039 -0.014495849609375 0.009782791137695312 -0.015092849731445312 -0.08882904052734375 0.21735382080078125
28.1475 -0.010467529296875 0.301239013671875 0.009511470794677734 -0.014916419982910156 0.00879526138305664 -0.014975547790527344 -0.08383941650390625 0.22060394287109375
28.15625 -0.0032958984375 0.303131103515625 0.008749008178710938 -0.0153045654296875 0.00787353515625 -0.014975547790527344 -0.07861328125 0.2245025634765625
28.165 0.0036773681640625 0.3040313720703125 0.007797718048095703 -0.015492439270019531 0.007320404052734375 -0.015109539031982422 -0.07315826416015625 0.22795867919921875
28.17375 0.0105133056640625 0.3047637939453125 0.006928920745849609 -0.015583992004394531 0.006870269775390625 -0.01503753662109375 -0.06768798828125 0.2311248779296875
28.1825 0.0177001953125 0.3052978515625 0.006320476531982422 -0.015555858612060547 0.006340980529785156 -0.015345096588134766 -0.06195831298828125 0.23343658447265625
28.19125 0.02447509765625 0.30596923828125 0.005827903747558594 -0.01569080352783203 0.005850791931152344 -0.015694618225097656 -0.0559539794921875 0.23589324951171875
28.2 0.03192138671875 0.306396484375 0.005280494689941406 -0.0160369873046875 0.005335807800292969 -0.016204833984375 -0.05002593994140625 0.23785400390625
28.20875 0.0389862060546875 0.305816650390625 0.004694938659667969 -0.016373634338378906 0.004532814025878906 -0.016693115234375 -0.044036865234375 0.2399444580078125
28.2175 0.0458221435546875 0.3054656982421875 0.003833770751953125 -0.016756057739257812 0.0035848617553710938 -0.017103195190429688 -0.03775787353515625 0.24164581298828125
28.22625 0.0522308349609375 0.3046722412109375 0.0032176971435546875 -0.01726055145263672 0.0025434494018554688 -0.017348289489746094 -0.0316619873046875 0.2428436279296875
28.235 0.0592041015625 0.30328369140625 0.0021219253540039062 -0.017581939697265625 0.0014591217041015625 -0.017581939697265625 -0.0252532958984375 0.24383544921875
28.24375 0.0660552978515625 0.3013916015625 0.0008487701416015625 -0.017957687377929688 0.0002460479736328125 -0.017412185668945312 -0.0187835693359375 0.244384765625
28.2525 0.0725250244140625 0.2999725341796875 -0.000217437744140625 -0.017808914184570312 -0.0006990432739257812 -0.01710033416748047 -0.01242828369140625 0.2444305419921875
28.26125 0.0789642333984375 0.297515869140625 -0.00140380859375 -0.017528533935546875 -0.0014257431030273438 -0.016753196716308594 -0.005950927734375 0.244842529296875
28.27 0.0850830078125 0.294830322265625 -0.0022830963134765625 -0.017164230346679688 -0.0019283294677734375 -0.016500473022460938 9.1552734375e-05 0.244171142578125
28.27875 0.091461181640625 0.291961669921875 -0.003131866455078125 -0.016845703125 -0.002452850341796875 -0.016382217407226562 0.006591796875 0.243743896484375
28.2875 0.0975799560546875 0.288665771484375 -0.0038347244262695312 -0.01643657684326172 -0.0030002593994140625 -0.01645660400390625 0.01275634765625 0.2425994873046875
28.29625 0.1038970947265625 0.2849884033203125 -0.00433349609375 -0.01623821258544922 -0.0038814544677734375 -0.01642608642578125 0.0189971923828125 0.24169921875
28.305 0.1097412109375 0.2811126708984375 -0.004948616027832031 -0.015900611877441406 -0.004521369934082031 -0.016559600830078125 0.02520751953125 0.23992919921875
28.31375 0.1153411865234375 0.277130126953125 -0.005428314208984375 -0.015796661376953125 -0.005619049072265625 -0.01645374298095703 0.031341552734375 0.2376556396484375
28.3225 0.12078857421875 0.272552490234375 -0.006038665771484375 -0.015755653381347656 -0.006687164306640625 -0.016237258911132812 0.0372161865234375 0.235260009765625
28.33125 0.1257476806640625 0.2685699462890625 -0.0068378448486328125 -0.01564311981201172 -0.007681846618652344 -0.015813827514648438 0.0428924560546875 0.2330169677734375
28.34 0.130706787109375 0.2634735107421875 -0.007729530334472656 -0.015461921691894531 -0.008600234985351562 -0.015151023864746094 0.04852294921875 0.2298583984375
28.34875 0.1351776123046875 0.2588958740234375 -0.008695602416992188 -0.015246391296386719 -0.009434700012207031 -0.014545440673828125 0.0539703369140625 0.2266998291015625
28.3575 0.1396942138671875 0.253753662109375 -0.009640693664550781 -0.014688491821289062 -0.009972572326660156 -0.013803482055664062 0.059600830078125 0.2231597900390625
28.36625 0.1438140869140625 0.2484893798828125 -0.010589599609375 -0.01409149169921875 -0.010389328002929688 -0.013218879699707031 0.06427001953125 0.21966552734375
28.375 0.1473388671875 0.24346923828125 -0.01131439208984375 -0.013696670532226562 -0.0107879638671875 -0.012636184692382812 0.06903076171875 0.21563720703125
28.38375 0.15081787109375 0.238372802734375 -0.012037277221679688 -0.0130462646484375 -0.0113677978515625 -0.01221466064453125 0.07366943359375 0.211639404296875
28.3925 0.1539154052734375 0.2327880859375 -0.012618064880371094 -0.012378692626953125 -0.01171875 -0.011982917785644531 0.0775909423828125 0.20745849609375
28.40125 0.1571807861328125 0.2272796630859375 -0.013227462768554688 -0.011737823486328125 -0.012160301208496094 -0.011597633361816406 0.0819549560546875 0.202850341796875
28.41 0.1595916748046875 0.2216339111328125 -0.013624191284179688 -0.011101722717285156 -0.012887954711914062 -0.011271476745605469 0.0853729248046875 0.1984405517578125
28.41875 0.1616973876953125 0.2161102294921875 -0.014251708984375 -0.010416984558105469 -0.013607978820800781 -0.010849952697753906 0.0886688232421875 0.193756103515625
28.4275 0.1636505126953125 0.2105560302734375 -0.014922142028808594 -0.009852409362792969 -0.014527320861816406 -0.010202407836914062 0.0919189453125 0.1889190673828125
28.43625 0.1654815673828125 0.204864501953125 -0.015412330627441406 -0.008933067321777344 -0.015277862548828125 -0.009455680847167969 0.0948028564453125 0.1842803955078125
28.445 0.1668853759765625 0.199249267578125 -0.015850067138671875 -0.008301734924316406 -0.016042709350585938 -0.008496284484863281 0.096923828125 0.1793975830078125
28.45375 0.1681060791015625 0.1934356689453125 -0.016324996948242188 -0.0073833465576171875 -0.016510963439941406 -0.007587432861328125 0.09893798828125 0.174468994140625
28.4625 0.1689300537109375 0.1877288818359375 -0.016933441162109375 -0.0064697265625 -0.017020225524902344 -0.006567955017089844 0.10064697265625 0.1694183349609375
28.47125 0.169708251953125 0.181884765625 -0.01730632781982422 -0.005634307861328125 -0.017467498779296875 -0.005519866943359375 0.1016693115234375 0.16461181640625
28.48 0.1700439453125 0.176361083984375 -0.017637252807617188 -0.0046482086181640625 -0.017609596252441406 -0.0044651031494140625 0.102447509765625 0.1597442626953125
28.48875 0.1697998046875 0.1708526611328125 -0.017711639404296875 -0.0036611557006835938 -0.017785072326660156 -0.0034694671630859375 0.1035003662109375 0.1543426513671875
28.4975 0.169342041015625 0.165740966796875 -0.0178070068359375 -0.002857208251953125 -0.01778411865234375 -0.002643585205078125 0.104156494140625 0.149688720703125
28.50625 0.1685791015625 0.160400390625 -0.018041610717773438 -0.001861572265625 -0.017839431762695312 -0.001682281494140625 0.103973388671875 0.1445159912109375
28.515 0.167510986328125 0.155303955078125 -0.018102645874023438 -0.0011348724365234375 -0.018011093139648438 -0.0008697509765625 0.10382080078125 0.1395416259765625
