!Created with skrf (http://scikit-rf.org).
# GHz S RI R 50.0 
!freq ReS11 ImS11 ReS21 ImS21 ReS12 ImS12 ReS22 ImS22
27.5 -0.003662109375 0.172821044921875 -0.00726318359375 0.0038483142852783203 -0.0073871612548828125 0.0036513805389404297 0.008941650390625 0.14130401611328125
27.50875 -0.00229644775390625 0.1676025390625 -0.006966352462768555 0.004281282424926758 -0.0071563720703125 0.004071950912475586 0.01319122314453125 0.13623046875
27.5175 -0.00127410888671875 0.162353515625 -0.006570577621459961 0.004881858825683594 -0.006690263748168945 0.0047533512115478516 0.01718902587890625 0.130645751953125
27.52625 -0.0010528564453125 0.15691375732421875 -0.006050825119018555 0.0051801204681396484 -0.006166934967041016 0.005238771438598633 0.0206756591796875 0.1251220703125
27.535 -0.0011749267578125 0.151580810546875 -0.0054988861083984375 0.005520343780517578 -0.005687713623046875 0.00563812255859375 0.023773193359375 0.11932373046875
27.54375 -0.0018768310546875 0.14697265625 -0.00499725341796875 0.0057201385498046875 -0.004910469055175781 0.0059795379638671875 0.0266265869140625 0.11334228515625
27.5525 -0.0024261474609375 0.14217376708984375 -0.004552125930786133 0.0060882568359375 -0.004431962966918945 0.006295919418334961 0.028839111328125 0.10733795166015625
27.56125 -0.0033416748046875 0.1373748779296875 -0.00401759147644043 0.006148099899291992 -0.0038933753967285156 0.0063173770904541016 0.0306854248046875 0.10077667236328125
27.57 -0.0047454833984375 0.1326751708984375 -0.003667593002319336 0.006480216979980469 -0.0035195350646972656 0.006328105926513672 0.0318450927734375 0.0946044921875
27.57875 -0.00647735595703125 0.12808990478515625 -0.0030727386474609375 0.006662845611572266 -0.002976655960083008 0.006582975387573242 0.032917022705078125 0.08848953247070312
27.5875 -0.008914947509765625 0.12395095825195312 -0.0025434494018554688 0.006968021392822266 -0.002415895462036133 0.006798267364501953 0.033542633056640625 0.0822296142578125
27.59625 -0.011493682861328125 0.1201629638671875 -0.0017685890197753906 0.00685882568359375 -0.0018465518951416016 0.006683349609375 0.033740997314453125 0.07571792602539062
27.605 -0.014148712158203125 0.1165924072265625 -0.0014178752899169922 0.006620645523071289 -0.0013203620910644531 0.006626605987548828 0.033481597900390625 0.06955337524414062
27.61375 -0.016788482666015625 0.11341094970703125 -0.0010063648223876953 0.006537199020385742 -0.0009970664978027344 0.006531476974487305 0.0328216552734375 0.06301498413085938
27.6225 -0.0195770263671875 0.11027908325195312 -0.0007183551788330078 0.006510257720947266 -0.0007395744323730469 0.006476640701293945 0.0316619873046875 0.056980133056640625
27.63125 -0.023075103759765625 0.10726165771484375 -0.0005509853363037109 0.006564617156982422 -0.0003685951232910156 0.006600141525268555 0.03052520751953125 0.0511016845703125
27.64 -0.02681732177734375 0.10460281372070312 -8.487701416015625e-05 0.0066394805908203125 5.1021575927734375e-05 0.006670236587524414 0.02880859375 0.045318603515625
27.64875 -0.0303955078125 0.10254287719726562 0.00037097930908203125 0.006589412689208984 0.0006175041198730469 0.006607532501220703 0.02680206298828125 0.039722442626953125
27.6575 -0.034061431884765625 0.1007843017578125 0.0009987354278564453 0.006510019302368164 0.0010478496551513672 0.006430864334106445 0.024698257446289062 0.03432273864746094
27.66625 -0.038143157958984375 0.098968505859375 0.0014276504516601562 0.006325721740722656 0.0014033317565917969 0.0061528682708740234 0.022333145141601562 0.02898406982421875
27.675 -0.041851043701171875 0.09783935546875 0.0015943050384521484 0.0060863494873046875 0.0016345977783203125 0.005953550338745117 0.019336700439453125 0.023792266845703125
27.68375 -0.045940399169921875 0.09657669067382812 0.0017938613891601562 0.005973339080810547 0.002002716064453125 0.006003379821777344 0.015899658203125 0.018939971923828125
27.6925 -0.0499725341796875 0.09514617919921875 0.0024900436401367188 0.006083488464355469 0.0024099349975585938 0.005938529968261719 0.01218414306640625 0.014368057250976562
27.70125 -0.0545501708984375 0.0948028564453125 0.00289154052734375 0.005644798278808594 0.0029211044311523438 0.005657196044921875 0.008207321166992188 0.010019302368164062
27.71 -0.059185028076171875 0.09469223022460938 0.0032501220703125 0.005331516265869141 0.0032377243041992188 0.005143165588378906 0.003954410552978516 0.005881309509277344
27.71875 -0.063720703125 0.09526443481445312 0.0036096572875976562 0.005173206329345703 0.0035429000854492188 0.004945278167724609 -0.0005317926406860352 0.0025069713592529297
27.7275 -0.0682830810546875 0.0962066650390625 0.003887176513671875 0.004652500152587891 0.003894329071044922 0.004697322845458984 -0.005605459213256836 -0.0011212825775146484
27.73625 -0.07239913940429688 0.097381591796875 0.004085540771484375 0.004383563995361328 0.0039348602294921875 0.004332542419433594 -0.010639190673828125 -0.00469207763671875
27.745 -0.076507568359375 0.09885406494140625 0.0040798187255859375 0.004085063934326172 0.004225730895996094 0.003922462463378906 -0.016190528869628906 -0.007464408874511719
27.75375 -0.08054733276367188 0.10083389282226562 0.004272937774658203 0.0037679672241210938 0.004409313201904297 0.0037775039672851562 -0.021837234497070312 -0.009595870971679688
27.7625 -0.08453750610351562 0.102783203125 0.004494667053222656 0.0035881996154785156 0.004604816436767578 0.0035920143127441406 -0.027652740478515625 -0.011610031127929688
27.77125 -0.08879852294921875 0.10535049438476562 0.004983425140380859 0.0031375885009765625 0.004840373992919922 0.003273487091064453 -0.033763885498046875 -0.0134429931640625
27.78 -0.0927581787109375 0.10803604125976562 0.004954338073730469 0.002799510955810547 0.004968166351318359 0.0026612281799316406 -0.039577484130859375 -0.014776229858398438
27.78875 -0.09638595581054688 0.11166000366210938 0.004925727844238281 0.0023376941680908203 0.0050470829010009766 0.002315521240234375 -0.04571723937988281 -0.015813827514648438
27.7975 -0.099609375 0.1151123046875 0.004892587661743164 0.002246379852294922 0.005129575729370117 0.002228975296020508 -0.051822662353515625 -0.016345977783203125
27.80625 -0.10302352905273438 0.11869430541992188 0.004982948303222656 0.0020258426666259766 0.005131721496582031 0.0017957687377929688 -0.058013916015625 -0.0166015625
27.815 -0.1062164306640625 0.123046875 0.005031585693359375 0.0019183158874511719 0.005359172821044922 0.0016183853149414062 -0.0639801025390625 -0.016845703125
27.82375 -0.109130859375 0.12702178955078125 0.005242109298706055 0.0015566349029541016 0.005327701568603516 0.001377105712890625 -0.06988143920898438 -0.016223907470703125
27.8325 -0.111663818359375 0.1313018798828125 0.00539708137512207 0.0011906623840332031 0.00539398193359375 0.0010526180267333984 -0.07595062255859375 -0.01519012451171875
27.84125 -0.11408233642578125 0.1360015869140625 0.005669832229614258 0.0008068084716796875 0.005544424057006836 0.0005257129669189453 -0.08156585693359375 -0.013946533203125
27.85 -0.11647796630859375 0.14093017578125 0.005495548248291016 0.0004558563232421875 0.0057294368743896484 0.00042629241943359375 -0.08759307861328125 -0.012348175048828125
27.85875 -0.11835479736328125 0.1460113525390625 0.0056989192962646484 -0.00010633468627929688 0.005573272705078125 -4.887580871582031e-05 -0.0933685302734375 -0.0105438232421875
27.8675 -0.11960601806640625 0.150909423828125 0.005591392517089844 -0.000514984130859375 0.00564122200012207 -0.0005648136138916016 -0.09868240356445312 -0.008392333984375
27.87625 -0.1207122802734375 0.15578460693359375 0.005440473556518555 -0.0008990764617919922 0.0056416988372802734 -0.0006120204925537109 -0.10434341430664062 -0.005329132080078125
27.885 -0.12203216552734375 0.16153717041015625 0.0054569244384765625 -0.0013332366943359375 0.005308389663696289 -0.001157999038696289 -0.109893798828125 -0.002414703369140625
27.89375 -0.122589111328125 0.1669464111328125 0.005246162414550781 -0.0016427040100097656 0.005527973175048828 -0.0017368793487548828 -0.11460494995117188 0.00121307373046875
27.9025 -0.12294769287109375 0.17255401611328125 0.005144357681274414 -0.001967906951904297 0.005389213562011719 -0.001986265182495117 -0.12015533447265625 0.005146026611328125
27.91125 -0.1226654052734375 0.17855072021484375 0.004915952682495117 -0.0024156570434570312 0.00513768196105957 -0.002488374710083008 -0.12469482421875 0.00919342041015625
27.92 -0.12200164794921875 0.1844329833984375 0.004603147506713867 -0.002796649932861328 0.004799365997314453 -0.0028700828552246094 -0.12902069091796875 0.01378631591796875
27.92875 -0.12091827392578125 0.19065093994140625 0.004222393035888672 -0.002985239028930664 0.004361152648925781 -0.003066539764404297 -0.1334381103515625 0.018402099609375
27.9375 -0.1198883056640625 0.19643402099609375 0.003920555114746094 -0.0033020973205566406 0.003998279571533203 -0.0034363269805908203 -0.1375579833984375 0.02327728271484375
27.94625 -0.11852264404296875 0.20262908935546875 0.0036611557006835938 -0.003237605094909668 0.0039061307907104492 -0.003289461135864258 -0.14145660400390625 0.02862548828125
27.955 -0.11627197265625 0.20849609375 0.003373861312866211 -0.0034301280975341797 0.003378629684448242 -0.003346681594848633 -0.1451416015625 0.034271240234375
27.96375 -0.11440277099609375 0.21456146240234375 0.0032494068145751953 -0.0035266876220703125 0.00337982177734375 -0.0036851167678833008 -0.14806365966796875 0.0400848388671875
27.9725 -0.1118927001953125 0.22090911865234375 0.0031189918518066406 -0.0036115646362304688 0.0035277605056762695 -0.003765702247619629 -0.15053558349609375 0.045867919921875
27.98125 -0.1095733642578125 0.226806640625 0.0028808116912841797 -0.003945112228393555 0.002911210060119629 -0.0039025545120239258 -0.15300750732421875 0.05175018310546875
27.99 -0.1066436767578125 0.23281097412109375 0.0025136470794677734 -0.0039021968841552734 0.002657175064086914 -0.00423431396484375 -0.155181884765625 0.0574798583984375
27.99875 -0.10292816162109375 0.23821258544921875 0.0023703575134277344 -0.003996372222900391 0.0022704601287841797 -0.004355192184448242 -0.157012939453125 0.0636138916015625
28.0075 -0.09996795654296875 0.24349212646484375 0.0023856163024902344 -0.004050016403198242 0.0021440982818603516 -0.004413127899169922 -0.15869140625 0.07012176513671875
28.01625 -0.095855712890625 0.2489776611328125 0.002312898635864258 -0.004208087921142578 0.002013683319091797 -0.004309654235839844 -0.16019439697265625 0.07663726806640625
28.025 -0.092010498046875 0.25439453125 0.002029895782470703 -0.004453182220458984 0.0016286373138427734 -0.004626035690307617 -0.1606903076171875 0.082855224609375
28.03375 -0.0877838134765625 0.2595062255859375 0.001535177230834961 -0.004726886749267578 0.0013320446014404297 -0.004767894744873047 -0.161102294921875 0.0896759033203125
28.0425 -0.08258056640625 0.263824462890625 0.0010724067687988281 -0.004927635192871094 0.0010194778442382812 -0.004669666290283203 -0.1613311767578125 0.0966644287109375
28.05125 -0.0780792236328125 0.268310546875 0.0008578300476074219 -0.00487208366394043 0.0007104873657226562 -0.004622697830200195 -0.16161346435546875 0.10283660888671875
28.06 -0.07305908203125 0.272430419921875 0.0004127025604248047 -0.004809379577636719 0.0005028247833251953 -0.004703521728515625 -0.1612701416015625 0.10987091064453125
28.06875 -0.067047119140625 0.276153564453125 0.00025272369384765625 -0.004515171051025391 0.0004363059997558594 -0.004622220993041992 -0.16054534912109375 0.11682891845703125
28.0775 -0.06170654296875 0.2796783447265625 0.00011301040649414062 -0.00461268424987793 0.0003020763397216797 -0.004683494567871094 -0.15924072265625 0.1240692138671875
28.08625 -0.05609130859375 0.2832489013671875 -0.00011157989501953125 -0.004761934280395508 1.1920928955078125e-06 -0.004896640777587891 -0.157928466796875 0.130889892578125
28.095 -0.0500335693359375 0.286529541015625 -0.0004527568817138672 -0.0047113895416259766 -0.0003581047058105469 -0.004889965057373047 -0.15576171875 0.137725830078125
28.10375 -0.0435791015625 0.2899322509765625 -0.000804901123046875 -0.004602193832397461 -0.0009200572967529297 -0.0048754215240478516 -0.1539459228515625 0.14438629150390625
28.1125 -0.03668212890625 0.292236328125 -0.0009417533874511719 -0.004656553268432617 -0.0012819766998291016 -0.00476527214050293 -0.1511077880859375 0.1505126953125
28.12125 -0.030029296875 0.294830322265625 -0.0012404918670654297 -0.00457000732421875 -0.0016508102416992188 -0.004652261734008789 -0.14871978759765625 0.157135009765625
28.13 -0.0229949951171875 0.2969970703125 -0.0014874935150146484 -0.004420280456542969 -0.0021109580993652344 -0.004372358322143555 -0.1452178955078125 0.16303253173828125
28.13875 -0.0160675048828125 0.298980712890625 -0.0017557144165039062 -0.004401683807373047 -0.0021195411682128906 -0.004073143005371094 -0.14168548583984375 0.168975830078125
28.1475 -0.009002685546875 0.3011474609375 -0.001969575881958008 -0.004308938980102539 -0.0020589828491210938 -0.0038552284240722656 -0.13767242431640625 0.17435455322265625
28.15625 -0.002166748046875 0.302734375 -0.0021791458129882812 -0.004215240478515625 -0.0021767616271972656 -0.0038852691650390625 -0.1331329345703125 0.179901123046875
28.165 0.00518798828125 0.304229736328125 -0.0025849342346191406 -0.0041239261627197266 -0.0024416446685791016 -0.003751516342163086 -0.12856292724609375 0.18495941162109375
28.17375 0.01239013671875 0.30499267578125 -0.0028295516967773438 -0.0036835670471191406 -0.0025386810302734375 -0.003690004348754883 -0.1240692138671875 0.18962860107421875
28.1825 0.01953125 0.3057861328125 -0.002960681915283203 -0.003737211227416992 -0.002786874771118164 -0.0036077499389648438 -0.11910247802734375 0.19449615478515625
28.19125 0.02606201171875 0.30621337890625 -0.003056764602661133 -0.0034961700439453125 -0.0030579566955566406 -0.0034902095794677734 -0.113922119140625 0.199066162109375
28.2 0.0337066650390625 0.3064727783203125 -0.003267049789428711 -0.0032873153686523438 -0.0032951831817626953 -0.0033159255981445312 -0.1082916259765625 0.20316314697265625
28.20875 0.04046630859375 0.3067779541015625 -0.003452777862548828 -0.0031728744506835938 -0.0034825801849365234 -0.003145933151245117 -0.10257720947265625 0.2075042724609375
28.2175 0.047119140625 0.306396484375 -0.003618478775024414 -0.0030782222747802734 -0.0037000179290771484 -0.0030989646911621094 -0.096771240234375 0.21157073974609375
28.22625 0.0541839599609375 0.3052978515625 -0.0039043426513671875 -0.0028018951416015625 -0.0041615962982177734 -0.0027074813842773438 -0.09088134765625 0.215087890625
28.235 0.0609130859375 0.304046630859375 -0.004105806350708008 -0.0026509761810302734 -0.0042743682861328125 -0.002370595932006836 -0.084381103515625 0.21842193603515625
28.24375 0.067535400390625 0.3018035888671875 -0.0043909549713134766 -0.002241849899291992 -0.0043408870697021484 -0.0020411014556884766 -0.078094482421875 0.2213592529296875
28.2525 0.0739898681640625 0.30010986328125 -0.004382610321044922 -0.0018160343170166016 -0.0043413639068603516 -0.0016672611236572266 -0.0715179443359375 0.22414398193359375
28.26125 0.0803375244140625 0.2975006103515625 -0.004406452178955078 -0.0014834403991699219 -0.004275798797607422 -0.0013835430145263672 -0.06517791748046875 0.22711181640625
28.27 0.086517333984375 0.294464111328125 -0.004443168640136719 -0.0011858940124511719 -0.004183292388916016 -0.0010099411010742188 -0.05853271484375 0.229156494140625
28.27875 0.09283447265625 0.291351318359375 -0.004286766052246094 -0.0010204315185546875 -0.0040130615234375 -0.0009441375732421875 -0.0518798828125 0.23126220703125
28.2875 0.0984039306640625 0.287689208984375 -0.00429224967956543 -0.0007369518280029297 -0.003980159759521484 -0.000985860824584961 -0.0450439453125 0.232025146484375
28.29625 0.1044158935546875 0.2840423583984375 -0.00411677360534668 -0.0008320808410644531 -0.0041997432708740234 -0.0008904933929443359 -0.03830718994140625 0.2333526611328125
28.305 0.110198974609375 0.2803192138671875 -0.004363298416137695 -0.0007703304290771484 -0.0042951107025146484 -0.0008902549743652344 -0.03192901611328125 0.23361968994140625
28.31375 0.1159210205078125 0.276092529296875 -0.004546165466308594 -0.0004189014434814453 -0.004614591598510742 -0.0005002021789550781 -0.0255126953125 0.234039306640625
28.3225 0.12115478515625 0.2713623046875 -0.004548788070678711 -0.00013494491577148438 -0.0046215057373046875 -0.00021314620971679688 -0.018829345703125 0.23406982421875
28.33125 0.125701904296875 0.2674713134765625 -0.004422426223754883 4.315376281738281e-05 -0.0043795108795166016 6.103515625e-05 -0.01219940185546875 0.23387908935546875
28.34 0.1307373046875 0.262420654296875 -0.004392385482788086 0.0002486705780029297 -0.004537820816040039 0.00041484832763671875 -0.00585174560546875 0.23262786865234375
28.34875 0.134979248046875 0.257843017578125 -0.004406452178955078 0.00042629241943359375 -0.00425410270690918 0.0004851818084716797 0.000701904296875 0.231109619140625
28.3575 0.1394500732421875 0.2530364990234375 -0.004584312438964844 0.000457763671875 -0.0043964385986328125 0.0005021095275878906 0.00738525390625 0.22936248779296875
28.36625 0.143524169921875 0.24774169921875 -0.004734992980957031 0.0007054805755615234 -0.00474238395690918 0.0008802413940429688 0.0131072998046875 0.22731781005859375
28.375 0.14764404296875 0.242584228515625 -0.004913806915283203 0.0011610984802246094 -0.004620552062988281 0.0013670921325683594 0.01934814453125 0.2251129150390625
28.38375 0.151031494140625 0.2371826171875 -0.0047893524169921875 0.0016732215881347656 -0.004433631896972656 0.00146484375 0.025146484375 0.222503662109375
28.3925 0.15411376953125 0.2314453125 -0.004456520080566406 0.0020575523376464844 -0.004443645477294922 0.0018079280853271484 0.03116607666015625 0.21994781494140625
28.40125 0.1574554443359375 0.225982666015625 -0.004326820373535156 0.0021774768829345703 -0.004065513610839844 0.0019712448120117188 0.0373992919921875 0.21673583984375
28.41 0.1600494384765625 0.2204437255859375 -0.004202604293823242 0.0022590160369873047 -0.0042266845703125 0.002025604248046875 0.042877197265625 0.2132415771484375
28.41875 0.162353515625 0.21466064453125 -0.004012584686279297 0.0024139881134033203 -0.00419926643371582 0.002321004867553711 0.0483551025390625 0.2095794677734375
28.4275 0.164337158203125 0.2086181640625 -0.004153013229370117 0.0028374195098876953 -0.00423121452331543 0.0026695728302001953 0.0532684326171875 0.2052764892578125
28.43625 0.1658477783203125 0.2028656005859375 -0.003954887390136719 0.0031943321228027344 -0.004012584686279297 0.0030307769775390625 0.057891845703125 0.20147705078125
28.445 0.167236328125 0.197113037109375 -0.0036362409591674805 0.003382086753845215 -0.0038362741470336914 0.003538966178894043 0.062835693359375 0.1977081298828125
28.45375 0.168243408203125 0.1912384033203125 -0.003435373306274414 0.003537297248840332 -0.0034155845642089844 0.0035538673400878906 0.06707763671875 0.1933746337890625
28.4625 0.168731689453125 0.1855010986328125 -0.0030711889266967773 0.0036352872848510742 -0.0030745267868041992 0.0036242008209228516 0.0713043212890625 0.18853759765625
28.47125 0.169158935546875 0.1798248291015625 -0.0029761791229248047 0.0035545825958251953 -0.0029621124267578125 0.0037050247192382812 0.074798583984375 0.18389892578125
28.48 0.1692657470703125 0.1745758056640625 -0.003117680549621582 0.0035516023635864258 -0.0030078887939453125 0.003573179244995117 0.0776824951171875 0.179046630859375
28.48875 0.1691741943359375 0.169342041015625 -0.003019571304321289 0.0038285255432128906 -0.002973794937133789 0.004006862640380859 0.0814361572265625 0.174163818359375
28.4975 0.169097900390625 0.164215087890625 -0.0028629302978515625 0.004179477691650391 -0.0030226707458496094 0.004261970520019531 0.0836181640625 0.168975830078125
