!Created with skrf (http://scikit-rf.org).
# GHz S RI R 50.0 
!freq ReS11 ImS11 ReS21 ImS21 ReS12 ImS12 ReS22 ImS22
27.5 0.00962066650390625 0.1606903076171875 -0.01884174346923828 -0.0036907196044921875 -0.018836021423339844 -0.0040740966796875 0.00832366943359375 0.14475250244140625
27.50875 0.0123138427734375 0.15512847900390625 -0.018840789794921875 -0.0024785995483398438 -0.01894378662109375 -0.002765655517578125 0.01274871826171875 0.13948822021484375
27.5175 0.01456451416015625 0.14983367919921875 -0.018532752990722656 -0.0015010833740234375 -0.018877029418945312 -0.0017709732055664062 0.0167083740234375 0.1338958740234375
27.52625 0.01666259765625 0.14447021484375 -0.018575668334960938 -0.000774383544921875 -0.01900196075439453 -0.000820159912109375 0.0201568603515625 0.12841796875
27.535 0.0184173583984375 0.1387176513671875 -0.01850128173828125 4.38690185546875e-05 -0.018934249877929688 0.0002384185791015625 0.023590087890625 0.122650146484375
27.54375 0.0198822021484375 0.133331298828125 -0.018611907958984375 0.0009937286376953125 -0.018880844116210938 0.001495361328125 0.02642822265625 0.1170806884765625
27.5525 0.02079010009765625 0.12773895263671875 -0.01860809326171875 0.001903533935546875 -0.018705368041992188 0.0022764205932617188 0.02923583984375 0.11078643798828125
27.56125 0.02138519287109375 0.12210845947265625 -0.01861572265625 0.0028362274169921875 -0.01855182647705078 0.0031566619873046875 0.03118133544921875 0.1043243408203125
27.57 0.021697998046875 0.11681365966796875 -0.018448829650878906 0.00392913818359375 -0.018407821655273438 0.004210472106933594 0.03260040283203125 0.09824371337890625
27.57875 0.0215606689453125 0.11159515380859375 -0.018477439880371094 0.0049457550048828125 -0.0182037353515625 0.00507354736328125 0.03394317626953125 0.092041015625
27.5875 0.0211944580078125 0.10636138916015625 -0.018218994140625 0.0059528350830078125 -0.01795196533203125 0.0059909820556640625 0.0345306396484375 0.08566665649414062
27.59625 0.020122528076171875 0.10155868530273438 -0.018106460571289062 0.006834983825683594 -0.01772308349609375 0.006884574890136719 0.0350341796875 0.07936477661132812
27.605 0.018833160400390625 0.09669113159179688 -0.017760276794433594 0.007994651794433594 -0.017584800720214844 0.00778961181640625 0.034885406494140625 0.07314682006835938
27.61375 0.01761627197265625 0.09229660034179688 -0.01743602752685547 0.009076118469238281 -0.017205238342285156 0.00897979736328125 0.034503936767578125 0.06666183471679688
27.6225 0.0159149169921875 0.08765792846679688 -0.01694488525390625 0.010228157043457031 -0.016707420349121094 0.010082244873046875 0.033771514892578125 0.0604705810546875
27.63125 0.01383209228515625 0.08316802978515625 -0.016149520874023438 0.011097908020019531 -0.01598834991455078 0.010989189147949219 0.032512664794921875 0.054225921630859375
27.64 0.01155853271484375 0.079132080078125 -0.015545845031738281 0.01206350326538086 -0.015455245971679688 0.01178884506225586 0.030975341796875 0.04814910888671875
27.64875 0.00881195068359375 0.07516098022460938 -0.01472616195678711 0.012900352478027344 -0.014737129211425781 0.012712955474853516 0.028820037841796875 0.042385101318359375
27.6575 0.006061553955078125 0.0714569091796875 -0.014063835144042969 0.013623237609863281 -0.014106273651123047 0.013460636138916016 0.02658843994140625 0.036945343017578125
27.66625 0.002689361572265625 0.06770706176757812 -0.013336181640625 0.014219284057617188 -0.013394832611083984 0.014195442199707031 0.024288177490234375 0.031833648681640625
27.675 -0.000823974609375 0.06452178955078125 -0.012630462646484375 0.015077590942382812 -0.012676239013671875 0.014977455139160156 0.02138519287109375 0.026699066162109375
27.68375 -0.004352569580078125 0.0615386962890625 -0.011911392211914062 0.015920639038085938 -0.011882781982421875 0.015893936157226562 0.01815032958984375 0.021778106689453125
27.6925 -0.00811004638671875 0.058506011962890625 -0.010746002197265625 0.016633987426757812 -0.010869979858398438 0.016635894775390625 0.01459503173828125 0.01721954345703125
27.70125 -0.012174606323242188 0.05574989318847656 -0.009840011596679688 0.017113685607910156 -0.009676933288574219 0.017035484313964844 0.010806083679199219 0.012714385986328125
27.71 -0.016576766967773438 0.05314445495605469 -0.008778572082519531 0.01747417449951172 -0.008759498596191406 0.01747608184814453 0.006493568420410156 0.008594512939453125
27.71875 -0.021341323852539062 0.05137062072753906 -0.007986068725585938 0.017770767211914062 -0.007940292358398438 0.017917633056640625 0.0019066333770751953 0.0049457550048828125
27.7275 -0.026172637939453125 0.05010032653808594 -0.006793022155761719 0.018228530883789062 -0.0069122314453125 0.018357276916503906 -0.0025985240936279297 0.0013799667358398438
27.73625 -0.03064727783203125 0.04923820495605469 -0.0058917999267578125 0.018685340881347656 -0.005824089050292969 0.01875782012939453 -0.007617473602294922 -0.0021119117736816406
27.745 -0.035251617431640625 0.04810523986816406 -0.004849433898925781 0.019063949584960938 -0.0048198699951171875 0.019063949584960938 -0.012854576110839844 -0.00518035888671875
27.75375 -0.03974151611328125 0.047756195068359375 -0.0036268234252929688 0.01919078826904297 -0.0036859512329101562 0.019376754760742188 -0.018497467041015625 -0.007788658142089844
27.7625 -0.0444488525390625 0.04705238342285156 -0.0026178359985351562 0.019327163696289062 -0.0024738311767578125 0.01943206787109375 -0.024492263793945312 -0.010028839111328125
27.77125 -0.04953765869140625 0.047084808349609375 -0.001434326171875 0.019273757934570312 -0.0014562606811523438 0.019504547119140625 -0.03026580810546875 -0.0120086669921875
27.78 -0.054607391357421875 0.04751396179199219 -0.0006818771362304688 0.019248008728027344 -0.00041675567626953125 0.01947307586669922 -0.03616905212402344 -0.013319015502929688
27.78875 -0.05966949462890625 0.04852485656738281 0.0003070831298828125 0.01921367645263672 0.0005550384521484375 0.019466400146484375 -0.042194366455078125 -0.0145263671875
27.7975 -0.0642547607421875 0.04984283447265625 0.0013751983642578125 0.019249916076660156 0.0016651153564453125 0.019472122192382812 -0.048023223876953125 -0.015483856201171875
27.80625 -0.0688934326171875 0.05081939697265625 0.0025234222412109375 0.019295692443847656 0.0028104782104492188 0.01932048797607422 -0.054492950439453125 -0.015888214111328125
27.815 -0.07363128662109375 0.05251312255859375 0.0036983489990234375 0.019102096557617188 0.0039348602294921875 0.01895904541015625 -0.06056976318359375 -0.01581573486328125
27.82375 -0.07839202880859375 0.0544891357421875 0.0047473907470703125 0.018804550170898438 0.0049762725830078125 0.018634796142578125 -0.06627655029296875 -0.01552581787109375
27.8325 -0.0829010009765625 0.05646514892578125 0.0057964324951171875 0.01825237274169922 0.005977630615234375 0.018098831176757812 -0.07229995727539062 -0.014194488525390625
27.84125 -0.08761215209960938 0.059581756591796875 0.006598472595214844 0.017912864685058594 0.006802558898925781 0.017754554748535156 -0.07800674438476562 -0.01308441162109375
27.85 -0.09181976318359375 0.06252670288085938 0.0076351165771484375 0.017503738403320312 0.0075397491455078125 0.017339706420898438 -0.08369064331054688 -0.01145172119140625
27.85875 -0.09572982788085938 0.06592559814453125 0.008469581604003906 0.017006874084472656 0.008431434631347656 0.016831398010253906 -0.08957290649414062 -0.0095977783203125
27.8675 -0.099273681640625 0.06937408447265625 0.009243965148925781 0.016506195068359375 0.009038925170898438 0.01641559600830078 -0.09557342529296875 -0.00730133056640625
27.87625 -0.10271072387695312 0.07266998291015625 0.009954452514648438 0.01589202880859375 0.009802818298339844 0.016190528869628906 -0.10103607177734375 -0.004390716552734375
27.885 -0.10649871826171875 0.07678985595703125 0.010869979858398438 0.015468597412109375 0.010792732238769531 0.01578998565673828 -0.106201171875 -0.001277923583984375
27.89375 -0.10977554321289062 0.08121490478515625 0.011791229248046875 0.0149078369140625 0.01178741455078125 0.015150070190429688 -0.1114654541015625 0.002315521240234375
27.9025 -0.11258316040039062 0.08568954467773438 0.01242828369140625 0.014345169067382812 0.01267242431640625 0.014524459838867188 -0.11652374267578125 0.0058441162109375
27.91125 -0.11483383178710938 0.0908660888671875 0.013332366943359375 0.0135650634765625 0.013628005981445312 0.013770103454589844 -0.12140655517578125 0.010066986083984375
27.92 -0.11674880981445312 0.09576416015625 0.013861656188964844 0.012943267822265625 0.014369964599609375 0.012979507446289062 -0.1260223388671875 0.01445770263671875
27.92875 -0.11859512329101562 0.10084915161132812 0.014775276184082031 0.0119781494140625 0.015178680419921875 0.011934280395507812 -0.13048553466796875 0.01894378662109375
27.9375 -0.12031936645507812 0.10577011108398438 0.015397071838378906 0.011179924011230469 0.015461921691894531 0.011000633239746094 -0.1348114013671875 0.02397918701171875
27.94625 -0.12213516235351562 0.11114120483398438 0.01587677001953125 0.0101165771484375 0.01593017578125 0.01020050048828125 -0.13885498046875 0.0294036865234375
27.955 -0.12320709228515625 0.11656951904296875 0.016162872314453125 0.00919342041015625 0.016407012939453125 0.009326934814453125 -0.1424713134765625 0.0345611572265625
27.96375 -0.12429046630859375 0.12244415283203125 0.016602516174316406 0.008268356323242188 0.016845703125 0.008473396301269531 -0.1458892822265625 0.0400238037109375
27.9725 -0.12483978271484375 0.12848663330078125 0.016854286193847656 0.007229804992675781 0.017148971557617188 0.007685661315917969 -0.14847564697265625 0.045654296875
27.98125 -0.12520599365234375 0.1339874267578125 0.017072677612304688 0.0066928863525390625 0.017645835876464844 0.007006645202636719 -0.15119171142578125 0.0514678955078125
27.99 -0.12497711181640625 0.1398162841796875 0.017386436462402344 0.005841255187988281 0.018260955810546875 0.005950927734375 -0.15364837646484375 0.0577392578125
27.99875 -0.1245880126953125 0.14537811279296875 0.017910003662109375 0.005023956298828125 0.01867961883544922 0.0047931671142578125 -0.15554046630859375 0.06380462646484375
28.0075 -0.12416839599609375 0.15091705322265625 0.018198013305664062 0.00408172607421875 0.01880645751953125 0.0034723281860351562 -0.15691375732421875 0.07028961181640625
28.01625 -0.1230926513671875 0.1567535400390625 0.018411636352539062 0.0032958984375 0.018975257873535156 0.0022706985473632812 -0.1585693359375 0.0768280029296875
28.025 -0.1219482421875 0.162384033203125 0.018767356872558594 0.0022573471069335938 0.018995285034179688 0.0011749267578125 -0.1591949462890625 0.08324432373046875
28.03375 -0.12039947509765625 0.168182373046875 0.01881122589111328 0.0009279251098632812 0.018579483032226562 2.6702880859375e-05 -0.159515380859375 0.09012603759765625
28.0425 -0.11822509765625 0.17395782470703125 0.01879405975341797 -0.00034046173095703125 0.018288612365722656 -0.0010700225830078125 -0.15984344482421875 0.09740447998046875
28.05125 -0.115325927734375 0.179290771484375 0.018548965454101562 -0.0014514923095703125 0.017848968505859375 -0.0016536712646484375 -0.1595611572265625 0.1041259765625
28.06 -0.11228179931640625 0.18442535400390625 0.018396377563476562 -0.0024995803833007812 0.017608642578125 -0.0023651123046875 -0.15937042236328125 0.11125946044921875
28.06875 -0.10906982421875 0.18920135498046875 0.018007278442382812 -0.0034465789794921875 0.017495155334472656 -0.0030879974365234375 -0.158599853515625 0.1181793212890625
28.0775 -0.10575103759765625 0.19445037841796875 0.01754283905029297 -0.0041828155517578125 0.01743602752685547 -0.0037097930908203125 -0.15723419189453125 0.12537384033203125
28.08625 -0.10202789306640625 0.1996917724609375 0.017050743103027344 -0.004887580871582031 0.017332077026367188 -0.004361152648925781 -0.15582275390625 0.13224029541015625
28.095 -0.0982818603515625 0.20487213134765625 0.016603469848632812 -0.005489349365234375 0.017560958862304688 -0.005154609680175781 -0.15387725830078125 0.13872528076171875
28.10375 -0.093719482421875 0.2098236083984375 0.01676177978515625 -0.0061511993408203125 0.017586708068847656 -0.006285667419433594 -0.15215301513671875 0.14517974853515625
28.1125 -0.0890045166015625 0.21433258056640625 0.01659679412841797 -0.006909370422363281 0.017246246337890625 -0.007603645324707031 -0.14987945556640625 0.15161895751953125
28.12125 -0.08448028564453125 0.2191619873046875 0.016460418701171875 -0.0077877044677734375 0.016757965087890625 -0.008829116821289062 -0.14759063720703125 0.158172607421875
28.13 -0.0793609619140625 0.22332763671875 0.015954017639160156 -0.0090179443359375 0.015924453735351562 -0.009927749633789062 -0.14458465576171875 0.1644439697265625
28.13875 -0.07442474365234375 0.22772979736328125 0.015513896942138672 -0.010050296783447266 0.014987945556640625 -0.010813713073730469 -0.1413421630859375 0.17008209228515625
28.1475 -0.069732666015625 0.23154449462890625 0.014838695526123047 -0.010867118835449219 0.013982295989990234 -0.011411666870117188 -0.13733673095703125 0.17577362060546875
28.15625 -0.0643310546875 0.235321044921875 0.0140533447265625 -0.011626243591308594 0.013113021850585938 -0.0118865966796875 -0.13299560546875 0.18109130859375
28.165 -0.05926513671875 0.23895263671875 0.01331329345703125 -0.012289047241210938 0.012617111206054688 -0.012121200561523438 -0.1287384033203125 0.186370849609375
28.17375 -0.053558349609375 0.2417449951171875 0.012561798095703125 -0.012732505798339844 0.011938095092773438 -0.012378692626953125 -0.1240234375 0.1908721923828125
28.1825 -0.04827117919921875 0.24398040771484375 0.011810302734375 -0.013272285461425781 0.011565685272216797 -0.012770652770996094 -0.11913299560546875 0.19571685791015625
28.19125 -0.04337310791015625 0.2462921142578125 0.01107931137084961 -0.01359415054321289 0.011162757873535156 -0.01338958740234375 -0.1140594482421875 0.199981689453125
28.2 -0.037322998046875 0.248992919921875 0.010589122772216797 -0.013953208923339844 0.01073598861694336 -0.014036178588867188 -0.1081695556640625 0.20398712158203125
28.20875 -0.0315093994140625 0.251190185546875 0.010010719299316406 -0.014497756958007812 0.010209083557128906 -0.014712810516357422 -0.1025390625 0.2081298828125
28.2175 -0.025787353515625 0.2519683837890625 0.009661197662353516 -0.015069961547851562 0.009464263916015625 -0.015551567077636719 -0.0968475341796875 0.212066650390625
28.22625 -0.01995849609375 0.2530975341796875 0.008776664733886719 -0.015737533569335938 0.008466720581054688 -0.01630115509033203 -0.090911865234375 0.215362548828125
28.235 -0.0136566162109375 0.2535858154296875 0.007976531982421875 -0.016481399536132812 0.007260322570800781 -0.016592025756835938 -0.0843658447265625 0.21881103515625
28.24375 -0.0079803466796875 0.2532806396484375 0.007193565368652344 -0.01703929901123047 0.006339073181152344 -0.016991615295410156 -0.07794952392578125 0.22183990478515625
28.2525 -0.0013885498046875 0.253753662109375 0.005925178527832031 -0.01772785186767578 0.005331993103027344 -0.017169952392578125 -0.0714263916015625 0.2244873046875
28.26125 0.00482177734375 0.2530670166015625 0.004534721374511719 -0.018062591552734375 0.004298210144042969 -0.017299652099609375 -0.06504058837890625 0.227325439453125
28.27 0.0112762451171875 0.2525177001953125 0.0033998489379882812 -0.017894744873046875 0.0034399032592773438 -0.017101287841796875 -0.05850982666015625 0.22942352294921875
28.27875 0.017791748046875 0.251617431640625 0.0023593902587890625 -0.017595291137695312 0.0026607513427734375 -0.01709747314453125 -0.051788330078125 0.2311859130859375
28.2875 0.024017333984375 0.250152587890625 0.00171661376953125 -0.01738739013671875 0.0022335052490234375 -0.017225265502929688 -0.0451202392578125 0.2321319580078125
28.29625 0.0306396484375 0.2485809326171875 0.0010881423950195312 -0.017378807067871094 0.001556396484375 -0.017525672912597656 -0.0384979248046875 0.23345184326171875
28.305 0.036712646484375 0.2472686767578125 0.00035190582275390625 -0.017403602600097656 0.0007333755493164062 -0.01778125762939453 -0.03186798095703125 0.233978271484375
28.31375 0.0426788330078125 0.2457733154296875 -0.0003147125244140625 -0.01738262176513672 -0.00021839141845703125 -0.018088340759277344 -0.025421142578125 0.2340240478515625
28.3225 0.04852294921875 0.243560791015625 -0.0010213851928710938 -0.017642974853515625 -0.0012645721435546875 -0.01822948455810547 -0.0188140869140625 0.23412322998046875
28.33125 0.05413818359375 0.2419281005859375 -0.0020389556884765625 -0.017658233642578125 -0.002529144287109375 -0.01836872100830078 -0.01221466064453125 0.2335052490234375
28.34 0.0595703125 0.2389984130859375 -0.0027475357055664062 -0.017859458923339844 -0.0038328170776367188 -0.017873764038085938 -0.00539398193359375 0.23249053955078125
28.34875 0.0645599365234375 0.2362518310546875 -0.003887176513671875 -0.017778396606445312 -0.004723548889160156 -0.017442703247070312 0.00130462646484375 0.2310791015625
28.3575 0.0698089599609375 0.23345947265625 -0.004734039306640625 -0.01762866973876953 -0.005637168884277344 -0.016922950744628906 0.0078277587890625 0.22922515869140625
28.36625 0.073822021484375 0.2299041748046875 -0.005785942077636719 -0.017412185668945312 -0.0063724517822265625 -0.01645946502685547 0.01378631591796875 0.2273101806640625
28.375 0.0783538818359375 0.226531982421875 -0.006869316101074219 -0.01713275909423828 -0.007164955139160156 -0.01615619659423828 0.0204620361328125 0.2250518798828125
28.38375 0.08221435546875 0.222991943359375 -0.008073806762695312 -0.016550064086914062 -0.007781982421875 -0.015665054321289062 0.02667236328125 0.22247314453125
28.3925 0.08612060546875 0.21868896484375 -0.008810043334960938 -0.0159149169921875 -0.008258819580078125 -0.015325546264648438 0.032867431640625 0.219390869140625
28.40125 0.0901336669921875 0.2145538330078125 -0.00966644287109375 -0.0152130126953125 -0.008877754211425781 -0.014911651611328125 0.0390472412109375 0.2162017822265625
28.41 0.0932159423828125 0.210174560546875 -0.010233879089355469 -0.014777183532714844 -0.009398460388183594 -0.01471710205078125 0.04498291015625 0.2130584716796875
28.41875 0.0958099365234375 0.20538330078125 -0.010869026184082031 -0.014385223388671875 -0.010220527648925781 -0.014510154724121094 0.0505523681640625 0.209503173828125
28.4275 0.0990142822265625 0.2007598876953125 -0.011734962463378906 -0.013983726501464844 -0.011300086975097656 -0.014123916625976562 0.05596923828125 0.2057647705078125
28.43625 0.1016082763671875 0.1958465576171875 -0.01224517822265625 -0.013540267944335938 -0.012217521667480469 -0.0137786865234375 0.06103515625 0.2021942138671875
28.445 0.1042022705078125 0.19085693359375 -0.013189315795898438 -0.012742042541503906 -0.013230323791503906 -0.01305389404296875 0.0660858154296875 0.198211669921875
28.45375 0.10638427734375 0.1857452392578125 -0.014018058776855469 -0.012020111083984375 -0.014035224914550781 -0.01220703125 0.07061767578125 0.1934661865234375
28.4625 0.108154296875 0.1804351806640625 -0.014620780944824219 -0.011336326599121094 -0.014765739440917969 -0.01129913330078125 0.0744476318359375 0.189178466796875
28.47125 0.109893798828125 0.1754302978515625 -0.015253067016601562 -0.010527610778808594 -0.01543426513671875 -0.010287284851074219 0.0780487060546875 0.184661865234375
28.48 0.1111907958984375 0.1706085205078125 -0.01572418212890625 -0.009533882141113281 -0.015773773193359375 -0.009462356567382812 0.0816497802734375 0.179931640625
28.48875 0.1125640869140625 0.16583251953125 -0.01624584197998047 -0.008699417114257812 -0.016145706176757812 -0.0085906982421875 0.0846099853515625 0.175262451171875
28.4975 0.113250732421875 0.1610870361328125 -0.016533851623535156 -0.0077972412109375 -0.0165557861328125 -0.007714271545410156 0.0872802734375 0.1701812744140625
28.50625 0.11407470703125 0.156402587890625 -0.01708221435546875 -0.0068511962890625 -0.016904830932617188 -0.0066242218017578125 0.08966064453125 0.1646728515625
