!Created with skrf (http://scikit-rf.org).
# GHz S RI R 50.0 
!freq ReS11 ImS11 ReS21 ImS21 ReS12 ImS12 ReS22 ImS22
27.5 -0.00414276123046875 0.1722564697265625 0.017915725708007812 -0.02321147918701172 0.018795013427734375 -0.023588180541992188 0.0231475830078125 0.11611175537109375
27.50875 -0.00308990478515625 0.167144775390625 0.016277313232421875 -0.02423572540283203 0.016942977905273438 -0.02478504180908203 0.02571868896484375 0.1092681884765625
27.5175 -0.00266265869140625 0.16210174560546875 0.01480865478515625 -0.024883270263671875 0.015363693237304688 -0.025618553161621094 0.027313232421875 0.10262298583984375
27.52625 -0.00225830078125 0.15692138671875 0.013418197631835938 -0.025656700134277344 0.01358795166015625 -0.026456832885742188 0.02860260009765625 0.095916748046875
27.535 -0.00211334228515625 0.15204620361328125 0.011968612670898438 -0.026151657104492188 0.011936187744140625 -0.027027130126953125 0.029399871826171875 0.08915328979492188
27.54375 -0.00238037109375 0.14727783203125 0.010366439819335938 -0.027086257934570312 0.010206222534179688 -0.027585983276367188 0.02991485595703125 0.08301544189453125
27.5525 -0.003082275390625 0.1422119140625 0.009099960327148438 -0.02761077880859375 0.008405685424804688 -0.028095245361328125 0.0301971435546875 0.07639312744140625
27.56125 -0.0042572021484375 0.137603759765625 0.00742340087890625 -0.02819347381591797 0.007029533386230469 -0.028306007385253906 0.029270172119140625 0.06954193115234375
27.57 -0.00585174560546875 0.13347625732421875 0.005748748779296875 -0.028472900390625 0.00537872314453125 -0.028629302978515625 0.0279998779296875 0.06348037719726562
27.57875 -0.00736236572265625 0.129180908203125 0.004078865051269531 -0.029012680053710938 0.003749847412109375 -0.028667449951171875 0.02677154541015625 0.05731201171875
27.5875 -0.00911712646484375 0.12511444091796875 0.002399444580078125 -0.028961181640625 0.0021734237670898438 -0.02893829345703125 0.024593353271484375 0.051303863525390625
27.59625 -0.011333465576171875 0.1212310791015625 0.00028705596923828125 -0.029166221618652344 0.0005655288696289062 -0.028993606567382812 0.022308349609375 0.04569244384765625
27.605 -0.01384735107421875 0.11716461181640625 -0.0013751983642578125 -0.028997421264648438 -0.00124359130859375 -0.02889728546142578 0.019716262817382812 0.04047584533691406
27.61375 -0.016742706298828125 0.11383056640625 -0.002880096435546875 -0.028543472290039062 -0.002895355224609375 -0.028642654418945312 0.016599655151367188 0.035099029541015625
27.6225 -0.019954681396484375 0.11064529418945312 -0.00449371337890625 -0.028280258178710938 -0.0044384002685546875 -0.028421401977539062 0.013368606567382812 0.0302581787109375
27.63125 -0.0233001708984375 0.10760879516601562 -0.006122589111328125 -0.027923583984375 -0.0061817169189453125 -0.0280303955078125 0.009809494018554688 0.025665283203125
27.64 -0.026676177978515625 0.10496902465820312 -0.0077381134033203125 -0.027708053588867188 -0.0076446533203125 -0.027601242065429688 0.005732536315917969 0.021234512329101562
27.64875 -0.030254364013671875 0.10271072387695312 -0.00925445556640625 -0.026636123657226562 -0.009214401245117188 -0.026796340942382812 0.0016632080078125 0.017635345458984375
27.6575 -0.034053802490234375 0.1004638671875 -0.010412216186523438 -0.025930404663085938 -0.010440826416015625 -0.026020050048828125 -0.0025157928466796875 0.014244556427001953
27.66625 -0.0380706787109375 0.0985870361328125 -0.011686325073242188 -0.025217056274414062 -0.011669158935546875 -0.025461196899414062 -0.006547451019287109 0.01129913330078125
27.675 -0.042331695556640625 0.0972900390625 -0.0128326416015625 -0.024633407592773438 -0.012777328491210938 -0.024749755859375 -0.011135101318359375 0.008410930633544922
27.68375 -0.046382904052734375 0.09616470336914062 -0.0139617919921875 -0.023939132690429688 -0.014051437377929688 -0.02423095703125 -0.015494823455810547 0.006122112274169922
27.6925 -0.050441741943359375 0.09525299072265625 -0.015336990356445312 -0.023290634155273438 -0.015499114990234375 -0.023349761962890625 -0.0200653076171875 0.0040740966796875
27.70125 -0.05493927001953125 0.09497833251953125 -0.016510009765625 -0.022312164306640625 -0.016635894775390625 -0.0223846435546875 -0.025014877319335938 0.0020160675048828125
27.71 -0.059261322021484375 0.0948028564453125 -0.017721176147460938 -0.021425247192382812 -0.017793655395507812 -0.021524429321289062 -0.029931068420410156 0.000621795654296875
27.71875 -0.06336212158203125 0.09517669677734375 -0.018793106079101562 -0.020305633544921875 -0.018884658813476562 -0.020351409912109375 -0.034656524658203125 -0.0004138946533203125
27.7275 -0.06804275512695312 0.09566116333007812 -0.019641876220703125 -0.019266128540039062 -0.019603729248046875 -0.019399642944335938 -0.04000663757324219 -0.0012054443359375
27.73625 -0.07247543334960938 0.09682464599609375 -0.020689010620117188 -0.01831817626953125 -0.020559310913085938 -0.018640518188476562 -0.04476356506347656 -0.00194549560546875
27.745 -0.07662582397460938 0.0985107421875 -0.021686553955078125 -0.017490386962890625 -0.021680831909179688 -0.017690658569335938 -0.04964256286621094 -0.0021572113037109375
27.75375 -0.080535888671875 0.100738525390625 -0.022672653198242188 -0.016208648681640625 -0.0228729248046875 -0.016569137573242188 -0.05461311340332031 -0.0023555755615234375
27.7625 -0.08462142944335938 0.1027374267578125 -0.023500442504882812 -0.014772415161132812 -0.02379608154296875 -0.015254974365234375 -0.05995941162109375 -0.0025634765625
27.77125 -0.0885772705078125 0.10526657104492188 -0.024389266967773438 -0.013479232788085938 -0.024658203125 -0.013860702514648438 -0.06516647338867188 -0.002040863037109375
27.78 -0.09236907958984375 0.1079559326171875 -0.025148391723632812 -0.012416839599609375 -0.025653839111328125 -0.012449264526367188 -0.0701446533203125 -0.001087188720703125
27.78875 -0.09628677368164062 0.11120986938476562 -0.025661468505859375 -0.010728836059570312 -0.026332855224609375 -0.01076507568359375 -0.0751190185546875 0.0
27.7975 -0.09979248046875 0.11484909057617188 -0.02597808837890625 -0.009288787841796875 -0.026887893676757812 -0.009145736694335938 -0.0800628662109375 0.001129150390625
27.80625 -0.10348892211914062 0.11859130859375 -0.026704788208007812 -0.0078125 -0.02734375 -0.0075016021728515625 -0.08501434326171875 0.00287628173828125
27.815 -0.106475830078125 0.12250518798828125 -0.02715301513671875 -0.006465911865234375 -0.02733612060546875 -0.005859375 -0.089630126953125 0.00457763671875
27.82375 -0.10936737060546875 0.12662506103515625 -0.02718353271484375 -0.0051136016845703125 -0.02721691131591797 -0.004227638244628906 -0.09378433227539062 0.0064697265625
27.8325 -0.111907958984375 0.13100433349609375 -0.027265548706054688 -0.0035047531127929688 -0.027196884155273438 -0.0028181076049804688 -0.09844970703125 0.009021759033203125
27.84125 -0.1143646240234375 0.136077880859375 -0.027393341064453125 -0.0019025802612304688 -0.027153968811035156 -0.0016508102416992188 -0.10232162475585938 0.0115814208984375
27.85 -0.1167449951171875 0.14078521728515625 -0.02777862548828125 -0.000362396240234375 -0.027060508728027344 -0.0007162094116210938 -0.10653305053710938 0.014156341552734375
27.85875 -0.11837005615234375 0.1454925537109375 -0.027862548828125 0.0009336471557617188 -0.027393341064453125 0.0005016326904296875 -0.11080169677734375 0.01731109619140625
27.8675 -0.119781494140625 0.15033721923828125 -0.02756214141845703 0.0021209716796875 -0.02734661102294922 0.0017061233520507812 -0.11444473266601562 0.020458221435546875
27.87625 -0.12096405029296875 0.15545654296875 -0.0274505615234375 0.003185272216796875 -0.027657508850097656 0.0030145645141601562 -0.11785888671875 0.023799896240234375
27.885 -0.1219635009765625 0.16127777099609375 -0.027204513549804688 0.004654884338378906 -0.02797412872314453 0.004467964172363281 -0.12125396728515625 0.027355194091796875
27.89375 -0.122528076171875 0.1667633056640625 -0.02727508544921875 0.006420135498046875 -0.028102874755859375 0.0062885284423828125 -0.12468719482421875 0.031097412109375
27.9025 -0.12285614013671875 0.17229461669921875 -0.02726268768310547 0.008192062377929688 -0.02787017822265625 0.008286476135253906 -0.12821197509765625 0.03495025634765625
27.91125 -0.1226654052734375 0.1778106689453125 -0.027006149291992188 0.009806632995605469 -0.02736377716064453 0.010441780090332031 -0.13144683837890625 0.03926849365234375
27.92 -0.12249755859375 0.18349456787109375 -0.02658367156982422 0.011511802673339844 -0.026526451110839844 0.012269020080566406 -0.13419342041015625 0.043670654296875
27.92875 -0.12192535400390625 0.18963623046875 -0.025498390197753906 0.013186454772949219 -0.025406837463378906 0.013833045959472656 -0.136810302734375 0.04834747314453125
27.9375 -0.12066650390625 0.19568634033203125 -0.02441692352294922 0.014470100402832031 -0.024133682250976562 0.014983177185058594 -0.139495849609375 0.05333709716796875
27.94625 -0.11920166015625 0.202056884765625 -0.023296356201171875 0.015608787536621094 -0.023125648498535156 0.015966415405273438 -0.1418304443359375 0.0578460693359375
27.955 -0.1171417236328125 0.208160400390625 -0.022298812866210938 0.016828536987304688 -0.02256011962890625 0.016946792602539062 -0.144256591796875 0.063140869140625
27.96375 -0.1150970458984375 0.2140960693359375 -0.021276473999023438 0.01772594451904297 -0.021566390991210938 0.018172264099121094 -0.1464996337890625 0.0685272216796875
27.9725 -0.11267852783203125 0.220611572265625 -0.02008342742919922 0.0189666748046875 -0.02069091796875 0.019387245178222656 -0.14759063720703125 0.0741119384765625
27.98125 -0.11055755615234375 0.22643280029296875 -0.01907634735107422 0.019697189331054688 -0.019678115844726562 0.020647048950195312 -0.14859771728515625 0.0797271728515625
27.99 -0.10752105712890625 0.23229217529296875 -0.018240928649902344 0.020574569702148438 -0.018392562866210938 0.021656036376953125 -0.14948272705078125 0.08536529541015625
27.99875 -0.1043548583984375 0.238006591796875 -0.017485618591308594 0.02130889892578125 -0.017267227172851562 0.022780418395996094 -0.149810791015625 0.090911865234375
28.0075 -0.10062408447265625 0.24356842041015625 -0.01646709442138672 0.02237701416015625 -0.01575946807861328 0.023978233337402344 -0.15030670166015625 0.096649169921875
28.01625 -0.0969085693359375 0.2490386962890625 -0.015516281127929688 0.023706436157226562 -0.014171600341796875 0.02481842041015625 -0.150665283203125 0.10251617431640625
28.025 -0.0926055908203125 0.253662109375 -0.014317512512207031 0.025145530700683594 -0.012481689453125 0.025609970092773438 -0.15033721923828125 0.10884857177734375
28.03375 -0.088348388671875 0.2586669921875 -0.012721061706542969 0.026365280151367188 -0.010529518127441406 0.025994300842285156 -0.14980316162109375 0.1147918701171875
28.0425 -0.08441162109375 0.263397216796875 -0.010709762573242188 0.027116775512695312 -0.008939743041992188 0.025789260864257812 -0.1487884521484375 0.1214599609375
28.05125 -0.079376220703125 0.2679290771484375 -0.008833885192871094 0.02743053436279297 -0.007843017578125 0.025556564331054688 -0.14785003662109375 0.127227783203125
28.06 -0.07415771484375 0.2724761962890625 -0.007451057434082031 0.027378082275390625 -0.007157325744628906 0.025696754455566406 -0.146484375 0.13333892822265625
28.06875 -0.0682525634765625 0.2762298583984375 -0.005938529968261719 0.02762317657470703 -0.006646156311035156 0.026137351989746094 -0.1447906494140625 0.13964080810546875
28.0775 -0.062713623046875 0.2794189453125 -0.004515647888183594 0.02765941619873047 -0.005779266357421875 0.02713775634765625 -0.1427764892578125 0.1459503173828125
28.08625 -0.0569610595703125 0.283203125 -0.0032625198364257812 0.027923583984375 -0.004452705383300781 0.02825641632080078 -0.14046478271484375 0.15213775634765625
28.095 -0.0511932373046875 0.2866363525390625 -0.0019474029541015625 0.028031349182128906 -0.0026531219482421875 0.02938556671142578 -0.13767242431640625 0.15821075439453125
28.10375 -0.04473876953125 0.289520263671875 -0.0005702972412109375 0.028313636779785156 -0.00040149688720703125 0.029928207397460938 -0.13474273681640625 0.16384124755859375
28.1125 -0.037933349609375 0.2922515869140625 0.0011377334594726562 0.028517723083496094 0.0019741058349609375 0.03009033203125 -0.131195068359375 0.1696014404296875
28.12125 -0.03143310546875 0.295257568359375 0.0027713775634765625 0.028438568115234375 0.0043964385986328125 0.029535293579101562 -0.1277618408203125 0.1751251220703125
28.13 -0.024139404296875 0.2975006103515625 0.004486083984375 0.028478622436523438 0.0065784454345703125 0.028657913208007812 -0.12359619140625 0.1803436279296875
28.13875 -0.016998291015625 0.299713134765625 0.0063571929931640625 0.028217315673828125 0.008089065551757812 0.027544021606445312 -0.11954498291015625 0.1852569580078125
28.1475 -0.0098876953125 0.301544189453125 0.007921218872070312 0.027713775634765625 0.00936126708984375 0.026393890380859375 -0.1147613525390625 0.1898651123046875
28.15625 -0.003021240234375 0.303009033203125 0.009723663330078125 0.026996612548828125 0.01055145263671875 0.025279998779296875 -0.109832763671875 0.1943359375
28.165 0.00390625 0.3045654296875 0.011163711547851562 0.02596282958984375 0.011270523071289062 0.024492263793945312 -0.10446929931640625 0.19861602783203125
28.17375 0.0110321044921875 0.3058319091796875 0.012414932250976562 0.025156021118164062 0.012025833129882812 0.024021148681640625 -0.0989837646484375 0.20256805419921875
28.1825 0.0181427001953125 0.3063812255859375 0.013530731201171875 0.024332046508789062 0.012781143188476562 0.02359771728515625 -0.0931854248046875 0.2059478759765625
28.19125 0.025054931640625 0.30694580078125 0.014247894287109375 0.02362060546875 0.013647079467773438 0.023542404174804688 -0.0871124267578125 0.2089691162109375
28.2 0.0327301025390625 0.3069915771484375 0.015298843383789062 0.023181915283203125 0.01483154296875 0.023347854614257812 -0.08106231689453125 0.21186065673828125
28.20875 0.0396270751953125 0.306427001953125 0.016427993774414062 0.022783279418945312 0.016632080078125 0.023059844970703125 -0.07485198974609375 0.21466064453125
28.2175 0.04608154296875 0.306060791015625 0.017955780029296875 0.022266387939453125 0.018505096435546875 0.022287368774414062 -0.06866455078125 0.21730804443359375
28.22625 0.052886962890625 0.3048248291015625 0.019552230834960938 0.02132415771484375 0.020341873168945312 0.020910263061523438 -0.06255340576171875 0.21942901611328125
28.235 0.059722900390625 0.3038787841796875 0.021297454833984375 0.020338058471679688 0.021877288818359375 0.019186019897460938 -0.05584716796875 0.22118377685546875
28.24375 0.0661773681640625 0.3017578125 0.022848129272460938 0.01886749267578125 0.022924423217773438 0.01749420166015625 -0.0494232177734375 0.2227020263671875
28.2525 0.0728302001953125 0.29986572265625 0.024078369140625 0.017177581787109375 0.0236358642578125 0.015727996826171875 -0.0428619384765625 0.22394561767578125
28.26125 0.0788726806640625 0.29742431640625 0.024824142456054688 0.015033721923828125 0.023687362670898438 0.014333724975585938 -0.036407470703125 0.2252197265625
28.27 0.0849609375 0.2947998046875 0.02501678466796875 0.013507843017578125 0.023895263671875 0.013233184814453125 -0.0301513671875 0.2258453369140625
28.27875 0.09112548828125 0.291900634765625 0.025417327880859375 0.01200103759765625 0.02451324462890625 0.01244354248046875 -0.0235748291015625 0.226409912109375
28.2875 0.0969085693359375 0.28863525390625 0.02576446533203125 0.010622024536132812 0.025136947631835938 0.011287689208984375 -0.01712799072265625 0.2261810302734375
28.29625 0.1030426025390625 0.2852020263671875 0.026102066040039062 0.00931549072265625 0.02602386474609375 0.010101318359375 -0.0107574462890625 0.22595977783203125
28.305 0.1089630126953125 0.28167724609375 0.026453018188476562 0.008090972900390625 0.0270843505859375 0.008619308471679688 -0.0041656494140625 0.22524261474609375
28.31375 0.11474609375 0.27764892578125 0.02666473388671875 0.0069561004638671875 0.027744293212890625 0.0072002410888671875 0.0020751953125 0.2236175537109375
28.3225 0.120330810546875 0.273193359375 0.027156829833984375 0.0056552886962890625 0.028402328491210938 0.0052642822265625 0.00830841064453125 0.2221832275390625
28.33125 0.125091552734375 0.2689056396484375 0.027589797973632812 0.0043239593505859375 0.028369903564453125 0.00341796875 0.01425933837890625 0.2200469970703125
28.34 0.13018798828125 0.2637481689453125 0.02788829803466797 0.0030508041381835938 0.02832794189453125 0.0016736984252929688 0.019866943359375 0.21776580810546875
28.34875 0.1345062255859375 0.2588958740234375 0.028364181518554688 0.0013561248779296875 0.028092384338378906 -2.956390380859375e-05 0.02570343017578125 0.21475982666015625
28.3575 0.139129638671875 0.2539520263671875 0.028570175170898438 -0.0002651214599609375 0.027762413024902344 -0.0017957687377929688 0.03156280517578125 0.21186065673828125
28.36625 0.14276123046875 0.2490234375 0.02869129180908203 -0.0022983551025390625 0.02711772918701172 -0.0030488967895507812 0.036651611328125 0.20841217041015625
28.375 0.147003173828125 0.243438720703125 0.028371810913085938 -0.003936767578125 0.026531219482421875 -0.0042095184326171875 0.0419464111328125 0.2047576904296875
28.38375 0.150726318359375 0.238311767578125 0.027891159057617188 -0.005474090576171875 0.02629852294921875 -0.005184173583984375 0.0469207763671875 0.20068359375
28.3925 0.1535491943359375 0.2322235107421875 0.027368545532226562 -0.006936073303222656 0.026040077209472656 -0.0061473846435546875 0.0516357421875 0.19678497314453125
28.40125 0.1563873291015625 0.2266082763671875 0.026929855346679688 -0.008129119873046875 0.02604961395263672 -0.007132530212402344 0.05606842041015625 0.19225311279296875
28.41 0.1589813232421875 0.2209625244140625 0.02647686004638672 -0.009477615356445312 0.026177406311035156 -0.00836944580078125 0.06024169921875 0.1879730224609375
28.41875 0.1611328125 0.2152252197265625 0.026144981384277344 -0.010873794555664062 0.02631092071533203 -0.009840011596679688 0.06439971923828125 0.183258056640625
28.4275 0.1633148193359375 0.2096405029296875 0.02583599090576172 -0.012564659118652344 0.026182174682617188 -0.011776924133300781 0.06786346435546875 0.1783599853515625
28.43625 0.165008544921875 0.2040252685546875 0.024895668029785156 -0.013952255249023438 0.02545928955078125 -0.013807296752929688 0.0714111328125 0.17342376708984375
28.445 0.166595458984375 0.1982421875 0.023958206176757812 -0.015508651733398438 0.024576187133789062 -0.015553474426269531 0.074676513671875 0.16883087158203125
28.45375 0.167755126953125 0.1923370361328125 0.02298259735107422 -0.016654014587402344 0.02341461181640625 -0.016902923583984375 0.07733154296875 0.16306304931640625
28.4625 0.1682586669921875 0.1866912841796875 0.021928787231445312 -0.01780223846435547 0.022192001342773438 -0.01825237274169922 0.07935333251953125 0.15814971923828125
28.47125 0.1688690185546875 0.18109130859375 0.02092742919921875 -0.018941879272460938 0.02092742919921875 -0.01955890655517578 0.08123779296875 0.1527862548828125
28.48 0.1690216064453125 0.1758880615234375 0.019884109497070312 -0.020020484924316406 0.019603729248046875 -0.020630836486816406 0.08258819580078125 0.1472320556640625
28.48875 0.168975830078125 0.1705322265625 0.018800735473632812 -0.0209808349609375 0.01837921142578125 -0.02158832550048828 0.084014892578125 0.14197540283203125
28.4975 0.16876220703125 0.1654052734375 0.017747879028320312 -0.022090911865234375 0.016948699951171875 -0.022485733032226562 0.0843963623046875 0.136932373046875
28.50625 0.167816162109375 0.16009521484375 0.016580581665039062 -0.023067474365234375 0.0156097412109375 -0.0233612060546875 0.08477783203125 0.131134033203125
28.515 0.166778564453125 0.154876708984375 0.015045166015625 -0.024053573608398438 0.014217376708984375 -0.0238037109375 0.08465576171875 0.1259918212890625
