!Created with skrf (http://scikit-rf.org).
# GHz S RI R 50.0 
!freq ReS11 ImS11 ReS21 ImS21 ReS12 ImS12 ReS22 ImS22
27.5 -0.00203704833984375 0.17334747314453125 -0.01806926727294922 -0.0037107467651367188 -0.01827526092529297 -0.004006385803222656 -0.0305328369140625 0.202728271484375
27.50875 -0.00095367431640625 0.16797637939453125 -0.01818084716796875 -0.0024843215942382812 -0.018566131591796875 -0.0026578903198242188 -0.0242156982421875 0.19936370849609375
27.5175 -0.00031280517578125 0.1629486083984375 -0.018232345581054688 -0.0013322830200195312 -0.018705368041992188 -0.0015506744384765625 -0.0185089111328125 0.195587158203125
27.52625 3.814697265625e-05 0.157928466796875 -0.01806640625 -0.0005245208740234375 -0.01858806610107422 -0.00034332275390625 -0.0127716064453125 0.19185638427734375
27.535 -0.0001220703125 0.1526947021484375 -0.017862319946289062 0.000377655029296875 -0.018421173095703125 0.0004940032958984375 -0.007293701171875 0.187591552734375
27.54375 -0.0004730224609375 0.14788818359375 -0.017961502075195312 0.0010700225830078125 -0.018274307250976562 0.0014476776123046875 -0.002166748046875 0.1831512451171875
27.5525 -0.0014495849609375 0.14300537109375 -0.018140792846679688 0.0017957687377929688 -0.01822185516357422 0.0023345947265625 0.0027923583984375 0.17833709716796875
27.56125 -0.00252532958984375 0.1385498046875 -0.018136024475097656 0.0027513504028320312 -0.018079757690429688 0.0032758712768554688 0.0071258544921875 0.1732940673828125
27.57 -0.00400543212890625 0.13391876220703125 -0.018134117126464844 0.0035657882690429688 -0.018012046813964844 0.0041904449462890625 0.010986328125 0.1685638427734375
27.57875 -0.00585174560546875 0.12957000732421875 -0.01823711395263672 0.0047893524169921875 -0.017940521240234375 0.005330085754394531 0.01531982421875 0.163299560546875
27.5875 -0.008056640625 0.1255645751953125 -0.018035888671875 0.005970001220703125 -0.01770782470703125 0.006194114685058594 0.01857757568359375 0.157470703125
27.59625 -0.010425567626953125 0.12169647216796875 -0.01778697967529297 0.00713348388671875 -0.01735687255859375 0.007088661193847656 0.0215911865234375 0.15185546875
27.605 -0.0130462646484375 0.117767333984375 -0.017442703247070312 0.008063316345214844 -0.016963958740234375 0.008177757263183594 0.0242919921875 0.1461639404296875
27.61375 -0.015865325927734375 0.11412429809570312 -0.017093658447265625 0.009134292602539062 -0.016704559326171875 0.00908660888671875 0.02648162841796875 0.14017486572265625
27.6225 -0.019039154052734375 0.11112594604492188 -0.01671600341796875 0.010325431823730469 -0.016242027282714844 0.010103225708007812 0.0285797119140625 0.13433837890625
27.63125 -0.022167205810546875 0.10825729370117188 -0.015929222106933594 0.011359214782714844 -0.01583385467529297 0.011226654052734375 0.0303497314453125 0.12831878662109375
27.64 -0.025730133056640625 0.10535812377929688 -0.015161514282226562 0.012453079223632812 -0.014964580535888672 0.012186050415039062 0.0317230224609375 0.122161865234375
27.64875 -0.029560089111328125 0.10323715209960938 -0.014510631561279297 0.013153553009033203 -0.014281749725341797 0.012950897216796875 0.032440185546875 0.11623382568359375
27.6575 -0.03302001953125 0.10097885131835938 -0.01358175277709961 0.013831615447998047 -0.013540267944335938 0.013779163360595703 0.03287506103515625 0.11053466796875
27.66625 -0.037143707275390625 0.09902572631835938 -0.012760162353515625 0.014776229858398438 -0.012860298156738281 0.014495849609375 0.0332183837890625 0.10468292236328125
27.675 -0.041278839111328125 0.09771347045898438 -0.011999130249023438 0.01542043685913086 -0.01200246810913086 0.015201091766357422 0.0330047607421875 0.09882354736328125
27.68375 -0.0454559326171875 0.0968170166015625 -0.011098861694335938 0.01617431640625 -0.011075973510742188 0.015958786010742188 0.032318115234375 0.0933074951171875
27.6925 -0.04949951171875 0.09618377685546875 -0.01006317138671875 0.016613006591796875 -0.010126113891601562 0.016485214233398438 0.03134918212890625 0.08795928955078125
27.70125 -0.053802490234375 0.0958404541015625 -0.009183883666992188 0.016923904418945312 -0.009225845336914062 0.017017364501953125 0.02978515625 0.08251190185546875
27.71 -0.058010101318359375 0.09595108032226562 -0.008254051208496094 0.01752948760986328 -0.008205413818359375 0.017455101013183594 0.028018951416015625 0.07750701904296875
27.71875 -0.062374114990234375 0.09650039672851562 -0.007308006286621094 0.017869949340820312 -0.0073108673095703125 0.018021583557128906 0.026165008544921875 0.07233810424804688
27.7275 -0.06681060791015625 0.09725570678710938 -0.006342887878417969 0.018279075622558594 -0.0063266754150390625 0.018372535705566406 0.02356719970703125 0.06747055053710938
27.73625 -0.07092666625976562 0.09872817993164062 -0.005171775817871094 0.018768310546875 -0.005230903625488281 0.01880931854248047 0.02074432373046875 0.0623321533203125
27.745 -0.07532119750976562 0.100433349609375 -0.004097938537597656 0.01893901824951172 -0.0042057037353515625 0.019134521484375 0.017864227294921875 0.05791473388671875
27.75375 -0.07933425903320312 0.10243988037109375 -0.0031366348266601562 0.01921558380126953 -0.00298309326171875 0.0192108154296875 0.014404296875 0.053890228271484375
27.7625 -0.08324050903320312 0.10465621948242188 -0.001983642578125 0.01938915252685547 -0.0019817352294921875 0.019330978393554688 0.010738372802734375 0.04967308044433594
27.77125 -0.08746719360351562 0.10716629028320312 -0.0010728836059570312 0.01941204071044922 -0.0009908676147460938 0.019567489624023438 0.0067291259765625 0.04575538635253906
27.78 -0.09137344360351562 0.10981369018554688 -5.7220458984375e-05 0.0195159912109375 0.00018310546875 0.01984691619873047 0.002582550048828125 0.04213142395019531
27.78875 -0.09547042846679688 0.11311721801757812 0.00121307373046875 0.019399642944335938 0.0016336441040039062 0.019797325134277344 -0.002044677734375 0.0387115478515625
27.7975 -0.09891510009765625 0.11655807495117188 0.0024394989013671875 0.0191650390625 0.0028438568115234375 0.019556045532226562 -0.0067043304443359375 0.03570365905761719
27.80625 -0.10231781005859375 0.12040328979492188 0.0035533905029296875 0.018978118896484375 0.0040645599365234375 0.019117355346679688 -0.011434555053710938 0.0331878662109375
27.815 -0.10555267333984375 0.12445068359375 0.004436492919921875 0.018672943115234375 0.005157470703125 0.01853179931640625 -0.016412734985351562 0.030622482299804688
27.82375 -0.10854339599609375 0.12828826904296875 0.005343437194824219 0.018517494201660156 0.005959510803222656 0.01809406280517578 -0.02121734619140625 0.028656959533691406
27.8325 -0.111236572265625 0.132476806640625 0.006384849548339844 0.018334388732910156 0.006857872009277344 0.017885208129882812 -0.02642536163330078 0.026961326599121094
27.84125 -0.11357879638671875 0.13739776611328125 0.0073795318603515625 0.017851829528808594 0.007744789123535156 0.01749420166015625 -0.03140068054199219 0.025949478149414062
27.85 -0.1158905029296875 0.1421051025390625 0.008568763732910156 0.017337799072265625 0.008533477783203125 0.016880035400390625 -0.03685760498046875 0.024602890014648438
27.85875 -0.11773681640625 0.14739227294921875 0.009540557861328125 0.0167694091796875 0.009327888488769531 0.01649761199951172 -0.04245567321777344 0.024343490600585938
27.8675 -0.1190643310546875 0.1522979736328125 0.0104522705078125 0.015952110290527344 0.010211944580078125 0.01610851287841797 -0.048007965087890625 0.024387359619140625
27.87625 -0.120025634765625 0.15761566162109375 0.011199951171875 0.015540122985839844 0.011105537414550781 0.01568126678466797 -0.053363800048828125 0.02483367919921875
27.885 -0.12097930908203125 0.16341400146484375 0.012104988098144531 0.014845848083496094 0.012115478515625 0.015131950378417969 -0.058292388916015625 0.02550506591796875
27.89375 -0.121124267578125 0.16892242431640625 0.012984275817871094 0.014141082763671875 0.013245582580566406 0.014498710632324219 -0.06373977661132812 0.02648162841796875
27.9025 -0.12120819091796875 0.17456817626953125 0.01367950439453125 0.013345718383789062 0.014118194580078125 0.013676643371582031 -0.06914138793945312 0.027584075927734375
27.91125 -0.12067413330078125 0.1802825927734375 0.01435089111328125 0.01239013671875 0.0150604248046875 0.012537956237792969 -0.07472610473632812 0.02979278564453125
27.92 -0.1199951171875 0.18628692626953125 0.015025138854980469 0.011441230773925781 0.015639305114746094 0.011469841003417969 -0.079864501953125 0.0321197509765625
27.92875 -0.11908721923828125 0.19254302978515625 0.01551055908203125 0.010546684265136719 0.016013145446777344 0.010223388671875 -0.085113525390625 0.034748077392578125
27.9375 -0.1175994873046875 0.19835662841796875 0.0159912109375 0.009547233581542969 0.016396522521972656 0.009283065795898438 -0.09030532836914062 0.038074493408203125
27.94625 -0.11614227294921875 0.2045135498046875 0.01636981964111328 0.008601188659667969 0.016649246215820312 0.008290290832519531 -0.09497451782226562 0.041294097900390625
27.955 -0.1141204833984375 0.210540771484375 0.016702651977539062 0.0076122283935546875 0.01692962646484375 0.0074481964111328125 -0.0995941162109375 0.04468536376953125
27.96375 -0.11212921142578125 0.2163848876953125 0.016859054565429688 0.006718635559082031 0.01723480224609375 0.00675201416015625 -0.10425186157226562 0.048847198486328125
27.9725 -0.10948944091796875 0.2228546142578125 0.017181396484375 0.005619049072265625 0.01763629913330078 0.005889892578125 -0.10827255249023438 0.052814483642578125
27.98125 -0.10698699951171875 0.2281036376953125 0.01725482940673828 0.004772186279296875 0.01793956756591797 0.004891395568847656 -0.11215972900390625 0.0572967529296875
27.99 -0.103973388671875 0.23349761962890625 0.017198562622070312 0.0041446685791015625 0.018195152282714844 0.003963470458984375 -0.11580276489257812 0.0618896484375
27.99875 -0.100738525390625 0.23925018310546875 0.01747417449951172 0.0033845901489257812 0.018464088439941406 0.0028285980224609375 -0.11893081665039062 0.06719207763671875
28.0075 -0.0971527099609375 0.2447052001953125 0.01772785186767578 0.002567291259765625 0.018634796142578125 0.0017108917236328125 -0.12194061279296875 0.07211685180664062
28.01625 -0.093231201171875 0.24993896484375 0.017815589904785156 0.0013914108276367188 0.018426895141601562 0.00022220611572265625 -0.124725341796875 0.07763671875
28.025 -0.0896759033203125 0.254730224609375 0.017938613891601562 0.00047969818115234375 0.018006324768066406 -0.0007333755493164062 -0.12688446044921875 0.08283233642578125
28.03375 -0.0855865478515625 0.2598724365234375 0.017822265625 -0.000675201416015625 0.017624855041503906 -0.0017118453979492188 -0.128997802734375 0.08892059326171875
28.0425 -0.081024169921875 0.2640380859375 0.017694473266601562 -0.0016117095947265625 0.017124176025390625 -0.0024051666259765625 -0.1305694580078125 0.09515380859375
28.05125 -0.0755157470703125 0.268646240234375 0.017540931701660156 -0.0025396347045898438 0.016777992248535156 -0.0030202865600585938 -0.13195037841796875 0.101165771484375
28.06 -0.070465087890625 0.272674560546875 0.017144203186035156 -0.0035076141357421875 0.01648235321044922 -0.0034704208374023438 -0.132965087890625 0.10750579833984375
28.06875 -0.0647125244140625 0.2764129638671875 0.016666412353515625 -0.004298210144042969 0.016376495361328125 -0.003875732421875 -0.133697509765625 0.11376190185546875
28.0775 -0.059112548828125 0.2801666259765625 0.01633739471435547 -0.004952430725097656 0.016585350036621094 -0.004390716552734375 -0.134002685546875 0.12027740478515625
28.08625 -0.053009033203125 0.2838134765625 0.016076087951660156 -0.005722999572753906 0.01665973663330078 -0.0052490234375 -0.13397979736328125 0.1269073486328125
28.095 -0.047149658203125 0.2872467041015625 0.015642166137695312 -0.0064258575439453125 0.016735076904296875 -0.0062503814697265625 -0.1333770751953125 0.133392333984375
28.10375 -0.04052734375 0.29046630859375 0.015459060668945312 -0.007065773010253906 0.016582489013671875 -0.007594108581542969 -0.13295745849609375 0.13976287841796875
28.1125 -0.033660888671875 0.2933197021484375 0.015064239501953125 -0.007773399353027344 0.016008377075195312 -0.008729934692382812 -0.1318511962890625 0.14611053466796875
28.12125 -0.026824951171875 0.2960052490234375 0.014811038970947266 -0.008521556854248047 0.015166282653808594 -0.009784698486328125 -0.1305389404296875 0.1527099609375
28.13 -0.0197296142578125 0.2982177734375 0.014495849609375 -0.009322643280029297 0.014241218566894531 -0.010759830474853516 -0.12851715087890625 0.15915679931640625
28.13875 -0.01251220703125 0.3004913330078125 0.01383209228515625 -0.010184288024902344 0.013161659240722656 -0.011270523071289062 -0.12644195556640625 0.165191650390625
28.1475 -0.00537109375 0.3023681640625 0.013241767883300781 -0.010971546173095703 0.012308597564697266 -0.011523723602294922 -0.1240692138671875 0.17101287841796875
28.15625 0.001800537109375 0.303680419921875 0.012555122375488281 -0.0116424560546875 0.01149749755859375 -0.011807441711425781 -0.1208648681640625 0.17730712890625
28.165 0.008636474609375 0.3048553466796875 0.011799335479736328 -0.012079238891601562 0.010868072509765625 -0.011887550354003906 -0.1181793212890625 0.1835479736328125
28.17375 0.0155487060546875 0.3056793212890625 0.010944843292236328 -0.012499332427978516 0.01061105728149414 -0.0120086669921875 -0.1145477294921875 0.18909454345703125
28.1825 0.0225982666015625 0.3058624267578125 0.010437965393066406 -0.01279449462890625 0.010339736938476562 -0.012258052825927734 -0.110687255859375 0.19455718994140625
28.19125 0.02972412109375 0.306182861328125 0.00993204116821289 -0.013196468353271484 0.010103225708007812 -0.012685298919677734 -0.10630035400390625 0.19956207275390625
28.2 0.037200927734375 0.3058929443359375 0.009531021118164062 -0.013490676879882812 0.00981903076171875 -0.013449668884277344 -0.10227203369140625 0.205230712890625
28.20875 0.0438995361328125 0.3054962158203125 0.009134769439697266 -0.013907432556152344 0.0094451904296875 -0.014143943786621094 -0.0972747802734375 0.2101898193359375
28.2175 0.050628662109375 0.304931640625 0.008560657501220703 -0.01473236083984375 0.008664131164550781 -0.015004158020019531 -0.09239959716796875 0.21511077880859375
28.22625 0.057342529296875 0.3038787841796875 0.007822990417480469 -0.01540374755859375 0.007641792297363281 -0.015776634216308594 -0.08716583251953125 0.2198486328125
28.235 0.064178466796875 0.30145263671875 0.0069866180419921875 -0.01599597930908203 0.006339073181152344 -0.016098976135253906 -0.0815582275390625 0.224365234375
28.24375 0.0707244873046875 0.2996673583984375 0.006016731262207031 -0.016435623168945312 0.0054225921630859375 -0.016381263732910156 -0.07573699951171875 0.22849273681640625
28.2525 0.0772247314453125 0.29779052734375 0.0048961639404296875 -0.016798973083496094 0.004566192626953125 -0.01630115509033203 -0.0697784423828125 0.2324676513671875
28.26125 0.08367919921875 0.2949676513671875 0.0037784576416015625 -0.0169219970703125 0.0037508010864257812 -0.01630401611328125 -0.06371307373046875 0.236175537109375
28.27 0.0899658203125 0.2919921875 0.0028858184814453125 -0.017007827758789062 0.003154754638671875 -0.016414642333984375 -0.0576934814453125 0.2390899658203125
28.27875 0.09625244140625 0.28924560546875 0.0018062591552734375 -0.01700592041015625 0.0025081634521484375 -0.0165557861328125 -0.051422119140625 0.2424163818359375
28.2875 0.1024017333984375 0.285797119140625 0.0010576248168945312 -0.016740798950195312 0.0017957687377929688 -0.016796112060546875 -0.045013427734375 0.24480438232421875
28.29625 0.1085968017578125 0.2818756103515625 0.00048542022705078125 -0.016576766967773438 0.0009937286376953125 -0.016893386840820312 -0.03850555419921875 0.24755859375
28.305 0.1143341064453125 0.27813720703125 -0.00022983551025390625 -0.01641559600830078 0.000217437744140625 -0.017171859741210938 -0.0316619873046875 0.24945068359375
28.31375 0.1199798583984375 0.2742156982421875 -0.0006351470947265625 -0.0165863037109375 -0.0006799697875976562 -0.01726531982421875 -0.0250701904296875 0.2507476806640625
28.3225 0.1252288818359375 0.2699737548828125 -0.00118255615234375 -0.016745567321777344 -0.0016832351684570312 -0.01737689971923828 -0.0181732177734375 0.2520294189453125
28.33125 0.1302032470703125 0.26580810546875 -0.0020599365234375 -0.017045974731445312 -0.0027532577514648438 -0.01737689971923828 -0.0115203857421875 0.25323486328125
28.34 0.1351470947265625 0.2610015869140625 -0.0030193328857421875 -0.017513275146484375 -0.0041294097900390625 -0.017218589782714844 -0.00457763671875 0.2534027099609375
28.34875 0.1393890380859375 0.2563323974609375 -0.004202842712402344 -0.01725292205810547 -0.005326271057128906 -0.016699790954589844 0.0024871826171875 0.25335693359375
28.3575 0.1436920166015625 0.2511138916015625 -0.005511283874511719 -0.016981124877929688 -0.006043434143066406 -0.01604747772216797 0.009765625 0.2531280517578125
28.36625 0.147369384765625 0.2461090087890625 -0.006450653076171875 -0.016442298889160156 -0.006575584411621094 -0.015395164489746094 0.016510009765625 0.2525634765625
28.375 0.151031494140625 0.2406005859375 -0.00719451904296875 -0.016040802001953125 -0.0071258544921875 -0.015027999877929688 0.0235595703125 0.251617431640625
28.38375 0.154083251953125 0.23553466796875 -0.00803375244140625 -0.015363693237304688 -0.0074710845947265625 -0.0146942138671875 0.0303955078125 0.250946044921875
28.3925 0.15679931640625 0.2301025390625 -0.008654594421386719 -0.014984130859375 -0.008093833923339844 -0.014575958251953125 0.0372467041015625 0.2493133544921875
28.40125 0.1599578857421875 0.2243804931640625 -0.009248733520507812 -0.014519691467285156 -0.008822441101074219 -0.014344215393066406 0.044219970703125 0.247528076171875
28.41 0.1624908447265625 0.219085693359375 -0.010082244873046875 -0.01410675048828125 -0.0095977783203125 -0.014230728149414062 0.05072021484375 0.2455596923828125
28.41875 0.164520263671875 0.21319580078125 -0.010700225830078125 -0.013773918151855469 -0.010462760925292969 -0.013973236083984375 0.057098388671875 0.2432403564453125
28.4275 0.1663055419921875 0.2070465087890625 -0.011402130126953125 -0.013275146484375 -0.011361122131347656 -0.013352394104003906 0.0634613037109375 0.240936279296875
28.43625 0.1678009033203125 0.2010498046875 -0.012246131896972656 -0.012804985046386719 -0.012319564819335938 -0.012834548950195312 0.069976806640625 0.2381744384765625
28.445 0.1690826416015625 0.1955108642578125 -0.012948989868164062 -0.012115478515625 -0.013059616088867188 -0.012075424194335938 0.07623291015625 0.235321044921875
28.45375 0.1701202392578125 0.1896514892578125 -0.013631820678710938 -0.011429786682128906 -0.013742446899414062 -0.011330604553222656 0.0822296142578125 0.231597900390625
28.4625 0.1708221435546875 0.18377685546875 -0.014220237731933594 -0.010663032531738281 -0.01438140869140625 -0.010437965393066406 0.0877685546875 0.2279510498046875
28.47125 0.1711883544921875 0.1779937744140625 -0.014711380004882812 -0.009927749633789062 -0.014843940734863281 -0.009621620178222656 0.092864990234375 0.2239227294921875
28.48 0.1712799072265625 0.1726226806640625 -0.015341758728027344 -0.009188652038574219 -0.015336990356445312 -0.008724212646484375 0.0976715087890625 0.2197418212890625
28.48875 0.1710357666015625 0.1674652099609375 -0.01572895050048828 -0.008280754089355469 -0.01574420928955078 -0.0076580047607421875 0.10272216796875 0.2152557373046875
28.4975 0.17083740234375 0.162200927734375 -0.016239166259765625 -0.0074138641357421875 -0.016042709350585938 -0.006977081298828125 0.10748291015625 0.21044921875
28.50625 0.16973876953125 0.1568603515625 -0.016574859619140625 -0.0066318511962890625 -0.01613616943359375 -0.006122589111328125 0.11138916015625 0.20501708984375
28.515 0.168609619140625 0.151519775390625 -0.016790390014648438 -0.0057277679443359375 -0.016355514526367188 -0.00537109375 0.11578369140625 0.19964599609375
