!Created with skrf (http://scikit-rf.org).
# GHz S RI R 50.0 
!freq ReS11 ImS11 ReS21 ImS21 ReS12 ImS12 ReS22 ImS22
27.5 -0.009979248046875 0.1278228759765625 -0.0266265869140625 -0.03130531311035156 -0.025892257690429688 -0.031757354736328125 0.0034027099609375 0.15042877197265625
27.50875 -0.0085601806640625 0.1228790283203125 -0.02805328369140625 -0.029573440551757812 -0.027801513671875 -0.03025054931640625 0.00577545166015625 0.14544677734375
27.5175 -0.007537841796875 0.1179046630859375 -0.029506683349609375 -0.027658462524414062 -0.029352188110351562 -0.02845001220703125 0.0079803466796875 0.14012908935546875
27.52625 -0.006809234619140625 0.11265182495117188 -0.030246734619140625 -0.025873184204101562 -0.0308837890625 -0.026714324951171875 0.00998687744140625 0.13466644287109375
27.535 -0.006622314453125 0.107513427734375 -0.031238555908203125 -0.02426910400390625 -0.03194427490234375 -0.024814605712890625 0.011383056640625 0.129180908203125
27.54375 -0.00649261474609375 0.1028900146484375 -0.032382965087890625 -0.023014068603515625 -0.0330352783203125 -0.022918701171875 0.01251220703125 0.1237640380859375
27.5525 -0.00701904296875 0.09794235229492188 -0.03354072570800781 -0.021417617797851562 -0.03425025939941406 -0.021203994750976562 0.0132904052734375 0.11811065673828125
27.56125 -0.007656097412109375 0.0933837890625 -0.03454780578613281 -0.019742965698242188 -0.03512001037597656 -0.0193023681640625 0.0136566162109375 0.11231231689453125
27.57 -0.00848388671875 0.08897781372070312 -0.03561592102050781 -0.017993927001953125 -0.03579521179199219 -0.01741790771484375 0.013469696044921875 0.1068267822265625
27.57875 -0.00978851318359375 0.0844879150390625 -0.03655242919921875 -0.016328811645507812 -0.03660774230957031 -0.01567840576171875 0.013217926025390625 0.10149002075195312
27.5875 -0.011402130126953125 0.080413818359375 -0.03751564025878906 -0.0145111083984375 -0.037403106689453125 -0.0139923095703125 0.012432098388671875 0.09582138061523438
27.59625 -0.013530731201171875 0.076416015625 -0.03849983215332031 -0.012510299682617188 -0.03826141357421875 -0.012157440185546875 0.011425018310546875 0.09080886840820312
27.605 -0.015705108642578125 0.07259750366210938 -0.03923606872558594 -0.010213851928710938 -0.038848876953125 -0.0099945068359375 0.010082244873046875 0.08547592163085938
27.61375 -0.0184326171875 0.06906890869140625 -0.03983306884765625 -0.008035659790039062 -0.03944969177246094 -0.00795745849609375 0.00838470458984375 0.0802459716796875
27.6225 -0.021381378173828125 0.065826416015625 -0.040069580078125 -0.005817413330078125 -0.039882659912109375 -0.0058040618896484375 0.006359100341796875 0.0753936767578125
27.63125 -0.024608612060546875 0.06279373168945312 -0.040164947509765625 -0.00360870361328125 -0.040012359619140625 -0.003711700439453125 0.004100799560546875 0.07075119018554688
27.64 -0.027904510498046875 0.05991363525390625 -0.04037666320800781 -0.00146484375 -0.04010200500488281 -0.0015621185302734375 0.001491546630859375 0.06599044799804688
27.64875 -0.03166007995605469 0.05748558044433594 -0.0402069091796875 0.0007381439208984375 -0.04026603698730469 0.000484466552734375 -0.001190185546875 0.06201171875
27.6575 -0.03510475158691406 0.055202484130859375 -0.040157318115234375 0.0027980804443359375 -0.040119171142578125 0.002777099609375 -0.0040111541748046875 0.05814361572265625
27.66625 -0.039302825927734375 0.05278968811035156 -0.03978919982910156 0.00482177734375 -0.03981781005859375 0.0047664642333984375 -0.00713348388671875 0.054416656494140625
27.675 -0.043361663818359375 0.051067352294921875 -0.03941535949707031 0.006900787353515625 -0.03940773010253906 0.0068340301513671875 -0.01088714599609375 0.0511474609375
27.68375 -0.04766273498535156 0.04934883117675781 -0.03891181945800781 0.008947372436523438 -0.03898048400878906 0.008874893188476562 -0.014612197875976562 0.048248291015625
27.6925 -0.05205535888671875 0.048046112060546875 -0.03840827941894531 0.0110015869140625 -0.03847503662109375 0.010990142822265625 -0.018398284912109375 0.04537773132324219
27.70125 -0.056270599365234375 0.047454833984375 -0.03768157958984375 0.013156890869140625 -0.0377044677734375 0.0130462646484375 -0.022705078125 0.04276275634765625
27.71 -0.06052970886230469 0.04656219482421875 -0.036792755126953125 0.015035629272460938 -0.03679084777832031 0.015110015869140625 -0.027074813842773438 0.04053688049316406
27.71875 -0.06505584716796875 0.046314239501953125 -0.0358428955078125 0.016809463500976562 -0.035919189453125 0.016750335693359375 -0.031520843505859375 0.038570404052734375
27.7275 -0.06984329223632812 0.046062469482421875 -0.034816741943359375 0.0186004638671875 -0.03493309020996094 0.018484115600585938 -0.036590576171875 0.036983489990234375
27.73625 -0.07469940185546875 0.046482086181640625 -0.03395843505859375 0.020200729370117188 -0.03410148620605469 0.020275115966796875 -0.04119682312011719 0.035472869873046875
27.745 -0.07955169677734375 0.047290802001953125 -0.03278160095214844 0.022006988525390625 -0.03299903869628906 0.021928787231445312 -0.04622077941894531 0.03479194641113281
27.75375 -0.08404541015625 0.04862213134765625 -0.0316162109375 0.023706436157226562 -0.03195953369140625 0.023731231689453125 -0.051021575927734375 0.03424263000488281
27.7625 -0.08841705322265625 0.04981231689453125 -0.03023529052734375 0.025377273559570312 -0.030669212341308594 0.0253753662109375 -0.05603218078613281 0.033733367919921875
27.77125 -0.09323883056640625 0.051471710205078125 -0.02880382537841797 0.02690887451171875 -0.02914714813232422 0.027039527893066406 -0.06121253967285156 0.03354072570800781
27.78 -0.09772491455078125 0.053409576416015625 -0.027314186096191406 0.028220176696777344 -0.027675628662109375 0.028650283813476562 -0.06601715087890625 0.034282684326171875
27.78875 -0.1025390625 0.05574798583984375 -0.025832176208496094 0.02949047088623047 -0.025974273681640625 0.030066490173339844 -0.07111740112304688 0.03497314453125
27.7975 -0.10685348510742188 0.058483123779296875 -0.024034500122070312 0.030861854553222656 -0.024301528930664062 0.03142547607421875 -0.07567596435546875 0.03631591796875
27.80625 -0.1112823486328125 0.06142425537109375 -0.022571563720703125 0.03208160400390625 -0.022340774536132812 0.03261566162109375 -0.0802001953125 0.03765869140625
27.815 -0.11545562744140625 0.06510162353515625 -0.020669937133789062 0.03334236145019531 -0.020097732543945312 0.03373908996582031 -0.0848236083984375 0.039226531982421875
27.82375 -0.11934661865234375 0.06859588623046875 -0.0186309814453125 0.0342559814453125 -0.018222808837890625 0.03447723388671875 -0.08914947509765625 0.0412445068359375
27.8325 -0.1230316162109375 0.07222366333007812 -0.016628265380859375 0.035030364990234375 -0.016122817993164062 0.03500556945800781 -0.09363174438476562 0.0441436767578125
27.84125 -0.1263427734375 0.0764007568359375 -0.0148773193359375 0.03556251525878906 -0.014404296875 0.0353546142578125 -0.09780120849609375 0.047336578369140625
27.85 -0.12958526611328125 0.08046722412109375 -0.013154983520507812 0.03603935241699219 -0.0128326416015625 0.035655975341796875 -0.10178375244140625 0.050445556640625
27.85875 -0.13268280029296875 0.08519744873046875 -0.011514663696289062 0.03662109375 -0.011516571044921875 0.03612327575683594 -0.10547637939453125 0.054180145263671875
27.8675 -0.1352691650390625 0.08995819091796875 -0.009683609008789062 0.03707695007324219 -0.01004791259765625 0.03679847717285156 -0.10947036743164062 0.05792999267578125
27.87625 -0.13758087158203125 0.0947723388671875 -0.007900238037109375 0.03764915466308594 -0.008243560791015625 0.037750244140625 -0.11270523071289062 0.062198638916015625
27.885 -0.1396942138671875 0.10019683837890625 -0.006103515625 0.03806304931640625 -0.006221771240234375 0.038425445556640625 -0.11604690551757812 0.06672286987304688
27.89375 -0.14138031005859375 0.10547637939453125 -0.0038547515869140625 0.03859519958496094 -0.0040264129638671875 0.03888702392578125 -0.11937332153320312 0.07183074951171875
27.9025 -0.14305877685546875 0.11083984375 -0.0017185211181640625 0.03874778747558594 -0.0019168853759765625 0.03941154479980469 -0.12216949462890625 0.07671356201171875
27.91125 -0.14422607421875 0.11653900146484375 0.0003528594970703125 0.03901100158691406 0.0006504058837890625 0.039600372314453125 -0.12468719482421875 0.08199310302734375
27.92 -0.14517974853515625 0.12253570556640625 0.0027599334716796875 0.03878021240234375 0.0030345916748046875 0.03918266296386719 -0.12712860107421875 0.087005615234375
27.92875 -0.145782470703125 0.128692626953125 0.005092620849609375 0.038448333740234375 0.005481719970703125 0.03864479064941406 -0.12906646728515625 0.092376708984375
27.9375 -0.145965576171875 0.134674072265625 0.00730133056640625 0.03769874572753906 0.0075473785400390625 0.03791046142578125 -0.130889892578125 0.097686767578125
27.94625 -0.146270751953125 0.1408538818359375 0.009540557861328125 0.03684234619140625 0.00949859619140625 0.036952972412109375 -0.1324310302734375 0.10296630859375
27.955 -0.1459503173828125 0.14678955078125 0.01097869873046875 0.035518646240234375 0.01117706298828125 0.0360870361328125 -0.134002685546875 0.1088409423828125
27.96375 -0.14569854736328125 0.153106689453125 0.012355804443359375 0.0348358154296875 0.01256561279296875 0.03539466857910156 -0.1344451904296875 0.1144561767578125
27.9725 -0.14496612548828125 0.1595458984375 0.01363372802734375 0.03397941589355469 0.013980865478515625 0.034893035888671875 -0.134735107421875 0.12014007568359375
27.98125 -0.14415740966796875 0.16550445556640625 0.014833450317382812 0.03348541259765625 0.015596389770507812 0.034404754638671875 -0.13475799560546875 0.125579833984375
27.99 -0.14257049560546875 0.17151641845703125 0.01641082763671875 0.03299522399902344 0.017652511596679688 0.03385734558105469 -0.13416290283203125 0.130706787109375
27.99875 -0.14095306396484375 0.17736053466796875 0.0179595947265625 0.032566070556640625 0.019626617431640625 0.03292083740234375 -0.1335296630859375 0.1364593505859375
28.0075 -0.1388702392578125 0.18314361572265625 0.01995849609375 0.031833648681640625 0.021829605102539062 0.03179359436035156 -0.132781982421875 0.141937255859375
28.01625 -0.13623809814453125 0.18878936767578125 0.022003173828125 0.030851364135742188 0.023775100708007812 0.030002593994140625 -0.13162994384765625 0.14788055419921875
28.025 -0.13338470458984375 0.1940460205078125 0.024072647094726562 0.029436111450195312 0.0252685546875 0.027929306030273438 -0.1298675537109375 0.153717041015625
28.03375 -0.13047027587890625 0.19974517822265625 0.025669097900390625 0.027849197387695312 0.026134490966796875 0.026063919067382812 -0.12758636474609375 0.15943145751953125
28.0425 -0.1269989013671875 0.20470428466796875 0.02692413330078125 0.026096343994140625 0.0267333984375 0.0244293212890625 -0.125091552734375 0.165374755859375
28.05125 -0.122650146484375 0.2104034423828125 0.02825927734375 0.024295806884765625 0.027400970458984375 0.02312469482421875 -0.12274169921875 0.17083740234375
28.06 -0.11840057373046875 0.21508026123046875 0.029272079467773438 0.022647857666015625 0.02802276611328125 0.021877288818359375 -0.11981964111328125 0.17639923095703125
28.06875 -0.11333465576171875 0.2199249267578125 0.030155181884765625 0.020803451538085938 0.028743743896484375 0.020887374877929688 -0.1170806884765625 0.18184661865234375
28.0775 -0.1085968017578125 0.22461700439453125 0.030498504638671875 0.0191802978515625 0.029569625854492188 0.02001953125 -0.1137542724609375 0.1875
28.08625 -0.10346221923828125 0.22951507568359375 0.0311279296875 0.017833709716796875 0.030855178833007812 0.019008636474609375 -0.11034393310546875 0.19293212890625
28.095 -0.09806060791015625 0.23432159423828125 0.03162956237792969 0.016510009765625 0.03222084045410156 0.017866134643554688 -0.10617828369140625 0.1978759765625
28.10375 -0.0921630859375 0.2388458251953125 0.032459259033203125 0.015317916870117188 0.033672332763671875 0.0160980224609375 -0.10250091552734375 0.20276641845703125
28.1125 -0.0860137939453125 0.2429351806640625 0.03355216979980469 0.013957977294921875 0.035213470458984375 0.014118194580078125 -0.0979156494140625 0.206878662109375
28.12125 -0.08026123046875 0.2470245361328125 0.03462409973144531 0.01221466064453125 0.0362701416015625 0.011568069458007812 -0.09394073486328125 0.21147918701171875
28.13 -0.073944091796875 0.2507781982421875 0.03555488586425781 0.01006317138671875 0.03663444519042969 0.00859832763671875 -0.08969879150390625 0.21555328369140625
28.13875 -0.0679779052734375 0.2543487548828125 0.03602409362792969 0.00798797607421875 0.03650856018066406 0.0061664581298828125 -0.0849609375 0.2193756103515625
28.1475 -0.0620269775390625 0.2575836181640625 0.03609466552734375 0.0057010650634765625 0.03576850891113281 0.0039081573486328125 -0.07978057861328125 0.223052978515625
28.15625 -0.055908203125 0.26055908203125 0.0359039306640625 0.003459930419921875 0.03519439697265625 0.002292633056640625 -0.0749359130859375 0.22601318359375
28.165 -0.04962158203125 0.2630615234375 0.0355072021484375 0.0018157958984375 0.0345611572265625 0.001110076904296875 -0.0692596435546875 0.2292022705078125
28.17375 -0.043914794921875 0.2648773193359375 0.035091400146484375 0.0001964569091796875 0.03427886962890625 7.2479248046875e-05 -0.0638427734375 0.23151397705078125
28.1825 -0.0376129150390625 0.266754150390625 0.03503608703613281 -0.0010776519775390625 0.03437614440917969 -0.0008907318115234375 -0.05788421630859375 0.23361968994140625
28.19125 -0.03204345703125 0.2679290771484375 0.0349273681640625 -0.0024871826171875 0.03470420837402344 -0.0021209716796875 -0.05229949951171875 0.2353515625
28.2 -0.025299072265625 0.2694854736328125 0.03523445129394531 -0.003810882568359375 0.03521156311035156 -0.0037593841552734375 -0.04616546630859375 0.2372894287109375
28.20875 -0.018798828125 0.2701263427734375 0.03540992736816406 -0.005496978759765625 0.03567695617675781 -0.005611419677734375 -0.040069580078125 0.23867034912109375
28.2175 -0.0126495361328125 0.2701873779296875 0.03550529479980469 -0.0073490142822265625 0.03556251525878906 -0.0080108642578125 -0.0336456298828125 0.2399749755859375
28.22625 -0.0064544677734375 0.269744873046875 0.035442352294921875 -0.009519577026367188 0.035068511962890625 -0.010404586791992188 -0.02754974365234375 0.2409820556640625
28.235 0.0002288818359375 0.269500732421875 0.0351409912109375 -0.011667251586914062 0.034282684326171875 -0.012668609619140625 -0.02097320556640625 0.24135589599609375
28.24375 0.0065765380859375 0.2686004638671875 0.034454345703125 -0.014171600341796875 0.033130645751953125 -0.014629364013671875 -0.01502227783203125 0.24163055419921875
28.2525 0.0135498046875 0.267364501953125 0.03321647644042969 -0.016315460205078125 0.0318603515625 -0.016231536865234375 -0.00884246826171875 0.24163055419921875
28.26125 0.0202178955078125 0.265228271484375 0.031772613525390625 -0.018421173095703125 0.030478477478027344 -0.017572402954101562 -0.00278472900390625 0.24178314208984375
28.27 0.02679443359375 0.2633056640625 0.030076980590820312 -0.019702911376953125 0.0293121337890625 -0.018695831298828125 0.003387451171875 0.2410888671875
28.27875 0.03363037109375 0.2611083984375 0.02834320068359375 -0.02092742919921875 0.028308868408203125 -0.019598007202148438 0.00927734375 0.240692138671875
28.2875 0.0399322509765625 0.25885009765625 0.02696514129638672 -0.02178955078125 0.027498245239257812 -0.020633697509765625 0.0150146484375 0.239288330078125
28.29625 0.0467529296875 0.2562713623046875 0.025970458984375 -0.0224456787109375 0.02692890167236328 -0.021938323974609375 0.0208282470703125 0.2383880615234375
28.305 0.0530548095703125 0.253387451171875 0.02505970001220703 -0.023242950439453125 0.026040077209472656 -0.02328968048095703 0.0266571044921875 0.236480712890625
28.31375 0.0591583251953125 0.250213623046875 0.024247169494628906 -0.024200439453125 0.025223731994628906 -0.024947166442871094 0.0322265625 0.2344512939453125
28.3225 0.0648651123046875 0.2469635009765625 0.02349853515625 -0.02545642852783203 0.023988723754882812 -0.02663707733154297 0.037628173828125 0.2321929931640625
28.33125 0.070220947265625 0.2437744140625 0.022658348083496094 -0.026862144470214844 0.02214527130126953 -0.028156280517578125 0.0429534912109375 0.22979736328125
28.34 0.07550048828125 0.240020751953125 0.021302223205566406 -0.028322219848632812 0.020120620727539062 -0.02937793731689453 0.0478973388671875 0.22705078125
28.34875 0.0799560546875 0.236663818359375 0.01984119415283203 -0.029549598693847656 0.01834392547607422 -0.030132293701171875 0.0533905029296875 0.22369384765625
28.3575 0.0848846435546875 0.232421875 0.018228530883789062 -0.030996322631835938 0.016571044921875 -0.030731201171875 0.05841064453125 0.2203521728515625
28.36625 0.0888671875 0.22833251953125 0.016399383544921875 -0.032131195068359375 0.014787673950195312 -0.031225204467773438 0.062957763671875 0.2168426513671875
28.375 0.092529296875 0.223602294921875 0.014385223388671875 -0.032802581787109375 0.013286590576171875 -0.03142547607421875 0.067779541015625 0.212921142578125
28.38375 0.096221923828125 0.21917724609375 0.01250457763671875 -0.033203125 0.012134552001953125 -0.031581878662109375 0.0721435546875 0.208648681640625
28.3925 0.099365234375 0.214141845703125 0.010829925537109375 -0.033657073974609375 0.010898590087890625 -0.0322113037109375 0.076202392578125 0.204620361328125
28.40125 0.1026611328125 0.2092132568359375 0.008951187133789062 -0.0341644287109375 0.009691238403320312 -0.03291511535644531 0.0802154541015625 0.2003326416015625
28.41 0.105224609375 0.203521728515625 0.0074596405029296875 -0.03450775146484375 0.008274078369140625 -0.03363800048828125 0.0838470458984375 0.1961822509765625
28.41875 0.107177734375 0.1981201171875 0.0057659149169921875 -0.03484916687011719 0.0066814422607421875 -0.03449821472167969 0.08709716796875 0.1916961669921875
28.4275 0.1094970703125 0.1927642822265625 0.003955841064453125 -0.03522682189941406 0.0048618316650390625 -0.035236358642578125 0.090087890625 0.1874542236328125
28.43625 0.1112213134765625 0.186859130859375 0.002132415771484375 -0.03544807434082031 0.0027790069580078125 -0.03573417663574219 0.0933837890625 0.18304443359375
28.445 0.112762451171875 0.18145751953125 0.0002727508544921875 -0.03550148010253906 0.000492095947265625 -0.03607368469238281 0.0958099365234375 0.1784515380859375
28.45375 0.1142120361328125 0.1757049560546875 -0.001636505126953125 -0.03545570373535156 -0.00156402587890625 -0.03598594665527344 0.097747802734375 0.1736907958984375
28.4625 0.1151580810546875 0.169891357421875 -0.0035915374755859375 -0.03537750244140625 -0.003726959228515625 -0.035858154296875 0.0992584228515625 0.168701171875
28.47125 0.11590576171875 0.1640777587890625 -0.005611419677734375 -0.03519630432128906 -0.0059185028076171875 -0.035572052001953125 0.1007843017578125 0.1643829345703125
28.48 0.1163482666015625 0.15863037109375 -0.0075588226318359375 -0.03486824035644531 -0.007955551147460938 -0.03507804870605469 0.1020050048828125 0.1595611572265625
28.48875 0.1162261962890625 0.1536407470703125 -0.0095062255859375 -0.03439140319824219 -0.0098114013671875 -0.03424263000488281 0.103057861328125 0.15447998046875
28.4975 0.116180419921875 0.1484375 -0.011089324951171875 -0.033603668212890625 -0.01145172119140625 -0.0334320068359375 0.103363037109375 0.149658203125
28.50625 0.115875244140625 0.14324951171875 -0.012783050537109375 -0.033184051513671875 -0.013088226318359375 -0.032871246337890625 0.10308837890625 0.1444854736328125
28.515 0.114959716796875 0.138519287109375 -0.0144195556640625 -0.032535552978515625 -0.0148773193359375 -0.031955718994140625 0.1035614013671875 0.1393890380859375
28.52375 0.113739013671875 0.1333770751953125 -0.01622772216796875 -0.031528472900390625 -0.016498565673828125 -0.0309906005859375 0.10272216796875 0.1348419189453125
