!Created with skrf (http://scikit-rf.org).
# GHz S RI R 50.0 
!freq ReS11 ImS11 ReS21 ImS21 ReS12 ImS12 ReS22 ImS22
27.5 -0.0031280517578125 0.16764068603515625 -0.0003528594970703125 -0.04205894470214844 0.000247955322265625 -0.04191780090332031 -0.0358428955078125 0.20111083984375
27.50875 0.00235748291015625 0.16338348388671875 -0.0029544830322265625 -0.041393280029296875 -0.0023250579833984375 -0.04186439514160156 -0.0294189453125 0.19777679443359375
27.5175 0.00780487060546875 0.15935516357421875 -0.0052928924560546875 -0.04070281982421875 -0.00484466552734375 -0.041393280029296875 -0.0233612060546875 0.1941680908203125
27.52625 0.0126953125 0.15470123291015625 -0.0072174072265625 -0.039760589599609375 -0.007110595703125 -0.04092979431152344 -0.0175323486328125 0.19045257568359375
27.535 0.016998291015625 0.149749755859375 -0.008899688720703125 -0.039043426513671875 -0.00946044921875 -0.040065765380859375 -0.0119171142578125 0.1859283447265625
27.54375 0.020965576171875 0.1449737548828125 -0.0106048583984375 -0.03863525390625 -0.0115203857421875 -0.039028167724609375 -0.007171630859375 0.1816253662109375
27.5525 0.0242919921875 0.13979339599609375 -0.012256622314453125 -0.03787040710449219 -0.013277053833007812 -0.038074493408203125 -0.0023193359375 0.17673492431640625
27.56125 0.0272979736328125 0.13468170166015625 -0.014036178588867188 -0.03749656677246094 -0.015024185180664062 -0.037181854248046875 0.001983642578125 0.17142486572265625
27.57 0.03023529052734375 0.129486083984375 -0.01555633544921875 -0.03687286376953125 -0.016542434692382812 -0.036163330078125 0.00597381591796875 0.166656494140625
27.57875 0.0327911376953125 0.1237030029296875 -0.01744842529296875 -0.03618049621582031 -0.018053054809570312 -0.03533363342285156 0.01020050048828125 0.16143798828125
27.5875 0.03488922119140625 0.11780548095703125 -0.019260406494140625 -0.035678863525390625 -0.019529342651367188 -0.03481292724609375 0.01348876953125 0.155731201171875
27.59625 0.036346435546875 0.11147308349609375 -0.021318435668945312 -0.03479766845703125 -0.021501541137695312 -0.033931732177734375 0.0166168212890625 0.14997100830078125
27.605 0.037750244140625 0.10524749755859375 -0.023359298706054688 -0.03371238708496094 -0.023279190063476562 -0.03293037414550781 0.019256591796875 0.14434814453125
27.61375 0.0386962890625 0.0990447998046875 -0.025098800659179688 -0.032665252685546875 -0.025043487548828125 -0.03183555603027344 0.021575927734375 0.13840484619140625
27.6225 0.03943634033203125 0.09273529052734375 -0.027034759521484375 -0.031190872192382812 -0.026805877685546875 -0.030565261840820312 0.0238037109375 0.132720947265625
27.63125 0.039764404296875 0.0863037109375 -0.02901458740234375 -0.029623031616210938 -0.028478622436523438 -0.0290374755859375 0.025909423828125 0.1266937255859375
27.64 0.0399627685546875 0.07998275756835938 -0.030401229858398438 -0.027727127075195312 -0.029962539672851562 -0.02741241455078125 0.02774810791015625 0.12076568603515625
27.64875 0.039829254150390625 0.073333740234375 -0.03154563903808594 -0.025987625122070312 -0.03130531311035156 -0.025709152221679688 0.02909088134765625 0.11484527587890625
27.6575 0.0392608642578125 0.06680679321289062 -0.032718658447265625 -0.024333953857421875 -0.032367706298828125 -0.024288177490234375 0.02971649169921875 0.108856201171875
27.66625 0.0379791259765625 0.060333251953125 -0.033962249755859375 -0.02268218994140625 -0.03362274169921875 -0.022613525390625 0.030242919921875 0.103240966796875
27.675 0.03664398193359375 0.054443359375 -0.035076141357421875 -0.020999908447265625 -0.0348968505859375 -0.0208892822265625 0.030059814453125 0.0975494384765625
27.68375 0.03520965576171875 0.048736572265625 -0.036167144775390625 -0.018985748291015625 -0.03604888916015625 -0.019138336181640625 0.02947998046875 0.092071533203125
27.6925 0.033275604248046875 0.043186187744140625 -0.03723907470703125 -0.017271041870117188 -0.03713226318359375 -0.017213821411132812 0.028606414794921875 0.08686447143554688
27.70125 0.03096771240234375 0.03810882568359375 -0.03813743591308594 -0.015031814575195312 -0.038043975830078125 -0.0150146484375 0.02732086181640625 0.08138656616210938
27.71 0.028554916381835938 0.033290863037109375 -0.0387725830078125 -0.012815475463867188 -0.038761138916015625 -0.0127716064453125 0.0255279541015625 0.07624053955078125
27.71875 0.0255889892578125 0.028533935546875 -0.039112091064453125 -0.01074981689453125 -0.03917503356933594 -0.010768890380859375 0.023456573486328125 0.07106781005859375
27.7275 0.02194976806640625 0.024305343627929688 -0.039417266845703125 -0.008756637573242188 -0.03951263427734375 -0.008703231811523438 0.020748138427734375 0.0660858154296875
27.73625 0.018350601196289062 0.02040863037109375 -0.039859771728515625 -0.00681304931640625 -0.03990936279296875 -0.0067081451416015625 0.017669677734375 0.061038970947265625
27.745 0.014116287231445312 0.016699790954589844 -0.04023551940917969 -0.0047664642333984375 -0.04009819030761719 -0.0046100616455078125 0.014400482177734375 0.0565643310546875
27.75375 0.009377479553222656 0.01345062255859375 -0.04045677185058594 -0.0028209686279296875 -0.04033851623535156 -0.0024929046630859375 0.0106964111328125 0.05239105224609375
27.7625 0.004780292510986328 0.010287284851074219 -0.04050636291503906 -0.000446319580078125 -0.040409088134765625 -0.0003833770751953125 0.00689697265625 0.048213958740234375
27.77125 -0.0002701282501220703 0.007703304290771484 -0.0405120849609375 0.0016002655029296875 -0.04012489318847656 0.0017375946044921875 0.00308990478515625 0.044055938720703125
27.78 -0.005630970001220703 0.0051119327545166016 -0.040210723876953125 0.003696441650390625 -0.04004669189453125 0.003688812255859375 -0.00086212158203125 0.040187835693359375
27.78875 -0.011435985565185547 0.002777576446533203 -0.03969764709472656 0.0058441162109375 -0.039760589599609375 0.005664825439453125 -0.0056209564208984375 0.03653907775878906
27.7975 -0.017354965209960938 0.0006303787231445312 -0.03947639465332031 0.007816314697265625 -0.039417266845703125 0.0076961517333984375 -0.01032257080078125 0.033039093017578125
27.80625 -0.023599624633789062 -0.0011529922485351562 -0.03902244567871094 0.009664535522460938 -0.03902435302734375 0.009918212890625 -0.015036582946777344 0.030180931091308594
27.815 -0.029924392700195312 -0.0024623870849609375 -0.03859901428222656 0.01180267333984375 -0.03845405578613281 0.011821746826171875 -0.02000904083251953 0.027578353881835938
27.82375 -0.03624725341796875 -0.003437042236328125 -0.03777885437011719 0.013879776000976562 -0.037868499755859375 0.013946533203125 -0.024779319763183594 0.025285720825195312
27.8325 -0.04248809814453125 -0.004180908203125 -0.037204742431640625 0.015720367431640625 -0.0369873046875 0.016021728515625 -0.029729843139648438 0.023683547973632812
27.84125 -0.0486297607421875 -0.00426483154296875 -0.03606986999511719 0.017812728881835938 -0.03574371337890625 0.018003463745117188 -0.03458595275878906 0.022235870361328125
27.85 -0.05469703674316406 -0.0043544769287109375 -0.03487396240234375 0.019622802734375 -0.03455162048339844 0.0196380615234375 -0.040058135986328125 0.0211181640625
27.85875 -0.060882568359375 -0.00383758544921875 -0.033893585205078125 0.021196365356445312 -0.0334625244140625 0.021209716796875 -0.04536628723144531 0.0210418701171875
27.8675 -0.06678390502929688 -0.0032806396484375 -0.032665252685546875 0.022796630859375 -0.03224945068359375 0.02268218994140625 -0.05077362060546875 0.021295547485351562
27.87625 -0.07254409790039062 -0.002105712890625 -0.03161811828613281 0.024396896362304688 -0.031215667724609375 0.024181365966796875 -0.05628013610839844 0.021907806396484375
27.885 -0.07850265502929688 -0.0001373291015625 -0.030145645141601562 0.02610301971435547 -0.02992725372314453 0.02595806121826172 -0.061374664306640625 0.02298736572265625
27.89375 -0.08416748046875 0.001861572265625 -0.02882099151611328 0.027634620666503906 -0.028601646423339844 0.027502059936523438 -0.0664825439453125 0.02439117431640625
27.9025 -0.08963394165039062 0.004138946533203125 -0.02732086181640625 0.02903270721435547 -0.027166366577148438 0.028779029846191406 -0.07196807861328125 0.025604248046875
27.91125 -0.09517288208007812 0.00701141357421875 -0.02558612823486328 0.03013896942138672 -0.025806427001953125 0.030272483825683594 -0.0772857666015625 0.027606964111328125
27.92 -0.10057830810546875 0.01042938232421875 -0.024187088012695312 0.03169059753417969 -0.02423095703125 0.03153800964355469 -0.08281326293945312 0.03005218505859375
27.92875 -0.10548019409179688 0.0143280029296875 -0.022487640380859375 0.03303337097167969 -0.022434234619140625 0.0329437255859375 -0.08800125122070312 0.032611846923828125
27.9375 -0.11041641235351562 0.018192291259765625 -0.020477294921875 0.0341644287109375 -0.020603179931640625 0.03422737121582031 -0.09334564208984375 0.03578948974609375
27.94625 -0.11548233032226562 0.022430419921875 -0.018339157104492188 0.03522300720214844 -0.018438339233398438 0.0351104736328125 -0.09832763671875 0.03874969482421875
27.955 -0.1201019287109375 0.02704620361328125 -0.01624298095703125 0.03563690185546875 -0.016475677490234375 0.035888671875 -0.1031951904296875 0.04230499267578125
27.96375 -0.1248321533203125 0.0319366455078125 -0.01438140869140625 0.03607177734375 -0.014673233032226562 0.03636360168457031 -0.10805892944335938 0.04587554931640625
27.9725 -0.12944793701171875 0.03749847412109375 -0.012731552124023438 0.03646087646484375 -0.012926101684570312 0.036956787109375 -0.11224746704101562 0.049560546875
27.98125 -0.13378143310546875 0.042724609375 -0.011182785034179688 0.03687095642089844 -0.011213302612304688 0.03748130798339844 -0.116485595703125 0.053829193115234375
27.99 -0.13718414306640625 0.04888153076171875 -0.009490966796875 0.03751182556152344 -0.009469985961914062 0.038295745849609375 -0.12024688720703125 0.05820465087890625
27.99875 -0.14048004150390625 0.0542755126953125 -0.007656097412109375 0.0380859375 -0.007396697998046875 0.0390777587890625 -0.123992919921875 0.0630035400390625
28.0075 -0.1436767578125 0.06002044677734375 -0.005748748779296875 0.038730621337890625 -0.005096435546875 0.039615631103515625 -0.1270294189453125 0.0683135986328125
28.01625 -0.1463775634765625 0.0662841796875 -0.0037059783935546875 0.039127349853515625 -0.0025005340576171875 0.0396881103515625 -0.12989044189453125 0.0736083984375
28.025 -0.1487884521484375 0.072052001953125 -0.0014743804931640625 0.039417266845703125 -4.9591064453125e-05 0.03961181640625 -0.13198089599609375 0.07904815673828125
28.03375 -0.1508636474609375 0.0788421630859375 0.0007686614990234375 0.039608001708984375 0.0023193359375 0.039150238037109375 -0.133941650390625 0.08465576171875
28.0425 -0.15236663818359375 0.084869384765625 0.0032444000244140625 0.03931617736816406 0.0042819976806640625 0.03844642639160156 -0.13550567626953125 0.09090423583984375
28.05125 -0.153350830078125 0.0916290283203125 0.005443572998046875 0.03870391845703125 0.006195068359375 0.03748321533203125 -0.137237548828125 0.097015380859375
28.06 -0.15413665771484375 0.09795379638671875 0.0075664520263671875 0.0378875732421875 0.00765228271484375 0.03677558898925781 -0.13846588134765625 0.10355377197265625
28.06875 -0.15431976318359375 0.1047821044921875 0.009347915649414062 0.0370330810546875 0.00896453857421875 0.03603363037109375 -0.1392364501953125 0.11016082763671875
28.0775 -0.15435028076171875 0.11187744140625 0.010900497436523438 0.03629875183105469 0.0100860595703125 0.03562736511230469 -0.13927459716796875 0.1169281005859375
28.08625 -0.1541595458984375 0.11895751953125 0.012502670288085938 0.035556793212890625 0.011438369750976562 0.03561592102050781 -0.13946533203125 0.12348175048828125
28.095 -0.15358734130859375 0.1255340576171875 0.013807296752929688 0.034824371337890625 0.0131072998046875 0.03551292419433594 -0.13915252685546875 0.1300506591796875
28.10375 -0.15274810791015625 0.13257598876953125 0.0152740478515625 0.034320831298828125 0.015066146850585938 0.03528594970703125 -0.13898468017578125 0.1368255615234375
28.1125 -0.1514892578125 0.13962554931640625 0.016756057739257812 0.03395271301269531 0.0172271728515625 0.03487396240234375 -0.137969970703125 0.1431732177734375
28.12125 -0.150299072265625 0.14679718017578125 0.018629074096679688 0.03344535827636719 0.01967620849609375 0.03426170349121094 -0.13744354248046875 0.15006256103515625
28.13 -0.1479339599609375 0.15373992919921875 0.020696640014648438 0.032588958740234375 0.022260665893554688 0.03285980224609375 -0.1358184814453125 0.1563262939453125
28.13875 -0.14595794677734375 0.1605682373046875 0.022821426391601562 0.03147697448730469 0.024469375610351562 0.030946731567382812 -0.13394927978515625 0.1628265380859375
28.1475 -0.143524169921875 0.167205810546875 0.024766921997070312 0.029684066772460938 0.025823593139648438 0.028703689575195312 -0.13184356689453125 0.16873931884765625
28.15625 -0.1405029296875 0.17360687255859375 0.026033401489257812 0.027896881103515625 0.026891708374023438 0.026662826538085938 -0.1291656494140625 0.1750030517578125
28.165 -0.137420654296875 0.1796722412109375 0.027309417724609375 0.026218414306640625 0.027587890625 0.02500152587890625 -0.125885009765625 0.1811981201171875
28.17375 -0.1341705322265625 0.1854705810546875 0.028032302856445312 0.024526596069335938 0.02812957763671875 0.023708343505859375 -0.1227569580078125 0.18695831298828125
28.1825 -0.13007354736328125 0.19097137451171875 0.028860092163085938 0.023126602172851562 0.028684616088867188 0.022455215454101562 -0.1190948486328125 0.19237518310546875
28.19125 -0.12606048583984375 0.19628143310546875 0.02979278564453125 0.021799087524414062 0.029598236083984375 0.0214080810546875 -0.115203857421875 0.197509765625
28.2 -0.1210784912109375 0.20169830322265625 0.030567169189453125 0.020599365234375 0.030687332153320312 0.02044677734375 -0.1104583740234375 0.20273590087890625
28.20875 -0.11600494384765625 0.20680999755859375 0.03165245056152344 0.019403457641601562 0.03188323974609375 0.019163131713867188 -0.1058349609375 0.20813751220703125
28.2175 -0.11104583740234375 0.2112274169921875 0.03277778625488281 0.018131256103515625 0.03308677673339844 0.01763916015625 -0.100982666015625 0.212921142578125
28.22625 -0.1049652099609375 0.2159271240234375 0.03395652770996094 0.016706466674804688 0.03427314758300781 0.015899658203125 -0.095794677734375 0.21761322021484375
28.235 -0.09880828857421875 0.21991729736328125 0.035381317138671875 0.01508331298828125 0.03528785705566406 0.0138092041015625 -0.0898895263671875 0.2223968505859375
28.24375 -0.09259033203125 0.22381591796875 0.03655242919921875 0.012681961059570312 0.03618812561035156 0.01140594482421875 -0.08412933349609375 0.2265167236328125
28.2525 -0.0863800048828125 0.22780609130859375 0.03733253479003906 0.0100860595703125 0.03643608093261719 0.009029388427734375 -0.0782623291015625 0.2305145263671875
28.26125 -0.079833984375 0.23125457763671875 0.03752708435058594 0.00750732421875 0.03634452819824219 0.007160186767578125 -0.0725250244140625 0.2347259521484375
28.27 -0.0730438232421875 0.23465728759765625 0.03748512268066406 0.0052776336669921875 0.0361785888671875 0.00528717041015625 -0.06610107421875 0.2379913330078125
28.27875 -0.0662384033203125 0.2380523681640625 0.037075042724609375 0.003093719482421875 0.035968780517578125 0.003612518310546875 -0.0597076416015625 0.2415771484375
28.2875 -0.0594482421875 0.241241455078125 0.0362396240234375 0.00127410888671875 0.035747528076171875 0.00243377685546875 -0.0534820556640625 0.2438507080078125
28.29625 -0.0520477294921875 0.2444000244140625 0.03587532043457031 0.00011444091796875 0.03580474853515625 0.00118255615234375 -0.04729461669921875 0.24692535400390625
28.305 -0.04510498046875 0.24683380126953125 0.03560638427734375 -0.00127410888671875 0.03626060485839844 -0.000316619873046875 -0.04071807861328125 0.24908447265625
28.31375 -0.038116455078125 0.24884033203125 0.035686492919921875 -0.0024166107177734375 0.036754608154296875 -0.0020809173583984375 -0.0340423583984375 0.2509918212890625
28.3225 -0.03143310546875 0.2502288818359375 0.035778045654296875 -0.0038242340087890625 0.037059783935546875 -0.0041828155517578125 -0.0272674560546875 0.25244140625
28.33125 -0.02471923828125 0.2520751953125 0.03592491149902344 -0.0054454803466796875 0.03702545166015625 -0.006397247314453125 -0.0200347900390625 0.2536163330078125
28.34 -0.0181732177734375 0.252655029296875 0.03624916076660156 -0.0073394775390625 0.036579132080078125 -0.008771896362304688 -0.013153076171875 0.253997802734375
28.34875 -0.011810302734375 0.25311279296875 0.03610992431640625 -0.009622573852539062 0.0359344482421875 -0.011293411254882812 -0.0064544677734375 0.2542572021484375
28.3575 -0.004913330078125 0.253204345703125 0.035587310791015625 -0.0118865966796875 0.03469085693359375 -0.013170242309570312 0.0008697509765625 0.2542266845703125
28.36625 0.0015716552734375 0.252471923828125 0.03496742248535156 -0.01399993896484375 0.03333091735839844 -0.014780044555664062 0.0077972412109375 0.254058837890625
28.375 0.0081787109375 0.2512359619140625 0.03395271301269531 -0.016002655029296875 0.03221893310546875 -0.016149520874023438 0.0148162841796875 0.2535400390625
28.38375 0.0146484375 0.249725341796875 0.032703399658203125 -0.01769256591796875 0.03125572204589844 -0.017362594604492188 0.02197265625 0.25262451171875
28.3925 0.020843505859375 0.2474365234375 0.0313873291015625 -0.01937103271484375 0.03014373779296875 -0.018465042114257812 0.029327392578125 0.251129150390625
28.40125 0.02752685546875 0.245330810546875 0.030246734619140625 -0.020626068115234375 0.029565811157226562 -0.019408226013183594 0.0366668701171875 0.24951171875
28.41 0.0344390869140625 0.243011474609375 0.02911853790283203 -0.02191162109375 0.028947830200195312 -0.020600318908691406 0.043487548828125 0.24737548828125
28.41875 0.0399932861328125 0.2401580810546875 0.02804851531982422 -0.023446083068847656 0.028428077697753906 -0.022212982177734375 0.049957275390625 0.2453155517578125
28.4275 0.0466461181640625 0.2370147705078125 0.026773452758789062 -0.024583816528320312 0.027385711669921875 -0.023873329162597656 0.0563812255859375 0.2429656982421875
28.43625 0.053131103515625 0.2339019775390625 0.025674819946289062 -0.02584552764892578 0.026258468627929688 -0.02544689178466797 0.0627593994140625 0.240570068359375
28.445 0.0591888427734375 0.230804443359375 0.024590492248535156 -0.02706432342529297 0.02515888214111328 -0.0269317626953125 0.0691680908203125 0.2377777099609375
28.45375 0.06494140625 0.2271881103515625 0.023398399353027344 -0.028352737426757812 0.02377796173095703 -0.028623580932617188 0.0749359130859375 0.2345733642578125
28.4625 0.0706939697265625 0.2236175537109375 0.02177906036376953 -0.029801368713378906 0.02205657958984375 -0.03011035919189453 0.0806884765625 0.23077392578125
28.47125 0.0763092041015625 0.2198486328125 0.02011871337890625 -0.030979156494140625 0.0201416015625 -0.031206130981445312 0.086212158203125 0.226959228515625
28.48 0.081634521484375 0.2158966064453125 0.018337249755859375 -0.03187370300292969 0.018186569213867188 -0.03226470947265625 0.0908050537109375 0.222442626953125
28.48875 0.086273193359375 0.211822509765625 0.01665496826171875 -0.03277397155761719 0.016351699829101562 -0.03306388854980469 0.09588623046875 0.2181243896484375
28.4975 0.09051513671875 0.2075958251953125 0.014818191528320312 -0.033496856689453125 0.014467239379882812 -0.03380012512207031 0.1002349853515625 0.213653564453125
28.50625 0.09423828125 0.2030029296875 0.01309967041015625 -0.034183502197265625 0.012454986572265625 -0.034305572509765625 0.104644775390625 0.20819091796875
28.515 0.09765625 0.19830322265625 0.011478424072265625 -0.034816741943359375 0.010784149169921875 -0.0348358154296875 0.10894775390625 0.202972412109375
28.52375 0.1005859375 0.193389892578125 0.0095977783203125 -0.035404205322265625 0.00875091552734375 -0.03528594970703125 0.11248779296875 0.197174072265625
