!Created with skrf (http://scikit-rf.org).
# GHz S RI R 50.0 
!freq ReS11 ImS11 ReS21 ImS21 ReS12 ImS12 ReS22 ImS22
27.5 -0.021575927734375 0.2097625732421875 0.1024322509765625 0.008007049560546875 0.10315704345703125 0.010379791259765625 -0.03240203857421875 0.1768798828125
27.50875 -0.0152587890625 0.20610809326171875 0.10201263427734375 0.001918792724609375 0.10405731201171875 0.003765106201171875 -0.029052734375 0.17191314697265625
27.5175 -0.009246826171875 0.20236968994140625 0.10104751586914062 -0.0035247802734375 0.10382843017578125 -0.0029296875 -0.02603912353515625 0.16652679443359375
27.52625 -0.00334930419921875 0.19826507568359375 0.09988784790039062 -0.008472442626953125 0.102813720703125 -0.00913238525390625 -0.02342987060546875 0.161590576171875
27.535 0.00225830078125 0.19390869140625 0.0987701416015625 -0.0130157470703125 0.10124969482421875 -0.0148468017578125 -0.0212860107421875 0.1562652587890625
27.54375 0.0076446533203125 0.189544677734375 0.09777069091796875 -0.017333984375 0.09951019287109375 -0.01971435546875 -0.0195159912109375 0.1509857177734375
27.5525 0.012451171875 0.18468475341796875 0.096893310546875 -0.021617889404296875 0.09763336181640625 -0.024318695068359375 -0.01824951171875 0.1455841064453125
27.56125 0.0169219970703125 0.17972564697265625 0.09625625610351562 -0.026020050048828125 0.09637832641601562 -0.028644561767578125 -0.0171051025390625 0.14014434814453125
27.57 0.020904541015625 0.17469024658203125 0.09546661376953125 -0.030529022216796875 0.0951385498046875 -0.033008575439453125 -0.0165863037109375 0.13469696044921875
27.57875 0.02465057373046875 0.16936492919921875 0.09449386596679688 -0.035655975341796875 0.09374618530273438 -0.037570953369140625 -0.01617431640625 0.1289825439453125
27.5875 0.028076171875 0.16403961181640625 0.09308624267578125 -0.040863037109375 0.09201812744140625 -0.04241180419921875 -0.0167083740234375 0.12377166748046875
27.59625 0.03067779541015625 0.15876007080078125 0.0911865234375 -0.04605865478515625 0.08989334106445312 -0.04730224609375 -0.0172882080078125 0.11868667602539062
27.605 0.03336334228515625 0.15312957763671875 0.0887603759765625 -0.051364898681640625 0.08765411376953125 -0.05200958251953125 -0.017986297607421875 0.11370849609375
27.61375 0.0357208251953125 0.1472930908203125 0.08623886108398438 -0.05664825439453125 0.08472824096679688 -0.05677032470703125 -0.01892852783203125 0.10845184326171875
27.6225 0.03759765625 0.1415252685546875 0.08310317993164062 -0.0616607666015625 0.081817626953125 -0.061328887939453125 -0.02044677734375 0.10372543334960938
27.63125 0.0385894775390625 0.135467529296875 0.07935714721679688 -0.06600570678710938 0.07843780517578125 -0.06558990478515625 -0.021968841552734375 0.09889602661132812
27.64 0.03978729248046875 0.129425048828125 0.07547378540039062 -0.07008743286132812 0.0747833251953125 -0.06975173950195312 -0.023830413818359375 0.09425735473632812
27.64875 0.04013824462890625 0.12352752685546875 0.07154083251953125 -0.07393264770507812 0.07113265991210938 -0.073699951171875 -0.026378631591796875 0.08988189697265625
27.6575 0.04073333740234375 0.11725616455078125 0.06738662719726562 -0.07741928100585938 0.06690597534179688 -0.0775604248046875 -0.02942657470703125 0.08616256713867188
27.66625 0.0406646728515625 0.11127471923828125 0.06320953369140625 -0.08089447021484375 0.0627288818359375 -0.08080291748046875 -0.0323028564453125 0.0827178955078125
27.675 0.040313720703125 0.1053314208984375 0.05883026123046875 -0.08403778076171875 0.05835723876953125 -0.084075927734375 -0.03559112548828125 0.0796966552734375
27.68375 0.0399169921875 0.0995330810546875 0.05425262451171875 -0.086822509765625 0.05400848388671875 -0.08707427978515625 -0.0389251708984375 0.076934814453125
27.6925 0.0389556884765625 0.0936126708984375 0.04961395263671875 -0.0893707275390625 0.04924774169921875 -0.08969879150390625 -0.04254913330078125 0.074432373046875
27.70125 0.0377655029296875 0.0882720947265625 0.0446624755859375 -0.0919647216796875 0.04447174072265625 -0.09198760986328125 -0.0465240478515625 0.07234954833984375
27.71 0.036449432373046875 0.08296966552734375 0.03971099853515625 -0.093902587890625 0.03961944580078125 -0.09417343139648438 -0.050617218017578125 0.07015228271484375
27.71875 0.0348358154296875 0.0779876708984375 0.034641265869140625 -0.09587478637695312 0.03475189208984375 -0.09614181518554688 -0.054813385009765625 0.06854248046875
27.7275 0.032375335693359375 0.073089599609375 0.029521942138671875 -0.09711456298828125 0.02968597412109375 -0.09770965576171875 -0.05963897705078125 0.06754684448242188
27.73625 0.029918670654296875 0.0688018798828125 0.024486541748046875 -0.09839630126953125 0.02472686767578125 -0.09926223754882812 -0.064239501953125 0.06618881225585938
27.745 0.027118682861328125 0.0645294189453125 0.01929473876953125 -0.0995330810546875 0.019191741943359375 -0.10029220581054688 -0.06896591186523438 0.0658111572265625
27.75375 0.0240936279296875 0.06081390380859375 0.014156341552734375 -0.10016632080078125 0.01373291015625 -0.10121536254882812 -0.0738677978515625 0.06558990478515625
27.7625 0.02056121826171875 0.057010650634765625 0.0089569091796875 -0.10068893432617188 0.00830078125 -0.10174942016601562 -0.07877349853515625 0.06545639038085938
27.77125 0.016445159912109375 0.05384063720703125 0.0040283203125 -0.10109710693359375 0.002902984619140625 -0.10166168212890625 -0.083831787109375 0.06587600708007812
27.78 0.012264251708984375 0.050556182861328125 -0.00128936767578125 -0.10126113891601562 -0.002475738525390625 -0.10166549682617188 -0.0883026123046875 0.06656265258789062
27.78875 0.007587432861328125 0.048004150390625 -0.006694793701171875 -0.10126495361328125 -0.007747650146484375 -0.10116195678710938 -0.09315109252929688 0.06757736206054688
27.7975 0.0025920867919921875 0.04534149169921875 -0.01219940185546875 -0.1009521484375 -0.013141632080078125 -0.10039901733398438 -0.09777069091796875 0.06876754760742188
27.80625 -0.0026397705078125 0.04284477233886719 -0.017608642578125 -0.09997940063476562 -0.018215179443359375 -0.0992431640625 -0.10217666625976562 0.07068634033203125
27.815 -0.007991790771484375 0.04087066650390625 -0.02288055419921875 -0.0989532470703125 -0.0236663818359375 -0.0980072021484375 -0.10648727416992188 0.072509765625
27.82375 -0.013607025146484375 0.03900909423828125 -0.02831268310546875 -0.09716033935546875 -0.0284423828125 -0.0965576171875 -0.11053466796875 0.07452392578125
27.8325 -0.018978118896484375 0.037174224853515625 -0.03328704833984375 -0.0952301025390625 -0.03350830078125 -0.0945892333984375 -0.11466598510742188 0.077362060546875
27.84125 -0.024927139282226562 0.03605842590332031 -0.03803253173828125 -0.09305572509765625 -0.03826904296875 -0.09265899658203125 -0.11838912963867188 0.08050155639648438
27.85 -0.030626296997070312 0.03481101989746094 -0.0426025390625 -0.09053802490234375 -0.042755126953125 -0.09033203125 -0.12227630615234375 0.08363723754882812
27.85875 -0.03643989562988281 0.03418922424316406 -0.0468292236328125 -0.088165283203125 -0.047332763671875 -0.08773040771484375 -0.12570953369140625 0.08739471435546875
27.8675 -0.04201316833496094 0.03362846374511719 -0.0509796142578125 -0.08568572998046875 -0.0515899658203125 -0.0850372314453125 -0.12945556640625 0.09125518798828125
27.87625 -0.04744720458984375 0.03336143493652344 -0.05518341064453125 -0.08341217041015625 -0.05564117431640625 -0.082489013671875 -0.13287353515625 0.0955810546875
27.885 -0.05297660827636719 0.03385162353515625 -0.05942535400390625 -0.080657958984375 -0.06009674072265625 -0.0797119140625 -0.135711669921875 0.10010528564453125
27.89375 -0.05792236328125 0.03456687927246094 -0.0643768310546875 -0.0776214599609375 -0.06429290771484375 -0.0764007568359375 -0.13861846923828125 0.1051177978515625
27.9025 -0.06337738037109375 0.03554534912109375 -0.06887054443359375 -0.07403564453125 -0.06845855712890625 -0.07270050048828125 -0.14145660400390625 0.1098480224609375
27.91125 -0.06836700439453125 0.037418365478515625 -0.07303619384765625 -0.06967926025390625 -0.072296142578125 -0.06893157958984375 -0.14359283447265625 0.115203857421875
27.92 -0.07286453247070312 0.039661407470703125 -0.07680511474609375 -0.064849853515625 -0.0756988525390625 -0.06463623046875 -0.14586639404296875 0.12059783935546875
27.92875 -0.0772552490234375 0.042255401611328125 -0.08011627197265625 -0.059600830078125 -0.07909393310546875 -0.06002044677734375 -0.1478271484375 0.12601470947265625
27.9375 -0.08179092407226562 0.045108795166015625 -0.08237457275390625 -0.0541839599609375 -0.081787109375 -0.0552215576171875 -0.1494598388671875 0.13207244873046875
27.94625 -0.0862579345703125 0.04875946044921875 -0.0841217041015625 -0.048919677734375 -0.0838775634765625 -0.05059814453125 -0.150604248046875 0.1376800537109375
27.955 -0.09027099609375 0.052547454833984375 -0.08502197265625 -0.0443878173828125 -0.0856781005859375 -0.04602813720703125 -0.15154266357421875 0.14373779296875
27.96375 -0.09428024291992188 0.056873321533203125 -0.08582305908203125 -0.040557861328125 -0.0873260498046875 -0.04168701171875 -0.15200042724609375 0.14980316162109375
27.9725 -0.09833526611328125 0.06146240234375 -0.08674240112304688 -0.03682708740234375 -0.0890655517578125 -0.037445068359375 -0.15195465087890625 0.15544891357421875
27.98125 -0.102508544921875 0.06610107421875 -0.08801651000976562 -0.03368377685546875 -0.09087371826171875 -0.03319549560546875 -0.15204620361328125 0.1614837646484375
27.99 -0.10584640502929688 0.07136154174804688 -0.09003067016601562 -0.030109405517578125 -0.0925140380859375 -0.028564453125 -0.15110015869140625 0.16754150390625
27.99875 -0.10953140258789062 0.07636642456054688 -0.09242630004882812 -0.0261993408203125 -0.09433746337890625 -0.023712158203125 -0.150054931640625 0.17327880859375
28.0075 -0.1129302978515625 0.08176040649414062 -0.09469985961914062 -0.0216827392578125 -0.095703125 -0.018199920654296875 -0.14874267578125 0.179931640625
28.01625 -0.11608505249023438 0.08755111694335938 -0.0965576171875 -0.016201019287109375 -0.09635543823242188 -0.012577056884765625 -0.1473846435546875 0.1859893798828125
28.025 -0.118499755859375 0.0928802490234375 -0.09810256958007812 -0.009998321533203125 -0.09637832641601562 -0.006687164306640625 -0.1451416015625 0.1917877197265625
28.03375 -0.12109756469726562 0.09886550903320312 -0.09832763671875 -0.003505706787109375 -0.09557723999023438 -0.000957489013671875 -0.14290618896484375 0.198150634765625
28.0425 -0.12349319458007812 0.10464859008789062 -0.09750747680664062 0.00281524658203125 -0.093994140625 0.003841400146484375 -0.14034271240234375 0.20447540283203125
28.05125 -0.12479400634765625 0.11053466796875 -0.09584808349609375 0.0084991455078125 -0.0924224853515625 0.00841522216796875 -0.1378326416015625 0.21063232421875
28.06 -0.12604522705078125 0.11655426025390625 -0.09334182739257812 0.013515472412109375 -0.09070587158203125 0.0120391845703125 -0.134765625 0.21675872802734375
28.06875 -0.12670135498046875 0.12258148193359375 -0.09106826782226562 0.017604827880859375 -0.08942031860351562 0.015430450439453125 -0.131439208984375 0.2226104736328125
28.0775 -0.1268310546875 0.12874603271484375 -0.08928680419921875 0.020877838134765625 -0.08878707885742188 0.018505096435546875 -0.1278076171875 0.22861480712890625
28.08625 -0.126708984375 0.13506317138671875 -0.08788299560546875 0.024013519287109375 -0.0884857177734375 0.02219390869140625 -0.12407684326171875 0.234100341796875
28.095 -0.12613677978515625 0.1412353515625 -0.086639404296875 0.027347564697265625 -0.08854293823242188 0.026180267333984375 -0.119842529296875 0.2394561767578125
28.10375 -0.1250152587890625 0.14768218994140625 -0.08602523803710938 0.031253814697265625 -0.08819961547851562 0.031337738037109375 -0.11589813232421875 0.24469757080078125
28.1125 -0.12331390380859375 0.15402984619140625 -0.085418701171875 0.035533905029296875 -0.08696746826171875 0.0369415283203125 -0.1113739013671875 0.2494354248046875
28.12125 -0.1215972900390625 0.16066741943359375 -0.08392333984375 0.04059600830078125 -0.08484649658203125 0.042705535888671875 -0.1066131591796875 0.2544403076171875
28.13 -0.119049072265625 0.1668701171875 -0.08176422119140625 0.0455780029296875 -0.08154678344726562 0.04821014404296875 -0.101409912109375 0.258209228515625
28.13875 -0.1165771484375 0.17325592041015625 -0.07877349853515625 0.050525665283203125 -0.077301025390625 0.05292510986328125 -0.0964508056640625 0.262451171875
28.1475 -0.1139678955078125 0.1795501708984375 -0.07462310791015625 0.054882049560546875 -0.07278823852539062 0.05641937255859375 -0.0910186767578125 0.265838623046875
28.15625 -0.110870361328125 0.1860198974609375 -0.07028961181640625 0.05814361572265625 -0.067962646484375 0.059112548828125 -0.08538818359375 0.26983642578125
28.165 -0.107666015625 0.1923065185546875 -0.06623077392578125 0.06055450439453125 -0.0640411376953125 0.060611724853515625 -0.0794677734375 0.273345947265625
28.17375 -0.10418701171875 0.198272705078125 -0.06254959106445312 0.06219482421875 -0.06101226806640625 0.06192970275878906 -0.0731964111328125 0.276397705078125
28.1825 -0.09995269775390625 0.204071044921875 -0.0594482421875 0.0638275146484375 -0.05828857421875 0.06335067749023438 -0.0663909912109375 0.2790985107421875
28.19125 -0.09597015380859375 0.20946502685546875 -0.0572052001953125 0.06529617309570312 -0.056308746337890625 0.06501388549804688 -0.060211181640625 0.2813568115234375
28.2 -0.091644287109375 0.21503448486328125 -0.05535888671875 0.06756973266601562 -0.05442047119140625 0.06772994995117188 -0.053466796875 0.2833709716796875
28.20875 -0.08715057373046875 0.2205810546875 -0.053466796875 0.07094955444335938 -0.05220794677734375 0.071014404296875 -0.04656982421875 0.285919189453125
28.2175 -0.08267974853515625 0.22534942626953125 -0.050426483154296875 0.07464599609375 -0.0489349365234375 0.07479095458984375 -0.039520263671875 0.2879791259765625
28.22625 -0.07769775390625 0.230560302734375 -0.04682159423828125 0.07824325561523438 -0.044586181640625 0.078216552734375 -0.032867431640625 0.2896728515625
28.235 -0.07222747802734375 0.23484039306640625 -0.042194366455078125 0.08182525634765625 -0.039379119873046875 0.08077239990234375 -0.025054931640625 0.29071044921875
28.24375 -0.066497802734375 0.23868560791015625 -0.03647613525390625 0.084564208984375 -0.0341949462890625 0.082611083984375 -0.018096923828125 0.2919769287109375
28.2525 -0.0603790283203125 0.2423095703125 -0.03033447265625 0.08636474609375 -0.029132843017578125 0.08338165283203125 -0.01116943359375 0.2922821044921875
28.26125 -0.05450439453125 0.2457275390625 -0.024585723876953125 0.08693695068359375 -0.024372100830078125 0.08346176147460938 -0.004425048828125 0.2931060791015625
28.27 -0.0482330322265625 0.2484893798828125 -0.019084930419921875 0.08643341064453125 -0.020076751708984375 0.08328628540039062 0.002288818359375 0.293121337890625
28.27875 -0.041839599609375 0.251556396484375 -0.01447296142578125 0.08544158935546875 -0.0168304443359375 0.083038330078125 0.00933837890625 0.293304443359375
28.2875 -0.0354156494140625 0.2540130615234375 -0.010822296142578125 0.08415603637695312 -0.013736724853515625 0.08316421508789062 0.015838623046875 0.29229736328125
28.29625 -0.0279998779296875 0.256500244140625 -0.007884979248046875 0.08342361450195312 -0.010700225830078125 0.0839385986328125 0.02288818359375 0.29180908203125
28.305 -0.02081298828125 0.258392333984375 -0.005298614501953125 0.0832366943359375 -0.00720977783203125 0.0851287841796875 0.029327392578125 0.2902679443359375
28.31375 -0.01373291015625 0.259674072265625 -0.0026092529296875 0.08347320556640625 -0.003284454345703125 0.08636474609375 0.0359344482421875 0.2884521484375
28.3225 -0.0068206787109375 0.260772705078125 0.000545501708984375 0.08449554443359375 0.001514434814453125 0.087432861328125 0.04217529296875 0.286224365234375
28.33125 0.0 0.262054443359375 0.004337310791015625 0.08542251586914062 0.006999969482421875 0.08746337890625 0.04864501953125 0.284210205078125
28.34 0.0068817138671875 0.2624053955078125 0.008968353271484375 0.08621978759765625 0.01241302490234375 0.08687973022460938 0.055328369140625 0.2813720703125
28.34875 0.0139617919921875 0.26312255859375 0.014129638671875 0.08635330200195312 0.01761627197265625 0.08526992797851562 0.06146240234375 0.2781524658203125
28.3575 0.0211029052734375 0.262969970703125 0.019313812255859375 0.08542251586914062 0.022388458251953125 0.08269882202148438 0.0679779052734375 0.27484130859375
28.36625 0.0280303955078125 0.262542724609375 0.0245361328125 0.0839080810546875 0.0261993408203125 0.08014678955078125 0.0735321044921875 0.2713470458984375
28.375 0.0345611572265625 0.261688232421875 0.029022216796875 0.08182907104492188 0.029064178466796875 0.07765960693359375 0.0795440673828125 0.26763916015625
28.38375 0.041229248046875 0.260101318359375 0.032928466796875 0.07926177978515625 0.0314483642578125 0.0756683349609375 0.0855712890625 0.263763427734375
28.3925 0.04840087890625 0.2584228515625 0.03652191162109375 0.076690673828125 0.033966064453125 0.073974609375 0.091033935546875 0.2596435546875
28.40125 0.05487060546875 0.256500244140625 0.039569854736328125 0.07422637939453125 0.036357879638671875 0.07281112670898438 0.0966644287109375 0.255401611328125
28.41 0.0618743896484375 0.253936767578125 0.04250335693359375 0.07200241088867188 0.039337158203125 0.07192230224609375 0.1017913818359375 0.250946044921875
28.41875 0.0676116943359375 0.251495361328125 0.045413970947265625 0.07029342651367188 0.042755126953125 0.07100296020507812 0.1063995361328125 0.246368408203125
28.4275 0.074493408203125 0.2482757568359375 0.04869842529296875 0.0682373046875 0.046451568603515625 0.0695648193359375 0.110626220703125 0.241943359375
28.43625 0.0807342529296875 0.244842529296875 0.052066802978515625 0.06618499755859375 0.050823211669921875 0.0676727294921875 0.1147003173828125 0.2374725341796875
28.445 0.0866546630859375 0.2413787841796875 0.055431365966796875 0.0635833740234375 0.05522918701171875 0.06531906127929688 0.11859130859375 0.2328033447265625
28.45375 0.0927276611328125 0.237762451171875 0.0587921142578125 0.060794830322265625 0.059154510498046875 0.062160491943359375 0.1215972900390625 0.2277679443359375
28.4625 0.098785400390625 0.2335357666015625 0.06185150146484375 0.057590484619140625 0.06270980834960938 0.058612823486328125 0.124664306640625 0.2230377197265625
28.47125 0.10455322265625 0.2288970947265625 0.0648651123046875 0.054172515869140625 0.06589126586914062 0.0545806884765625 0.12689208984375 0.217376708984375
28.48 0.109649658203125 0.2247772216796875 0.0675201416015625 0.0505523681640625 0.06847763061523438 0.050479888916015625 0.12896728515625 0.212432861328125
28.48875 0.11468505859375 0.2204742431640625 0.06977462768554688 0.04663848876953125 0.07068634033203125 0.04630279541015625 0.1306610107421875 0.2070465087890625
28.4975 0.1195526123046875 0.2158660888671875 0.07167434692382812 0.04291534423828125 0.07244873046875 0.041919708251953125 0.1326751708984375 0.2017059326171875
28.50625 0.124237060546875 0.210906982421875 0.07340240478515625 0.03936004638671875 0.07370758056640625 0.0380401611328125 0.133544921875 0.19580078125
28.515 0.1282958984375 0.20556640625 0.07486724853515625 0.03564453125 0.07512664794921875 0.03433990478515625 0.1348876953125 0.1905517578125
28.52375 0.132049560546875 0.200347900390625 0.0764312744140625 0.03231048583984375 0.0763092041015625 0.0307464599609375 0.13507080078125 0.18463134765625
28.5325 0.135162353515625 0.195220947265625 0.07805633544921875 0.0286407470703125 0.0773773193359375 0.0269775390625 0.135894775390625 0.178985595703125
28.54125 0.1380615234375 0.18994140625 0.07963180541992188 0.0244598388671875 0.0783233642578125 0.023197174072265625 0.1360321044921875 0.1732025146484375
28.55 0.140777587890625 0.1839599609375 0.08047866821289062 0.020229339599609375 0.07885360717773438 0.019268035888671875 0.136077880859375 0.1676025390625
