!Created with skrf (http://scikit-rf.org).
# GHz S RI R 50.0 
!freq ReS11 ImS11 ReS21 ImS21 ReS12 ImS12 ReS22 ImS22
27.5 -0.00205230712890625 0.17284393310546875 -0.029071807861328125 -0.029994964599609375 -0.028669357299804688 -0.03045654296875 -0.0353240966796875 0.1782379150390625
27.50875 -0.00101470947265625 0.1674957275390625 -0.030714035034179688 -0.027919769287109375 -0.030771255493164062 -0.028638839721679688 -0.03157806396484375 0.1733245849609375
27.5175 -0.00029754638671875 0.1624755859375 -0.03204345703125 -0.025623321533203125 -0.03218650817871094 -0.0264129638671875 -0.02841949462890625 0.167938232421875
27.52625 0.0001220703125 0.15716552734375 -0.032928466796875 -0.023654937744140625 -0.033588409423828125 -0.02422332763671875 -0.02538299560546875 0.16280364990234375
27.535 9.1552734375e-05 0.1519775390625 -0.0337982177734375 -0.02181243896484375 -0.0345458984375 -0.0222625732421875 -0.0229034423828125 0.1573486328125
27.54375 -0.0001373291015625 0.1474609375 -0.034580230712890625 -0.020252227783203125 -0.035495758056640625 -0.0200958251953125 -0.02099609375 0.1520538330078125
27.5525 -0.0008392333984375 0.142486572265625 -0.03546333312988281 -0.018581390380859375 -0.03647041320800781 -0.018228530883789062 -0.0195465087890625 0.146820068359375
27.56125 -0.0018768310546875 0.1376953125 -0.03619194030761719 -0.016826629638671875 -0.03707695007324219 -0.016498565673828125 -0.0183563232421875 0.1411590576171875
27.57 -0.0034637451171875 0.13321685791015625 -0.03724861145019531 -0.015359878540039062 -0.03749656677246094 -0.014461517333984375 -0.0176239013671875 0.13561248779296875
27.57875 -0.00510406494140625 0.12908935546875 -0.0381622314453125 -0.013584136962890625 -0.03829765319824219 -0.012479782104492188 -0.01686859130859375 0.13060760498046875
27.5875 -0.00725555419921875 0.12502288818359375 -0.039051055908203125 -0.011545181274414062 -0.03914070129394531 -0.010766983032226562 -0.0170440673828125 0.12509918212890625
27.59625 -0.00980377197265625 0.12134933471679688 -0.03982353210449219 -0.009246826171875 -0.0394287109375 -0.008701324462890625 -0.017581939697265625 0.1197357177734375
27.605 -0.012432098388671875 0.11764144897460938 -0.04035758972167969 -0.006992340087890625 -0.03989601135253906 -0.0065155029296875 -0.01873016357421875 0.11462783813476562
27.61375 -0.015270233154296875 0.11428451538085938 -0.04069709777832031 -0.0047321319580078125 -0.04027366638183594 -0.0046024322509765625 -0.019611358642578125 0.10933685302734375
27.6225 -0.018329620361328125 0.11102294921875 -0.04110908508300781 -0.002513885498046875 -0.04049491882324219 -0.0023136138916015625 -0.02095794677734375 0.10490798950195312
27.63125 -0.021938323974609375 0.10808563232421875 -0.04110527038574219 -0.0003070831298828125 -0.040740966796875 -0.0001239776611328125 -0.022609710693359375 0.10026931762695312
27.64 -0.02588653564453125 0.10543441772460938 -0.04113960266113281 0.0019435882568359375 -0.040836334228515625 0.0020351409912109375 -0.02437591552734375 0.095703125
27.64875 -0.02980804443359375 0.103546142578125 -0.04075050354003906 0.0045223236083984375 -0.040618896484375 0.0045948028564453125 -0.026458740234375 0.09163284301757812
27.6575 -0.033512115478515625 0.10164642333984375 -0.04031181335449219 0.0066967010498046875 -0.04025077819824219 0.0066928863525390625 -0.02945709228515625 0.087799072265625
27.66625 -0.03768157958984375 0.09984588623046875 -0.03968048095703125 0.00891876220703125 -0.039569854736328125 0.008617401123046875 -0.03212738037109375 0.08404159545898438
27.675 -0.041667938232421875 0.09857940673828125 -0.03900718688964844 0.010908126831054688 -0.038867950439453125 0.010992050170898438 -0.03519439697265625 0.08111572265625
27.68375 -0.04579925537109375 0.09723663330078125 -0.03832054138183594 0.01290130615234375 -0.03838539123535156 0.01287078857421875 -0.03878021240234375 0.07867431640625
27.6925 -0.050357818603515625 0.09625625610351562 -0.037746429443359375 0.014751434326171875 -0.03755950927734375 0.01471710205078125 -0.042144775390625 0.0757904052734375
27.70125 -0.0546875 0.09601593017578125 -0.03694915771484375 0.0169830322265625 -0.0366668701171875 0.016819000244140625 -0.04575347900390625 0.07324981689453125
27.71 -0.059139251708984375 0.09607696533203125 -0.035732269287109375 0.019008636474609375 -0.03565025329589844 0.018978118896484375 -0.0499725341796875 0.07100677490234375
27.71875 -0.06348419189453125 0.09656524658203125 -0.034595489501953125 0.020847320556640625 -0.03437232971191406 0.020948410034179688 -0.053936004638671875 0.06936264038085938
27.7275 -0.06766128540039062 0.09714889526367188 -0.03313446044921875 0.022626876831054688 -0.03311729431152344 0.022813796997070312 -0.058376312255859375 0.06805419921875
27.73625 -0.0718994140625 0.09830093383789062 -0.03171348571777344 0.024206161499023438 -0.03198432922363281 0.024341583251953125 -0.06311798095703125 0.06682205200195312
27.745 -0.07593917846679688 0.09981536865234375 -0.030396461486816406 0.025618553161621094 -0.03072357177734375 0.025757789611816406 -0.06795883178710938 0.0659637451171875
27.75375 -0.08003616333007812 0.10158920288085938 -0.028906822204589844 0.027037620544433594 -0.0292510986328125 0.027120590209960938 -0.07270431518554688 0.06535720825195312
27.7625 -0.08408737182617188 0.10373306274414062 -0.02742290496826172 0.028425216674804688 -0.027736663818359375 0.028860092163085938 -0.0772247314453125 0.06497573852539062
27.77125 -0.08826828002929688 0.10633468627929688 -0.0259857177734375 0.029921531677246094 -0.026128768920898438 0.03059864044189453 -0.08209228515625 0.06512069702148438
27.78 -0.09193801879882812 0.10940170288085938 -0.02440643310546875 0.031246185302734375 -0.024488449096679688 0.03220939636230469 -0.08672332763671875 0.06580352783203125
27.78875 -0.09555435180664062 0.1126708984375 -0.022518157958984375 0.03238868713378906 -0.022348403930664062 0.0334014892578125 -0.09199905395507812 0.06648635864257812
27.7975 -0.09885787963867188 0.11600875854492188 -0.0207061767578125 0.03351593017578125 -0.020437240600585938 0.03426170349121094 -0.096771240234375 0.06756210327148438
27.80625 -0.1023406982421875 0.11972427368164062 -0.018756866455078125 0.034381866455078125 -0.018148422241210938 0.034763336181640625 -0.10162353515625 0.06896209716796875
27.815 -0.10544586181640625 0.12404632568359375 -0.016857147216796875 0.035308837890625 -0.0159454345703125 0.035289764404296875 -0.106109619140625 0.07042694091796875
27.82375 -0.10845947265625 0.1282501220703125 -0.01499176025390625 0.0357666015625 -0.013835906982421875 0.035797119140625 -0.1102142333984375 0.07238006591796875
27.8325 -0.11090850830078125 0.13275909423828125 -0.012989044189453125 0.03659820556640625 -0.012157440185546875 0.0362396240234375 -0.11456680297851562 0.07534408569335938
27.84125 -0.11328887939453125 0.13765716552734375 -0.01119232177734375 0.03704071044921875 -0.0104217529296875 0.03661918640136719 -0.118438720703125 0.07811737060546875
27.85 -0.11545562744140625 0.14243316650390625 -0.009037017822265625 0.037265777587890625 -0.008886337280273438 0.03713798522949219 -0.12225723266601562 0.08127593994140625
27.85875 -0.11722564697265625 0.14769744873046875 -0.00734710693359375 0.03761482238769531 -0.00751495361328125 0.0372467041015625 -0.1263427734375 0.0850982666015625
27.8675 -0.118377685546875 0.15264892578125 -0.0054035186767578125 0.037841796875 -0.005863189697265625 0.03768730163574219 -0.1304779052734375 0.089019775390625
27.87625 -0.1195068359375 0.1579132080078125 -0.0035305023193359375 0.038055419921875 -0.00391387939453125 0.03812980651855469 -0.13358306884765625 0.0931854248046875
27.885 -0.12068939208984375 0.1637115478515625 -0.0017242431640625 0.0381622314453125 -0.0017223358154296875 0.03867530822753906 -0.13629150390625 0.09760284423828125
27.89375 -0.1211700439453125 0.16910552978515625 0.0003147125244140625 0.03842353820800781 0.0004596710205078125 0.039142608642578125 -0.13918304443359375 0.1026763916015625
27.9025 -0.12160491943359375 0.17485809326171875 0.00225830078125 0.0385589599609375 0.0026569366455078125 0.039203643798828125 -0.142120361328125 0.10742950439453125
27.91125 -0.12114715576171875 0.18105316162109375 0.0046844482421875 0.038608551025390625 0.005023956298828125 0.03900718688964844 -0.14471435546875 0.11248016357421875
27.92 -0.1206207275390625 0.18697357177734375 0.0070858001708984375 0.038188934326171875 0.0076904296875 0.03808403015136719 -0.14688873291015625 0.1176300048828125
27.92875 -0.11946868896484375 0.19309234619140625 0.009618759155273438 0.037410736083984375 0.010213851928710938 0.03711700439453125 -0.1492919921875 0.1226348876953125
27.9375 -0.118133544921875 0.19876861572265625 0.011722564697265625 0.03586578369140625 0.01221466064453125 0.03581809997558594 -0.15079498291015625 0.1282501220703125
27.94625 -0.1170654296875 0.204742431640625 0.013134002685546875 0.034404754638671875 0.01335906982421875 0.034519195556640625 -0.152313232421875 0.1341552734375
27.955 -0.1153411865234375 0.210662841796875 0.014286041259765625 0.03342437744140625 0.014448165893554688 0.033817291259765625 -0.15320587158203125 0.14026641845703125
27.96375 -0.1133880615234375 0.21707916259765625 0.015447616577148438 0.032627105712890625 0.015750885009765625 0.03338050842285156 -0.15407562255859375 0.14604949951171875
27.9725 -0.110748291015625 0.2235107421875 0.016788482666015625 0.031963348388671875 0.017425537109375 0.03299903869628906 -0.15430450439453125 0.15179443359375
27.98125 -0.10796356201171875 0.229156494140625 0.018131256103515625 0.03125190734863281 0.019433975219726562 0.03222465515136719 -0.15460968017578125 0.157501220703125
27.99 -0.1047210693359375 0.23470306396484375 0.019542694091796875 0.030427932739257812 0.021373748779296875 0.03102874755859375 -0.15454864501953125 0.16371917724609375
27.99875 -0.1014556884765625 0.239990234375 0.021036148071289062 0.029603958129882812 0.023386001586914062 0.029642105102539062 -0.1538848876953125 0.1697845458984375
28.0075 -0.09765625 0.2455291748046875 0.022527694702148438 0.028898239135742188 0.024831771850585938 0.027994155883789062 -0.15277099609375 0.17636871337890625
28.01625 -0.0941619873046875 0.250762939453125 0.024179458618164062 0.027780532836914062 0.026208877563476562 0.02606201171875 -0.151336669921875 0.1826934814453125
28.025 -0.08966064453125 0.2562408447265625 0.0261077880859375 0.026659011840820312 0.027189254760742188 0.02411651611328125 -0.1493682861328125 0.18866729736328125
28.03375 -0.0848388671875 0.2613983154296875 0.027761459350585938 0.025201797485351562 0.027896881103515625 0.022478103637695312 -0.14727020263671875 0.1948089599609375
28.0425 -0.07977294921875 0.265838623046875 0.02922821044921875 0.02298736572265625 0.02840423583984375 0.020816802978515625 -0.144775390625 0.2014312744140625
28.05125 -0.074493408203125 0.2698974609375 0.0301666259765625 0.020725250244140625 0.028717041015625 0.019382476806640625 -0.142333984375 0.2072906494140625
28.06 -0.0692901611328125 0.2740325927734375 0.030643463134765625 0.01873016357421875 0.028940200805664062 0.018251419067382812 -0.13921356201171875 0.21380615234375
28.06875 -0.063385009765625 0.277618408203125 0.030858993530273438 0.0169830322265625 0.029340744018554688 0.017566680908203125 -0.13561248779296875 0.219940185546875
28.0775 -0.0576324462890625 0.2815093994140625 0.0309295654296875 0.015630722045898438 0.030157089233398438 0.016984939575195312 -0.13155364990234375 0.22594451904296875
28.08625 -0.05157470703125 0.2852325439453125 0.0313568115234375 0.0145721435546875 0.031635284423828125 0.016122817993164062 -0.12762451171875 0.23133087158203125
28.095 -0.0453338623046875 0.28863525390625 0.03191947937011719 0.01366424560546875 0.033206939697265625 0.014772415161132812 -0.12322235107421875 0.2366180419921875
28.10375 -0.0386505126953125 0.2915802001953125 0.03302764892578125 0.0124359130859375 0.03491783142089844 0.012723922729492188 -0.119293212890625 0.241973876953125
28.1125 -0.0317230224609375 0.2940673828125 0.03403282165527344 0.010808944702148438 0.03597068786621094 0.010175704956054688 -0.114593505859375 0.2469329833984375
28.12125 -0.025115966796875 0.296600341796875 0.034820556640625 0.00897979736328125 0.0362701416015625 0.0072574615478515625 -0.109893798828125 0.252105712890625
28.13 -0.0183563232421875 0.2986602783203125 0.03527069091796875 0.0068874359130859375 0.036075592041015625 0.0046234130859375 -0.1048126220703125 0.2569732666015625
28.13875 -0.011627197265625 0.3009490966796875 0.03574371337890625 0.00481414794921875 0.03537940979003906 0.0025348663330078125 -0.099365234375 0.2611083984375
28.1475 -0.0045013427734375 0.30291748046875 0.035736083984375 0.002597808837890625 0.03447151184082031 0.0007991790771484375 -0.09356689453125 0.26531982421875
28.15625 0.002197265625 0.30426025390625 0.0354461669921875 0.0008087158203125 0.0339508056640625 -0.0004730224609375 -0.087615966796875 0.268768310546875
28.165 0.009490966796875 0.30548095703125 0.03494071960449219 -0.0009365081787109375 0.0334014892578125 -0.001438140869140625 -0.0818023681640625 0.2718658447265625
28.17375 0.0164642333984375 0.3061981201171875 0.03455543518066406 -0.0024318695068359375 0.03330421447753906 -0.00246429443359375 -0.0760498046875 0.2754974365234375
28.1825 0.0237579345703125 0.30633544921875 0.034221649169921875 -0.0038738250732421875 0.03346824645996094 -0.0034770965576171875 -0.069427490234375 0.278472900390625
28.19125 0.0300140380859375 0.3065185546875 0.03394508361816406 -0.00510406494140625 0.033817291259765625 -0.0047473907470703125 -0.0629119873046875 0.2811431884765625
28.2 0.037811279296875 0.3065643310546875 0.0339202880859375 -0.0063610076904296875 0.03400611877441406 -0.006317138671875 -0.05609130859375 0.28369140625
28.20875 0.0445709228515625 0.3058624267578125 0.03402137756347656 -0.007694244384765625 0.034351348876953125 -0.008182525634765625 -0.0492095947265625 0.2859649658203125
28.2175 0.0514068603515625 0.3051910400390625 0.03422737121582031 -0.00946044921875 0.03446006774902344 -0.010433197021484375 -0.042205810546875 0.287689208984375
28.22625 0.058502197265625 0.30377197265625 0.034389495849609375 -0.011339187622070312 0.03405189514160156 -0.012798309326171875 -0.03570556640625 0.2890625
28.235 0.0651702880859375 0.3022003173828125 0.034313201904296875 -0.013917922973632812 0.03292655944824219 -0.015123367309570312 -0.028289794921875 0.2902984619140625
28.24375 0.071624755859375 0.2998199462890625 0.03357124328613281 -0.016407012939453125 0.0315093994140625 -0.01714324951171875 -0.02142333984375 0.29132080078125
28.2525 0.078521728515625 0.2975311279296875 0.03206825256347656 -0.019025802612304688 0.03000354766845703 -0.018497467041015625 -0.014434814453125 0.292083740234375
28.26125 0.084747314453125 0.294830322265625 0.030084609985351562 -0.02085590362548828 0.02845287322998047 -0.019504547119140625 -0.00732421875 0.29278564453125
28.27 0.091278076171875 0.291839599609375 0.028337478637695312 -0.021968841552734375 0.027431488037109375 -0.02025604248046875 -0.000274658203125 0.2926025390625
28.27875 0.097564697265625 0.289031982421875 0.026700973510742188 -0.023006439208984375 0.02664947509765625 -0.02114105224609375 0.00665283203125 0.292694091796875
28.2875 0.1035614013671875 0.285552978515625 0.02539539337158203 -0.023581504821777344 0.02613067626953125 -0.022019386291503906 0.013214111328125 0.291290283203125
28.29625 0.10980224609375 0.281646728515625 0.024341583251953125 -0.02419757843017578 0.02553558349609375 -0.02345752716064453 0.019866943359375 0.29107666015625
28.305 0.11529541015625 0.27801513671875 0.023532867431640625 -0.025231361389160156 0.02493000030517578 -0.025381088256835938 0.026123046875 0.2899322509765625
28.31375 0.121002197265625 0.27398681640625 0.02268218994140625 -0.026117324829101562 0.02354717254638672 -0.027164459228515625 0.0329437255859375 0.288330078125
28.3225 0.126190185546875 0.2694091796875 0.021759986877441406 -0.027291297912597656 0.02181529998779297 -0.028972625732421875 0.039215087890625 0.286773681640625
28.33125 0.130889892578125 0.2656707763671875 0.020685195922851562 -0.028705596923828125 0.019777297973632812 -0.03034496307373047 0.045745849609375 0.284912109375
28.34 0.135498046875 0.260894775390625 0.019128799438476562 -0.03016948699951172 0.0176849365234375 -0.031244277954101562 0.0521240234375 0.28216552734375
28.34875 0.1397705078125 0.256378173828125 0.01761627197265625 -0.03143501281738281 0.015546798706054688 -0.03185844421386719 0.0580596923828125 0.2794647216796875
28.3575 0.1443328857421875 0.251556396484375 0.015903472900390625 -0.0326080322265625 0.013719558715820312 -0.03199958801269531 0.0639495849609375 0.27618408203125
28.36625 0.1481781005859375 0.2462310791015625 0.013767242431640625 -0.033599853515625 0.012022018432617188 -0.03219413757324219 0.0692596435546875 0.2735595703125
28.375 0.1517333984375 0.24090576171875 0.011600494384765625 -0.034473419189453125 0.010589599609375 -0.032520294189453125 0.075103759765625 0.27032470703125
28.38375 0.154998779296875 0.235198974609375 0.009471893310546875 -0.034694671630859375 0.009246826171875 -0.032657623291015625 0.080902099609375 0.2669677734375
28.3925 0.157806396484375 0.22979736328125 0.0074825286865234375 -0.0348052978515625 0.00792694091796875 -0.03301048278808594 0.0865020751953125 0.263092041015625
28.40125 0.1611785888671875 0.2240753173828125 0.0057315826416015625 -0.03476715087890625 0.00677490234375 -0.03346061706542969 0.0923004150390625 0.258575439453125
28.41 0.163482666015625 0.21844482421875 0.0041599273681640625 -0.034832000732421875 0.0054874420166015625 -0.034091949462890625 0.0968475341796875 0.2542724609375
28.41875 0.165496826171875 0.21258544921875 0.0026912689208984375 -0.03516387939453125 0.00389862060546875 -0.034881591796875 0.1013031005859375 0.249725341796875
28.4275 0.1674652099609375 0.2064361572265625 0.0010013580322265625 -0.03532218933105469 0.0019626617431640625 -0.03540229797363281 0.10589599609375 0.2452545166015625
28.43625 0.1689910888671875 0.2006072998046875 -0.0006103515625 -0.03541374206542969 -8.58306884765625e-05 -0.03589439392089844 0.10986328125 0.2404937744140625
28.445 0.1700897216796875 0.1944580078125 -0.0026264190673828125 -0.03560638427734375 -0.0022430419921875 -0.03619384765625 0.1136627197265625 0.23590087890625
28.45375 0.1708831787109375 0.18865966796875 -0.00473785400390625 -0.03563117980957031 -0.0049037933349609375 -0.03607749938964844 0.1172637939453125 0.2305145263671875
28.4625 0.1713104248046875 0.1828765869140625 -0.00678253173828125 -0.03519248962402344 -0.0072994232177734375 -0.03555488586425781 0.1202545166015625 0.225616455078125
28.47125 0.17181396484375 0.17718505859375 -0.008584976196289062 -0.034717559814453125 -0.009279251098632812 -0.03462409973144531 0.1226348876953125 0.220184326171875
28.48 0.1719512939453125 0.1717987060546875 -0.010435104370117188 -0.03400230407714844 -0.011077880859375 -0.033718109130859375 0.125335693359375 0.214935302734375
28.48875 0.171600341796875 0.1664276123046875 -0.012195587158203125 -0.03334236145019531 -0.012477874755859375 -0.03291511535644531 0.127288818359375 0.2093048095703125
28.4975 0.1712646484375 0.1611328125 -0.013927459716796875 -0.0325927734375 -0.014034271240234375 -0.0321807861328125 0.129302978515625 0.2037353515625
28.50625 0.170166015625 0.1556396484375 -0.015453338623046875 -0.0320892333984375 -0.015720367431640625 -0.031375885009765625 0.130645751953125 0.19805908203125
28.515 0.1689453125 0.150726318359375 -0.017322540283203125 -0.031078338623046875 -0.017345428466796875 -0.030551910400390625 0.131866455078125 0.192779541015625
28.52375 0.1673583984375 0.145782470703125 -0.018892288208007812 -0.030305862426757812 -0.018869400024414062 -0.02947998046875 0.1323394775390625 0.187469482421875
28.5325 0.16595458984375 0.141265869140625 -0.0205230712890625 -0.029003143310546875 -0.020355224609375 -0.028339385986328125 0.13330078125 0.181732177734375
