!Created with skrf (http://scikit-rf.org).
# GHz S RI R 50.0 
!freq ReS11 ImS11 ReS21 ImS21 ReS12 ImS12 ReS22 ImS22
27.5 0.0193023681640625 0.15514373779296875 0.10237884521484375 0.01544189453125 0.10259246826171875 0.01696014404296875 0.00275421142578125 0.1511688232421875
27.50875 0.0237579345703125 0.14992523193359375 0.1024169921875 0.009365081787109375 0.10343551635742188 0.010356903076171875 0.007476806640625 0.14644622802734375
27.5175 0.02776336669921875 0.14447784423828125 0.10146713256835938 0.0037994384765625 0.10309982299804688 0.00408172607421875 0.011932373046875 0.14157867431640625
27.52625 0.03148651123046875 0.13901519775390625 0.10049819946289062 -0.00091552734375 0.10235214233398438 -0.001583099365234375 0.01628875732421875 0.1365814208984375
27.535 0.034820556640625 0.133056640625 0.0997772216796875 -0.0052337646484375 0.1012725830078125 -0.0069580078125 0.020477294921875 0.1311492919921875
27.54375 0.037750244140625 0.1272735595703125 0.099273681640625 -0.00963592529296875 0.1001739501953125 -0.0115814208984375 0.0238800048828125 0.125457763671875
27.5525 0.03997802734375 0.12137603759765625 0.0988922119140625 -0.014133453369140625 0.09935760498046875 -0.016384124755859375 0.02690887451171875 0.12000274658203125
27.56125 0.04207611083984375 0.11539459228515625 0.09857940673828125 -0.01898193359375 0.09822463989257812 -0.020870208740234375 0.029693603515625 0.1138153076171875
27.57 0.043670654296875 0.10933685302734375 0.09805679321289062 -0.023807525634765625 0.09692001342773438 -0.025676727294921875 0.0317535400390625 0.10826873779296875
27.57875 0.04477691650390625 0.102996826171875 0.097137451171875 -0.029117584228515625 0.09574127197265625 -0.03032684326171875 0.03398895263671875 0.10224151611328125
27.5875 0.04557037353515625 0.0968780517578125 0.09576034545898438 -0.0343475341796875 0.094268798828125 -0.034847259521484375 0.0354461669921875 0.09572601318359375
27.59625 0.04560089111328125 0.09050750732421875 0.09384918212890625 -0.03957366943359375 0.09252166748046875 -0.0398406982421875 0.03662109375 0.0898895263671875
27.605 0.04529571533203125 0.0843048095703125 0.09157562255859375 -0.044818878173828125 0.0905609130859375 -0.044391632080078125 0.03739166259765625 0.0835418701171875
27.61375 0.0450439453125 0.07824325561523438 0.08890533447265625 -0.049877166748046875 0.08814239501953125 -0.049289703369140625 0.03754425048828125 0.07748031616210938
27.6225 0.044025421142578125 0.072265625 0.085968017578125 -0.054409027099609375 0.08535003662109375 -0.053989410400390625 0.037631988525390625 0.07157516479492188
27.63125 0.042964935302734375 0.06597518920898438 0.08268356323242188 -0.05910491943359375 0.08223342895507812 -0.05835723876953125 0.03731536865234375 0.0653076171875
27.64 0.041278839111328125 0.059978485107421875 0.07912063598632812 -0.06286239624023438 0.07895660400390625 -0.0623016357421875 0.036655426025390625 0.05905914306640625
27.64875 0.038875579833984375 0.054508209228515625 0.07573699951171875 -0.06676483154296875 0.07570648193359375 -0.066314697265625 0.03545379638671875 0.053180694580078125
27.6575 0.03680419921875 0.0490264892578125 0.07219696044921875 -0.07038116455078125 0.07207489013671875 -0.0699310302734375 0.03415679931640625 0.04769134521484375
27.66625 0.0339813232421875 0.0435028076171875 0.06830596923828125 -0.07375335693359375 0.06829071044921875 -0.07330322265625 0.03250885009765625 0.04221343994140625
27.675 0.0312042236328125 0.0384674072265625 0.06455230712890625 -0.07720184326171875 0.06447601318359375 -0.076690673828125 0.0304107666015625 0.03682708740234375
27.68375 0.028123855590820312 0.03372001647949219 0.060333251953125 -0.08018112182617188 0.060550689697265625 -0.0802154541015625 0.027688980102539062 0.03156089782714844
27.6925 0.024625778198242188 0.028850555419921875 0.056201934814453125 -0.08305740356445312 0.05632781982421875 -0.08323287963867188 0.024999618530273438 0.026651382446289062
27.70125 0.020824432373046875 0.024572372436523438 0.051776885986328125 -0.08571624755859375 0.0517730712890625 -0.08593368530273438 0.021297454833984375 0.021881103515625
27.71 0.016759872436523438 0.020357131958007812 0.047332763671875 -0.08829879760742188 0.047153472900390625 -0.08842086791992188 0.0176544189453125 0.017602920532226562
27.71875 0.012089729309082031 0.016622543334960938 0.042499542236328125 -0.090606689453125 0.042423248291015625 -0.09072113037109375 0.013634681701660156 0.013155937194824219
27.7275 0.0074443817138671875 0.013570785522460938 0.037654876708984375 -0.092193603515625 0.037708282470703125 -0.092376708984375 0.009085655212402344 0.009197235107421875
27.73625 0.0026650428771972656 0.010549545288085938 0.032932281494140625 -0.09413909912109375 0.032810211181640625 -0.09424972534179688 0.0045375823974609375 0.005297660827636719
27.745 -0.002679586410522461 0.0076160430908203125 0.02787017822265625 -0.09556961059570312 0.02799224853515625 -0.09560394287109375 -0.0005018115043640137 0.0018523335456848145
27.75375 -0.008053779602050781 0.005647182464599609 0.022922515869140625 -0.09674072265625 0.02307891845703125 -0.0966644287109375 -0.005698204040527344 -0.0013229846954345703
27.7625 -0.013509273529052734 0.0036592483520507812 0.01761627197265625 -0.09750747680664062 0.0180816650390625 -0.09762954711914062 -0.011086463928222656 -0.004177570343017578
27.77125 -0.0193328857421875 0.001918792724609375 0.012775421142578125 -0.09827804565429688 0.013179779052734375 -0.09832000732421875 -0.01690673828125 -0.006865501403808594
27.78 -0.025508880615234375 0.0004940032958984375 0.007595062255859375 -0.09860610961914062 0.00809478759765625 -0.09897232055664062 -0.022512435913085938 -0.00897979736328125
27.78875 -0.03179740905761719 -0.0003986358642578125 0.002685546875 -0.09857177734375 0.002933502197265625 -0.09922027587890625 -0.028303146362304688 -0.0108489990234375
27.7975 -0.0380706787109375 -0.0008220672607421875 -0.00241851806640625 -0.0985870361328125 -0.0022430419921875 -0.09933853149414062 -0.034137725830078125 -0.012517929077148438
27.80625 -0.04414558410644531 -0.001434326171875 -0.00739288330078125 -0.09823989868164062 -0.007381439208984375 -0.099029541015625 -0.03998565673828125 -0.0135650634765625
27.815 -0.05040931701660156 -0.0010776519775390625 -0.012531280517578125 -0.09774017333984375 -0.01309967041015625 -0.09828567504882812 -0.045719146728515625 -0.014705657958984375
27.82375 -0.056591033935546875 -0.000965118408203125 -0.017681121826171875 -0.09686279296875 -0.018268585205078125 -0.09715652465820312 -0.051544189453125 -0.01513671875
27.8325 -0.0628509521484375 -0.000396728515625 -0.022693634033203125 -0.09579849243164062 -0.02337646484375 -0.0957489013671875 -0.057621002197265625 -0.015216827392578125
27.84125 -0.06893539428710938 0.00092315673828125 -0.027736663818359375 -0.09418487548828125 -0.028247833251953125 -0.09395599365234375 -0.06340789794921875 -0.014621734619140625
27.85 -0.074859619140625 0.002437591552734375 -0.03247833251953125 -0.09209823608398438 -0.03272247314453125 -0.09172821044921875 -0.06906509399414062 -0.01383209228515625
27.85875 -0.08041763305664062 0.004116058349609375 -0.03687286376953125 -0.0902252197265625 -0.0370330810546875 -0.0897064208984375 -0.07495498657226562 -0.012607574462890625
27.8675 -0.08591461181640625 0.0060272216796875 -0.04141998291015625 -0.08770751953125 -0.04097747802734375 -0.087493896484375 -0.08060836791992188 -0.011127471923828125
27.87625 -0.09154891967773438 0.008373260498046875 -0.04550933837890625 -0.08562469482421875 -0.04512786865234375 -0.08551025390625 -0.0865631103515625 -0.00901031494140625
27.885 -0.09727859497070312 0.01158905029296875 -0.04941558837890625 -0.0828094482421875 -0.04930877685546875 -0.08347320556640625 -0.09209442138671875 -0.00653076171875
27.89375 -0.10235214233398438 0.01531982421875 -0.053863525390625 -0.08051300048828125 -0.05364227294921875 -0.0811920166015625 -0.09764862060546875 -0.003326416015625
27.9025 -0.10679244995117188 0.01904296875 -0.0579833984375 -0.0778045654296875 -0.0580902099609375 -0.07855224609375 -0.10284805297851562 -0.000354766845703125
27.91125 -0.1112060546875 0.02344512939453125 -0.0621490478515625 -0.0745391845703125 -0.06256866455078125 -0.0753631591796875 -0.10802078247070312 0.0032196044921875
27.92 -0.1156463623046875 0.027820587158203125 -0.06622314453125 -0.07102203369140625 -0.06678009033203125 -0.07128143310546875 -0.11322402954101562 0.007068634033203125
27.92875 -0.1197357177734375 0.032726287841796875 -0.06995391845703125 -0.0668792724609375 -0.07068634033203125 -0.0671234130859375 -0.11812210083007812 0.01116943359375
27.9375 -0.1236724853515625 0.03765869140625 -0.073394775390625 -0.062164306640625 -0.0737762451171875 -0.06253814697265625 -0.12316131591796875 0.015758514404296875
27.94625 -0.12795257568359375 0.04315185546875 -0.07619476318359375 -0.05739593505859375 -0.07617950439453125 -0.057769775390625 -0.12744903564453125 0.02050018310546875
27.955 -0.1312408447265625 0.048736572265625 -0.0780029296875 -0.0527496337890625 -0.078125 -0.053558349609375 -0.13189697265625 0.0254669189453125
27.96375 -0.134246826171875 0.0546722412109375 -0.07984161376953125 -0.04839324951171875 -0.07988739013671875 -0.04944610595703125 -0.13592529296875 0.03058624267578125
27.9725 -0.1373138427734375 0.0607452392578125 -0.08098220825195312 -0.044277191162109375 -0.0818939208984375 -0.0459136962890625 -0.13930511474609375 0.0359649658203125
27.98125 -0.14019775390625 0.06638336181640625 -0.08226394653320312 -0.04058074951171875 -0.08383941650390625 -0.0421905517578125 -0.14260101318359375 0.04132843017578125
27.99 -0.1423797607421875 0.07253265380859375 -0.08378219604492188 -0.03714752197265625 -0.08612060546875 -0.0379486083984375 -0.1455535888671875 0.0467071533203125
27.99875 -0.14434051513671875 0.07857513427734375 -0.08530426025390625 -0.033599853515625 -0.08848953247070312 -0.03343963623046875 -0.1480712890625 0.05269622802734375
28.0075 -0.1461334228515625 0.08467864990234375 -0.0872039794921875 -0.02965545654296875 -0.0904388427734375 -0.028522491455078125 -0.15045166015625 0.05884552001953125
28.01625 -0.14751434326171875 0.09130859375 -0.08911895751953125 -0.025646209716796875 -0.09165573120117188 -0.023052215576171875 -0.152587890625 0.065155029296875
28.025 -0.1484222412109375 0.09738922119140625 -0.09103012084960938 -0.0208892822265625 -0.092376708984375 -0.017246246337890625 -0.15396881103515625 0.07152557373046875
28.03375 -0.1486663818359375 0.1038818359375 -0.09225845336914062 -0.015674591064453125 -0.09206390380859375 -0.011814117431640625 -0.15488433837890625 0.07830810546875
28.0425 -0.1488037109375 0.109893798828125 -0.09289169311523438 -0.010074615478515625 -0.09117507934570312 -0.006786346435546875 -0.1555633544921875 0.08530426025390625
28.05125 -0.14849853515625 0.1162872314453125 -0.0927886962890625 -0.004547119140625 -0.0897674560546875 -0.00241851806640625 -0.1559295654296875 0.0919647216796875
28.06 -0.147796630859375 0.12273406982421875 -0.0917510986328125 0.000812530517578125 -0.08860397338867188 0.001308441162109375 -0.15641021728515625 0.09899139404296875
28.06875 -0.14630126953125 0.12943267822265625 -0.09042739868164062 0.00554656982421875 -0.08774566650390625 0.004421234130859375 -0.1563720703125 0.10590362548828125
28.0775 -0.1445770263671875 0.13616180419921875 -0.08876800537109375 0.009429931640625 -0.08736038208007812 0.007122039794921875 -0.15582275390625 0.1131744384765625
28.08625 -0.142547607421875 0.1430511474609375 -0.0873870849609375 0.013275146484375 -0.08771896362304688 0.010528564453125 -0.15478515625 0.1203155517578125
28.095 -0.1402740478515625 0.14972686767578125 -0.0865020751953125 0.01636505126953125 -0.08834075927734375 0.014347076416015625 -0.15341949462890625 0.1273193359375
28.10375 -0.13741302490234375 0.1562347412109375 -0.0860443115234375 0.01990509033203125 -0.08876800537109375 0.0191650390625 -0.15206146240234375 0.134063720703125
28.1125 -0.13446807861328125 0.16298675537109375 -0.08560562133789062 0.023815155029296875 -0.08884429931640625 0.024768829345703125 -0.15030670166015625 0.1404876708984375
28.12125 -0.131500244140625 0.16974639892578125 -0.08487319946289062 0.0284271240234375 -0.08738327026367188 0.03099822998046875 -0.14832305908203125 0.14739227294921875
28.13 -0.127685546875 0.17645263671875 -0.0834808349609375 0.033153533935546875 -0.08487701416015625 0.036846160888671875 -0.14609527587890625 0.15346527099609375
28.13875 -0.12390899658203125 0.1830596923828125 -0.08158493041992188 0.03803253173828125 -0.0809326171875 0.041881561279296875 -0.1431884765625 0.160186767578125
28.1475 -0.12017822265625 0.1891326904296875 -0.07879638671875 0.04262542724609375 -0.07683181762695312 0.045673370361328125 -0.13959503173828125 0.166229248046875
28.15625 -0.11608123779296875 0.19489288330078125 -0.0755157470703125 0.046543121337890625 -0.07270050048828125 0.048740386962890625 -0.13594818115234375 0.1722259521484375
28.165 -0.1119232177734375 0.200469970703125 -0.0720062255859375 0.04973602294921875 -0.0691986083984375 0.05075836181640625 -0.1322479248046875 0.177947998046875
28.17375 -0.1074371337890625 0.20584869384765625 -0.06866073608398438 0.052539825439453125 -0.06621170043945312 0.0523223876953125 -0.12766265869140625 0.1834716796875
28.1825 -0.102783203125 0.210601806640625 -0.06563568115234375 0.05450439453125 -0.06391143798828125 0.054088592529296875 -0.12335968017578125 0.18851470947265625
28.19125 -0.0984344482421875 0.21518707275390625 -0.06286239624023438 0.05657958984375 -0.062305450439453125 0.05602836608886719 -0.11827850341796875 0.19384002685546875
28.2 -0.0930328369140625 0.21912384033203125 -0.06090736389160156 0.058689117431640625 -0.06060981750488281 0.05868721008300781 -0.1129150390625 0.19857025146484375
28.20875 -0.0876617431640625 0.22342681884765625 -0.05889892578125 0.061489105224609375 -0.058818817138671875 0.06210899353027344 -0.10699462890625 0.2031097412109375
28.2175 -0.08216094970703125 0.22623443603515625 -0.05670928955078125 0.06449508666992188 -0.05609130859375 0.06591415405273438 -0.1015625 0.2075958251953125
28.22625 -0.07659912109375 0.2296295166015625 -0.05426025390625 0.06800079345703125 -0.052562713623046875 0.069580078125 -0.09580230712890625 0.21155548095703125
28.235 -0.07048797607421875 0.23226165771484375 -0.0509490966796875 0.07183837890625 -0.048213958740234375 0.07298660278320312 -0.08927154541015625 0.21567535400390625
28.24375 -0.06412506103515625 0.23418426513671875 -0.046573638916015625 0.075408935546875 -0.043338775634765625 0.07535171508789062 -0.0829010009765625 0.21935272216796875
28.2525 -0.0575103759765625 0.23663330078125 -0.041355133056640625 0.0782928466796875 -0.038501739501953125 0.0768890380859375 -0.07630157470703125 0.22240447998046875
28.26125 -0.05074310302734375 0.23822784423828125 -0.03569793701171875 0.08008575439453125 -0.033985137939453125 0.07766342163085938 -0.07009124755859375 0.2256622314453125
28.27 -0.04398345947265625 0.23978424072265625 -0.030590057373046875 0.080963134765625 -0.02993011474609375 0.07776260375976562 -0.0633392333984375 0.228057861328125
28.27875 -0.03662109375 0.24127197265625 -0.02590179443359375 0.0809783935546875 -0.02654266357421875 0.078155517578125 -0.056793212890625 0.2307891845703125
28.2875 -0.0294647216796875 0.242340087890625 -0.02170562744140625 0.08074188232421875 -0.02371978759765625 0.0786895751953125 -0.049896240234375 0.2323150634765625
28.29625 -0.02178955078125 0.2431793212890625 -0.018276214599609375 0.08046340942382812 -0.020603179931640625 0.07986831665039062 -0.04309844970703125 0.2341766357421875
28.305 -0.0146026611328125 0.24376678466796875 -0.01522064208984375 0.0804443359375 -0.017303466796875 0.08136749267578125 -0.03619384765625 0.2353515625
28.31375 -0.007171630859375 0.244140625 -0.01230621337890625 0.0807647705078125 -0.01349639892578125 0.08294677734375 -0.02927398681640625 0.23584747314453125
28.3225 -0.00031280517578125 0.244049072265625 -0.009372711181640625 0.08156585693359375 -0.008941650390625 0.08434677124023438 -0.0223846435546875 0.23627471923828125
28.33125 0.0065460205078125 0.2443084716796875 -0.00591278076171875 0.08256912231445312 -0.00383758544921875 0.08514785766601562 -0.0152435302734375 0.2363433837890625
28.34 0.01348876953125 0.24365234375 -0.001735687255859375 0.08359527587890625 0.00164031982421875 0.08497238159179688 -0.00812530517578125 0.23610687255859375
28.34875 0.0200347900390625 0.242889404296875 0.002628326416015625 0.08400344848632812 0.00678253173828125 0.08391571044921875 -0.00083160400390625 0.23516845703125
28.3575 0.0267181396484375 0.241424560546875 0.00762939453125 0.08415603637695312 0.0112457275390625 0.08223342895507812 0.0063934326171875 0.23366546630859375
28.36625 0.032623291015625 0.2398834228515625 0.012683868408203125 0.08359909057617188 0.015224456787109375 0.08024215698242188 0.01300048828125 0.2326202392578125
28.375 0.038543701171875 0.2378692626953125 0.017368316650390625 0.08208847045898438 0.018646240234375 0.07825088500976562 0.0200653076171875 0.23065185546875
28.38375 0.044281005859375 0.23541259765625 0.0216522216796875 0.08046722412109375 0.02126312255859375 0.07656097412109375 0.02703857421875 0.228424072265625
28.3925 0.049835205078125 0.23236083984375 0.02541351318359375 0.07851409912109375 0.02375030517578125 0.07520294189453125 0.033416748046875 0.22601318359375
28.40125 0.0550384521484375 0.229248046875 0.029216766357421875 0.07634353637695312 0.0264892578125 0.0743560791015625 0.040252685546875 0.22332763671875
28.41 0.06036376953125 0.2256927490234375 0.03220367431640625 0.07442092895507812 0.02944183349609375 0.07368087768554688 0.0467529296875 0.220703125
28.41875 0.065399169921875 0.2218170166015625 0.03528594970703125 0.07262039184570312 0.03281402587890625 0.07291412353515625 0.0528411865234375 0.217559814453125
28.4275 0.0701904296875 0.2176513671875 0.038379669189453125 0.07117843627929688 0.036663055419921875 0.07176971435546875 0.0587615966796875 0.214111328125
28.43625 0.0748138427734375 0.2132415771484375 0.041744232177734375 0.06941986083984375 0.0407867431640625 0.07042312622070312 0.06427001953125 0.2108306884765625
28.445 0.079132080078125 0.2086181640625 0.04505157470703125 0.06726455688476562 0.0450286865234375 0.06847381591796875 0.0697479248046875 0.20721435546875
28.45375 0.08349609375 0.203948974609375 0.04848480224609375 0.06500625610351562 0.048954010009765625 0.06587982177734375 0.07501220703125 0.2033233642578125
28.4625 0.0877685546875 0.199249267578125 0.051853179931640625 0.06235504150390625 0.0523681640625 0.06284332275390625 0.079803466796875 0.19921875
28.47125 0.092041015625 0.1938934326171875 0.05487823486328125 0.059467315673828125 0.05572509765625 0.059474945068359375 0.0840911865234375 0.1944580078125
28.48 0.0957489013671875 0.1888580322265625 0.057788848876953125 0.056438446044921875 0.05876922607421875 0.056125640869140625 0.088226318359375 0.1898040771484375
28.48875 0.098876953125 0.1839752197265625 0.06046295166015625 0.05298614501953125 0.06125640869140625 0.052448272705078125 0.0924835205078125 0.184967041015625
28.4975 0.1020050048828125 0.17901611328125 0.06262588500976562 0.049602508544921875 0.06330108642578125 0.0489349365234375 0.095672607421875 0.1798553466796875
28.50625 0.104766845703125 0.173736572265625 0.06475830078125 0.0464935302734375 0.06510162353515625 0.0452423095703125 0.09881591796875 0.173919677734375
28.515 0.1070556640625 0.16827392578125 0.066650390625 0.04320526123046875 0.06685638427734375 0.04183197021484375 0.10205078125 0.16839599609375
28.52375 0.10888671875 0.163360595703125 0.068511962890625 0.04003143310546875 0.06833648681640625 0.038482666015625 0.104644775390625 0.162261962890625
28.5325 0.110321044921875 0.15771484375 0.07030487060546875 0.0366058349609375 0.06969451904296875 0.03522491455078125 0.10675048828125 0.1561279296875
