!Created with skrf (http://scikit-rf.org).
# GHz S RI R 50.0 
!freq ReS11 ImS11 ReS21 ImS21 ReS12 ImS12 ReS22 ImS22
27.5 -0.00676727294921875 0.12764739990234375 -0.008355140686035156 0.0017905235290527344 -0.008322715759277344 0.0015816688537597656 0.0030517578125 0.15186309814453125
27.50875 -0.00568389892578125 0.12277984619140625 -0.007965564727783203 0.0021715164184570312 -0.008103370666503906 0.0022640228271484375 0.00782012939453125 0.14684295654296875
27.5175 -0.004726409912109375 0.11806869506835938 -0.007624387741088867 0.002878904342651367 -0.007782936096191406 0.00270843505859375 0.0120697021484375 0.14154052734375
27.52625 -0.004161834716796875 0.11314010620117188 -0.007307291030883789 0.003307342529296875 -0.007374286651611328 0.0031936168670654297 0.0161285400390625 0.13658905029296875
27.535 -0.00408935546875 0.1078338623046875 -0.0069122314453125 0.0037102699279785156 -0.006989955902099609 0.0037255287170410156 0.01971435546875 0.130889892578125
27.54375 -0.004241943359375 0.10320281982421875 -0.006438255310058594 0.004014015197753906 -0.006542205810546875 0.003970623016357422 0.0228424072265625 0.12548828125
27.5525 -0.00469970703125 0.098358154296875 -0.0063114166259765625 0.004208564758300781 -0.006170749664306641 0.0041522979736328125 0.02571868896484375 0.1197967529296875
27.56125 -0.00554656982421875 0.0937042236328125 -0.0059773921966552734 0.004471540451049805 -0.0059435367584228516 0.004500865936279297 0.02841949462890625 0.1139678955078125
27.57 -0.00688934326171875 0.0889892578125 -0.005580425262451172 0.004760026931762695 -0.0056264400482177734 0.004723072052001953 0.0303955078125 0.1078643798828125
27.57875 -0.008800506591796875 0.08470535278320312 -0.005507230758666992 0.005060672760009766 -0.005428791046142578 0.004895687103271484 0.0324859619140625 0.1020660400390625
27.5875 -0.01078033447265625 0.08062362670898438 -0.005300760269165039 0.005263566970825195 -0.005228281021118164 0.00526738166809082 0.03368377685546875 0.09597015380859375
27.59625 -0.01311492919921875 0.07667922973632812 -0.0051097869873046875 0.0056841373443603516 -0.005013227462768555 0.005578041076660156 0.03469085693359375 0.090118408203125
27.605 -0.015583038330078125 0.07274246215820312 -0.004766941070556641 0.00599980354309082 -0.004599571228027344 0.00590205192565918 0.03517913818359375 0.08404541015625
27.61375 -0.018619537353515625 0.06903457641601562 -0.0043756961822509766 0.006401777267456055 -0.0042111873626708984 0.006193876266479492 0.03562164306640625 0.07798004150390625
27.6225 -0.021686553955078125 0.06586074829101562 -0.0039043426513671875 0.006767749786376953 -0.0038139820098876953 0.006650686264038086 0.035610198974609375 0.07182693481445312
27.63125 -0.025058746337890625 0.06258773803710938 -0.003214120864868164 0.007102012634277344 -0.003290414810180664 0.006854057312011719 0.035369873046875 0.06591796875
27.64 -0.028661727905273438 0.05981254577636719 -0.002874135971069336 0.007260322570800781 -0.002724885940551758 0.006977081298828125 0.03472900390625 0.059688568115234375
27.64875 -0.0323944091796875 0.05744743347167969 -0.002523660659790039 0.00741267204284668 -0.0023970603942871094 0.007124900817871094 0.03366851806640625 0.053920745849609375
27.6575 -0.03583526611328125 0.055171966552734375 -0.001893758773803711 0.007651090621948242 -0.0018672943115234375 0.007485866546630859 0.0321807861328125 0.04815673828125
27.66625 -0.0399017333984375 0.05275535583496094 -0.0013475418090820312 0.007903575897216797 -0.0013837814331054688 0.007665395736694336 0.030239105224609375 0.042636871337890625
27.675 -0.044078826904296875 0.050872802734375 -0.0006361007690429688 0.007944107055664062 -0.0006561279296875 0.00788116455078125 0.02796173095703125 0.03717041015625
27.68375 -0.0482330322265625 0.04923057556152344 0.00017404556274414062 0.007955074310302734 8.440017700195312e-05 0.00784921646118164 0.025264739990234375 0.03203773498535156
27.6925 -0.052501678466796875 0.047817230224609375 0.0008077621459960938 0.007622718811035156 0.0005731582641601562 0.007618904113769531 0.02236175537109375 0.02701568603515625
27.70125 -0.056934356689453125 0.046840667724609375 0.0013341903686523438 0.007510185241699219 0.0012645721435546875 0.007536888122558594 0.018970489501953125 0.0222320556640625
27.71 -0.06151580810546875 0.04618263244628906 0.0018582344055175781 0.007268428802490234 0.001590728759765625 0.007273197174072266 0.014928817749023438 0.017816543579101562
27.71875 -0.066070556640625 0.045597076416015625 0.0021462440490722656 0.007000923156738281 0.0021872520446777344 0.007110118865966797 0.010939598083496094 0.013576507568359375
27.7275 -0.07073593139648438 0.045566558837890625 0.0026645660400390625 0.006759166717529297 0.002704620361328125 0.006669521331787109 0.006413459777832031 0.009731292724609375
27.73625 -0.07555770874023438 0.04619598388671875 0.0031280517578125 0.00634765625 0.003085613250732422 0.006519317626953125 0.0017778873443603516 0.006021738052368164
27.745 -0.08035659790039062 0.0469818115234375 0.0035676956176757812 0.006234645843505859 0.003593921661376953 0.006122112274169922 -0.0030080080032348633 0.0025811195373535156
27.75375 -0.08504867553710938 0.04852294921875 0.0037860870361328125 0.005799770355224609 0.0038547515869140625 0.005804538726806641 -0.008105754852294922 -0.0004944801330566406
27.7625 -0.08960342407226562 0.050052642822265625 0.004210948944091797 0.005458831787109375 0.004180908203125 0.005537986755371094 -0.013422012329101562 -0.00342559814453125
27.77125 -0.0943756103515625 0.0523529052734375 0.004446506500244141 0.0051116943359375 0.004505634307861328 0.005093574523925781 -0.0189971923828125 -0.0060138702392578125
27.78 -0.09879302978515625 0.05472564697265625 0.004668712615966797 0.004873752593994141 0.004919528961181641 0.004759311676025391 -0.024427413940429688 -0.007904052734375
27.78875 -0.10336685180664062 0.057476043701171875 0.004974365234375 0.004542350769042969 0.005159854888916016 0.00453948974609375 -0.030206680297851562 -0.009616851806640625
27.7975 -0.10744476318359375 0.060516357421875 0.005233287811279297 0.004143714904785156 0.005340099334716797 0.00415802001953125 -0.036014556884765625 -0.011285781860351562
27.80625 -0.11153030395507812 0.06376266479492188 0.005603790283203125 0.003872394561767578 0.005664348602294922 0.00374603271484375 -0.04178619384765625 -0.012300491333007812
27.815 -0.11582183837890625 0.0677337646484375 0.0057811737060546875 0.0032596588134765625 0.00591278076171875 0.0032167434692382812 -0.047607421875 -0.013378143310546875
27.82375 -0.11943817138671875 0.0714874267578125 0.005930900573730469 0.0028285980224609375 0.006058692932128906 0.0026731491088867188 -0.05338287353515625 -0.0139312744140625
27.8325 -0.12294387817382812 0.075347900390625 0.005871772766113281 0.002471446990966797 0.005877017974853516 0.0023975372314453125 -0.059600830078125 -0.013607025146484375
27.84125 -0.12654876708984375 0.07962799072265625 0.006085872650146484 0.0019979476928710938 0.0059795379638671875 0.002071857452392578 -0.06539154052734375 -0.012969970703125
27.85 -0.12996673583984375 0.0839996337890625 0.006256103515625 0.0016489028930664062 0.006091594696044922 0.0016028881072998047 -0.07112884521484375 -0.0124359130859375
27.85875 -0.13312530517578125 0.0885162353515625 0.006238222122192383 0.0009560585021972656 0.006216287612915039 0.001131296157836914 -0.07706832885742188 -0.01107025146484375
27.8675 -0.1357421875 0.093536376953125 0.006234645843505859 0.0005576610565185547 0.0061304569244384766 0.0005929470062255859 -0.08292388916015625 -0.009490966796875
27.87625 -0.13816070556640625 0.09850311279296875 0.006122589111328125 5.14984130859375e-05 0.0060825347900390625 0.00016832351684570312 -0.08861160278320312 -0.007343292236328125
27.885 -0.14025115966796875 0.10382080078125 0.005988359451293945 -0.0002372264862060547 0.006062030792236328 -6.604194641113281e-05 -0.09395599365234375 -0.0050048828125
27.89375 -0.142059326171875 0.10901641845703125 0.006022930145263672 -0.0006198883056640625 0.0059967041015625 -0.0005304813385009766 -0.09968948364257812 -0.0017547607421875
27.9025 -0.14366912841796875 0.11466217041015625 0.00577855110168457 -0.0010089874267578125 0.006059885025024414 -0.0010001659393310547 -0.10512924194335938 0.001338958740234375
27.91125 -0.144683837890625 0.12042236328125 0.00576472282409668 -0.0012717247009277344 0.005815267562866211 -0.001291513442993164 -0.11025619506835938 0.004730224609375
27.92 -0.14508819580078125 0.1265411376953125 0.0055751800537109375 -0.0016069412231445312 0.005602598190307617 -0.0017521381378173828 -0.11537933349609375 0.008632659912109375
27.92875 -0.14495086669921875 0.13285064697265625 0.005187034606933594 -0.0019478797912597656 0.005356311798095703 -0.0021855831146240234 -0.12038803100585938 0.01280975341796875
27.9375 -0.14485931396484375 0.13898468017578125 0.004954338073730469 -0.002306699752807617 0.004987001419067383 -0.0023446083068847656 -0.12503814697265625 0.017425537109375
27.94625 -0.14444732666015625 0.14524078369140625 0.004659175872802734 -0.0024755001068115234 0.00477910041809082 -0.002300262451171875 -0.129364013671875 0.02211761474609375
27.955 -0.143463134765625 0.151214599609375 0.004689693450927734 -0.002502918243408203 0.004736423492431641 -0.002597808837890625 -0.1338348388671875 0.027130126953125
27.96375 -0.142486572265625 0.1573638916015625 0.004450321197509766 -0.0028276443481445312 0.0045659542083740234 -0.002728700637817383 -0.1378021240234375 0.03240203857421875
27.9725 -0.14107513427734375 0.1639404296875 0.004244089126586914 -0.0030655860900878906 0.00448155403137207 -0.0029489994049072266 -0.14130401611328125 0.0377197265625
27.98125 -0.1395263671875 0.17002105712890625 0.004167318344116211 -0.003283262252807617 0.00442051887512207 -0.0031461715698242188 -0.14463043212890625 0.04314422607421875
27.99 -0.1372222900390625 0.17626190185546875 0.0038976669311523438 -0.003484487533569336 0.004242897033691406 -0.003567218780517578 -0.14734649658203125 0.048797607421875
27.99875 -0.13531494140625 0.18172454833984375 0.0038270950317382812 -0.0036208629608154297 0.004076480865478516 -0.003906965255737305 -0.14990997314453125 0.0548248291015625
28.0075 -0.133056640625 0.18779754638671875 0.003645181655883789 -0.0038902759552001953 0.003744840621948242 -0.00419163703918457 -0.15227508544921875 0.0612335205078125
28.01625 -0.13019561767578125 0.19355010986328125 0.0034749507904052734 -0.004269599914550781 0.0033996105194091797 -0.004446983337402344 -0.15442657470703125 0.06729888916015625
28.025 -0.12728118896484375 0.1988677978515625 0.003122091293334961 -0.004586219787597656 0.0030765533447265625 -0.004814624786376953 -0.1555633544921875 0.07370758056640625
28.03375 -0.12395477294921875 0.20447540283203125 0.0027649402618408203 -0.004965543746948242 0.002488374710083008 -0.0050923824310302734 -0.1567535400390625 0.08048248291015625
28.0425 -0.12091827392578125 0.20977783203125 0.0021338462829589844 -0.005158662796020508 0.002157926559448242 -0.005011320114135742 -0.15740966796875 0.08748626708984375
28.05125 -0.1168212890625 0.2148284912109375 0.0016832351684570312 -0.0052089691162109375 0.0017461776733398438 -0.004978179931640625 -0.157806396484375 0.094329833984375
28.06 -0.1129608154296875 0.2199249267578125 0.001257181167602539 -0.005138397216796875 0.0012919902801513672 -0.0049855709075927734 -0.15801239013671875 0.1011962890625
28.06875 -0.1083221435546875 0.2244415283203125 0.0009200572967529297 -0.0051250457763671875 0.0012328624725341797 -0.004901409149169922 -0.1577606201171875 0.10814666748046875
28.0775 -0.10356903076171875 0.22895050048828125 0.00045180320739746094 -0.004943132400512695 0.0008096694946289062 -0.004845857620239258 -0.15691375732421875 0.11528778076171875
28.08625 -0.09857177734375 0.23358917236328125 0.0001671314239501953 -0.004870891571044922 0.0004444122314453125 -0.004858255386352539 -0.155975341796875 0.12225341796875
28.095 -0.09352874755859375 0.23790740966796875 -7.3909759521484375e-06 -0.004633903503417969 0.0001652240753173828 -0.004751443862915039 -0.15447998046875 0.129119873046875
28.10375 -0.08798980712890625 0.24188995361328125 -8.96453857421875e-05 -0.004608869552612305 -0.00015163421630859375 -0.00489354133605957 -0.1529388427734375 0.135955810546875
28.1125 -0.08172607421875 0.24554443359375 -0.0004684925079345703 -0.004570722579956055 -0.0004558563232421875 -0.0048215389251708984 -0.15065765380859375 0.1425323486328125
28.12125 -0.075775146484375 0.24908447265625 -0.0005669593811035156 -0.004338979721069336 -0.0007045269012451172 -0.0045320987701416016 -0.1486968994140625 0.14948272705078125
28.13 -0.0695953369140625 0.25213623046875 -0.0007276535034179688 -0.004292726516723633 -0.0009458065032958984 -0.0043675899505615234 -0.1458587646484375 0.15563201904296875
28.13875 -0.0631866455078125 0.2552947998046875 -0.0007920265197753906 -0.004226207733154297 -0.0010423660278320312 -0.004256725311279297 -0.14264678955078125 0.16229248046875
28.1475 -0.056640625 0.2581024169921875 -0.0010673999786376953 -0.004477262496948242 -0.0011279582977294922 -0.004322052001953125 -0.1392669677734375 0.167938232421875
28.15625 -0.050140380859375 0.26031494140625 -0.0013194084167480469 -0.0042877197265625 -0.001373291015625 -0.00414276123046875 -0.135528564453125 0.1738433837890625
28.165 -0.04364013671875 0.26239013671875 -0.0016446113586425781 -0.004039764404296875 -0.0016193389892578125 -0.003913402557373047 -0.13153076171875 0.1799163818359375
28.17375 -0.0372161865234375 0.2636566162109375 -0.0015940666198730469 -0.003915071487426758 -0.0016074180603027344 -0.003814697265625 -0.127044677734375 0.18560028076171875
28.1825 -0.0309600830078125 0.2648468017578125 -0.001667022705078125 -0.0037834644317626953 -0.0016777515411376953 -0.0038340091705322266 -0.12248992919921875 0.1910247802734375
28.19125 -0.0245361328125 0.266510009765625 -0.0017592906951904297 -0.003810405731201172 -0.0017714500427246094 -0.0038678646087646484 -0.11757659912109375 0.19589996337890625
28.2 -0.0177154541015625 0.267059326171875 -0.001981496810913086 -0.003936290740966797 -0.001961231231689453 -0.004016876220703125 -0.11175537109375 0.20073699951171875
28.20875 -0.0107421875 0.268310546875 -0.0023453235626220703 -0.0038805007934570312 -0.002345561981201172 -0.004012584686279297 -0.10614013671875 0.20543670654296875
28.2175 -0.003997802734375 0.2684326171875 -0.002791881561279297 -0.0037522315979003906 -0.0027544498443603516 -0.0036733150482177734 -0.10039520263671875 0.20989990234375
28.22625 0.00262451171875 0.2678985595703125 -0.003036975860595703 -0.0034036636352539062 -0.003122568130493164 -0.003513336181640625 -0.0946044921875 0.21407318115234375
28.235 0.0089569091796875 0.2671966552734375 -0.003136157989501953 -0.0033111572265625 -0.0032613277435302734 -0.003185749053955078 -0.08789825439453125 0.21799468994140625
28.24375 0.015228271484375 0.265838623046875 -0.0031249523162841797 -0.0029630661010742188 -0.0033016204833984375 -0.002880573272705078 -0.08139801025390625 0.221588134765625
28.2525 0.0218353271484375 0.2649993896484375 -0.003408193588256836 -0.002898693084716797 -0.0033731460571289062 -0.0027778148651123047 -0.0746917724609375 0.22469329833984375
28.26125 0.0278472900390625 0.2632904052734375 -0.003582477569580078 -0.0028502941131591797 -0.0033941268920898438 -0.002630472183227539 -0.068145751953125 0.2277679443359375
28.27 0.0345916748046875 0.261505126953125 -0.0038700103759765625 -0.0026175975799560547 -0.0035254955291748047 -0.0024628639221191406 -0.06172943115234375 0.22995758056640625
28.27875 0.040863037109375 0.25921630859375 -0.004084587097167969 -0.0021982192993164062 -0.003654956817626953 -0.0021805763244628906 -0.0550537109375 0.23248291015625
28.2875 0.046661376953125 0.256561279296875 -0.004210948944091797 -0.0016617774963378906 -0.0038094520568847656 -0.0018935203552246094 -0.0484619140625 0.2339630126953125
28.29625 0.0528717041015625 0.2537841796875 -0.003804922103881836 -0.0014414787292480469 -0.0038001537322998047 -0.0015883445739746094 -0.04157257080078125 0.23616790771484375
28.305 0.0585174560546875 0.251007080078125 -0.003731250762939453 -0.001306772232055664 -0.0038368701934814453 -0.0015518665313720703 -0.034820556640625 0.23706817626953125
28.31375 0.0639801025390625 0.2481536865234375 -0.003766775131225586 -0.001336812973022461 -0.00377655029296875 -0.0015130043029785156 -0.02774810791015625 0.23780059814453125
28.3225 0.0696868896484375 0.2447662353515625 -0.0038099288940429688 -0.0013628005981445312 -0.003975391387939453 -0.0014607906341552734 -0.02108001708984375 0.23822021484375
28.33125 0.0749359130859375 0.2415771484375 -0.0038442611694335938 -0.0012178421020507812 -0.004217624664306641 -0.0012221336364746094 -0.01422882080078125 0.2380523681640625
28.34 0.080108642578125 0.2370452880859375 -0.004228353500366211 -0.001107931137084961 -0.004396200180053711 -0.0008237361907958984 -0.00756072998046875 0.23775482177734375
28.34875 0.0844268798828125 0.233062744140625 -0.004337310791015625 -0.0008065700531005859 -0.004423379898071289 -0.0005247592926025391 -0.00055694580078125 0.23723602294921875
28.3575 0.0887908935546875 0.2286529541015625 -0.00427556037902832 -0.0004258155822753906 -0.004363298416137695 -8.845329284667969e-05 0.00656890869140625 0.236236572265625
28.36625 0.0928192138671875 0.22467041015625 -0.004258871078491211 -0.00037097930908203125 -0.0040509700775146484 -3.4332275390625e-05 0.0131988525390625 0.234893798828125
28.375 0.096893310546875 0.2200164794921875 -0.004227638244628906 -0.0002987384796142578 -0.0040128231048583984 2.0742416381835938e-05 0.0201873779296875 0.2327117919921875
28.38375 0.100555419921875 0.215118408203125 -0.00423431396484375 -0.00018358230590820312 -0.004122257232666016 -2.86102294921875e-05 0.02691650390625 0.23089599609375
28.3925 0.103515625 0.209686279296875 -0.004673004150390625 0.00018644332885742188 -0.0043697357177734375 9.1552734375e-05 0.033416748046875 0.228179931640625
28.40125 0.1070556640625 0.20458984375 -0.004450321197509766 0.0004608631134033203 -0.004392385482788086 0.000457763671875 0.0399627685546875 0.22528076171875
28.41 0.10943603515625 0.19873046875 -0.004342555999755859 0.0008056163787841797 -0.004357099533081055 0.0005159378051757812 0.0458526611328125 0.2225494384765625
28.41875 0.1112518310546875 0.193206787109375 -0.004425525665283203 0.0008251667022705078 -0.004328012466430664 0.0008108615875244141 0.0521087646484375 0.219390869140625
28.4275 0.1134490966796875 0.1876373291015625 -0.004336118698120117 0.0009927749633789062 -0.0043828487396240234 0.0009562969207763672 0.0581207275390625 0.2159423828125
28.43625 0.115020751953125 0.181854248046875 -0.004251956939697266 0.0011677742004394531 -0.004389286041259766 0.0011048316955566406 0.0637664794921875 0.2121429443359375
28.445 0.1167144775390625 0.1765289306640625 -0.004421710968017578 0.0013437271118164062 -0.004370450973510742 0.0014376640319824219 0.0690765380859375 0.2080841064453125
28.45375 0.1181793212890625 0.1707000732421875 -0.004482746124267578 0.001615285873413086 -0.004481315612792969 0.0016241073608398438 0.073944091796875 0.203887939453125
28.4625 0.1188507080078125 0.1648712158203125 -0.00457310676574707 0.001983642578125 -0.004583835601806641 0.002245187759399414 0.0785064697265625 0.1994476318359375
28.47125 0.119537353515625 0.1589202880859375 -0.004536867141723633 0.002489328384399414 -0.004433870315551758 0.0025146007537841797 0.08270263671875 0.1945953369140625
28.48 0.11956787109375 0.1534271240234375 -0.004312992095947266 0.002927541732788086 -0.004239320755004883 0.0029137134552001953 0.0867156982421875 0.19012451171875
28.48875 0.1190032958984375 0.148468017578125 -0.004063844680786133 0.0030317306518554688 -0.0038748979568481445 0.003030538558959961 0.09075927734375 0.185333251953125
28.4975 0.118865966796875 0.14373779296875 -0.0038537979125976562 0.002953052520751953 -0.0037147998809814453 0.0031058788299560547 0.09423828125 0.18017578125
