!Created with skrf (http://scikit-rf.org).
# GHz S RI R 50.0 
!freq ReS11 ImS11 ReS21 ImS21 ReS12 ImS12 ReS22 ImS22
27.5 -0.00675201416015625 0.12722015380859375 0.02537059783935547 -0.014254570007324219 0.025343894958496094 -0.013947486877441406 -0.03371429443359375 0.20058441162109375
27.50875 -0.0056610107421875 0.12201690673828125 0.024168968200683594 -0.015941619873046875 0.024526596069335938 -0.015654563903808594 -0.02752685546875 0.197113037109375
27.5175 -0.004772186279296875 0.11716842651367188 0.02293109893798828 -0.017020225524902344 0.023488998413085938 -0.01694774627685547 -0.02150726318359375 0.19324493408203125
27.52625 -0.0042877197265625 0.11220550537109375 0.021955490112304688 -0.018256187438964844 0.02245044708251953 -0.018589019775390625 -0.01563262939453125 0.1892852783203125
27.535 -0.00434112548828125 0.1071929931640625 0.020826339721679688 -0.019124984741210938 0.02118682861328125 -0.019784927368164062 -0.0100555419921875 0.1850433349609375
27.54375 -0.00458526611328125 0.10276031494140625 0.019712448120117188 -0.019983291625976562 0.019908905029296875 -0.020666122436523438 -0.0053558349609375 0.180511474609375
27.5525 -0.00498199462890625 0.09798431396484375 0.018883705139160156 -0.020989418029785156 0.018729209899902344 -0.021640777587890625 -0.00035858154296875 0.17581939697265625
27.56125 -0.005901336669921875 0.09328842163085938 0.017778396606445312 -0.022043228149414062 0.017624855041503906 -0.02272510528564453 0.00411224365234375 0.17084503173828125
27.57 -0.007274627685546875 0.08887100219726562 0.016860008239746094 -0.023201942443847656 0.016284942626953125 -0.023603439331054688 0.00809478759765625 0.16555023193359375
27.57875 -0.0090789794921875 0.08466720581054688 0.0156707763671875 -0.02423858642578125 0.015028953552246094 -0.024473190307617188 0.01180267333984375 0.16037750244140625
27.5875 -0.010982513427734375 0.08068466186523438 0.01435089111328125 -0.02502918243408203 0.013776779174804688 -0.025200843811035156 0.01520538330078125 0.1549835205078125
27.59625 -0.013427734375 0.07675933837890625 0.013093948364257812 -0.02611827850341797 0.012463569641113281 -0.02584552764892578 0.0185546875 0.149627685546875
27.605 -0.016101837158203125 0.07305908203125 0.011454582214355469 -0.0271759033203125 0.011087417602539062 -0.026719093322753906 0.02105712890625 0.14357757568359375
27.61375 -0.018840789794921875 0.0696868896484375 0.009795188903808594 -0.02785778045654297 0.009611129760742188 -0.027439117431640625 0.02358245849609375 0.13759613037109375
27.6225 -0.021968841552734375 0.06625747680664062 0.008151054382324219 -0.02834320068359375 0.008051872253417969 -0.027849197387695312 0.02545928955078125 0.13195037841796875
27.63125 -0.025238037109375 0.06305313110351562 0.00634002685546875 -0.02891826629638672 0.006554603576660156 -0.028514862060546875 0.027191162109375 0.12575531005859375
27.64 -0.028844833374023438 0.06033134460449219 0.00472259521484375 -0.02924823760986328 0.004868507385253906 -0.02884960174560547 0.02862548828125 0.11965179443359375
27.64875 -0.032741546630859375 0.05788230895996094 0.002925872802734375 -0.029356002807617188 0.003269195556640625 -0.02924346923828125 0.0293121337890625 0.11383056640625
27.6575 -0.03617095947265625 0.055477142333984375 0.001422882080078125 -0.02939605712890625 0.0016393661499023438 -0.02934551239013672 0.0300140380859375 0.10803985595703125
27.66625 -0.04015350341796875 0.052936553955078125 -0.000247955322265625 -0.029476165771484375 6.866455078125e-05 -0.02950572967529297 0.03041839599609375 0.102294921875
27.675 -0.044269561767578125 0.05091285705566406 -0.0019359588623046875 -0.029541015625 -0.0017871856689453125 -0.029605865478515625 0.03009796142578125 0.0965423583984375
27.68375 -0.04840278625488281 0.04913139343261719 -0.0035762786865234375 -0.029344558715820312 -0.0034465789794921875 -0.0294647216796875 0.0294952392578125 0.09073638916015625
27.6925 -0.052825927734375 0.047679901123046875 -0.005458831787109375 -0.0289306640625 -0.005268096923828125 -0.02927398681640625 0.02852630615234375 0.085113525390625
27.70125 -0.0569915771484375 0.046360015869140625 -0.0068511962890625 -0.0285797119140625 -0.00698089599609375 -0.028835296630859375 0.0269012451171875 0.07970428466796875
27.71 -0.061649322509765625 0.04566001892089844 -0.0086669921875 -0.02813720703125 -0.008684158325195312 -0.028423309326171875 0.025020599365234375 0.07439804077148438
27.71875 -0.06612777709960938 0.045566558837890625 -0.010156631469726562 -0.027452468872070312 -0.010213851928710938 -0.027605056762695312 0.02271270751953125 0.069366455078125
27.7275 -0.07085800170898438 0.04566192626953125 -0.011486053466796875 -0.02658843994140625 -0.011510848999023438 -0.026798248291015625 0.019924163818359375 0.06466293334960938
27.73625 -0.07558059692382812 0.0461273193359375 -0.012836456298828125 -0.0260772705078125 -0.012861251831054688 -0.026123046875 0.017276763916015625 0.05974578857421875
27.745 -0.08015823364257812 0.04683685302734375 -0.01432037353515625 -0.025384902954101562 -0.01422119140625 -0.025470733642578125 0.01413726806640625 0.05525970458984375
27.75375 -0.08490371704101562 0.048614501953125 -0.01567840576171875 -0.024608612060546875 -0.01551055908203125 -0.024667739868164062 0.010705947875976562 0.051067352294921875
27.7625 -0.0894012451171875 0.050075531005859375 -0.017023086547851562 -0.0237274169921875 -0.016925811767578125 -0.023813247680664062 0.00659942626953125 0.04691314697265625
27.77125 -0.09422683715820312 0.052127838134765625 -0.01827239990234375 -0.022703170776367188 -0.018001556396484375 -0.022983551025390625 0.002536773681640625 0.043247222900390625
27.78 -0.09889984130859375 0.05483245849609375 -0.019344329833984375 -0.0216827392578125 -0.019378662109375 -0.02191925048828125 -0.0015125274658203125 0.039897918701171875
27.78875 -0.103485107421875 0.057849884033203125 -0.020488739013671875 -0.020780563354492188 -0.020725250244140625 -0.020959854125976562 -0.0061492919921875 0.0366058349609375
27.7975 -0.10773849487304688 0.06072235107421875 -0.021709442138671875 -0.019548416137695312 -0.021863937377929688 -0.019775390625 -0.010599136352539062 0.03359222412109375
27.80625 -0.11207962036132812 0.06408309936523438 -0.022741317749023438 -0.018495559692382812 -0.022932052612304688 -0.018545150756835938 -0.015369415283203125 0.031162261962890625
27.815 -0.11623382568359375 0.06824111938476562 -0.02362823486328125 -0.017374038696289062 -0.023939132690429688 -0.017122268676757812 -0.020279884338378906 0.02853870391845703
27.82375 -0.1200103759765625 0.07190704345703125 -0.0247650146484375 -0.0159149169921875 -0.024932861328125 -0.0157012939453125 -0.025089263916015625 0.02667999267578125
27.8325 -0.12337493896484375 0.07586288452148438 -0.025636672973632812 -0.01470184326171875 -0.025577545166015625 -0.014230728149414062 -0.030338287353515625 0.025307655334472656
27.84125 -0.1269989013671875 0.08025360107421875 -0.026601791381835938 -0.013164520263671875 -0.026292800903320312 -0.012905120849609375 -0.035427093505859375 0.023977279663085938
27.85 -0.1302337646484375 0.084564208984375 -0.027265548706054688 -0.0117034912109375 -0.02680206298828125 -0.01141357421875 -0.040821075439453125 0.023128509521484375
27.85875 -0.13311004638671875 0.08939361572265625 -0.027784347534179688 -0.010181427001953125 -0.027368545532226562 -0.010244369506835938 -0.04630088806152344 0.023065567016601562
27.8675 -0.1353759765625 0.093963623046875 -0.02838134765625 -0.008575439453125 -0.028036117553710938 -0.008985519409179688 -0.05145263671875 0.022840499877929688
27.87625 -0.13771820068359375 0.09867095947265625 -0.028949737548828125 -0.007068634033203125 -0.028751373291015625 -0.0076313018798828125 -0.05674934387207031 0.023317337036132812
27.885 -0.13990020751953125 0.104095458984375 -0.029285430908203125 -0.0054492950439453125 -0.029592514038085938 -0.0060329437255859375 -0.062129974365234375 0.024066925048828125
27.89375 -0.1414794921875 0.10948944091796875 -0.029726028442382812 -0.00354766845703125 -0.03012847900390625 -0.0041904449462890625 -0.06750106811523438 0.02512359619140625
27.9025 -0.14266204833984375 0.114715576171875 -0.02988433837890625 -0.0019741058349609375 -0.03057861328125 -0.002262115478515625 -0.07305908203125 0.02645111083984375
27.91125 -0.14363861083984375 0.12066650390625 -0.02994251251220703 -0.00022983551025390625 -0.03064727783203125 -0.0002040863037109375 -0.0785369873046875 0.02826690673828125
27.92 -0.14398956298828125 0.1264495849609375 -0.02996540069580078 0.0015783309936523438 -0.03052997589111328 0.0018777847290039062 -0.0838623046875 0.03061676025390625
27.92875 -0.14426422119140625 0.13245391845703125 -0.029793739318847656 0.0035257339477539062 -0.030175209045410156 0.0039310455322265625 -0.08898162841796875 0.033153533935546875
27.9375 -0.14395904541015625 0.13857269287109375 -0.029485702514648438 0.005154609680175781 -0.029485702514648438 0.0054912567138671875 -0.09417343139648438 0.036434173583984375
27.94625 -0.14394378662109375 0.1448211669921875 -0.028963088989257812 0.006793022155761719 -0.02893352508544922 0.007090568542480469 -0.09913253784179688 0.039638519287109375
27.955 -0.1429290771484375 0.151153564453125 -0.028230667114257812 0.008455276489257812 -0.028516769409179688 0.00858306884765625 -0.10388946533203125 0.0433349609375
27.96375 -0.14208984375 0.15721893310546875 -0.027645111083984375 0.010041236877441406 -0.027830123901367188 0.009874343872070312 -0.10847854614257812 0.04715728759765625
27.9725 -0.1407928466796875 0.163604736328125 -0.026793479919433594 0.011366844177246094 -0.02740764617919922 0.011350631713867188 -0.1125030517578125 0.051273345947265625
27.98125 -0.13959503173828125 0.16962432861328125 -0.025943756103515625 0.012442588806152344 -0.026778221130371094 0.012666702270507812 -0.11674880981445312 0.055492401123046875
27.99 -0.13767242431640625 0.17563629150390625 -0.025453567504882812 0.013698577880859375 -0.026096343994140625 0.014414787292480469 -0.12006759643554688 0.06053924560546875
27.99875 -0.1354522705078125 0.18158721923828125 -0.02478313446044922 0.014935493469238281 -0.025435447692871094 0.016043663024902344 -0.12339019775390625 0.06526947021484375
28.0075 -0.1332855224609375 0.1875457763671875 -0.024234771728515625 0.016435623168945312 -0.024366378784179688 0.017858505249023438 -0.1263885498046875 0.070648193359375
28.01625 -0.13055419921875 0.19350433349609375 -0.02352142333984375 0.01784038543701172 -0.023140907287597656 0.019410133361816406 -0.1291656494140625 0.075958251953125
28.025 -0.12786102294921875 0.19901275634765625 -0.022434234619140625 0.019486427307128906 -0.021483421325683594 0.02069854736328125 -0.13149261474609375 0.0812530517578125
28.03375 -0.12447357177734375 0.20489501953125 -0.02117919921875 0.020964622497558594 -0.019880294799804688 0.021707534790039062 -0.13348388671875 0.0872039794921875
28.0425 -0.1208038330078125 0.2096710205078125 -0.01971435546875 0.022186279296875 -0.018207550048828125 0.022165298461914062 -0.1351470947265625 0.0934906005859375
28.05125 -0.1171112060546875 0.21484375 -0.018178939819335938 0.023077011108398438 -0.016908645629882812 0.022459030151367188 -0.1365203857421875 0.0995330810546875
28.06 -0.113311767578125 0.21974945068359375 -0.01661205291748047 0.023917198181152344 -0.015854835510253906 0.022924423217773438 -0.13748931884765625 0.10591888427734375
28.06875 -0.10852813720703125 0.22434234619140625 -0.015132904052734375 0.02454853057861328 -0.015130996704101562 0.02341938018798828 -0.13816070556640625 0.1122283935546875
28.0775 -0.1034393310546875 0.2293243408203125 -0.013617515563964844 0.02503681182861328 -0.014345169067382812 0.024251937866210938 -0.13852691650390625 0.11872100830078125
28.08625 -0.09830474853515625 0.233551025390625 -0.012338638305664062 0.02545928955078125 -0.013627052307128906 0.025293350219726562 -0.138671875 0.12529754638671875
28.095 -0.09314727783203125 0.2379608154296875 -0.011149406433105469 0.025812149047851562 -0.012462615966796875 0.026595115661621094 -0.13816070556640625 0.1319580078125
28.10375 -0.0874786376953125 0.24178314208984375 -0.009995460510253906 0.0265655517578125 -0.010639190673828125 0.02777385711669922 -0.137786865234375 0.13835906982421875
28.1125 -0.0814208984375 0.2453460693359375 -0.008691787719726562 0.02713489532470703 -0.008624076843261719 0.028604507446289062 -0.13663482666015625 0.1446533203125
28.12125 -0.0756378173828125 0.2491607666015625 -0.007412910461425781 0.027618408203125 -0.006497383117675781 0.02906322479248047 -0.1356658935546875 0.15145111083984375
28.13 -0.06915283203125 0.25225830078125 -0.005875587463378906 0.0281829833984375 -0.004239082336425781 0.029170989990234375 -0.13367462158203125 0.1577301025390625
28.13875 -0.0628204345703125 0.2552642822265625 -0.0042743682861328125 0.028594970703125 -0.0023374557495117188 0.029013633728027344 -0.1316070556640625 0.16464996337890625
28.1475 -0.05657958984375 0.258087158203125 -0.0022296905517578125 0.02875232696533203 -0.000659942626953125 0.028322219848632812 -0.12906646728515625 0.1700897216796875
28.15625 -0.04998779296875 0.26019287109375 -0.000606536865234375 0.028675079345703125 0.00070953369140625 0.027645111083984375 -0.126312255859375 0.1761016845703125
28.165 -0.043426513671875 0.262359619140625 0.0007991790771484375 0.028394699096679688 0.0016040802001953125 0.027252197265625 -0.1232147216796875 0.1823883056640625
28.17375 -0.0368499755859375 0.2637786865234375 0.0024251937866210938 0.028093338012695312 0.0025377273559570312 0.027099609375 -0.1201019287109375 0.1881561279296875
28.1825 -0.030487060546875 0.265045166015625 0.003826141357421875 0.027606964111328125 0.0034666061401367188 0.026947021484375 -0.11609649658203125 0.19394683837890625
28.19125 -0.02459716796875 0.266357421875 0.0047779083251953125 0.027240753173828125 0.004551887512207031 0.027129173278808594 -0.11228179931640625 0.19908905029296875
28.2 -0.0176849365234375 0.26715087890625 0.0058746337890625 0.027256011962890625 0.005703926086425781 0.02736186981201172 -0.10744476318359375 0.20421600341796875
28.20875 -0.0108642578125 0.267608642578125 0.0070552825927734375 0.027355194091796875 0.0073089599609375 0.02764892578125 -0.10282135009765625 0.20953369140625
28.2175 -0.00439453125 0.267913818359375 0.0086669921875 0.0273590087890625 0.009351730346679688 0.027606964111328125 -0.0979461669921875 0.21463775634765625
28.22625 0.001556396484375 0.267974853515625 0.01049041748046875 0.027276992797851562 0.011322021484375 0.027179718017578125 -0.09299468994140625 0.219390869140625
28.235 0.00848388671875 0.2672119140625 0.012414932250976562 0.026935577392578125 0.013238906860351562 0.026142120361328125 -0.0870208740234375 0.224151611328125
28.24375 0.0148773193359375 0.26605224609375 0.014448165893554688 0.02613067626953125 0.01500701904296875 0.024999618530273438 -0.081146240234375 0.2284088134765625
28.2525 0.0217437744140625 0.2652587890625 0.016208648681640625 0.025014877319335938 0.016309738159179688 0.023557662963867188 -0.07498931884765625 0.23236083984375
28.26125 0.0281524658203125 0.263458251953125 0.017791748046875 0.023555755615234375 0.017217636108398438 0.022314071655273438 -0.06915283203125 0.23632049560546875
28.27 0.03448486328125 0.261627197265625 0.019094467163085938 0.022121429443359375 0.018156051635742188 0.02120208740234375 -0.062835693359375 0.239501953125
28.27875 0.0411376953125 0.259674072265625 0.020111083984375 0.0204620361328125 0.01891326904296875 0.020263671875 -0.05645751953125 0.242889404296875
28.2875 0.047271728515625 0.257080078125 0.020725250244140625 0.018890380859375 0.0196533203125 0.019378662109375 -0.0499725341796875 0.244964599609375
28.29625 0.053741455078125 0.2543182373046875 0.020929336547851562 0.017637252807617188 0.020572662353515625 0.018512725830078125 -0.04325103759765625 0.2479095458984375
28.305 0.05963134765625 0.251373291015625 0.021348953247070312 0.016672134399414062 0.021533966064453125 0.01758575439453125 -0.036712646484375 0.2501068115234375
28.31375 0.065582275390625 0.2480621337890625 0.02196502685546875 0.016008377075195312 0.022668838500976562 0.016683578491210938 -0.0300445556640625 0.251251220703125
28.3225 0.0708160400390625 0.2443695068359375 0.022798538208007812 0.015260696411132812 0.023958206176757812 0.015512466430664062 -0.0233306884765625 0.252685546875
28.33125 0.0757598876953125 0.2408905029296875 0.023649215698242188 0.014413833618164062 0.024868011474609375 0.013988494873046875 -0.0166168212890625 0.2537689208984375
28.34 0.0806427001953125 0.2366790771484375 0.024784088134765625 0.01331329345703125 0.025676727294921875 0.012142181396484375 -0.00946044921875 0.2541961669921875
28.34875 0.0849151611328125 0.232757568359375 0.02579498291015625 0.011842727661132812 0.026149749755859375 0.010423660278320312 -0.0025482177734375 0.2544403076171875
28.3575 0.08953857421875 0.2283172607421875 0.026714324951171875 0.010417938232421875 0.0263214111328125 0.0088043212890625 0.0047454833984375 0.2538909912109375
28.36625 0.09320068359375 0.2236175537109375 0.027309417724609375 0.008691787719726562 0.026308059692382812 0.0074329376220703125 0.0113525390625 0.2537841796875
28.375 0.0970306396484375 0.2187347412109375 0.02759552001953125 0.0070285797119140625 0.0263214111328125 0.006420135498046875 0.01849365234375 0.252899169921875
28.38375 0.100250244140625 0.21392822265625 0.02803802490234375 0.005519866943359375 0.026691436767578125 0.0053558349609375 0.025390625 0.251953125
28.3925 0.103118896484375 0.208709716796875 0.02820587158203125 0.00372314453125 0.02698516845703125 0.0041065216064453125 0.032562255859375 0.250518798828125
28.40125 0.1061553955078125 0.203582763671875 0.028235435485839844 0.0020570755004882812 0.027284622192382812 0.0029277801513671875 0.0397186279296875 0.2484893798828125
28.41 0.1090240478515625 0.198089599609375 0.028108596801757812 0.0006103515625 0.027550697326660156 0.0016012191772460938 0.0461883544921875 0.24664306640625
28.41875 0.111053466796875 0.1925048828125 0.027991294860839844 -0.0006685256958007812 0.02800273895263672 0.0002460479736328125 0.05267333984375 0.244232177734375
28.4275 0.1131744384765625 0.186676025390625 0.027968406677246094 -0.0020875930786132812 0.02814769744873047 -0.001422882080078125 0.059173583984375 0.241546630859375
28.43625 0.114654541015625 0.1813507080078125 0.027967453002929688 -0.0034084320068359375 0.028288841247558594 -0.0031261444091796875 0.0653533935546875 0.2391510009765625
28.445 0.1162872314453125 0.17608642578125 0.027820587158203125 -0.005030632019042969 0.028299331665039062 -0.0048694610595703125 0.0718994140625 0.2361602783203125
28.45375 0.1176605224609375 0.1703338623046875 0.027666091918945312 -0.006615638732910156 0.02789783477783203 -0.006773948669433594 0.077880859375 0.2324981689453125
28.4625 0.1186981201171875 0.1646575927734375 0.027037620544433594 -0.008322715759277344 0.027215003967285156 -0.00846099853515625 0.0836181640625 0.22906494140625
28.47125 0.119049072265625 0.1590728759765625 0.026485443115234375 -0.009641647338867188 0.026409149169921875 -0.009904861450195312 0.0889129638671875 0.2245941162109375
28.48 0.1192474365234375 0.1537322998046875 0.02579784393310547 -0.010955810546875 0.025589942932128906 -0.011133193969726562 0.093841552734375 0.2204437255859375
28.48875 0.119110107421875 0.1486968994140625 0.025075912475585938 -0.012277603149414062 0.024956703186035156 -0.012540817260742188 0.098602294921875 0.2162933349609375
28.4975 0.118621826171875 0.144012451171875 0.024339675903320312 -0.01360321044921875 0.024179458618164062 -0.013820648193359375 0.1036376953125 0.211212158203125
28.50625 0.11767578125 0.13897705078125 0.023647308349609375 -0.01482391357421875 0.023160934448242188 -0.014995574951171875 0.10784912109375 0.206024169921875
28.515 0.1169891357421875 0.13421630859375 0.022672653198242188 -0.015851974487304688 0.022241592407226562 -0.015951156616210938 0.111968994140625 0.20062255859375
