!Created with skrf (http://scikit-rf.org).
# GHz S RI R 50.0 
!freq ReS11 ImS11 ReS21 ImS21 ReS12 ImS12 ReS22 ImS22
27.5 0.02646636962890625 0.1584320068359375 0.025722503662109375 -0.01679706573486328 0.025974273681640625 -0.01681232452392578 -0.03461456298828125 0.17655181884765625
27.50875 0.0306243896484375 0.15302276611328125 0.024369239807128906 -0.018523216247558594 0.02477264404296875 -0.01840686798095703 -0.03104400634765625 0.17157745361328125
27.5175 0.03450775146484375 0.1473388671875 0.022919654846191406 -0.01988697052001953 0.02332019805908203 -0.020143508911132812 -0.0280609130859375 0.166412353515625
27.52625 0.03824615478515625 0.1414794921875 0.02135467529296875 -0.020879745483398438 0.02168750762939453 -0.021445274353027344 -0.02542877197265625 0.16143798828125
27.535 0.0413360595703125 0.1352996826171875 0.020353317260742188 -0.021451950073242188 0.020242691040039062 -0.022157669067382812 -0.023040771484375 0.156402587890625
27.54375 0.04400634765625 0.1293792724609375 0.019159317016601562 -0.022363662719726562 0.018976211547851562 -0.023103713989257812 -0.021087646484375 0.151123046875
27.5525 0.04608154296875 0.12308502197265625 0.01819896697998047 -0.023344039916992188 0.01799488067626953 -0.024007797241210938 -0.01952362060546875 0.145721435546875
27.56125 0.04782867431640625 0.1170654296875 0.01707172393798828 -0.02455902099609375 0.016756057739257812 -0.025051116943359375 -0.01840972900390625 0.14011383056640625
27.57 0.04917144775390625 0.1112060546875 0.015869140625 -0.025557518005371094 0.015226364135742188 -0.026017189025878906 -0.0180816650390625 0.134796142578125
27.57875 0.0503387451171875 0.10506439208984375 0.014444351196289062 -0.02664470672607422 0.013920783996582031 -0.026918411254882812 -0.01735687255859375 0.12938690185546875
27.5875 0.0508575439453125 0.0990753173828125 0.012970924377441406 -0.027647018432617188 0.012470245361328125 -0.027662277221679688 -0.017749786376953125 0.12377166748046875
27.59625 0.050750732421875 0.092926025390625 0.011392593383789062 -0.028493881225585938 0.010884284973144531 -0.02840900421142578 -0.01816558837890625 0.11877059936523438
27.605 0.05025482177734375 0.08686065673828125 0.00963592529296875 -0.029201507568359375 0.009347915649414062 -0.029111862182617188 -0.01886749267578125 0.113616943359375
27.61375 0.0493927001953125 0.0810699462890625 0.007998466491699219 -0.02989673614501953 0.0074748992919921875 -0.029951095581054688 -0.019786834716796875 0.10832595825195312
27.6225 0.048675537109375 0.07529449462890625 0.006259918212890625 -0.030640602111816406 0.005784034729003906 -0.03041553497314453 -0.021205902099609375 0.10358810424804688
27.63125 0.0470733642578125 0.06949234008789062 0.0040531158447265625 -0.031101226806640625 0.003711700439453125 -0.030691146850585938 -0.022861480712890625 0.09897613525390625
27.64 0.04543304443359375 0.06343460083007812 0.002216339111328125 -0.031055450439453125 0.0018463134765625 -0.030651092529296875 -0.024566650390625 0.09466552734375
27.64875 0.04305267333984375 0.057743072509765625 0.00041484832763671875 -0.03100872039794922 0.00012493133544921875 -0.030562400817871094 -0.02675628662109375 0.09040451049804688
27.6575 0.040493011474609375 0.051860809326171875 -0.0013179779052734375 -0.030765533447265625 -0.001453399658203125 -0.03047943115234375 -0.029239654541015625 0.08671188354492188
27.66625 0.037387847900390625 0.046611785888671875 -0.0030975341796875 -0.030675888061523438 -0.0031375885009765625 -0.030210494995117188 -0.0321044921875 0.08306121826171875
27.675 0.03433990478515625 0.04158782958984375 -0.004764556884765625 -0.0303802490234375 -0.0048961639404296875 -0.030099868774414062 -0.03516387939453125 0.0798492431640625
27.68375 0.03118133544921875 0.03661346435546875 -0.00647735595703125 -0.02988433837890625 -0.006542205810546875 -0.029743194580078125 -0.0387420654296875 0.07727813720703125
27.6925 0.0274810791015625 0.03147125244140625 -0.008060455322265625 -0.029388427734375 -0.008056640625 -0.02930450439453125 -0.0421142578125 0.074920654296875
27.70125 0.0234222412109375 0.027263641357421875 -0.009716033935546875 -0.028835296630859375 -0.009731292724609375 -0.02877044677734375 -0.046142578125 0.07256317138671875
27.71 0.019031524658203125 0.02313232421875 -0.01134490966796875 -0.028163909912109375 -0.011264801025390625 -0.028293609619140625 -0.050537109375 0.07047271728515625
27.71875 0.014505386352539062 0.019594192504882812 -0.012805938720703125 -0.027521133422851562 -0.012851715087890625 -0.027639389038085938 -0.054901123046875 0.06890869140625
27.7275 0.0098876953125 0.016448020935058594 -0.014263153076171875 -0.02660369873046875 -0.014417648315429688 -0.026685714721679688 -0.059783935546875 0.067840576171875
27.73625 0.0051631927490234375 0.01363372802734375 -0.015605926513671875 -0.025770187377929688 -0.015851974487304688 -0.025875091552734375 -0.06447982788085938 0.06673431396484375
27.745 -0.00011682510375976562 0.010896682739257812 -0.016908645629882812 -0.024808883666992188 -0.017171859741210938 -0.024869918823242188 -0.0693511962890625 0.066314697265625
27.75375 -0.005527973175048828 0.008982181549072266 -0.018285751342773438 -0.024188995361328125 -0.018327713012695312 -0.023912429809570312 -0.07419204711914062 0.06583786010742188
27.7625 -0.011074542999267578 0.006907939910888672 -0.019586563110351562 -0.023120880126953125 -0.019556045532226562 -0.023151397705078125 -0.07926559448242188 0.065399169921875
27.77125 -0.016907691955566406 0.005703926086425781 -0.021020889282226562 -0.02230072021484375 -0.020868301391601562 -0.02204132080078125 -0.08452224731445312 0.06560516357421875
27.78 -0.02248668670654297 0.0044536590576171875 -0.022289276123046875 -0.021039962768554688 -0.022329330444335938 -0.020908355712890625 -0.08883285522460938 0.06591796875
27.78875 -0.028870582580566406 0.00372314453125 -0.023386001586914062 -0.019794464111328125 -0.0235748291015625 -0.019573211669921875 -0.09418869018554688 0.06643295288085938
27.7975 -0.03500938415527344 0.0034732818603515625 -0.024578094482421875 -0.018491744995117188 -0.024682998657226562 -0.018283843994140625 -0.09895706176757812 0.06755447387695312
27.80625 -0.04098320007324219 0.003429412841796875 -0.0256805419921875 -0.017059326171875 -0.025745391845703125 -0.016803741455078125 -0.10364913940429688 0.0691986083984375
27.815 -0.047229766845703125 0.0037021636962890625 -0.026609420776367188 -0.015497207641601562 -0.026712417602539062 -0.0152587890625 -0.10804367065429688 0.0704803466796875
27.82375 -0.05354881286621094 0.004344940185546875 -0.027437210083007812 -0.013881683349609375 -0.027475357055664062 -0.013584136962890625 -0.11194992065429688 0.07223892211914062
27.8325 -0.05964088439941406 0.0051021575927734375 -0.028390884399414062 -0.0123748779296875 -0.028211593627929688 -0.011989593505859375 -0.116668701171875 0.07483673095703125
27.84125 -0.065704345703125 0.00662994384765625 -0.028964996337890625 -0.010404586791992188 -0.028842926025390625 -0.010364532470703125 -0.12018966674804688 0.07780838012695312
27.85 -0.07164764404296875 0.00836944580078125 -0.029329299926757812 -0.008710861206054688 -0.029260635375976562 -0.008283615112304688 -0.12419891357421875 0.08112335205078125
27.85875 -0.0774383544921875 0.010334014892578125 -0.029529571533203125 -0.007106781005859375 -0.02939605712890625 -0.00676727294921875 -0.127777099609375 0.08465576171875
27.8675 -0.0828857421875 0.012645721435546875 -0.0296783447265625 -0.0054836273193359375 -0.02956390380859375 -0.0051784515380859375 -0.1316375732421875 0.08870697021484375
27.87625 -0.08813095092773438 0.015445709228515625 -0.029994964599609375 -0.0040531158447265625 -0.029710769653320312 -0.003719329833984375 -0.13449859619140625 0.09313201904296875
27.885 -0.09323883056640625 0.0187225341796875 -0.030193328857421875 -0.0025005340576171875 -0.029979705810546875 -0.002330780029296875 -0.137176513671875 0.09772491455078125
27.89375 -0.09816360473632812 0.02256011962890625 -0.030406951904296875 -0.0008544921875 -0.030109405517578125 -0.00070953369140625 -0.14013671875 0.10266876220703125
27.9025 -0.10292434692382812 0.026165008544921875 -0.03069305419921875 0.00096893310546875 -0.03034687042236328 0.0008153915405273438 -0.14282989501953125 0.10752105712890625
27.91125 -0.10727691650390625 0.030750274658203125 -0.030595779418945312 0.0029010772705078125 -0.030256271362304688 0.0028285980224609375 -0.145172119140625 0.11296844482421875
27.92 -0.11153793334960938 0.035434722900390625 -0.030272483825683594 0.004855155944824219 -0.030022621154785156 0.0047626495361328125 -0.14720916748046875 0.11838531494140625
27.92875 -0.11501693725585938 0.040607452392578125 -0.02969074249267578 0.006743431091308594 -0.02954387664794922 0.006470680236816406 -0.14947509765625 0.12386322021484375
27.9375 -0.11892318725585938 0.045623779296875 -0.028827667236328125 0.008391380310058594 -0.02883148193359375 0.007982254028320312 -0.1510162353515625 0.1298370361328125
27.94625 -0.1224517822265625 0.0512542724609375 -0.02791595458984375 0.009571075439453125 -0.028087615966796875 0.009456634521484375 -0.1521453857421875 0.1355438232421875
27.955 -0.125518798828125 0.05716705322265625 -0.026998519897460938 0.010821342468261719 -0.02750110626220703 0.010686874389648438 -0.153411865234375 0.1414337158203125
27.96375 -0.12844085693359375 0.062896728515625 -0.02650737762451172 0.011937141418457031 -0.027009010314941406 0.011995315551757812 -0.1544647216796875 0.14719390869140625
27.9725 -0.1310882568359375 0.0689849853515625 -0.02617931365966797 0.012903213500976562 -0.02654743194580078 0.013322830200195312 -0.15473175048828125 0.15265655517578125
27.98125 -0.13372802734375 0.0746917724609375 -0.025625228881835938 0.014184951782226562 -0.026001930236816406 0.014937400817871094 -0.1546478271484375 0.1587371826171875
27.99 -0.13571929931640625 0.081085205078125 -0.025101661682128906 0.015583992004394531 -0.025178909301757812 0.01645374298095703 -0.154327392578125 0.164794921875
27.99875 -0.13736724853515625 0.08701324462890625 -0.02444744110107422 0.016927719116210938 -0.024103164672851562 0.01794147491455078 -0.153411865234375 0.17081451416015625
28.0075 -0.13899993896484375 0.09342193603515625 -0.02375507354736328 0.01844024658203125 -0.02310657501220703 0.019468307495117188 -0.15236663818359375 0.1771697998046875
28.01625 -0.13995361328125 0.0999603271484375 -0.022914886474609375 0.020093917846679688 -0.022081375122070312 0.02084064483642578 -0.1508636474609375 0.18355560302734375
28.025 -0.1403961181640625 0.10587310791015625 -0.021882057189941406 0.021669387817382812 -0.020636558532714844 0.022253990173339844 -0.1488037109375 0.18959808349609375
28.03375 -0.140625 0.112457275390625 -0.0203857421875 0.02326202392578125 -0.0189361572265625 0.023374557495117188 -0.14640045166015625 0.19550323486328125
28.0425 -0.14029693603515625 0.1184234619140625 -0.018477439880371094 0.024688720703125 -0.017313003540039062 0.024086952209472656 -0.1437530517578125 0.202178955078125
28.05125 -0.1394805908203125 0.1247100830078125 -0.0164794921875 0.02565765380859375 -0.015682220458984375 0.02475738525390625 -0.141082763671875 0.208221435546875
28.06 -0.13857269287109375 0.1311187744140625 -0.014571189880371094 0.026078224182128906 -0.014314651489257812 0.02499866485595703 -0.13805389404296875 0.21443939208984375
28.06875 -0.1368255615234375 0.137542724609375 -0.012975692749023438 0.026236534118652344 -0.013208389282226562 0.02529430389404297 -0.1345977783203125 0.22032928466796875
28.0775 -0.1349639892578125 0.14434051513671875 -0.011968612670898438 0.02617168426513672 -0.012368202209472656 0.025699615478515625 -0.13067626953125 0.226318359375
28.08625 -0.13249969482421875 0.15090179443359375 -0.010836601257324219 0.026716232299804688 -0.011450767517089844 0.026525497436523438 -0.126678466796875 0.23191070556640625
28.095 -0.1298065185546875 0.15735626220703125 -0.009800910949707031 0.02737140655517578 -0.010289192199707031 0.02760028839111328 -0.12252044677734375 0.23709869384765625
28.10375 -0.12685394287109375 0.16367340087890625 -0.008690834045410156 0.028118133544921875 -0.008844375610351562 0.028493881225585938 -0.118438720703125 0.24242401123046875
28.1125 -0.12342071533203125 0.170074462890625 -0.007161140441894531 0.02875518798828125 -0.00691986083984375 0.02947711944580078 -0.114013671875 0.2471923828125
28.12125 -0.12026214599609375 0.17665863037109375 -0.005417823791503906 0.029328346252441406 -0.004970550537109375 0.030126571655273438 -0.1094207763671875 0.2524261474609375
28.13 -0.1162567138671875 0.18299102783203125 -0.0034360885620117188 0.029868125915527344 -0.0026950836181640625 0.0302734375 -0.1048583984375 0.2568206787109375
28.13875 -0.11219024658203125 0.18921661376953125 -0.0017347335815429688 0.03002643585205078 -0.0004425048828125 0.02993011474609375 -0.0992431640625 0.2611083984375
28.1475 -0.10822296142578125 0.19516754150390625 0.0002803802490234375 0.029867172241210938 0.001277923583984375 0.029344558715820312 -0.093902587890625 0.264984130859375
28.15625 -0.103607177734375 0.2007598876953125 0.001979827880859375 0.029376983642578125 0.002655029296875 0.028839111328125 -0.087921142578125 0.268707275390625
28.165 -0.099090576171875 0.2058563232421875 0.00341033935546875 0.02902984619140625 0.003894805908203125 0.0283050537109375 -0.082611083984375 0.27239990234375
28.17375 -0.09471893310546875 0.210693359375 0.0049571990966796875 0.028608322143554688 0.0051822662353515625 0.027940750122070312 -0.076446533203125 0.2752685546875
28.1825 -0.08991241455078125 0.21533203125 0.0062046051025390625 0.02799224853515625 0.006229400634765625 0.027593612670898438 -0.069915771484375 0.2783966064453125
28.19125 -0.08519744873046875 0.219970703125 0.0072536468505859375 0.027444839477539062 0.0073299407958984375 0.02722930908203125 -0.0635833740234375 0.2808685302734375
28.2 -0.079437255859375 0.2244720458984375 0.008312225341796875 0.02725982666015625 0.008626937866210938 0.027143478393554688 -0.056854248046875 0.2831573486328125
28.20875 -0.07350921630859375 0.22808074951171875 0.009456634521484375 0.027313232421875 0.009983062744140625 0.027057647705078125 -0.0499420166015625 0.2856597900390625
28.2175 -0.06797027587890625 0.2308502197265625 0.011087417602539062 0.027402877807617188 0.0115509033203125 0.026956558227539062 -0.0429840087890625 0.287445068359375
28.22625 -0.06208038330078125 0.23345947265625 0.01296234130859375 0.027132034301757812 0.013599395751953125 0.026477813720703125 -0.03619384765625 0.2889404296875
28.235 -0.0561981201171875 0.235931396484375 0.01515960693359375 0.026487350463867188 0.015428543090820312 0.025554656982421875 -0.028900146484375 0.290435791015625
28.24375 -0.04998016357421875 0.23792266845703125 0.017305374145507812 0.025281906127929688 0.017049789428710938 0.02422332763671875 -0.0219879150390625 0.291717529296875
28.2525 -0.04335784912109375 0.24044036865234375 0.018827438354492188 0.023645401000976562 0.018190383911132812 0.022729873657226562 -0.0148773193359375 0.29248046875
28.26125 -0.03652191162109375 0.24176025390625 0.019977569580078125 0.022081375122070312 0.019207000732421875 0.021375656127929688 -0.0076751708984375 0.293365478515625
28.27 -0.02945709228515625 0.2426910400390625 0.02077484130859375 0.020519256591796875 0.019794464111328125 0.0201263427734375 -0.0008392333984375 0.2932891845703125
28.27875 -0.022216796875 0.2438507080078125 0.021331787109375 0.019031524658203125 0.02039337158203125 0.0193634033203125 0.00579833984375 0.29345703125
28.2875 -0.0157318115234375 0.24422454833984375 0.021883010864257812 0.017974853515625 0.020975112915039062 0.018678665161132812 0.0126190185546875 0.2927398681640625
28.29625 -0.008331298828125 0.244873046875 0.022275924682617188 0.017095565795898438 0.022125244140625 0.017957687377929688 0.019287109375 0.2924041748046875
28.305 -0.0015869140625 0.245208740234375 0.023052215576171875 0.016201019287109375 0.023340225219726562 0.01712799072265625 0.02569580078125 0.2912445068359375
28.31375 0.005645751953125 0.2455596923828125 0.023693084716796875 0.015254974365234375 0.0243377685546875 0.015941619873046875 0.032196044921875 0.289703369140625
28.3225 0.0126495361328125 0.24505615234375 0.024538040161132812 0.014696121215820312 0.02573394775390625 0.01471710205078125 0.0387725830078125 0.28765869140625
28.33125 0.0194549560546875 0.2445831298828125 0.025514602661132812 0.013622283935546875 0.026834487915039062 0.013174057006835938 0.0452423095703125 0.2857818603515625
28.34 0.025848388671875 0.2431793212890625 0.026935577392578125 0.012590408325195312 0.027673721313476562 0.011363983154296875 0.051116943359375 0.2829437255859375
28.34875 0.0319671630859375 0.2422943115234375 0.028047561645507812 0.010770797729492188 0.028226852416992188 0.009374618530273438 0.05767822265625 0.2801361083984375
28.3575 0.0382843017578125 0.24072265625 0.029100418090820312 0.00897979736328125 0.028530120849609375 0.007587432861328125 0.06365966796875 0.2769317626953125
28.36625 0.04437255859375 0.23895263671875 0.029632568359375 0.007144927978515625 0.028759002685546875 0.0058841705322265625 0.069488525390625 0.273468017578125
28.375 0.050537109375 0.2364501953125 0.029888153076171875 0.004848480224609375 0.028537750244140625 0.0042247772216796875 0.075164794921875 0.2698516845703125
28.38375 0.05645751953125 0.23358154296875 0.02997589111328125 0.00299072265625 0.028501510620117188 0.0028781890869140625 0.08111572265625 0.26593017578125
28.3925 0.0615234375 0.230438232421875 0.029539108276367188 0.0012645721435546875 0.028362274169921875 0.001865386962890625 0.086456298828125 0.261962890625
28.40125 0.067413330078125 0.2268218994140625 0.029470443725585938 -9.5367431640625e-05 0.028493881225585938 0.0007104873657226562 0.0921783447265625 0.2573699951171875
28.41 0.0724945068359375 0.222808837890625 0.0292816162109375 -0.0014810562133789062 0.028784751892089844 -0.0006465911865234375 0.0969390869140625 0.252960205078125
28.41875 0.0767669677734375 0.21868896484375 0.029165267944335938 -0.0029544830322265625 0.028832435607910156 -0.002079010009765625 0.101226806640625 0.2486572265625
28.4275 0.0817718505859375 0.2143707275390625 0.028883934020996094 -0.004450798034667969 0.028852462768554688 -0.0036382675170898438 0.105682373046875 0.243988037109375
28.43625 0.0865631103515625 0.210113525390625 0.028809547424316406 -0.005672454833984375 0.029084205627441406 -0.0051975250244140625 0.1097564697265625 0.239593505859375
28.445 0.0909881591796875 0.2055816650390625 0.028578758239746094 -0.00726318359375 0.029134750366210938 -0.0071277618408203125 0.11376953125 0.235076904296875
28.45375 0.0951690673828125 0.2006988525390625 0.02823352813720703 -0.008882522583007812 0.028718948364257812 -0.008933067321777344 0.117034912109375 0.230255126953125
28.4625 0.0990753173828125 0.1957855224609375 0.027505874633789062 -0.01050567626953125 0.02789306640625 -0.010689735412597656 0.12005615234375 0.22528076171875
28.47125 0.102813720703125 0.19085693359375 0.027170181274414062 -0.0118560791015625 0.02718830108642578 -0.012120246887207031 0.1226348876953125 0.2200775146484375
28.48 0.105926513671875 0.1857452392578125 0.02641582489013672 -0.013429641723632812 0.026581764221191406 -0.013757705688476562 0.124542236328125 0.2147216796875
28.48875 0.108978271484375 0.1810150146484375 0.025673866271972656 -0.014802932739257812 0.02569103240966797 -0.015172004699707031 0.1267852783203125 0.20947265625
28.4975 0.1116943359375 0.17633056640625 0.024898529052734375 -0.01607799530029297 0.024770736694335938 -0.016450881958007812 0.128662109375 0.2045440673828125
28.50625 0.11407470703125 0.17095947265625 0.024240493774414062 -0.017543792724609375 0.0238800048828125 -0.017864227294921875 0.130157470703125 0.198638916015625
28.515 0.116302490234375 0.1658935546875 0.023334503173828125 -0.018678665161132812 0.022838592529296875 -0.019012451171875 0.13128662109375 0.192901611328125
