!Created with skrf (http://scikit-rf.org).
# GHz S RI R 50.0 
!freq ReS11 ImS11 ReS21 ImS21 ReS12 ImS12 ReS22 ImS22
17.5 0.176422119140625 0.1430816650390625 0.04331207275390625 0.12325286865234375 -0.0018603801727294922 0.0003618001937866211 0.1009063720703125 0.077239990234375
17.50975 0.18426513671875 0.1341705322265625 0.05718994140625 0.1179351806640625 -0.0004953742027282715 -0.0008556246757507324 0.10175323486328125 0.07295989990234375
17.5195 0.190155029296875 0.125579833984375 0.07163238525390625 0.1121673583984375 -0.0015465021133422852 -0.0003968477249145508 0.10655975341796875 0.06966400146484375
17.52925 0.195892333984375 0.1174468994140625 0.085205078125 0.1036529541015625 -0.00022171437740325928 0.0002473890781402588 0.1073150634765625 0.06645965576171875
17.539 0.2020416259765625 0.1050872802734375 0.09625244140625 0.0963287353515625 -0.0008145570755004883 -0.0006876587867736816 0.10961151123046875 0.06200408935546875
17.54875 0.20684814453125 0.0947265625 0.1066436767578125 0.0877685546875 -0.0001862049102783203 -0.000818789005279541 0.113067626953125 0.06043243408203125
17.5585 0.208831787109375 0.087554931640625 0.1201019287109375 0.0750885009765625 -0.0010528564453125 -0.0018181800842285156 0.1130523681640625 0.0568084716796875
17.56825 0.213836669921875 0.0750732421875 0.1289215087890625 0.0623779296875 -0.000668644905090332 -0.001357436180114746 0.11664581298828125 0.053070068359375
17.578 0.2156982421875 0.064666748046875 0.13596343994140625 0.04717254638671875 -0.001447916030883789 -0.001085519790649414 0.117828369140625 0.05074310302734375
17.58775 0.2165069580078125 0.0540924072265625 0.14223480224609375 0.0308685302734375 -0.0010629892349243164 -0.0005706548690795898 0.11893463134765625 0.04851531982421875
17.5975 0.2198944091796875 0.044830322265625 0.1447906494140625 0.0138702392578125 -0.0006521940231323242 -0.0013620853424072266 0.11522674560546875 0.04331207275390625
17.60725 0.2185211181640625 0.0352783203125 0.145843505859375 -0.0027313232421875 -0.0017453432083129883 -0.001294851303100586 0.11700439453125 0.04038238525390625
17.617 0.21942138671875 0.0228118896484375 0.14490509033203125 -0.01739501953125 -0.0008717179298400879 0.0004985034465789795 0.118011474609375 0.035552978515625
17.62675 0.2197418212890625 0.0117645263671875 0.1428375244140625 -0.03302001953125 -0.0007078647613525391 0.0012089014053344727 0.11907958984375 0.03289794921875
17.6365 0.2178497314453125 0.002899169921875 0.140594482421875 -0.0466766357421875 -0.0007367134094238281 -0.0016832351684570312 0.119171142578125 0.0267486572265625
17.64625 0.21506500244140625 -0.009002685546875 0.13721466064453125 -0.061676025390625 -0.0007537603378295898 -0.0015635490417480469 0.11681365966796875 0.02568817138671875
17.656 0.21218109130859375 -0.01805877685546875 0.1299896240234375 -0.07696533203125 0.0003953874111175537 0.00021764636039733887 0.1164398193359375 0.02045440673828125
17.66575 0.2120513916015625 -0.03052520751953125 0.1220245361328125 -0.09302902221679688 -0.0010485649108886719 -0.0006341338157653809 0.11685943603515625 0.0180816650390625
17.6755 0.20687103271484375 -0.04245758056640625 0.11257553100585938 -0.10621261596679688 0.00019568204879760742 -0.0004912018775939941 0.116119384765625 0.01326751708984375
17.68525 0.20223236083984375 -0.05204010009765625 0.09954452514648438 -0.1163482666015625 -0.0014157891273498535 -0.00018465518951416016 0.115509033203125 0.01111602783203125
17.695 0.19754791259765625 -0.06293487548828125 0.08719635009765625 -0.12900543212890625 -0.0016704797744750977 -0.000905156135559082 0.11493301391601562 0.007656097412109375
17.70475 0.192138671875 -0.07073974609375 0.074188232421875 -0.13677978515625 -0.0010960102081298828 0.00021660327911376953 0.1146697998046875 0.0041046142578125
17.7145 0.18508148193359375 -0.0786590576171875 0.06011199951171875 -0.144561767578125 -0.0006871819496154785 -0.0009299516677856445 0.11443328857421875 0.0026397705078125
17.72425 0.1822052001953125 -0.089019775390625 0.046661376953125 -0.15191650390625 -3.945082426071167e-06 4.618614912033081e-05 0.11542892456054688 0.000156402587890625
17.734 0.17568206787109375 -0.0977935791015625 0.03232574462890625 -0.1556396484375 -0.0007355213165283203 -0.0007179975509643555 0.11215972900390625 -0.002704620361328125
17.74375 0.16535186767578125 -0.10411834716796875 0.0173187255859375 -0.161865234375 -0.0011335015296936035 -8.195638656616211e-05 0.11028289794921875 -0.005054473876953125
17.7535 0.15778350830078125 -0.11017608642578125 0.0006103515625 -0.16490936279296875 -0.0011364221572875977 0.0015413761138916016 0.1076812744140625 -0.007915496826171875
17.76325 0.1501617431640625 -0.11864471435546875 -0.016815185546875 -0.16757965087890625 -0.0008739829063415527 -0.000194549560546875 0.10869979858398438 -0.00835418701171875
17.773 0.1377716064453125 -0.12518310546875 -0.0340423583984375 -0.166015625 -0.0007243752479553223 0.0009685754776000977 0.107147216796875 -0.01062774658203125
17.78275 0.13056182861328125 -0.1302947998046875 -0.0531158447265625 -0.16412353515625 -0.0008032917976379395 0.00035113096237182617 0.103790283203125 -0.012603759765625
17.7925 0.11786651611328125 -0.13735198974609375 -0.06983184814453125 -0.1612091064453125 -0.0012712478637695312 0.0016644597053527832 0.10120391845703125 -0.016925811767578125
17.80225 0.10790252685546875 -0.1421051025390625 -0.088836669921875 -0.1552581787109375 -0.0010742545127868652 0.0008162856101989746 0.10356521606445312 -0.01946258544921875
17.812 0.09627532958984375 -0.14539337158203125 -0.1045074462890625 -0.14703369140625 -0.0017451643943786621 -3.9517879486083984e-05 0.1038055419921875 -0.022953033447265625
17.82175 0.0870208740234375 -0.149169921875 -0.12103271484375 -0.1372528076171875 -0.0018639564514160156 0.0008957386016845703 0.10290908813476562 -0.023998260498046875
17.8315 0.07324981689453125 -0.152618408203125 -0.13775634765625 -0.126129150390625 -0.0005699396133422852 0.00010061264038085938 0.10180282592773438 -0.026576995849609375
17.84125 0.06512451171875 -0.1555938720703125 -0.1522216796875 -0.11456298828125 -0.0006848573684692383 -0.001045823097229004 0.10012054443359375 -0.030059814453125
17.851 0.054901123046875 -0.15525054931640625 -0.16619873046875 -0.0992431640625 -0.0013750791549682617 -0.00026422739028930664 0.0979156494140625 -0.0312652587890625
17.86075 0.04093170166015625 -0.15428924560546875 -0.1800994873046875 -0.0832977294921875 0.0007737874984741211 0.001354217529296875 0.09807586669921875 -0.03026580810546875
17.8705 0.02959442138671875 -0.1542816162109375 -0.193359375 -0.0638580322265625 -0.0017958879470825195 -0.0007430315017700195 0.09408950805664062 -0.034656524658203125
17.88025 0.01971435546875 -0.15033721923828125 -0.2036895751953125 -0.04290008544921875 -0.0019370317459106445 -0.0006585121154785156 0.09524917602539062 -0.037105560302734375
17.89 0.0071868896484375 -0.1495208740234375 -0.21050262451171875 -0.0199737548828125 -0.0005593001842498779 9.062886238098145e-05 0.09192276000976562 -0.036952972412109375
17.89975 -0.0030517578125 -0.1453704833984375 -0.21544647216796875 0.00360870361328125 -1.5340745449066162e-05 6.803497672080994e-05 0.09291458129882812 -0.04021453857421875
17.9095 -0.014801025390625 -0.142852783203125 -0.2167510986328125 0.02790069580078125 -0.00011040642857551575 -7.808208465576172e-06 0.091796875 -0.040882110595703125
17.91925 -0.024444580078125 -0.1372528076171875 -0.21636962890625 0.0543975830078125 -7.748603820800781e-06 -0.0010373592376708984 0.08960723876953125 -0.04563140869140625
17.929 -0.0372467041015625 -0.13376617431640625 -0.2132568359375 0.07842254638671875 0.00024193525314331055 -0.0006884634494781494 0.08533096313476562 -0.051303863525390625
17.93875 -0.04645538330078125 -0.12686920166015625 -0.207305908203125 0.10391998291015625 -2.8446316719055176e-05 -0.0004487931728363037 0.08649063110351562 -0.05297088623046875
17.9485 -0.05490875244140625 -0.12248992919921875 -0.1993560791015625 0.12996673583984375 -0.0009815096855163574 0.0005388855934143066 0.08477401733398438 -0.057033538818359375
17.95825 -0.0653076171875 -0.11392974853515625 -0.1845855712890625 0.1556396484375 -0.0005260109901428223 -0.00024756789207458496 0.08380126953125 -0.0594482421875
17.968 -0.06999969482421875 -0.10446929931640625 -0.166717529296875 0.17772674560546875 -0.0013968348503112793 0.00031501054763793945 0.07930374145507812 -0.06048583984375
17.97775 -0.07921600341796875 -0.09772491455078125 -0.14688873291015625 0.19811248779296875 -0.002312183380126953 -0.0009503364562988281 0.07870864868164062 -0.0640869140625
17.9875 -0.08467864990234375 -0.0896759033203125 -0.1230621337890625 0.21567535400390625 -0.0013965964317321777 -0.0004577040672302246 0.07593917846679688 -0.06612014770507812
17.99725 -0.0911102294921875 -0.08270263671875 -0.09722900390625 0.2316131591796875 -0.00072479248046875 -0.00046646595001220703 0.07347869873046875 -0.06783294677734375
18.007 -0.09732818603515625 -0.0719146728515625 -0.07306671142578125 0.24295806884765625 -0.0009141862392425537 0.00017330050468444824 0.07025527954101562 -0.072723388671875
18.01675 -0.1010894775390625 -0.061431884765625 -0.04779052734375 0.251739501953125 -0.0021795034408569336 2.0384788513183594e-05 0.0649566650390625 -0.07278823852539062
18.0265 -0.10509490966796875 -0.05077362060546875 -0.01898193359375 0.26025390625 -0.0007852911949157715 -0.00014913082122802734 0.061496734619140625 -0.07434463500976562
18.03625 -0.10884857177734375 -0.03905487060546875 0.010345458984375 0.2644805908203125 -0.0006777644157409668 0.0009962916374206543 0.05875396728515625 -0.07667922973632812
18.046 -0.1112823486328125 -0.02873992919921875 0.0441436767578125 0.26605224609375 -0.00023001432418823242 0.0019158124923706055 0.0525360107421875 -0.07786178588867188
18.05575 -0.11277008056640625 -0.01971435546875 0.0768890380859375 0.2620697021484375 -2.1979212760925293e-05 0.0004380941390991211 0.04790496826171875 -0.08104705810546875
18.0655 -0.11576461791992188 -0.006504058837890625 0.107696533203125 0.249786376953125 -9.441375732421875e-05 0.0009320974349975586 0.04441070556640625 -0.08389663696289062
18.07525 -0.11669158935546875 0.0020904541015625 0.137359619140625 0.237762451171875 -0.0002740621566772461 0.001496434211730957 0.04137420654296875 -0.0837249755859375
18.085 -0.11655807495117188 0.0142059326171875 0.1627960205078125 0.2196502685546875 -0.0005624890327453613 -0.00015857815742492676 0.035552978515625 -0.08642578125
18.09475 -0.11454010009765625 0.02338409423828125 0.187225341796875 0.2020111083984375 -0.0019307136535644531 1.0311603546142578e-05 0.02979278564453125 -0.08513259887695312
18.1045 -0.1119232177734375 0.03073883056640625 0.208251953125 0.1805419921875 -0.0011629462242126465 0.0004259347915649414 0.025890350341796875 -0.08538436889648438
18.11425 -0.10993576049804688 0.04338836669921875 0.2289581298828125 0.1581268310546875 0.00016248226165771484 0.0011519193649291992 0.022796630859375 -0.08758926391601562
18.124 -0.10711288452148438 0.0516510009765625 0.24822998046875 0.1334075927734375 -0.00048044323921203613 0.0006037354469299316 0.017986297607421875 -0.08733749389648438
18.13375 -0.10229110717773438 0.062419891357421875 0.265167236328125 0.10516357421875 3.96091490983963e-05 -5.47654926776886e-05 0.0142974853515625 -0.08591079711914062
18.1435 -0.0965728759765625 0.07059478759765625 0.2765045166015625 0.07342529296875 -0.00026488304138183594 0.0014668107032775879 0.00965118408203125 -0.08355712890625
18.15325 -0.09113311767578125 0.07836151123046875 0.284637451171875 0.039215087890625 -1.1920928955078125e-07 0.0010080337524414062 0.00275421142578125 -0.0806121826171875
18.163 -0.08313751220703125 0.088897705078125 0.2874603271484375 0.0060272216796875 -0.0002719759941101074 0.0008649230003356934 -0.00234222412109375 -0.081573486328125
18.17275 -0.07908248901367188 0.09579086303710938 0.286102294921875 -0.02587890625 -0.0012926459312438965 0.0005345940589904785 -0.005985260009765625 -0.077972412109375
18.1825 -0.072235107421875 0.10429763793945312 0.2855072021484375 -0.05743408203125 -0.001019299030303955 0.00018042325973510742 -0.011928558349609375 -0.0784759521484375
18.19225 -0.06417083740234375 0.110687255859375 0.280059814453125 -0.090057373046875 -0.00011738389730453491 -2.498924732208252e-05 -0.017345428466796875 -0.07300949096679688
18.202 -0.055500030517578125 0.117584228515625 0.2704315185546875 -0.1209716796875 0.00040405988693237305 0.0006595849990844727 -0.01821136474609375 -0.07322311401367188
18.21175 -0.0470123291015625 0.12390899658203125 0.256195068359375 -0.1533355712890625 -0.0003782510757446289 -0.0009720921516418457 -0.024768829345703125 -0.06716537475585938
18.2215 -0.0404052734375 0.126129150390625 0.2380218505859375 -0.183319091796875 -0.0002842545509338379 0.0006823539733886719 -0.02794647216796875 -0.065948486328125
18.23125 -0.03203582763671875 0.13024139404296875 0.21575164794921875 -0.2095489501953125 0.0004761815071105957 0.00035837292671203613 -0.03025054931640625 -0.06371307373046875
18.241 -0.02154541015625 0.1350250244140625 0.190032958984375 -0.23535919189453125 0.0009213685989379883 0.0018178224563598633 -0.031551361083984375 -0.058101654052734375
18.25075 -0.01175689697265625 0.13848876953125 0.1640167236328125 -0.255126953125 0.0009802579879760742 -0.00015336275100708008 -0.036464691162109375 -0.058441162109375
18.2605 -0.00328826904296875 0.1397247314453125 0.13323974609375 -0.2724609375 0.0006864666938781738 -0.00042551755905151367 -0.0384521484375 -0.05115509033203125
18.27025 0.00624847412109375 0.14064788818359375 0.1033477783203125 -0.288116455078125 0.001298069953918457 -0.00029653310775756836 -0.04224395751953125 -0.04694366455078125
18.28 0.0159759521484375 0.1421661376953125 0.0716705322265625 -0.29949951171875 0.0008310079574584961 -0.00020164251327514648 -0.041595458984375 -0.041515350341796875
18.28975 0.02802276611328125 0.1438446044921875 0.0350341796875 -0.3080596923828125 0.0009357333183288574 -0.0001996457576751709 -0.04309844970703125 -0.040332794189453125
18.2995 0.03723907470703125 0.14020538330078125 -0.002227783203125 -0.3117523193359375 -0.0006349384784698486 0.0002741813659667969 -0.0474853515625 -0.033050537109375
18.30925 0.048065185546875 0.1412200927734375 -0.0391845703125 -0.310455322265625 -0.00021147727966308594 0.0007260441780090332 -0.0464630126953125 -0.02747344970703125
18.319 0.05771636962890625 0.141082763671875 -0.07537841796875 -0.301483154296875 0.0005398988723754883 -0.00018829107284545898 -0.0506591796875 -0.026073455810546875
18.32875 0.06603240966796875 0.13694000244140625 -0.1079864501953125 -0.2917633056640625 0.0010704994201660156 0.0003885030746459961 -0.04926300048828125 -0.018428802490234375
18.3385 0.07633209228515625 0.13324737548828125 -0.1416015625 -0.2788543701171875 -0.0007464885711669922 0.0003171265125274658 -0.049713134765625 -0.01348114013671875
18.34825 0.08628082275390625 0.1288909912109375 -0.173583984375 -0.2631683349609375 -0.0021572113037109375 -0.00033867359161376953 -0.05049324035644531 -0.01039886474609375
18.358 0.0917510986328125 0.12462615966796875 -0.2022247314453125 -0.237884521484375 6.483122706413269e-05 4.5008957386016846e-05 -0.05033111572265625 -0.006595611572265625
18.36775 0.1012115478515625 0.12075042724609375 -0.23040771484375 -0.2148590087890625 0.0008874237537384033 -0.00030931830406188965 -0.0507659912109375 -0.0018787384033203125
18.3775 0.1080169677734375 0.112457275390625 -0.25323486328125 -0.188140869140625 -0.000620424747467041 0.00033801794052124023 -0.04685211181640625 0.004459381103515625
18.38725 0.11513519287109375 0.10636138916015625 -0.2752838134765625 -0.1563262939453125 0.00036790966987609863 0.00031071901321411133 -0.04669761657714844 0.0065784454345703125
18.397 0.12267303466796875 0.1002349853515625 -0.288177490234375 -0.1236114501953125 -0.001083076000213623 0.0004988908767700195 -0.04542350769042969 0.0116424560546875
18.40675 0.12960052490234375 0.09229278564453125 -0.2975311279296875 -0.0892791748046875 0.0018390417098999023 7.385015487670898e-05 -0.04228782653808594 0.01950836181640625
18.4165 0.1353912353515625 0.0836639404296875 -0.3054046630859375 -0.0540618896484375 0.0005140900611877441 -0.0005744993686676025 -0.04023933410644531 0.022043228149414062
18.42625 0.1410675048828125 0.07759857177734375 -0.309173583984375 -0.0204925537109375 0.00027883052825927734 0.0005948543548583984 -0.038341522216796875 0.0283966064453125
18.436 0.1459503173828125 0.06707763671875 -0.3103790283203125 0.01446533203125 -4.3720006942749023e-05 -0.00024119019508361816 -0.0343017578125 0.029912948608398438
18.44575 0.1477203369140625 0.0583343505859375 -0.305206298828125 0.050506591796875 0.0004500150680541992 0.0007541179656982422 -0.03298187255859375 0.033977508544921875
18.4555 0.1524505615234375 0.05234527587890625 -0.296234130859375 0.0845947265625 0.00046241283416748047 0.0006292462348937988 -0.031421661376953125 0.03723716735839844
18.46525 0.15601348876953125 0.04186248779296875 -0.2816162109375 0.1156463623046875 -0.0005553662776947021 0.000577390193939209 -0.024602890014648438 0.04130363464355469
18.475 0.1579742431640625 0.03150177001953125 -0.265594482421875 0.1454010009765625 0.0005540251731872559 -0.00043886899948120117 -0.022680282592773438 0.04270362854003906
18.48475 0.15937042236328125 0.02356719970703125 -0.2465057373046875 0.1715850830078125 -0.0006276369094848633 0.0005705058574676514 -0.01641082763671875 0.044635772705078125
18.4945 0.1615142822265625 0.0142822265625 -0.2275238037109375 0.19600677490234375 -0.0007203817367553711 -0.0012258291244506836 -0.0144805908203125 0.046634674072265625
18.50425 0.16066741943359375 0.00508880615234375 -0.20348358154296875 0.21891021728515625 -0.0006172657012939453 6.693601608276367e-05 -0.008897781372070312 0.04951667785644531
18.514 0.161651611328125 -0.00647735595703125 -0.17786407470703125 0.2408294677734375 -0.0004197061061859131 0.00012715160846710205 -0.0022907257080078125 0.04982185363769531
18.52375 0.160552978515625 -0.0170745849609375 -0.1502685546875 0.2574462890625 0.0014791488647460938 -0.0006439685821533203 -0.00124359130859375 0.051361083984375
18.5335 0.15796661376953125 -0.026641845703125 -0.121734619140625 0.270477294921875 0.0008865594863891602 0.0003930330276489258 0.0048580169677734375 0.05062294006347656
18.54325 0.1569061279296875 -0.0363616943359375 -0.0903167724609375 0.279327392578125 0.0004723668098449707 -0.0006360709667205811 0.009405136108398438 0.053043365478515625
18.553 0.152130126953125 -0.04644775390625 -0.0629425048828125 0.2850341796875 -0.0007602572441101074 -0.0003746151924133301 0.01688385009765625 0.053241729736328125
18.56275 0.1496734619140625 -0.05585479736328125 -0.0330810546875 0.290496826171875 0.0008755922317504883 0.0012722015380859375 0.0196380615234375 0.05287933349609375
18.5725 0.14449310302734375 -0.06366729736328125 -0.0023040771484375 0.2919158935546875 0.001021742820739746 -0.0011603832244873047 0.025981903076171875 0.053043365478515625
18.58225 0.13903045654296875 -0.06922149658203125 0.0294952392578125 0.289764404296875 -0.0005975961685180664 0.0015527009963989258 0.028957366943359375 0.05321502685546875
18.592 0.1355743408203125 -0.0795440673828125 0.06005859375 0.28607177734375 -0.00033843517303466797 0.0014568567276000977 0.03377532958984375 0.04892730712890625
18.60175 0.12703704833984375 -0.087799072265625 0.0909881591796875 0.276824951171875 0.0002008974552154541 0.0004894137382507324 0.037105560302734375 0.048736572265625
18.6115 0.12148666381835938 -0.09324264526367188 0.1189117431640625 0.26617431640625 0.0013344287872314453 0.00017982721328735352 0.040691375732421875 0.042881011962890625
18.62125 0.11218643188476562 -0.10185623168945312 0.142974853515625 0.2491912841796875 0.00039887428283691406 0.0015642642974853516 0.04345703125 0.04366302490234375
