!Created with skrf (http://scikit-rf.org).
# GHz S RI R 50.0 
!freq ReS11 ImS11 ReS21 ImS21 ReS12 ImS12 ReS22 ImS22
17.5 0.246307373046875 0.1997833251953125 -0.008615970611572266 0.0005025863647460938 -0.020689010620117188 0.01654338836669922 0.1991424560546875 0.1083221435546875
17.50975 0.257904052734375 0.1881256103515625 -0.00801992416381836 0.0003046989440917969 -0.01962566375732422 0.018526077270507812 0.2029571533203125 0.0999603271484375
17.5195 0.2660064697265625 0.173980712890625 -0.00798177719116211 0.0005216598510742188 -0.017572402954101562 0.02173328399658203 0.208587646484375 0.0893707275390625
17.52925 0.27374267578125 0.1607666015625 -0.00800466537475586 0.0004401206970214844 -0.01573467254638672 0.022565841674804688 0.2124481201171875 0.079742431640625
17.539 0.2823486328125 0.1443328857421875 -0.008122920989990234 0.0013766288757324219 -0.012787818908691406 0.02551555633544922 0.2168121337890625 0.069671630859375
17.54875 0.2899322509765625 0.1290435791015625 -0.007437944412231445 0.004053831100463867 -0.010210990905761719 0.02547740936279297 0.2191162109375 0.059356689453125
17.5585 0.295440673828125 0.1143646240234375 -0.00844573974609375 0.004622459411621094 -0.00710296630859375 0.025224685668945312 0.220733642578125 0.0504150390625
17.56825 0.29986572265625 0.0968017578125 -0.008263587951660156 0.0045986175537109375 -0.0044841766357421875 0.026941299438476562 0.223297119140625 0.042144775390625
17.578 0.303253173828125 0.0811767578125 -0.006654262542724609 0.003955364227294922 -0.003962516784667969 0.02593708038330078 0.2255401611328125 0.032928466796875
17.58775 0.3061065673828125 0.0653076171875 -0.00629425048828125 0.005890846252441406 -0.000232696533203125 0.027095794677734375 0.2259674072265625 0.0216522216796875
17.5975 0.3073577880859375 0.0503387451171875 -0.006342411041259766 0.004220008850097656 0.0016355514526367188 0.02794933319091797 0.22411346435546875 0.01306915283203125
17.60725 0.306427001953125 0.0334625244140625 -0.006226301193237305 0.005597114562988281 0.005954742431640625 0.0281524658203125 0.22539520263671875 0.0008392333984375
17.617 0.3086090087890625 0.0145263671875 -0.006307840347290039 0.006176471710205078 0.007415771484375 0.026266098022460938 0.22264862060546875 -0.008575439453125
17.62675 0.308807373046875 6.103515625e-05 -0.0064697265625 0.0058078765869140625 0.011560440063476562 0.02512359619140625 0.2216796875 -0.01897430419921875
17.6365 0.30487060546875 -0.01611328125 -0.006768703460693359 0.00775146484375 0.01476287841796875 0.02545166015625 0.220977783203125 -0.031158447265625
17.64625 0.2999267578125 -0.033599853515625 -0.0052433013916015625 0.008204460144042969 0.01560211181640625 0.023456573486328125 0.2170562744140625 -0.038848876953125
17.656 0.2958831787109375 -0.048919677734375 -0.005886554718017578 0.009115219116210938 0.017938613891601562 0.020435333251953125 0.21247100830078125 -0.0501556396484375
17.66575 0.2930755615234375 -0.0637359619140625 -0.0034852027893066406 0.007462501525878906 0.019773483276367188 0.019115447998046875 0.21086883544921875 -0.05921173095703125
17.6755 0.2850341796875 -0.0816192626953125 -0.003149747848510742 0.007190704345703125 0.021589279174804688 0.017137527465820312 0.20658111572265625 -0.06751251220703125
17.68525 0.2787628173828125 -0.097076416015625 -0.0041751861572265625 0.007194042205810547 0.022001266479492188 0.016290664672851562 0.20149993896484375 -0.076507568359375
17.695 0.26983642578125 -0.1128387451171875 -0.003517627716064453 0.00804901123046875 0.025140762329101562 0.013141632080078125 0.19638824462890625 -0.08672332763671875
17.70475 0.261199951171875 -0.123565673828125 -0.004282951354980469 0.007962226867675781 0.0270233154296875 0.01226043701171875 0.1928863525390625 -0.0958251953125
17.7145 0.251312255859375 -0.136383056640625 -0.002727985382080078 0.009435176849365234 0.026662826538085938 0.008136749267578125 0.1875457763671875 -0.1026611328125
17.72425 0.2410888671875 -0.1507110595703125 -0.0005598068237304688 0.008603096008300781 0.027863502502441406 0.0036058425903320312 0.17992401123046875 -0.1089324951171875
17.734 0.23166656494140625 -0.1619415283203125 -0.0015921592712402344 0.008447647094726562 0.027228355407714844 0.0026750564575195312 0.17301177978515625 -0.11798858642578125
17.74375 0.2166290283203125 -0.17400360107421875 -0.0004515647888183594 0.008945465087890625 0.027120590209960938 -0.000995635986328125 0.1664886474609375 -0.1240386962890625
17.7535 0.20561981201171875 -0.181793212890625 -0.0006127357482910156 0.009880542755126953 0.02759075164794922 -0.004403114318847656 0.15932464599609375 -0.1331939697265625
17.76325 0.19269561767578125 -0.19135284423828125 0.0007290840148925781 0.00934743881225586 0.02803325653076172 -0.0056552886962890625 0.1512298583984375 -0.1377105712890625
17.773 0.1744537353515625 -0.1999359130859375 0.00022220611572265625 0.010759353637695312 0.026981353759765625 -0.00975799560546875 0.1430816650390625 -0.1431884765625
17.78275 0.162750244140625 -0.21004486083984375 -0.0004420280456542969 0.008757591247558594 0.02631092071533203 -0.013930320739746094 0.1330718994140625 -0.15008544921875
17.7925 0.14556884765625 -0.21875 0.0022907257080078125 0.010213851928710938 0.024003982543945312 -0.01476287841796875 0.12300872802734375 -0.1551971435546875
17.80225 0.12918853759765625 -0.2246551513671875 0.0029883384704589844 0.008676528930664062 0.022477149963378906 -0.018062591552734375 0.11714935302734375 -0.16161346435546875
17.812 0.11406707763671875 -0.22826385498046875 0.0029540061950683594 0.008248329162597656 0.020517349243164062 -0.0197601318359375 0.110015869140625 -0.165130615234375
17.82175 0.09674072265625 -0.23184967041015625 0.003455638885498047 0.007578372955322266 0.017961502075195312 -0.021277427673339844 0.0988006591796875 -0.1702880859375
17.8315 0.08074951171875 -0.2364501953125 0.0026092529296875 0.008314132690429688 0.0153350830078125 -0.024120330810546875 0.08819580078125 -0.1706085205078125
17.84125 0.06829833984375 -0.23773193359375 0.0021867752075195312 0.006934165954589844 0.012434005737304688 -0.025030136108398438 0.0763702392578125 -0.17608642578125
17.851 0.050872802734375 -0.2384033203125 0.005184650421142578 0.006363868713378906 0.010352134704589844 -0.026170730590820312 0.06792449951171875 -0.17624664306640625
17.86075 0.0326995849609375 -0.2368927001953125 0.0052280426025390625 0.008507251739501953 0.005822181701660156 -0.02803325653076172 0.05620574951171875 -0.17827606201171875
17.8705 0.01727294921875 -0.23494720458984375 0.005723476409912109 0.008376121520996094 0.00446319580078125 -0.02614593505859375 0.0440216064453125 -0.177154541015625
17.88025 0.00048065185546875 -0.23145294189453125 0.0060024261474609375 0.006878376007080078 0.000438690185546875 -0.028505325317382812 0.0343170166015625 -0.17925262451171875
17.89 -0.01602935791015625 -0.22928619384765625 0.0053157806396484375 0.0070247650146484375 -0.0016126632690429688 -0.029262542724609375 0.02085113525390625 -0.17910003662109375
17.89975 -0.02935791015625 -0.22308349609375 0.006301403045654297 0.006890296936035156 -0.0045070648193359375 -0.028516769409179688 0.0120697021484375 -0.1738433837890625
17.9095 -0.0467529296875 -0.21826171875 0.005663871765136719 0.006779670715332031 -0.00724029541015625 -0.025058746337890625 0.0016021728515625 -0.1744537353515625
17.91925 -0.0602264404296875 -0.212371826171875 0.006749153137207031 0.0056858062744140625 -0.010175704956054688 -0.025066375732421875 -0.01087188720703125 -0.172698974609375
17.929 -0.078033447265625 -0.2044677734375 0.007662296295166016 0.005886077880859375 -0.01345062255859375 -0.02370452880859375 -0.02176666259765625 -0.1695709228515625
17.93875 -0.0928497314453125 -0.19635009765625 0.007651329040527344 0.004281520843505859 -0.01546478271484375 -0.022546768188476562 -0.0305023193359375 -0.166717529296875
17.9485 -0.10443115234375 -0.18927001953125 0.008767127990722656 0.0030608177185058594 -0.017843246459960938 -0.021543502807617188 -0.04205322265625 -0.161041259765625
17.95825 -0.1172332763671875 -0.1766510009765625 0.00835561752319336 0.0038199424743652344 -0.01862335205078125 -0.019495010375976562 -0.04851531982421875 -0.15518951416015625
17.968 -0.1283111572265625 -0.16558837890625 0.008083820343017578 0.0031914710998535156 -0.020137786865234375 -0.017488479614257812 -0.05834197998046875 -0.14959716796875
17.97775 -0.1390838623046875 -0.154296875 0.007266998291015625 0.0028028488159179688 -0.021757125854492188 -0.014074325561523438 -0.0663299560546875 -0.14199066162109375
17.9875 -0.148956298828125 -0.14398193359375 0.00799560546875 0.0029649734497070312 -0.02489471435546875 -0.01242828369140625 -0.0743255615234375 -0.135101318359375
17.99725 -0.1588592529296875 -0.13140869140625 0.009226799011230469 0.0018916130065917969 -0.024593353271484375 -0.008953094482421875 -0.08404541015625 -0.12865447998046875
18.007 -0.1675262451171875 -0.116943359375 0.008079051971435547 0.0021729469299316406 -0.025726318359375 -0.00748443603515625 -0.0915985107421875 -0.11841583251953125
18.01675 -0.1746673583984375 -0.1026763916015625 0.007084369659423828 0.0016369819641113281 -0.025043487548828125 -0.005219459533691406 -0.099365234375 -0.1079254150390625
18.0265 -0.182098388671875 -0.0853118896484375 0.008846759796142578 0.0011200904846191406 -0.02729034423828125 -0.0024652481079101562 -0.104156494140625 -0.0988922119140625
18.03625 -0.18719482421875 -0.0713958740234375 0.007898807525634766 0.0012774467468261719 -0.02701854705810547 -0.00047397613525390625 -0.11037445068359375 -0.08956146240234375
18.046 -0.1904449462890625 -0.0561065673828125 0.008151531219482422 -0.0004940032958984375 -0.02740192413330078 0.001857757568359375 -0.11517333984375 -0.07773590087890625
18.05575 -0.1947021484375 -0.0414581298828125 0.008558273315429688 -0.0035462379455566406 -0.026447296142578125 0.006359100341796875 -0.12223052978515625 -0.0695343017578125
18.0655 -0.1988372802734375 -0.0251007080078125 0.008710861206054688 -0.0023288726806640625 -0.024845123291015625 0.008869171142578125 -0.123046875 -0.0587005615234375
18.07525 -0.19951629638671875 -0.0090789794921875 0.007901191711425781 -0.0008211135864257812 -0.022701263427734375 0.011255264282226562 -0.12668609619140625 -0.0474700927734375
18.085 -0.199371337890625 0.006927490234375 0.00948953628540039 -0.002292633056640625 -0.021875381469726562 0.013231277465820312 -0.128326416015625 -0.0357208251953125
18.09475 -0.2017822265625 0.02152252197265625 0.0073795318603515625 -0.00390625 -0.020196914672851562 0.015725135803222656 -0.128204345703125 -0.0275421142578125
18.1045 -0.196929931640625 0.03452301025390625 0.007224321365356445 -0.0028743743896484375 -0.020117759704589844 0.015345573425292969 -0.128448486328125 -0.01215362548828125
18.11425 -0.1945037841796875 0.05146026611328125 0.0072479248046875 -0.0041179656982421875 -0.018685340881347656 0.018795013427734375 -0.12680816650390625 -0.0032196044921875
18.124 -0.19061279296875 0.06800079345703125 0.008712291717529297 -0.003688812255859375 -0.01580047607421875 0.01976776123046875 -0.12577056884765625 0.006561279296875
18.13375 -0.1837158203125 0.08176422119140625 0.007293224334716797 -0.004487276077270508 -0.013738632202148438 0.022042274475097656 -0.12248611450195312 0.01888275146484375
18.1435 -0.17938232421875 0.0952911376953125 0.0053462982177734375 -0.005905628204345703 -0.011028289794921875 0.023794174194335938 -0.11751556396484375 0.030792236328125
18.15325 -0.1717071533203125 0.1076507568359375 0.005455970764160156 -0.006454944610595703 -0.006987571716308594 0.025968551635742188 -0.11526107788085938 0.042449951171875
18.163 -0.1628875732421875 0.12247467041015625 0.004799842834472656 -0.00807952880859375 -0.006752967834472656 0.02516937255859375 -0.11141204833984375 0.052791595458984375
18.17275 -0.1561737060546875 0.1362762451171875 0.004563331604003906 -0.006216526031494141 -0.0033006668090820312 0.02476215362548828 -0.10743331909179688 0.0621337890625
18.1825 -0.1471710205078125 0.1494903564453125 0.0040950775146484375 -0.00669550895690918 0.00025463104248046875 0.024751663208007812 -0.1006011962890625 0.07184600830078125
18.19225 -0.1350250244140625 0.16021728515625 0.0032911300659179688 -0.006653308868408203 0.0017175674438476562 0.02475261688232422 -0.09265899658203125 0.07934951782226562
18.202 -0.12481689453125 0.17049407958984375 0.004321098327636719 -0.007754325866699219 0.00350189208984375 0.024315834045410156 -0.0838470458984375 0.08493804931640625
18.21175 -0.11321258544921875 0.18212890625 0.002421855926513672 -0.006356954574584961 0.005919456481933594 0.02402019500732422 -0.07567214965820312 0.09494400024414062
18.2215 -0.10204315185546875 0.189178466796875 0.00400543212890625 -0.007908821105957031 0.009603500366210938 0.0227813720703125 -0.06587600708007812 0.103179931640625
18.23125 -0.09152984619140625 0.19622039794921875 0.0022580623626708984 -0.006727457046508789 0.01153564453125 0.021944046020507812 -0.058013916015625 0.10894775390625
18.241 -0.07585906982421875 0.20461273193359375 0.0010361671447753906 -0.007886409759521484 0.015024185180664062 0.020809173583984375 -0.04694366455078125 0.11446380615234375
18.25075 -0.06200408935546875 0.21208953857421875 0.0017437934875488281 -0.01055288314819336 0.016817092895507812 0.018953323364257812 -0.037723541259765625 0.11544418334960938
18.2605 -0.04907989501953125 0.2170257568359375 0.001245260238647461 -0.004992008209228516 0.019224166870117188 0.016941070556640625 -0.025127410888671875 0.12198638916015625
18.27025 -0.03524017333984375 0.22021484375 0.0008549690246582031 -0.00799560546875 0.018894195556640625 0.015453338623046875 -0.0144805908203125 0.12348175048828125
18.28 -0.02001953125 0.2249908447265625 -2.765655517578125e-05 -0.009225845336914062 0.021663665771484375 0.013750076293945312 -0.00478363037109375 0.12433624267578125
18.28975 -0.002899169921875 0.22966766357421875 -0.00104522705078125 -0.006778717041015625 0.021348953247070312 0.011503219604492188 0.00926971435546875 0.12693023681640625
18.2995 0.0107574462890625 0.2286834716796875 -0.0023012161254882812 -0.0073719024658203125 0.0240020751953125 0.00814056396484375 0.0167083740234375 0.129669189453125
18.30925 0.026611328125 0.22943115234375 -0.00066375732421875 -0.007644176483154297 0.024926185607910156 0.006264686584472656 0.0316925048828125 0.128173828125
18.319 0.0430755615234375 0.22906494140625 -0.002917766571044922 -0.007503986358642578 0.022397994995117188 0.003055572509765625 0.04209136962890625 0.1237335205078125
18.32875 0.0583038330078125 0.22833251953125 -0.002884387969970703 -0.0083465576171875 0.023950576782226562 0.0031557083129882812 0.052947998046875 0.12462615966796875
18.3385 0.071685791015625 0.2259063720703125 -0.0032439231872558594 -0.0062408447265625 0.023876190185546875 -0.00048828125 0.06346893310546875 0.12060546875
18.34825 0.0880126953125 0.2217559814453125 -0.002937793731689453 -0.00708770751953125 0.022768020629882812 -0.0022401809692382812 0.0744171142578125 0.1136627197265625
18.358 0.0990447998046875 0.217529296875 -0.0030736923217773438 -0.006717681884765625 0.021821022033691406 -0.005748748779296875 0.08280181884765625 0.11087799072265625
18.36775 0.1154937744140625 0.212066650390625 -0.004368305206298828 -0.0051212310791015625 0.021657943725585938 -0.007185935974121094 0.09148406982421875 0.10265350341796875
18.3775 0.128692626953125 0.2054443359375 -0.005116462707519531 -0.007655143737792969 0.021455764770507812 -0.008939743041992188 0.1028289794921875 0.0953369140625
18.38725 0.142974853515625 0.1982269287109375 -0.006688117980957031 -0.005542755126953125 0.019586563110351562 -0.009825706481933594 0.10906982421875 0.088775634765625
18.397 0.1558837890625 0.188262939453125 -0.006665706634521484 -0.006332874298095703 0.01871490478515625 -0.012659072875976562 0.11864471435546875 0.08080291748046875
18.40675 0.1669769287109375 0.1790771484375 -0.006542205810546875 -0.006301403045654297 0.016928672790527344 -0.015134811401367188 0.123138427734375 0.07509613037109375
18.4165 0.1790924072265625 0.1689300537109375 -0.006374835968017578 -0.005886554718017578 0.015191078186035156 -0.016002655029296875 0.13069915771484375 0.06573486328125
18.42625 0.1899566650390625 0.15960693359375 -0.005417346954345703 -0.005336761474609375 0.013233184814453125 -0.016386032104492188 0.1361083984375 0.05859375
18.436 0.199981689453125 0.14678955078125 -0.007088661193847656 -0.004206657409667969 0.01079559326171875 -0.017406463623046875 0.1420135498046875 0.0460357666015625
18.44575 0.2093505859375 0.135986328125 -0.007716178894042969 -0.0025205612182617188 0.009548187255859375 -0.01804351806640625 0.146820068359375 0.037353515625
18.4555 0.218048095703125 0.12335205078125 -0.006430625915527344 -0.004068851470947266 0.009385108947753906 -0.018471717834472656 0.149200439453125 0.0278472900390625
18.46525 0.226806640625 0.1110076904296875 -0.007985591888427734 -0.0029387474060058594 0.007232666015625 -0.019384384155273438 0.1519622802734375 0.01891326904296875
18.475 0.2323455810546875 0.09613037109375 -0.007092952728271484 -0.0021309852600097656 0.004874229431152344 -0.0194091796875 0.15320587158203125 0.00576019287109375
18.48475 0.2397308349609375 0.08319091796875 -0.00870656967163086 -0.0010161399841308594 0.004557609558105469 -0.019746780395507812 0.1554107666015625 -0.0032958984375
18.4945 0.244659423828125 0.0676116943359375 -0.008255481719970703 -0.0015010833740234375 0.0020599365234375 -0.020544052124023438 0.15653228759765625 -0.01674652099609375
18.50425 0.2488555908203125 0.05487060546875 -0.00800943374633789 -0.001041412353515625 -0.00032806396484375 -0.018987655639648438 0.15590667724609375 -0.02564239501953125
18.514 0.25115966796875 0.038665771484375 -0.008847236633300781 -0.0012159347534179688 -0.0011157989501953125 -0.0188446044921875 0.1552886962890625 -0.0365142822265625
18.52375 0.2522430419921875 0.0222930908203125 -0.009293556213378906 2.3365020751953125e-05 -0.0026712417602539062 -0.020453453063964844 0.15279388427734375 -0.04749298095703125
18.5335 0.253814697265625 0.0067138671875 -0.007856369018554688 0.0008134841918945312 -0.006428718566894531 -0.01976776123046875 0.1510009765625 -0.057373046875
18.54325 0.2538299560546875 -0.0086822509765625 -0.00803518295288086 0.0014820098876953125 -0.00513458251953125 -0.01802825927734375 0.14742279052734375 -0.06681060791015625
18.553 0.253143310546875 -0.0266876220703125 -0.007447719573974609 0.0017244815826416016 -0.007449150085449219 -0.018133163452148438 0.1467742919921875 -0.0749664306640625
18.56275 0.2518463134765625 -0.042022705078125 -0.008344650268554688 0.0022492408752441406 -0.0078029632568359375 -0.01657581329345703 0.139129638671875 -0.085540771484375
18.5725 0.247955322265625 -0.055206298828125 -0.0072782039642333984 0.002221345901489258 -0.010159492492675781 -0.01683807373046875 0.1347503662109375 -0.09386444091796875
18.58225 0.24401092529296875 -0.069488525390625 -0.00698089599609375 0.003949880599975586 -0.011419296264648438 -0.015069007873535156 0.12815093994140625 -0.1026153564453125
18.592 0.2397003173828125 -0.085418701171875 -0.0070362091064453125 0.0030698776245117188 -0.012928009033203125 -0.01485443115234375 0.12180328369140625 -0.11302947998046875
18.60175 0.23390960693359375 -0.10018157958984375 -0.00616145133972168 0.0035965442657470703 -0.015027999877929688 -0.014721870422363281 0.11644744873046875 -0.11737823486328125
18.6115 0.2259979248046875 -0.1134033203125 -0.0075643062591552734 0.004000186920166016 -0.014796257019042969 -0.011601448059082031 0.1094207763671875 -0.13022613525390625
18.62125 0.21828460693359375 -0.12738037109375 -0.006440877914428711 0.005391836166381836 -0.015255928039550781 -0.01084136962890625 0.09770965576171875 -0.133514404296875
18.631 0.207794189453125 -0.14098358154296875 -0.0058748722076416016 0.0055048465728759766 -0.01733112335205078 -0.011560440063476562 0.0923614501953125 -0.1415557861328125
