!Created with skrf (http://scikit-rf.org).
# GHz S RI R 50.0 
!freq ReS11 ImS11 ReS21 ImS21 ReS12 ImS12 ReS22 ImS22
17.5 0.178955078125 0.141448974609375 0.005588531494140625 0.005825519561767578 -0.013514518737792969 0.016706466674804688 0.1993408203125 0.1114959716796875
17.50975 0.185760498046875 0.13287353515625 0.005837440490722656 0.005469799041748047 -0.012116432189941406 0.020572662353515625 0.2054901123046875 0.1004638671875
17.5195 0.1912078857421875 0.1235504150390625 0.0056438446044921875 0.004534244537353516 -0.009320259094238281 0.020381927490234375 0.211212158203125 0.0882415771484375
17.52925 0.1968994140625 0.1149444580078125 0.006007194519042969 0.004539966583251953 -0.008330345153808594 0.02126598358154297 0.21502685546875 0.0795440673828125
17.539 0.2022247314453125 0.1051025390625 0.006785869598388672 0.004391670227050781 -0.004956245422363281 0.023103713989257812 0.219146728515625 0.0700225830078125
17.54875 0.208526611328125 0.0944976806640625 0.007884979248046875 0.003674030303955078 -0.00263214111328125 0.023763656616210938 0.2216339111328125 0.059356689453125
17.5585 0.211090087890625 0.086090087890625 0.007215976715087891 0.004024028778076172 -0.0009021759033203125 0.02212238311767578 0.2220916748046875 0.05047607421875
17.56825 0.214263916015625 0.073944091796875 0.007761478424072266 0.0028285980224609375 0.0016813278198242188 0.022003173828125 0.2234039306640625 0.040496826171875
17.578 0.217132568359375 0.064849853515625 0.009571075439453125 0.0005726814270019531 0.0039310455322265625 0.02183055877685547 0.2273712158203125 0.0309600830078125
17.58775 0.2166900634765625 0.0532379150390625 0.008160591125488281 0.0010123252868652344 0.004405021667480469 0.02196979522705078 0.22791290283203125 0.02037811279296875
17.5975 0.2192840576171875 0.0426483154296875 0.00895833969116211 -0.0004634857177734375 0.006744384765625 0.02259349822998047 0.22647857666015625 0.0085906982421875
17.60725 0.217864990234375 0.033477783203125 0.007485628128051758 -0.0006079673767089844 0.009074211120605469 0.019834518432617188 0.22705078125 -0.00112152099609375
17.617 0.2200469970703125 0.020263671875 0.00888824462890625 -1.5735626220703125e-05 0.01139068603515625 0.019775390625 0.2243499755859375 -0.01052093505859375
17.62675 0.22022247314453125 0.01039886474609375 0.00785970687866211 -0.0012969970703125 0.012464523315429688 0.018105506896972656 0.22223663330078125 -0.0215606689453125
17.6365 0.21881866455078125 0.00043487548828125 0.009738445281982422 -0.0009670257568359375 0.015649795532226562 0.0165557861328125 0.22255706787109375 -0.03293609619140625
17.64625 0.21622467041015625 -0.009765625 0.007391929626464844 -0.002886533737182617 0.016613006591796875 0.015333175659179688 0.2180633544921875 -0.04177093505859375
17.656 0.2134552001953125 -0.0212249755859375 0.007352113723754883 -0.0029473304748535156 0.017530441284179688 0.013197898864746094 0.21404266357421875 -0.05281829833984375
17.66575 0.21199798583984375 -0.03215789794921875 0.0077588558197021484 -0.004948139190673828 0.020978927612304688 0.012447357177734375 0.21112060546875 -0.06177520751953125
17.6755 0.2058563232421875 -0.04416656494140625 0.006890773773193359 -0.0048673152923583984 0.020773887634277344 0.009142875671386719 0.2062835693359375 -0.070098876953125
17.68525 0.20191192626953125 -0.05329132080078125 0.006705284118652344 -0.006880521774291992 0.021787643432617188 0.006694793701171875 0.202117919921875 -0.0793609619140625
17.695 0.1982574462890625 -0.0641937255859375 0.005326509475708008 -0.007082939147949219 0.02418231964111328 0.006130218505859375 0.19506072998046875 -0.08885955810546875
17.70475 0.1908721923828125 -0.072021484375 0.0051555633544921875 -0.008084297180175781 0.0232696533203125 0.0033588409423828125 0.190826416015625 -0.097412109375
17.7145 0.1840667724609375 -0.0805511474609375 0.0054912567138671875 -0.0078887939453125 0.02413177490234375 0.0001773834228515625 0.1852569580078125 -0.105133056640625
17.72425 0.1799163818359375 -0.0888824462890625 0.0038013458251953125 -0.008565902709960938 0.0227813720703125 -0.002231597900390625 0.1780853271484375 -0.111480712890625
17.734 0.17427825927734375 -0.09781646728515625 0.0026540756225585938 -0.009433269500732422 0.021943092346191406 -0.004267692565917969 0.171356201171875 -0.12055206298828125
17.74375 0.16365814208984375 -0.10727691650390625 0.0030431747436523438 -0.009396553039550781 0.02305126190185547 -0.0058536529541015625 0.16330718994140625 -0.1271209716796875
17.7535 0.15430450439453125 -0.1113739013671875 0.0018420219421386719 -0.008800983428955078 0.022482872009277344 -0.008769035339355469 0.15540313720703125 -0.1342315673828125
17.76325 0.1488494873046875 -0.1187896728515625 0.001064300537109375 -0.010225296020507812 0.02092742919921875 -0.010587692260742188 0.148681640625 -0.1389007568359375
17.773 0.1360626220703125 -0.126190185546875 0.000492095947265625 -0.011972427368164062 0.02063751220703125 -0.012483596801757812 0.13946533203125 -0.1446685791015625
17.78275 0.12774658203125 -0.1320648193359375 -0.0017099380493164062 -0.010642051696777344 0.018678665161132812 -0.015985488891601562 0.130401611328125 -0.149139404296875
17.7925 0.116363525390625 -0.13885498046875 -0.0016155242919921875 -0.01018524169921875 0.017049789428710938 -0.01815032958984375 0.117767333984375 -0.1553497314453125
17.80225 0.10400390625 -0.14424896240234375 -0.0034432411193847656 -0.009303092956542969 0.015486717224121094 -0.017124176025390625 0.11328125 -0.16178131103515625
17.812 0.09566497802734375 -0.1458587646484375 -0.005728244781494141 -0.009203910827636719 0.014094352722167969 -0.019155502319335938 0.10337066650390625 -0.16638946533203125
17.82175 0.0845184326171875 -0.1495513916015625 -0.0076236724853515625 -0.009441375732421875 0.009441375732421875 -0.023084640502929688 0.094512939453125 -0.168548583984375
17.8315 0.0728607177734375 -0.1541290283203125 -0.006913185119628906 -0.00848388671875 0.0108184814453125 -0.02388763427734375 0.083221435546875 -0.170318603515625
17.84125 0.06371307373046875 -0.15428924560546875 -0.008136749267578125 -0.007953643798828125 0.0043849945068359375 -0.02442455291748047 0.07440948486328125 -0.17401123046875
17.851 0.0516204833984375 -0.156585693359375 -0.009392261505126953 -0.006476879119873047 0.0040988922119140625 -0.023462295532226562 0.064697265625 -0.17276763916015625
17.86075 0.040069580078125 -0.15363311767578125 -0.009367942810058594 -0.0065975189208984375 -0.0010614395141601562 -0.023218154907226562 0.05428314208984375 -0.17469024658203125
17.8705 0.02748870849609375 -0.15335845947265625 -0.01062774658203125 -0.004498481750488281 -0.0013246536254882812 -0.02441120147705078 0.04217529296875 -0.1739044189453125
17.88025 0.01677703857421875 -0.14965057373046875 -0.01177978515625 -0.0049896240234375 -0.0021333694458007812 -0.02532196044921875 0.03302001953125 -0.17607879638671875
17.89 0.0044708251953125 -0.1485137939453125 -0.011914730072021484 -0.0019426345825195312 -0.006072998046875 -0.023920059204101562 0.0208740234375 -0.1744842529296875
17.89975 -0.0042877197265625 -0.145751953125 -0.013996124267578125 -0.0019378662109375 -0.007801055908203125 -0.02225494384765625 0.01153564453125 -0.1711273193359375
17.9095 -0.01641845703125 -0.1417999267578125 -0.012984275817871094 0.00039005279541015625 -0.0110321044921875 -0.02252197265625 0.0009765625 -0.17059326171875
17.91925 -0.0278778076171875 -0.137542724609375 -0.012873172760009766 -0.00028896331787109375 -0.013591766357421875 -0.020137786865234375 -0.00897216796875 -0.1690216064453125
17.929 -0.0390777587890625 -0.1327972412109375 -0.014911174774169922 0.002712726593017578 -0.015605926513671875 -0.019567489624023438 -0.02276611328125 -0.164794921875
17.93875 -0.04729461669921875 -0.12645721435546875 -0.01366424560546875 0.0028228759765625 -0.016042709350585938 -0.017023086547851562 -0.03142547607421875 -0.16042327880859375
17.9485 -0.05587005615234375 -0.1209869384765625 -0.012887001037597656 0.004451751708984375 -0.0190887451171875 -0.015316009521484375 -0.0398101806640625 -0.1581573486328125
17.95825 -0.06630706787109375 -0.11223602294921875 -0.01255178451538086 0.007266044616699219 -0.0201416015625 -0.014682769775390625 -0.04766082763671875 -0.15142822265625
17.968 -0.07292938232421875 -0.10411834716796875 -0.012541770935058594 0.006356239318847656 -0.021238327026367188 -0.011823654174804688 -0.05875396728515625 -0.14478302001953125
17.97775 -0.0813140869140625 -0.09771728515625 -0.012058258056640625 0.0077648162841796875 -0.022491455078125 -0.0101470947265625 -0.0653533935546875 -0.1407928466796875
17.9875 -0.087310791015625 -0.08917236328125 -0.011603355407714844 0.009126663208007812 -0.02432537078857422 -0.006572723388671875 -0.073577880859375 -0.133026123046875
17.99725 -0.09282684326171875 -0.0815582275390625 -0.011973381042480469 0.010985374450683594 -0.022840499877929688 -0.0039730072021484375 -0.0814208984375 -0.12448883056640625
18.007 -0.09844207763671875 -0.06926727294921875 -0.010151863098144531 0.012645244598388672 -0.02553558349609375 -0.0021877288818359375 -0.08935546875 -0.11585235595703125
18.01675 -0.1031036376953125 -0.06000518798828125 -0.009069442749023438 0.013119697570800781 -0.024677276611328125 -0.0002803802490234375 -0.0975341796875 -0.10643768310546875
18.0265 -0.10711669921875 -0.04947662353515625 -0.008354663848876953 0.014398574829101562 -0.024773597717285156 0.0021886825561523438 -0.10285186767578125 -0.09647369384765625
18.03625 -0.10890960693359375 -0.03936004638671875 -0.006066322326660156 0.015801429748535156 -0.02301025390625 0.004241943359375 -0.10833740234375 -0.08575439453125
18.046 -0.11342620849609375 -0.0289306640625 -0.005756378173828125 0.015509605407714844 -0.023632049560546875 0.006031990051269531 -0.1144866943359375 -0.0781402587890625
18.05575 -0.1156768798828125 -0.0186614990234375 -0.0041179656982421875 0.017066001892089844 -0.02324390411376953 0.010692596435546875 -0.1203155517578125 -0.06740570068359375
18.0655 -0.11780548095703125 -0.00753021240234375 -0.0035457611083984375 0.01621246337890625 -0.02060699462890625 0.011419296264648438 -0.11895751953125 -0.0585479736328125
18.07525 -0.11733627319335938 0.00434112548828125 -0.0028429031372070312 0.016788482666015625 -0.019982337951660156 0.014527320861816406 -0.12137603759765625 -0.0476531982421875
18.085 -0.11544418334960938 0.014194488525390625 -3.4332275390625e-05 0.016303062438964844 -0.01984119415283203 0.014380455017089844 -0.12416839599609375 -0.03614044189453125
18.09475 -0.11435317993164062 0.024906158447265625 -0.00021457672119140625 0.01763439178466797 -0.01777172088623047 0.01777172088623047 -0.12543487548828125 -0.02428436279296875
18.1045 -0.11258697509765625 0.0322723388671875 0.0021162033081054688 0.017281532287597656 -0.015064239501953125 0.018138885498046875 -0.1248931884765625 -0.01493072509765625
18.11425 -0.10924911499023438 0.044124603271484375 0.0038194656372070312 0.017366409301757812 -0.014173507690429688 0.02166461944580078 -0.12233734130859375 -0.0043182373046875
18.124 -0.10602569580078125 0.05428314208984375 0.004506111145019531 0.01657867431640625 -0.012572288513183594 0.021026611328125 -0.12305450439453125 0.0067596435546875
18.13375 -0.10033035278320312 0.06360626220703125 0.0055389404296875 0.015207290649414062 -0.0099945068359375 0.02236652374267578 -0.11812973022460938 0.01839447021484375
18.1435 -0.09700775146484375 0.07289886474609375 0.00628662109375 0.015626907348632812 -0.00672149658203125 0.024173736572265625 -0.11639404296875 0.02852630615234375
18.15325 -0.090728759765625 0.080291748046875 0.008836746215820312 0.014467239379882812 -0.005187034606933594 0.023298263549804688 -0.11195755004882812 0.039669036865234375
18.163 -0.0836029052734375 0.09023284912109375 0.009873390197753906 0.01618194580078125 -0.0034208297729492188 0.023552894592285156 -0.1092529296875 0.04979705810546875
18.17275 -0.07863616943359375 0.09691238403320312 0.009879112243652344 0.013921737670898438 -0.000255584716796875 0.024504661560058594 -0.1055908203125 0.06050872802734375
18.1825 -0.07075881958007812 0.10515975952148438 0.013098716735839844 0.014851570129394531 0.00312042236328125 0.022996902465820312 -0.09961318969726562 0.067718505859375
18.19225 -0.06341171264648438 0.11274337768554688 0.013197898864746094 0.011880874633789062 0.0051422119140625 0.022316932678222656 -0.09224319458007812 0.076904296875
18.202 -0.054622650146484375 0.11721420288085938 0.014448165893554688 0.010811805725097656 0.006907463073730469 0.022309303283691406 -0.08240509033203125 0.08390045166015625
18.21175 -0.0464324951171875 0.12340545654296875 0.0150909423828125 0.009393692016601562 0.01030731201171875 0.022335052490234375 -0.07590484619140625 0.09143829345703125
18.2215 -0.03830718994140625 0.1280364990234375 0.014957427978515625 0.008342742919921875 0.013347625732421875 0.020929336547851562 -0.06612777709960938 0.09867477416992188
18.23125 -0.03057861328125 0.1308441162109375 0.015275001525878906 0.005293846130371094 0.0125885009765625 0.0200653076171875 -0.059017181396484375 0.103485107421875
18.241 -0.01917266845703125 0.13535308837890625 0.018688201904296875 0.007747650146484375 0.01619720458984375 0.01860809326171875 -0.046161651611328125 0.107696533203125
18.25075 -0.01099395751953125 0.13947296142578125 0.018860816955566406 0.0044403076171875 0.017475128173828125 0.01738739013671875 -0.037204742431640625 0.11095809936523438
18.2605 -0.002105712890625 0.1412200927734375 0.017877578735351562 0.004245758056640625 0.018045425415039062 0.01549530029296875 -0.025386810302734375 0.11777114868164062
18.27025 0.00748443603515625 0.14189910888671875 0.019519805908203125 0.0011758804321289062 0.0211334228515625 0.011600494384765625 -0.015644073486328125 0.12092971801757812
18.28 0.018280029296875 0.14144134521484375 0.0196685791015625 -0.0014972686767578125 0.02063751220703125 0.01062774658203125 -0.006999969482421875 0.12246322631835938
18.28975 0.0281524658203125 0.1446990966796875 0.02032947540283203 -0.0030565261840820312 0.023398399353027344 0.007805824279785156 0.00775146484375 0.125457763671875
18.2995 0.0386962890625 0.139739990234375 0.020681381225585938 -0.0037899017333984375 0.022951126098632812 0.0071563720703125 0.0162353515625 0.1262664794921875
18.30925 0.049102783203125 0.13874053955078125 0.018082618713378906 -0.0040340423583984375 0.023352622985839844 0.003421783447265625 0.0297393798828125 0.1248931884765625
18.319 0.057708740234375 0.13883209228515625 0.01909160614013672 -0.006722450256347656 0.024265289306640625 0.0018701553344726562 0.0380859375 0.122161865234375
18.32875 0.068634033203125 0.13713836669921875 0.01847553253173828 -0.009192466735839844 0.023339271545410156 -0.00080108642578125 0.0501708984375 0.1197662353515625
18.3385 0.076080322265625 0.1327362060546875 0.015827178955078125 -0.010025978088378906 0.023095130920410156 -0.0022792816162109375 0.06024932861328125 0.116973876953125
18.34825 0.086456298828125 0.1280975341796875 0.016493797302246094 -0.010582923889160156 0.02108287811279297 -0.0044078826904296875 0.0718841552734375 0.11327362060546875
18.358 0.09326171875 0.12445831298828125 0.015626907348632812 -0.013339042663574219 0.020613670349121094 -0.0068187713623046875 0.0795745849609375 0.1087493896484375
18.36775 0.101409912109375 0.1186065673828125 0.01428985595703125 -0.012976646423339844 0.021923065185546875 -0.009744644165039062 0.0886077880859375 0.1014251708984375
18.3775 0.1103973388671875 0.11167144775390625 0.014332294464111328 -0.014960289001464844 0.018660545349121094 -0.011234283447265625 0.09920501708984375 0.09624481201171875
18.38725 0.1160888671875 0.10565948486328125 0.011743545532226562 -0.016765594482421875 0.01919269561767578 -0.011295318603515625 0.10741424560546875 0.0885162353515625
18.397 0.12339019775390625 0.0984039306640625 0.010592460632324219 -0.015468597412109375 0.017518997192382812 -0.015111923217773438 0.1163482666015625 0.08074188232421875
18.40675 0.13039398193359375 0.08977508544921875 0.009997367858886719 -0.01820087432861328 0.01615428924560547 -0.0167999267578125 0.12223052978515625 0.07433319091796875
18.4165 0.13536834716796875 0.082855224609375 0.008238792419433594 -0.017732620239257812 0.013916969299316406 -0.01592540740966797 0.129058837890625 0.06652069091796875
18.42625 0.14129638671875 0.07611083984375 0.0069408416748046875 -0.01877880096435547 0.011843681335449219 -0.0169677734375 0.13409423828125 0.05663299560546875
18.436 0.14715576171875 0.065399169921875 0.00412750244140625 -0.01837921142578125 0.012086868286132812 -0.017597198486328125 0.1396942138671875 0.048553466796875
18.44575 0.14997100830078125 0.0573272705078125 0.0026760101318359375 -0.020219802856445312 0.009375572204589844 -0.018756866455078125 0.1456298828125 0.0387725830078125
18.4555 0.15252685546875 0.04993438720703125 0.0024862289428710938 -0.02036285400390625 0.008049964904785156 -0.018697738647460938 0.14871978759765625 0.03003692626953125
18.46525 0.15833282470703125 0.03755950927734375 0.0001544952392578125 -0.019988059997558594 0.006443023681640625 -0.019550323486328125 0.1510772705078125 0.01964569091796875
18.475 0.15781402587890625 0.03060150146484375 -0.0010776519775390625 -0.020264625549316406 0.0037689208984375 -0.020181655883789062 0.15070343017578125 0.0080413818359375
18.48475 0.16109466552734375 0.02208709716796875 -0.0032405853271484375 -0.022436141967773438 0.0035457611083984375 -0.02052783966064453 0.15364837646484375 -0.00119781494140625
18.4945 0.1613922119140625 0.01131439208984375 -0.005055427551269531 -0.02102375030517578 0.0014362335205078125 -0.022081375122070312 0.1548614501953125 -0.0130157470703125
18.50425 0.16149139404296875 0.0044097900390625 -0.005615234375 -0.019560813903808594 -1.049041748046875e-05 -0.021612167358398438 0.1544189453125 -0.02283477783203125
18.514 0.1586456298828125 -0.006195068359375 -0.00667572021484375 -0.021671295166015625 -0.0024013519287109375 -0.02025604248046875 0.156982421875 -0.0334014892578125
18.52375 0.15880584716796875 -0.0170135498046875 -0.008893966674804688 -0.019783973693847656 -0.0036630630493164062 -0.020554542541503906 0.1520233154296875 -0.04376983642578125
18.5335 0.1576995849609375 -0.02828216552734375 -0.009404182434082031 -0.0177764892578125 -0.004748344421386719 -0.020229339599609375 0.1518096923828125 -0.0562896728515625
18.54325 0.15448760986328125 -0.0377044677734375 -0.008914947509765625 -0.017833709716796875 -0.0066623687744140625 -0.019460678100585938 0.14720916748046875 -0.06266021728515625
18.553 0.149749755859375 -0.0472564697265625 -0.014392852783203125 -0.017475128173828125 -0.009098052978515625 -0.018621444702148438 0.1465301513671875 -0.07334136962890625
18.56275 0.14916229248046875 -0.05622100830078125 -0.012622833251953125 -0.01747894287109375 -0.009866714477539062 -0.018331527709960938 0.14068603515625 -0.08292388916015625
18.5725 0.14417266845703125 -0.0644378662109375 -0.01555633544921875 -0.014919281005859375 -0.01178741455078125 -0.016777992248535156 0.13579559326171875 -0.0930328369140625
18.58225 0.1385345458984375 -0.072998046875 -0.01709747314453125 -0.01514434814453125 -0.014675140380859375 -0.017364501953125 0.131591796875 -0.1006927490234375
18.592 0.132171630859375 -0.0829620361328125 -0.01776123046875 -0.013071060180664062 -0.015017509460449219 -0.014591217041015625 0.12396240234375 -0.1101837158203125
18.60175 0.12664794921875 -0.08858489990234375 -0.019598007202148438 -0.012300491333007812 -0.016237258911132812 -0.013195037841796875 0.11751937866210938 -0.11703872680664062
18.6115 0.11962509155273438 -0.09446334838867188 -0.0202484130859375 -0.009940147399902344 -0.016391754150390625 -0.011824607849121094 0.1095428466796875 -0.12841033935546875
18.62125 0.1123504638671875 -0.10334014892578125 -0.023347854614257812 -0.00959014892578125 -0.017259597778320312 -0.010329246520996094 0.1000823974609375 -0.13375091552734375
