!Created with skrf (http://scikit-rf.org).
# GHz S RI R 50.0 
!freq ReS11 ImS11 ReS21 ImS21 ReS12 ImS12 ReS22 ImS22
17.5 0.2438507080078125 0.203033447265625 -0.002162933349609375 -0.09202957153320312 -0.0017359256744384766 0.0008649826049804688 0.095947265625 0.07309722900390625
17.50975 0.256011962890625 0.190216064453125 -0.00888824462890625 -0.09132766723632812 -0.00011819601058959961 -0.001435697078704834 0.09845733642578125 0.06931304931640625
17.5195 0.2656707763671875 0.17523193359375 -0.020488739013671875 -0.08777618408203125 -0.0027451515197753906 0.0006119012832641602 0.10031890869140625 0.06450653076171875
17.52925 0.2730865478515625 0.1626129150390625 -0.029415130615234375 -0.08464813232421875 -0.0008699893951416016 -0.0015925168991088867 0.10181427001953125 0.06264495849609375
17.539 0.2825164794921875 0.14501953125 -0.036922454833984375 -0.08160018920898438 -0.0011990666389465332 0.000292360782623291 0.1052703857421875 0.05860137939453125
17.54875 0.289581298828125 0.1319427490234375 -0.044818878173828125 -0.07756805419921875 -0.0008802413940429688 -0.0015935897827148438 0.1063079833984375 0.056732177734375
17.5585 0.293060302734375 0.117279052734375 -0.054779052734375 -0.0718841552734375 -0.002070903778076172 -0.0005981922149658203 0.1066436767578125 0.05426025390625
17.56825 0.2992095947265625 0.1000213623046875 -0.061981201171875 -0.06734466552734375 -4.1425228118896484e-05 -0.00108259916305542 0.10872650146484375 0.0525054931640625
17.578 0.30242919921875 0.0837860107421875 -0.06939697265625 -0.05942535400390625 -0.0010179877281188965 -0.0006801486015319824 0.11058807373046875 0.050567626953125
17.58775 0.30413818359375 0.0679168701171875 -0.0754852294921875 -0.052642822265625 -0.001371622085571289 -0.0005522966384887695 0.112640380859375 0.04541778564453125
17.5975 0.3087921142578125 0.0518951416015625 -0.0804901123046875 -0.04286956787109375 -0.0009138584136962891 -0.0002372264862060547 0.1097259521484375 0.04290771484375
17.60725 0.30712890625 0.0367889404296875 -0.0846405029296875 -0.034450531005859375 -0.0014694929122924805 -0.0008618831634521484 0.1118927001953125 0.04119873046875
17.617 0.3082122802734375 0.0177764892578125 -0.08741378784179688 -0.025909423828125 0.00014421343803405762 -0.00012168288230895996 0.10987091064453125 0.038116455078125
17.62675 0.30889892578125 0.001953125 -0.08921051025390625 -0.01673126220703125 -0.0016155242919921875 -0.0004119873046875 0.1122589111328125 0.034912109375
17.6365 0.305084228515625 -0.01275634765625 -0.090057373046875 -0.00634002685546875 -0.0014495849609375 0.00034797191619873047 0.1136322021484375 0.030029296875
17.64625 0.3012847900390625 -0.0305938720703125 -0.09202194213867188 0.001194000244140625 0.0012019872665405273 -0.00037807226181030273 0.11174774169921875 0.0285491943359375
17.656 0.297576904296875 -0.04693603515625 -0.09076309204101562 0.01045989990234375 -0.00015479326248168945 -0.0010294914245605469 0.111083984375 0.02410125732421875
17.66575 0.2930908203125 -0.0624237060546875 -0.0923004150390625 0.023555755615234375 -0.0009545385837554932 0.00024193525314331055 0.1117706298828125 0.02155303955078125
17.6755 0.28619384765625 -0.0803070068359375 -0.0891265869140625 0.032379150390625 -0.0012280941009521484 0.00014150142669677734 0.113250732421875 0.01813507080078125
17.68525 0.27911376953125 -0.094329833984375 -0.0840606689453125 0.040493011474609375 -0.0005667805671691895 -0.0002650916576385498 0.11063385009765625 0.01732635498046875
17.695 0.2709503173828125 -0.109832763671875 -0.07964324951171875 0.0494537353515625 -0.0011118650436401367 0.0002867579460144043 0.11160659790039062 0.01143646240234375
17.70475 0.261810302734375 -0.122222900390625 -0.07433319091796875 0.05673980712890625 -0.0013933181762695312 0.001039266586303711 0.11165618896484375 0.00994110107421875
17.7145 0.252960205078125 -0.1343231201171875 -0.0671844482421875 0.0644683837890625 -0.002547740936279297 0.00014030933380126953 0.1107330322265625 0.008518218994140625
17.72425 0.24211883544921875 -0.14652252197265625 -0.059673309326171875 0.07055282592773438 -0.0005453526973724365 -0.00014132261276245117 0.11112213134765625 0.007770538330078125
17.734 0.23340606689453125 -0.1605682373046875 -0.05133056640625 0.07550430297851562 -0.001630544662475586 0.0005289316177368164 0.11077499389648438 0.00443267822265625
17.74375 0.21955108642578125 -0.17217254638671875 -0.043056488037109375 0.08287429809570312 -0.0010232329368591309 4.8160552978515625e-05 0.10903167724609375 0.003940582275390625
17.7535 0.20526123046875 -0.18018341064453125 -0.034633636474609375 0.08665084838867188 -0.0017327070236206055 -0.00040900707244873047 0.11008453369140625 0.00057220458984375
17.76325 0.19556427001953125 -0.189361572265625 -0.02629852294921875 0.08999252319335938 -0.0001417398452758789 0.0008537769317626953 0.10873031616210938 -0.00171661376953125
17.773 0.1771240234375 -0.1997528076171875 -0.01509857177734375 0.09192657470703125 1.4632940292358398e-05 0.00046128034591674805 0.10943603515625 -0.00292205810546875
17.78275 0.1632537841796875 -0.2071380615234375 -0.005252838134765625 0.09335708618164062 -0.0009513497352600098 0.0003935396671295166 0.10625839233398438 -0.006381988525390625
17.7925 0.1469268798828125 -0.21637725830078125 0.005123138427734375 0.09334564208984375 -0.0007117986679077148 -0.0004157423973083496 0.10626983642578125 -0.009738922119140625
17.80225 0.13339996337890625 -0.22336578369140625 0.01467132568359375 0.09363174438476562 -0.0014670491218566895 0.00017893314361572266 0.10609054565429688 -0.01348876953125
17.812 0.115570068359375 -0.22603607177734375 0.023403167724609375 0.09005355834960938 -0.0010470747947692871 0.0006474852561950684 0.10923004150390625 -0.016544342041015625
17.82175 0.10076904296875 -0.23189544677734375 0.030887603759765625 0.08613204956054688 -0.00026419758796691895 -0.00013467669486999512 0.10851287841796875 -0.01851654052734375
17.8315 0.08441162109375 -0.23619842529296875 0.04093170166015625 0.082611083984375 -0.0004206746816635132 0.00020653009414672852 0.10845947265625 -0.02199554443359375
17.84125 0.068450927734375 -0.2361602783203125 0.048828125 0.07843017578125 -0.0005522966384887695 -5.245208740234375e-06 0.1060333251953125 -0.023834228515625
17.851 0.0529937744140625 -0.23860931396484375 0.05462646484375 0.07456207275390625 0.0006524920463562012 0.0005009174346923828 0.1066436767578125 -0.026729583740234375
17.86075 0.03501129150390625 -0.237701416015625 0.0632476806640625 0.065765380859375 -0.0003254115581512451 -0.0005339682102203369 0.104827880859375 -0.0288848876953125
17.8705 0.02088165283203125 -0.2358551025390625 0.0689239501953125 0.0584564208984375 0.0003414154052734375 0.000638425350189209 0.10295867919921875 -0.0332794189453125
17.88025 0.00373077392578125 -0.23193359375 0.07391357421875 0.049652099609375 -0.001425325870513916 0.0009905099868774414 0.10266494750976562 -0.034885406494140625
17.89 -0.01412200927734375 -0.2297515869140625 0.078887939453125 0.04396820068359375 -0.001381993293762207 0.0011980533599853516 0.10085296630859375 -0.03708648681640625
17.89975 -0.02886962890625 -0.2235107421875 0.08348846435546875 0.03569793701171875 -0.0007848739624023438 1.475214958190918e-05 0.09950637817382812 -0.040477752685546875
17.9095 -0.0448760986328125 -0.2196197509765625 0.08506393432617188 0.02581024169921875 -0.0013922452926635742 -0.00022286176681518555 0.09788131713867188 -0.04630279541015625
17.91925 -0.060150146484375 -0.213531494140625 0.08544921875 0.01834869384765625 -0.0008299350738525391 0.00014829635620117188 0.09668731689453125 -0.04815673828125
17.929 -0.0758514404296875 -0.204254150390625 0.08800506591796875 0.011638641357421875 0.0006133019924163818 0.00028440356254577637 0.09283828735351562 -0.0556182861328125
17.93875 -0.0886688232421875 -0.1963653564453125 0.08901214599609375 0.001865386962890625 -0.0012125968933105469 -0.0005661845207214355 0.092376708984375 -0.057636260986328125
17.9485 -0.10205078125 -0.189056396484375 0.08977890014648438 -0.00827789306640625 -0.001996159553527832 5.888938903808594e-05 0.09131622314453125 -0.060604095458984375
17.95825 -0.1140899658203125 -0.177581787109375 0.086639404296875 -0.017696380615234375 -0.000508040189743042 -5.570054054260254e-05 0.09003448486328125 -0.06441879272460938
17.968 -0.1263275146484375 -0.16705322265625 0.08426666259765625 -0.027126312255859375 -0.00040568411350250244 -4.291534423828125e-05 0.08356857299804688 -0.06683349609375
17.97775 -0.136749267578125 -0.156097412109375 0.08153152465820312 -0.03548431396484375 -0.0009999275207519531 0.0002034902572631836 0.08339691162109375 -0.07007217407226562
17.9875 -0.1481475830078125 -0.1439208984375 0.0760650634765625 -0.04206085205078125 1.7881393432617188e-07 0.0005202293395996094 0.08002090454101562 -0.07122421264648438
17.99725 -0.158172607421875 -0.133514404296875 0.0723876953125 -0.04946136474609375 -0.0005558133125305176 0.0005233883857727051 0.07540130615234375 -0.07656097412109375
18.007 -0.1636505126953125 -0.1190032958984375 0.06531524658203125 -0.055805206298828125 -0.001803278923034668 -0.00046443939208984375 0.07088088989257812 -0.078155517578125
18.01675 -0.173248291015625 -0.10284423828125 0.06227302551269531 -0.05919837951660156 -0.00013047456741333008 -0.0005492568016052246 0.06649398803710938 -0.07903289794921875
18.0265 -0.180267333984375 -0.0888214111328125 0.0560760498046875 -0.06938552856445312 -0.001687169075012207 0.00042569637298583984 0.062290191650390625 -0.08092117309570312
18.03625 -0.1875152587890625 -0.0742950439453125 0.0491943359375 -0.0732879638671875 -0.0002031177282333374 0.000421673059463501 0.05704498291015625 -0.08347320556640625
18.046 -0.191162109375 -0.0572509765625 0.04119110107421875 -0.07865524291992188 -0.0004978179931640625 -0.00021857023239135742 0.051822662353515625 -0.08526611328125
18.05575 -0.1934356689453125 -0.04376983642578125 0.032947540283203125 -0.08521652221679688 -0.0010759234428405762 0.0005441904067993164 0.04644012451171875 -0.08852386474609375
18.0655 -0.197662353515625 -0.0258331298828125 0.022747039794921875 -0.08698272705078125 0.001601099967956543 4.470348358154297e-06 0.041412353515625 -0.08820724487304688
18.07525 -0.1994476318359375 -0.010833740234375 0.01424407958984375 -0.08675384521484375 -0.001180410385131836 -7.390975952148438e-05 0.0357513427734375 -0.09082794189453125
18.085 -0.20186614990234375 0.00315093994140625 0.00443267822265625 -0.08718109130859375 -0.000845491886138916 0.0009493529796600342 0.03221893310546875 -0.09256744384765625
18.09475 -0.20046234130859375 0.0176239013671875 -0.002838134765625 -0.08732986450195312 -0.0018807053565979004 0.0011060833930969238 0.026119232177734375 -0.09085464477539062
18.1045 -0.19908905029296875 0.03350067138671875 -0.010623931884765625 -0.08614730834960938 -0.0010433793067932129 0.0016112327575683594 0.02240753173828125 -0.08800125122070312
18.11425 -0.19464111328125 0.0499420166015625 -0.0192413330078125 -0.08539199829101562 -0.00035956501960754395 -0.00032255053520202637 0.0188446044921875 -0.08821487426757812
18.124 -0.19110870361328125 0.065399169921875 -0.028865814208984375 -0.08311843872070312 -0.0006209611892700195 0.0009021759033203125 0.014202117919921875 -0.08819961547851562
18.13375 -0.1848297119140625 0.0795440673828125 -0.037841796875 -0.0800933837890625 0.000535130500793457 0.0008887648582458496 0.00902557373046875 -0.08782958984375
18.1435 -0.1793670654296875 0.0935516357421875 -0.046260833740234375 -0.07561492919921875 -0.0009100437164306641 0.0017546415328979492 0.004261016845703125 -0.08663177490234375
18.15325 -0.17205810546875 0.1065216064453125 -0.05390167236328125 -0.0699005126953125 0.0015751123428344727 0.00027740001678466797 -0.00286102294921875 -0.08264923095703125
18.163 -0.16461181640625 0.11940765380859375 -0.061492919921875 -0.06417083740234375 -0.0011562705039978027 0.001343071460723877 -0.007251739501953125 -0.08100128173828125
18.17275 -0.15647125244140625 0.1351318359375 -0.0680999755859375 -0.05756378173828125 -0.0009215176105499268 0.0003274977207183838 -0.01287841796875 -0.07810592651367188
18.1825 -0.147491455078125 0.14623260498046875 -0.07238388061523438 -0.050563812255859375 5.377829074859619e-05 0.00029662251472473145 -0.01666259765625 -0.07613372802734375
18.19225 -0.13653564453125 0.1579742431640625 -0.07714462280273438 -0.0441131591796875 -0.0006787776947021484 -0.00036728382110595703 -0.02204132080078125 -0.07336807250976562
18.202 -0.1258392333984375 0.168670654296875 -0.08145523071289062 -0.033542633056640625 0.0015213489532470703 0.0007276535034179688 -0.0235595703125 -0.07192230224609375
18.21175 -0.11419677734375 0.1783599853515625 -0.0843658447265625 -0.0266265869140625 6.473064422607422e-05 0.0008040964603424072 -0.027740478515625 -0.06622314453125
18.2215 -0.102630615234375 0.1880340576171875 -0.0863189697265625 -0.017974853515625 0.001206517219543457 8.618831634521484e-05 -0.02986907958984375 -0.06215667724609375
18.23125 -0.09238433837890625 0.1951141357421875 -0.08806991577148438 -0.00717926025390625 0.0003228187561035156 0.0021238327026367188 -0.03539276123046875 -0.05970001220703125
18.241 -0.07849884033203125 0.2034912109375 -0.08917617797851562 0.00086212158203125 2.759695053100586e-05 0.0004293471574783325 -0.036548614501953125 -0.05615997314453125
18.25075 -0.06427764892578125 0.2117767333984375 -0.0860137939453125 0.008007049560546875 -0.00030419230461120605 0.00023293495178222656 -0.04094696044921875 -0.054431915283203125
18.2605 -0.05217742919921875 0.21619415283203125 -0.08533859252929688 0.017444610595703125 -0.00013360381126403809 0.0009460747241973877 -0.039825439453125 -0.048736572265625
18.27025 -0.03570556640625 0.22161102294921875 -0.0839691162109375 0.025363922119140625 -0.0006245672702789307 0.0007945895195007324 -0.043277740478515625 -0.044353485107421875
18.28 -0.021514892578125 0.22489166259765625 -0.07963180541992188 0.03449249267578125 -2.5443732738494873e-05 -0.00017174333333969116 -0.044979095458984375 -0.0402069091796875
18.28975 -0.00506591796875 0.2287445068359375 -0.076751708984375 0.042682647705078125 0.0007530450820922852 0.0002149343490600586 -0.04485321044921875 -0.0360870361328125
18.2995 0.0080718994140625 0.2276763916015625 -0.0715484619140625 0.049045562744140625 0.0005764365196228027 -0.0005803108215332031 -0.048919677734375 -0.027324676513671875
18.30925 0.0260009765625 0.228851318359375 -0.065582275390625 0.0558013916015625 0.0017995834350585938 -0.0011255741119384766 -0.04579925537109375 -0.02337646484375
18.319 0.042755126953125 0.2305450439453125 -0.06141090393066406 0.06098365783691406 0.0008320808410644531 0.0015659332275390625 -0.0494384765625 -0.02075958251953125
18.32875 0.0559539794921875 0.227996826171875 -0.052837371826171875 0.06871795654296875 -0.00021342933177947998 -0.00020968914031982422 -0.048831939697265625 -0.014560699462890625
18.3385 0.0715484619140625 0.2274169921875 -0.046085357666015625 0.0711517333984375 0.001579880714416504 -0.000225067138671875 -0.04988861083984375 -0.010297775268554688
18.34825 0.086151123046875 0.22265625 -0.038394927978515625 0.07462692260742188 0.0013505816459655762 0.0002847909927368164 -0.05056190490722656 -0.00591278076171875
18.358 0.09857177734375 0.218505859375 -0.030406951904296875 0.07839202880859375 0.0003904104232788086 9.673833847045898e-05 -0.05004310607910156 -0.0016193389892578125
18.36775 0.113128662109375 0.2148284912109375 -0.02346038818359375 0.08139419555664062 0.0020465850830078125 0.001313924789428711 -0.04787635803222656 0.0012187957763671875
18.3775 0.127593994140625 0.20538330078125 -0.01442718505859375 0.0826416015625 0.0008107423782348633 0.00025773048400878906 -0.045131683349609375 0.006427764892578125
18.38725 0.1410369873046875 0.197418212890625 -0.007236480712890625 0.08261489868164062 0.00028455257415771484 -0.0006948411464691162 -0.04437828063964844 0.011766433715820312
18.397 0.154876708984375 0.191986083984375 0.0019073486328125 0.08168792724609375 -0.0006400644779205322 0.0009036362171173096 -0.04102897644042969 0.016366958618164062
18.40675 0.1651458740234375 0.1814117431640625 0.00913238525390625 0.08243560791015625 2.5674700736999512e-05 0.00020641088485717773 -0.03984642028808594 0.021312713623046875
18.4165 0.176849365234375 0.1713714599609375 0.015193939208984375 0.0803985595703125 0.0007576346397399902 0.0005462169647216797 -0.03754997253417969 0.024181365966796875
18.42625 0.1874542236328125 0.1619415283203125 0.02555084228515625 0.07953643798828125 0.0004241466522216797 -0.0005255639553070068 -0.034671783447265625 0.029529571533203125
18.436 0.200286865234375 0.147979736328125 0.0331268310546875 0.07555770874023438 -0.0016646385192871094 -0.0005042552947998047 -0.03296852111816406 0.030155181884765625
18.44575 0.207977294921875 0.13568115234375 0.0394744873046875 0.0710601806640625 -0.0005081892013549805 -0.0005897283554077148 -0.02825164794921875 0.035228729248046875
18.4555 0.2174224853515625 0.12408447265625 0.047149658203125 0.06903076171875 -0.0003153681755065918 -0.000784456729888916 -0.024871826171875 0.03783988952636719
18.46525 0.226531982421875 0.112091064453125 0.051418304443359375 0.06341171264648438 0.00017336010932922363 0.0004812777042388916 -0.022853851318359375 0.04074859619140625
18.475 0.2316741943359375 0.0970306396484375 0.05712890625 0.05682373046875 0.0005462765693664551 0.00037977099418640137 -0.017824172973632812 0.0427703857421875
18.48475 0.2376708984375 0.08551025390625 0.06439590454101562 0.05010986328125 0.0010213851928710938 0.0002700686454772949 -0.014139175415039062 0.04606819152832031
18.4945 0.2435150146484375 0.0699005126953125 0.06924057006835938 0.044582366943359375 -0.0004955530166625977 0.00026169419288635254 -0.0093994140625 0.04678916931152344
18.50425 0.2466583251953125 0.0565338134765625 0.07234954833984375 0.03759765625 0.001363992691040039 -0.00017005205154418945 -0.0039081573486328125 0.04730987548828125
18.514 0.251129150390625 0.0420074462890625 0.07616424560546875 0.03134918212890625 -0.0008194148540496826 -0.00010016560554504395 0.0002536773681640625 0.04761314392089844
18.52375 0.252532958984375 0.025299072265625 0.0781097412109375 0.0227508544921875 -0.0003158450126647949 0.0007921457290649414 0.002864837646484375 0.04961395263671875
18.5335 0.25579833984375 0.0087738037109375 0.07984161376953125 0.01522064208984375 0.0006383359432220459 -0.00018957257270812988 0.00998687744140625 0.048732757568359375
18.54325 0.2550811767578125 -0.0074920654296875 0.08072662353515625 0.008525848388671875 0.0006144344806671143 -0.0003326833248138428 0.013103485107421875 0.049396514892578125
18.553 0.2523040771484375 -0.0227508544921875 0.0806121826171875 0.000213623046875 0.0007445812225341797 -0.00021210312843322754 0.018543243408203125 0.0495452880859375
18.56275 0.2525634765625 -0.03948974609375 0.08048248291015625 -0.007843017578125 7.62641429901123e-05 -0.0005696415901184082 0.021686553955078125 0.05023956298828125
18.5725 0.2489166259765625 -0.052703857421875 0.07943344116210938 -0.017734527587890625 0.0007336735725402832 -0.0014598965644836426 0.02642059326171875 0.048862457275390625
18.58225 0.2444000244140625 -0.06851959228515625 0.07702255249023438 -0.02301788330078125 0.00015450268983840942 -0.00021509826183319092 0.030941009521484375 0.04709625244140625
18.592 0.240325927734375 -0.0836944580078125 0.075103759765625 -0.03072357177734375 -0.0001659691333770752 7.15404748916626e-05 0.03545379638671875 0.0455780029296875
18.60175 0.2346954345703125 -0.097076416015625 0.07108688354492188 -0.036968231201171875 -0.0006038546562194824 0.0003637373447418213 0.039394378662109375 0.04599761962890625
18.6115 0.2276153564453125 -0.109405517578125 0.06613540649414062 -0.043834686279296875 0.0006536543369293213 -0.00025084614753723145 0.041172027587890625 0.04001617431640625
18.62125 0.2177886962890625 -0.1263275146484375 0.06040763854980469 -0.05043601989746094 0.001610398292541504 -0.0006871819496154785 0.04592132568359375 0.038608551025390625
