!Created with skrf (http://scikit-rf.org).
# GHz S RI R 50.0 
!freq ReS11 ImS11 ReS21 ImS21 ReS12 ImS12 ReS22 ImS22
17.5 0.2050018310546875 0.1165771484375 4.486572265625 0.351318359375 0.0005201399326324463 -0.0005739927291870117 0.09729766845703125 0.0735015869140625
17.50975 0.2110137939453125 0.1076507568359375 4.471435546875 -0.1318359375 -0.0007700324058532715 -0.0003962516784667969 0.09944915771484375 0.06948089599609375
17.5195 0.2148590087890625 0.0968780517578125 4.404052734375 -0.592041015625 -0.0011900663375854492 -0.0007318258285522461 0.09966278076171875 0.0643463134765625
17.52925 0.21783447265625 0.08740234375 4.3037109375 -1.029052734375 -0.00080108642578125 -0.0014525651931762695 0.1015625 0.06299591064453125
17.539 0.2227020263671875 0.0757293701171875 4.18505859375 -1.440185546875 -0.001402735710144043 -0.0006021261215209961 0.10520172119140625 0.06079864501953125
17.54875 0.2259979248046875 0.0653228759765625 4.0322265625 -1.851806640625 -0.0005326271057128906 -0.00034105777740478516 0.10794830322265625 0.05661773681640625
17.5585 0.224822998046875 0.057586669921875 3.8408203125 -2.265380859375 9.924173355102539e-06 -0.00045943260192871094 0.107452392578125 0.0555572509765625
17.56825 0.229400634765625 0.0461883544921875 3.5953369140625 -2.667724609375 -0.001301407814025879 -0.0012868642807006836 0.10839080810546875 0.0513153076171875
17.578 0.229736328125 0.0372314453125 3.299072265625 -3.050048828125 9.363889694213867e-05 -0.00042103230953216553 0.11095428466796875 0.0507049560546875
17.58775 0.2286376953125 0.02764892578125 2.9339599609375 -3.368408203125 -0.0004194974899291992 -0.001491546630859375 0.11164093017578125 0.04524993896484375
17.5975 0.2307586669921875 0.017059326171875 2.548828125 -3.6573486328125 -0.0003914833068847656 -0.0007339119911193848 0.10987091064453125 0.04326629638671875
17.60725 0.2279815673828125 0.0078582763671875 2.1357421875 -3.8682861328125 -0.0013506412506103516 -4.684925079345703e-05 0.11171722412109375 0.04166412353515625
17.617 0.22937774658203125 -0.0040740966796875 1.743896484375 -4.04345703125 -0.0011955499649047852 -0.0023970603942871094 0.1096649169921875 0.03871917724609375
17.62675 0.226898193359375 -0.0137481689453125 1.34228515625 -4.181640625 -0.00044989585876464844 -0.0015964508056640625 0.1113128662109375 0.035552978515625
17.6365 0.22409820556640625 -0.02246856689453125 0.93896484375 -4.303955078125 -0.0016309022903442383 -0.0015418529510498047 0.11202239990234375 0.03021240234375
17.64625 0.21966552734375 -0.03253173828125 0.501953125 -4.39208984375 -0.00036659836769104004 -0.00048360228538513184 0.1118011474609375 0.02942657470703125
17.656 0.2162322998046875 -0.0428314208984375 0.0537109375 -4.44873046875 -0.00011426210403442383 -0.0018454194068908691 0.1108245849609375 0.02510833740234375
17.66575 0.21472930908203125 -0.0516815185546875 -0.41845703125 -4.43896484375 -0.001395583152770996 -0.0008916854858398438 0.112274169921875 0.02097320556640625
17.6755 0.20782470703125 -0.0628509521484375 -0.89404296875 -4.376708984375 -0.001265406608581543 -0.0009701251983642578 0.11102294921875 0.0196533203125
17.68525 0.20577239990234375 -0.0720367431640625 -1.333984375 -4.235107421875 -0.002115011215209961 0.001822352409362793 0.109832763671875 0.0168914794921875
17.695 0.2014617919921875 -0.0810394287109375 -1.762939453125 -4.065185546875 -0.0009157061576843262 -0.0008589625358581543 0.10979461669921875 0.01291656494140625
17.70475 0.194793701171875 -0.0865020751953125 -2.1455078125 -3.83447265625 -0.0006600618362426758 -0.0007156133651733398 0.11197662353515625 0.0106048583984375
17.7145 0.1875152587890625 -0.0936431884765625 -2.50634765625 -3.59326171875 -0.00018966197967529297 -0.0013410449028015137 0.11129379272460938 0.01010894775390625
17.72425 0.1832427978515625 -0.10243988037109375 -2.840087890625 -3.319580078125 0.00012490153312683105 -0.0008575320243835449 0.11132049560546875 0.007778167724609375
17.734 0.1782684326171875 -0.1085052490234375 -3.151611328125 -3.037109375 -0.0008791685104370117 -0.001207590103149414 0.109619140625 0.006008148193359375
17.74375 0.170166015625 -0.11704254150390625 -3.434326171875 -2.706298828125 -0.00018090009689331055 -0.0012660622596740723 0.11041641235351562 0.0023651123046875
17.7535 0.16118621826171875 -0.12078094482421875 -3.6962890625 -2.365966796875 -0.0010513067245483398 -0.00043141841888427734 0.10772705078125 0.000423431396484375
17.76325 0.1544952392578125 -0.12751007080078125 -3.916259765625 -1.98291015625 -0.0005932450294494629 -0.00010633468627929688 0.10768890380859375 -0.001678466796875
17.773 0.143280029296875 -0.1346282958984375 -4.11376953125 -1.578125 -0.0015811920166015625 0.00039184093475341797 0.10869598388671875 -0.0050811767578125
17.78275 0.136474609375 -0.13988494873046875 -4.256591796875 -1.15185546875 -0.0016567707061767578 -0.0016241073608398438 0.10643768310546875 -0.007465362548828125
17.7925 0.12599945068359375 -0.14687347412109375 -4.34375 -0.708984375 -0.002045154571533203 -0.0013582706451416016 0.10642623901367188 -0.008941650390625
17.80225 0.1169891357421875 -0.1516265869140625 -4.388671875 -0.258544921875 -0.0008620321750640869 0.0005016922950744629 0.108001708984375 -0.0133514404296875
17.812 0.1058502197265625 -0.1551666259765625 -4.377197265625 0.187255859375 -0.001721203327178955 0.00011032819747924805 0.10899734497070312 -0.01602935791015625
17.82175 0.09662628173828125 -0.15930938720703125 -4.325439453125 0.603271484375 -0.0007430315017700195 0.0008296072483062744 0.10785293579101562 -0.01795196533203125
17.8315 0.0859832763671875 -0.16355133056640625 -4.2353515625 1.029296875 7.009506225585938e-05 0.0013412833213806152 0.105987548828125 -0.018688201904296875
17.84125 0.0781402587890625 -0.16534423828125 -4.1064453125 1.4326171875 -0.001953601837158203 -0.00030517578125 0.10589599609375 -0.0251617431640625
17.851 0.068206787109375 -0.1682281494140625 -3.951904296875 1.816650390625 -0.0008057355880737305 -0.0008846521377563477 0.10663604736328125 -0.02605438232421875
17.86075 0.054290771484375 -0.165557861328125 -3.76611328125 2.2059326171875 -0.00038191676139831543 -0.00016936659812927246 0.10734939575195312 -0.0285797119140625
17.8705 0.0445556640625 -0.1677093505859375 -3.54248046875 2.575439453125 -0.0020475387573242188 -0.0011330842971801758 0.1043853759765625 -0.033153533935546875
17.88025 0.03478240966796875 -0.168609619140625 -3.2723388671875 2.927978515625 -0.0029126405715942383 0.00025832653045654297 0.1017303466796875 -0.035404205322265625
17.89 0.0226898193359375 -0.166717529296875 -2.9500732421875 3.2412109375 -0.001222848892211914 -0.0015012025833129883 0.1012420654296875 -0.0363922119140625
17.89975 0.01324462890625 -0.163818359375 -2.6077880859375 3.51171875 -0.001078486442565918 0.00013273954391479492 0.10007095336914062 -0.04021453857421875
17.9095 0.000701904296875 -0.1627349853515625 -2.2489013671875 3.7425537109375 -0.0006911158561706543 -0.0007065534591674805 0.09888839721679688 -0.046070098876953125
17.91925 -0.0096282958984375 -0.1590576171875 -1.876953125 3.940185546875 -0.002258777618408203 -0.0008280277252197266 0.09734344482421875 -0.04803466796875
17.929 -0.02220916748046875 -0.15619659423828125 -1.488525390625 4.105224609375 -0.0009799003601074219 -0.0013183355331420898 0.09454727172851562 -0.054233551025390625
17.93875 -0.03012847900390625 -0.150177001953125 -1.0908203125 4.25341796875 -0.0029059648513793945 -0.00015461444854736328 0.093048095703125 -0.056713104248046875
17.9485 -0.04120635986328125 -0.14813995361328125 -0.670654296875 4.35595703125 -0.0013769268989562988 -0.00037044286727905273 0.08877944946289062 -0.06244659423828125
17.95825 -0.05010986328125 -0.14136505126953125 -0.213134765625 4.42333984375 -0.0019927024841308594 -0.00040459632873535156 0.08899307250976562 -0.06311416625976562
17.968 -0.0581817626953125 -0.13327789306640625 0.24853515625 4.412109375 -0.0009756684303283691 0.001088261604309082 0.08426284790039062 -0.06657791137695312
17.97775 -0.06722259521484375 -0.12757110595703125 0.690673828125 4.35400390625 -0.0016973018646240234 -0.0009006261825561523 0.08332061767578125 -0.06955718994140625
17.9875 -0.07659149169921875 -0.11997222900390625 1.12060546875 4.232666015625 -0.0019035935401916504 0.0002574920654296875 0.08037948608398438 -0.0711517333984375
17.99725 -0.082916259765625 -0.1136474609375 1.5078125 4.09716796875 -0.0009731054306030273 0.0008184313774108887 0.07598876953125 -0.07683563232421875
18.007 -0.090057373046875 -0.1012115478515625 1.876220703125 3.93994140625 -0.001201033592224121 -5.173683166503906e-05 0.07041168212890625 -0.0778350830078125
18.01675 -0.097900390625 -0.0940093994140625 2.23388671875 3.76416015625 -0.0006425082683563232 -0.00019663572311401367 0.06625747680664062 -0.07988739013671875
18.0265 -0.10282135009765625 -0.0841522216796875 2.599365234375 3.559326171875 -0.0011653900146484375 0.0008782148361206055 0.06201171875 -0.08073806762695312
18.03625 -0.10921478271484375 -0.07269287109375 2.971435546875 3.31005859375 -0.000600665807723999 0.0008387267589569092 0.058300018310546875 -0.08330917358398438
18.046 -0.11405181884765625 -0.0621795654296875 3.339111328125 3.002197265625 -0.001620948314666748 0.0002480149269104004 0.051654815673828125 -0.08371353149414062
18.05575 -0.11676025390625 -0.0517730712890625 3.64599609375 2.63671875 -0.002091646194458008 0.0009275674819946289 0.045612335205078125 -0.08730697631835938
18.0655 -0.12148284912109375 -0.04076385498046875 3.880859375 2.217041015625 -9.465217590332031e-05 0.0016937255859375 0.042613983154296875 -0.08803939819335938
18.07525 -0.1219024658203125 -0.0298919677734375 4.06884765625 1.79638671875 -0.001379847526550293 0.0001970529556274414 0.03798675537109375 -0.08821868896484375
18.085 -0.12419891357421875 -0.01885223388671875 4.191162109375 1.3828125 -0.0010643601417541504 0.0004769563674926758 0.032108306884765625 -0.09079742431640625
18.09475 -0.12723541259765625 -0.00844573974609375 4.2900390625 0.99462890625 0.0006797313690185547 0.0016255378723144531 0.02912139892578125 -0.09096527099609375
18.1045 -0.12469100952148438 0.001079559326171875 4.35888671875 0.590087890625 0.0009596347808837891 0.0006286501884460449 0.02181243896484375 -0.09037399291992188
18.11425 -0.12015914916992188 0.01479339599609375 4.438720703125 0.18359375 -0.0011125802993774414 -0.00040841102600097656 0.017704010009765625 -0.0898590087890625
18.124 -0.11969375610351562 0.0260009765625 4.452392578125 -0.25927734375 0.00023853778839111328 0.0016345381736755371 0.013671875 -0.0893402099609375
18.13375 -0.117767333984375 0.03658294677734375 4.435546875 -0.722412109375 -0.00019791722297668457 0.0008470118045806885 0.0087738037109375 -0.08768844604492188
18.1435 -0.11322784423828125 0.048618316650390625 4.33447265625 -1.195068359375 0.00046202540397644043 0.0003948211669921875 0.002162933349609375 -0.08515548706054688
18.15325 -0.10836029052734375 0.0561065673828125 4.17626953125 -1.62158203125 -0.0008022785186767578 0.0008237361907958984 -0.00151824951171875 -0.0827789306640625
18.163 -0.10014724731445312 0.06724929809570312 3.968994140625 -2.02392578125 -0.00104522705078125 -0.0008394718170166016 -0.00579071044921875 -0.08080291748046875
18.17275 -0.09693145751953125 0.07670211791992188 3.751953125 -2.3818359375 -0.0007901191711425781 0.0013379454612731934 -0.0131988525390625 -0.07794189453125
18.1825 -0.08957290649414062 0.08736419677734375 3.51025390625 -2.727783203125 -0.0009544193744659424 0.00033146142959594727 -0.015895843505859375 -0.07674789428710938
18.19225 -0.08177947998046875 0.09677886962890625 3.2445068359375 -3.0614013671875 -0.00010335445404052734 0.0014414787292480469 -0.020633697509765625 -0.07152938842773438
18.202 -0.07384490966796875 0.10373687744140625 2.9344482421875 -3.381103515625 -6.692111492156982e-05 0.00026141107082366943 -0.022491455078125 -0.07032394409179688
18.21175 -0.06588363647460938 0.11186599731445312 2.5955810546875 -3.6744384765625 9.500980377197266e-05 0.0014104247093200684 -0.029781341552734375 -0.06807327270507812
18.2215 -0.0580291748046875 0.1187591552734375 2.2021484375 -3.93310546875 0.0006072521209716797 0.001016855239868164 -0.0287017822265625 -0.06304931640625
18.23125 -0.049266815185546875 0.1234283447265625 1.790771484375 -4.128173828125 0.0012477636337280273 0.0022350549697875977 -0.03542327880859375 -0.058719635009765625
18.241 -0.0386810302734375 0.12813568115234375 1.35546875 -4.271240234375 0.0006107091903686523 0.0021681785583496094 -0.03662872314453125 -0.055988311767578125
18.25075 -0.027679443359375 0.13294219970703125 0.930419921875 -4.37744140625 0.00010293722152709961 0.0018157958984375 -0.041316986083984375 -0.053028106689453125
18.2605 -0.016998291015625 0.13495635986328125 0.50537109375 -4.4326171875 -0.00013622641563415527 -0.00047284364700317383 -0.039638519287109375 -0.0488128662109375
18.27025 -0.00670623779296875 0.1372528076171875 0.081298828125 -4.468994140625 0.0002766251564025879 0.001042485237121582 -0.043025970458984375 -0.044139862060546875
18.28 0.00548553466796875 0.13884735107421875 -0.349365234375 -4.472412109375 -0.00037872791290283203 0.0007272660732269287 -0.044544219970703125 -0.03980255126953125
18.28975 0.01801300048828125 0.141754150390625 -0.810791015625 -4.431884765625 0.00017344951629638672 0.0009680390357971191 -0.04555511474609375 -0.035419464111328125
18.2995 0.0291748046875 0.13944244384765625 -1.25439453125 -4.328125 -0.00012010335922241211 0.001136481761932373 -0.049137115478515625 -0.028972625732421875
18.30925 0.0398406982421875 0.1394195556640625 -1.701171875 -4.189453125 0.001447916030883789 0.0018610954284667969 -0.04680633544921875 -0.02445220947265625
18.319 0.0521697998046875 0.1387176513671875 -2.109375 -3.971923828125 0.00024968385696411133 0.0012222528457641602 -0.05107879638671875 -0.02190399169921875
18.32875 0.06330108642578125 0.13573455810546875 -2.476318359375 -3.740234375 0.0010627508163452148 -0.000777125358581543 -0.048488616943359375 -0.01532745361328125
18.3385 0.07354736328125 0.1319580078125 -2.817626953125 -3.4638671875 0.0006004571914672852 0.0019172430038452148 -0.05064201354980469 -0.010652542114257812
18.34825 0.08489227294921875 0.12729644775390625 -3.159912109375 -3.189453125 0.0005133748054504395 -0.001333475112915039 -0.04934120178222656 -0.0049571990966796875
18.358 0.09244537353515625 0.12160491943359375 -3.44482421875 -2.85498046875 0.0015319585800170898 0.0004913806915283203 -0.04962730407714844 -0.0015277862548828125
18.36775 0.0999603271484375 0.1180419921875 -3.72216796875 -2.50341796875 0.0010344982147216797 0.0010476112365722656 -0.04911041259765625 0.0017719268798828125
18.3775 0.11077880859375 0.1087188720703125 -3.94873046875 -2.11669921875 0.0001876354217529297 0.0014541149139404297 -0.046092987060546875 0.007106781005859375
18.38725 0.12029266357421875 0.102020263671875 -4.138427734375 -1.711669921875 0.0009660124778747559 0.0003358125686645508 -0.043491363525390625 0.012041091918945312
18.397 0.12577056884765625 0.0938720703125 -4.275390625 -1.286865234375 0.00146484375 -0.00012296438217163086 -0.04120826721191406 0.015460968017578125
18.40675 0.1341400146484375 0.08457183837890625 -4.3701171875 -0.861572265625 0.0007867217063903809 -0.0005075037479400635 -0.039398193359375 0.021577835083007812
18.4165 0.13921356201171875 0.07607269287109375 -4.42578125 -0.423583984375 -0.0004417151212692261 0.00023704767227172852 -0.03733634948730469 0.024496078491210938
18.42625 0.14434814453125 0.0685577392578125 -4.4580078125 0.015380859375 0.0019019842147827148 0.00018537044525146484 -0.034881591796875 0.02978515625
18.436 0.150054931640625 0.0561370849609375 -4.42626953125 0.453125 0.0011599063873291016 0.0014014244079589844 -0.031444549560546875 0.031520843505859375
18.44575 0.15264892578125 0.0467071533203125 -4.357421875 0.89208984375 0.000988304615020752 -0.00020253658294677734 -0.029247283935546875 0.034793853759765625
18.4555 0.157470703125 0.037872314453125 -4.234375 1.3232421875 0.0004468858242034912 -0.0002548098564147949 -0.025732040405273438 0.03819847106933594
18.46525 0.1619873046875 0.028045654296875 -4.071044921875 1.73388671875 0.0014757513999938965 -0.0001392960548400879 -0.022626876831054688 0.04004478454589844
18.475 0.16184234619140625 0.01802825927734375 -3.8685302734375 2.1051025390625 0.001292109489440918 -0.00010722875595092773 -0.01866912841796875 0.04190254211425781
18.48475 0.16315460205078125 0.00799560546875 -3.6552734375 2.458984375 0.0003125518560409546 -4.1678547859191895e-05 -0.013118743896484375 0.04433250427246094
18.4945 0.1638031005859375 -0.0033111572265625 -3.395751953125 2.800537109375 -0.0001455545425415039 0.0003604590892791748 -0.00963592529296875 0.04433441162109375
18.50425 0.16338348388671875 -0.01258087158203125 -3.1131591796875 3.12744140625 0.0005136430263519287 -0.0006477832794189453 -0.005466461181640625 0.04780006408691406
18.514 0.1604461669921875 -0.024169921875 -2.783935546875 3.426513671875 0.0014464855194091797 9.167194366455078e-05 -0.000751495361328125 0.0478515625
18.52375 0.1605682373046875 -0.035003662109375 -2.431884765625 3.68359375 -0.0002518892288208008 0.0008729696273803711 0.002986907958984375 0.0491790771484375
18.5335 0.15909576416015625 -0.04636383056640625 -2.0419921875 3.887939453125 0.0006561279296875 -0.0012667179107666016 0.008586883544921875 0.048984527587890625
18.54325 0.15409088134765625 -0.05515289306640625 -1.6513671875 4.051025390625 8.876621723175049e-05 0.00020967423915863037 0.0113067626953125 0.050334930419921875
18.553 0.1492156982421875 -0.0680999755859375 -1.2548828125 4.174072265625 0.001156926155090332 0.0005102753639221191 0.021556854248046875 0.0492095947265625
18.56275 0.146728515625 -0.07720184326171875 -0.86181640625 4.2734375 0.001365959644317627 -0.0002613067626953125 0.0222320556640625 0.05035400390625
18.5725 0.14083099365234375 -0.0843505859375 -0.4384765625 4.341552734375 0.0013237595558166504 0.00021910667419433594 0.0275421142578125 0.0482025146484375
18.58225 0.1343994140625 -0.09230804443359375 -0.01513671875 4.37060546875 -0.00019916892051696777 -0.0005717575550079346 0.029132843017578125 0.04688262939453125
18.592 0.128021240234375 -0.1016387939453125 0.42236328125 4.3505859375 5.7637691497802734e-05 -0.0003261566162109375 0.03459930419921875 0.044769287109375
18.60175 0.12156295776367188 -0.11011123657226562 0.85595703125 4.277099609375 0.0014488697052001953 -0.0004495978355407715 0.03814697265625 0.043895721435546875
18.6115 0.11401748657226562 -0.11513519287109375 1.262451171875 4.162841796875 -0.0009266138076782227 0.00039958953857421875 0.041229248046875 0.040149688720703125
18.62125 0.10514068603515625 -0.12491607666015625 1.659423828125 3.989501953125 0.0005768239498138428 6.717443466186523e-05 0.04581451416015625 0.039333343505859375
18.631 0.096160888671875 -0.1303253173828125 2.017578125 3.8115234375 0.0007667839527130127 9.867548942565918e-05 0.048828125 0.036251068115234375
18.64075 0.08922576904296875 -0.13465118408203125 2.35595703125 3.599853515625 0.0007424056529998779 -0.0007219910621643066 0.0544891357421875 0.033428192138671875
18.6505 0.08034515380859375 -0.139404296875 2.69580078125 3.375732421875 0.0006025433540344238 -0.0014694929122924805 0.056427001953125 0.029949188232421875
18.66025 0.06787109375 -0.14533233642578125 3.014892578125 3.100341796875 0.0014783143997192383 -0.0007178187370300293 0.057529449462890625 0.023345947265625
18.67 0.057708740234375 -0.148651123046875 3.3173828125 2.794921875 0.00045418739318847656 0.0005128979682922363 0.06143951416015625 0.01947021484375
18.67975 0.04885101318359375 -0.15087127685546875 3.580810546875 2.444580078125 0.0007769465446472168 -1.055002212524414e-05 0.06427383422851562 0.018344879150390625
18.6895 0.0372161865234375 -0.15355682373046875 3.793212890625 2.067626953125 0.0006129741668701172 -0.0014658570289611816 0.06509780883789062 0.01294708251953125
