!Created with skrf (http://scikit-rf.org).
# GHz S RI R 50.0 
!freq ReS11 ImS11 ReS21 ImS21 ReS12 ImS12 ReS22 ImS22
17.5 0.2076263427734375 0.1160125732421875 3.963134765625 0.153564453125 -9.781122207641602e-05 -0.0010051727294921875 0.09870147705078125 0.07720947265625
17.50975 0.2124481201171875 0.105194091796875 3.9371337890625 -0.273193359375 0.00026091933250427246 0.0005674660205841064 0.1010589599609375 0.07312774658203125
17.5195 0.2154541015625 0.0951080322265625 3.8590087890625 -0.6783447265625 0.00021719932556152344 -0.0014057755470275879 0.10257720947265625 0.06716156005859375
17.52925 0.21990966796875 0.0879669189453125 3.75390625 -1.0614013671875 0.0005921125411987305 -0.0006218552589416504 0.10462188720703125 0.0662841796875
17.539 0.2249298095703125 0.0755157470703125 3.6314697265625 -1.4151611328125 -0.0017262101173400879 -2.0503997802734375e-05 0.10671234130859375 0.06491851806640625
17.54875 0.226959228515625 0.065216064453125 3.4908447265625 -1.775390625 -0.0005595684051513672 -0.0024918317794799805 0.110107421875 0.0609893798828125
17.5585 0.227691650390625 0.0560302734375 3.31005859375 -2.13671875 -0.0006794929504394531 -0.0003476142883300781 0.110626220703125 0.05718994140625
17.56825 0.2291259765625 0.045684814453125 3.0831298828125 -2.4844970703125 -0.0008282661437988281 -0.00037592649459838867 0.111724853515625 0.0550994873046875
17.578 0.230499267578125 0.0355224609375 2.807373046875 -2.81640625 -0.00011241436004638672 -0.0006099343299865723 0.11408233642578125 0.05231475830078125
17.58775 0.2288818359375 0.024688720703125 2.475830078125 -3.0909423828125 -0.001291513442993164 -0.0006761550903320312 0.1160736083984375 0.04944610595703125
17.5975 0.2313690185546875 0.0146484375 2.1185302734375 -3.330078125 -0.0010489225387573242 -0.0010912418365478516 0.1148681640625 0.04524993896484375
17.60725 0.2281494140625 0.0052337646484375 1.7470703125 -3.504638671875 -0.0007991790771484375 0.00020703673362731934 0.11687469482421875 0.042755126953125
17.617 0.22844696044921875 -0.00644683837890625 1.3914794921875 -3.6466064453125 -0.0004885196685791016 -0.0009251236915588379 0.11722564697265625 0.04111480712890625
17.62675 0.2270660400390625 -0.01568603515625 1.03125 -3.754638671875 -0.0018601417541503906 -0.0009250640869140625 0.1170806884765625 0.0357208251953125
17.6365 0.2248687744140625 -0.02413177490234375 0.6700439453125 -3.8499755859375 -0.00029164552688598633 -0.0005998015403747559 0.1187744140625 0.03069305419921875
17.64625 0.21990203857421875 -0.03636932373046875 0.27734375 -3.9190673828125 -0.0010839104652404785 -0.0008070468902587891 0.1166839599609375 0.02874755859375
17.656 0.2169952392578125 -0.04439544677734375 -0.125 -3.950439453125 -0.0005370974540710449 -0.0006023645401000977 0.11553955078125 0.02245330810546875
17.66575 0.215728759765625 -0.05309295654296875 -0.55029296875 -3.928955078125 -0.0011446475982666016 -0.0018805265426635742 0.11745452880859375 0.02089691162109375
17.6755 0.2083740234375 -0.0654754638671875 -0.970947265625 -3.850341796875 -0.0011271238327026367 -0.0006406903266906738 0.11717987060546875 0.0174713134765625
17.68525 0.2036590576171875 -0.07395172119140625 -1.36279296875 -3.709716796875 -0.0016674995422363281 -0.0007953643798828125 0.115875244140625 0.01338958740234375
17.695 0.1985626220703125 -0.0833892822265625 -1.740234375 -3.537353515625 -0.001667022705078125 -0.0009523630142211914 0.11475753784179688 0.009082794189453125
17.70475 0.193634033203125 -0.0895538330078125 -2.078125 -3.32470703125 -0.0004934072494506836 0.0005759000778198242 0.11756134033203125 0.00533294677734375
17.7145 0.1857147216796875 -0.09688568115234375 -2.391845703125 -3.092529296875 -0.0006229877471923828 -0.0004488229751586914 0.11445236206054688 0.003726959228515625
17.72425 0.1803131103515625 -0.10491943359375 -2.682861328125 -2.8349609375 -0.0005596280097961426 -0.00016775727272033691 0.114013671875 0.003082275390625
17.734 0.174896240234375 -0.1117706298828125 -2.9501953125 -2.562744140625 -0.002142786979675293 -0.0012515783309936523 0.11265182495117188 -0.00140380859375
17.74375 0.16510009765625 -0.11919403076171875 -3.19189453125 -2.255126953125 -0.0016598701477050781 -0.001126408576965332 0.11156845092773438 -0.004436492919921875
17.7535 0.1575469970703125 -0.12178802490234375 -3.412109375 -1.9306640625 -0.00047537684440612793 -0.0003205835819244385 0.10943222045898438 -0.005741119384765625
17.76325 0.1519012451171875 -0.1292724609375 -3.597412109375 -1.580078125 -0.0020269155502319336 -0.000347137451171875 0.10945510864257812 -0.007099151611328125
17.773 0.1388397216796875 -0.13592529296875 -3.75146484375 -1.19482421875 -0.001367807388305664 -0.0009207725524902344 0.11046600341796875 -0.01053619384765625
17.78275 0.1330108642578125 -0.1393890380859375 -3.8583984375 -0.803466796875 -0.002550482749938965 0.0004521608352661133 0.108245849609375 -0.013336181640625
17.7925 0.12115478515625 -0.14649200439453125 -3.90771484375 -0.397705078125 -0.0010552406311035156 -0.0012840032577514648 0.1041259765625 -0.01847076416015625
17.80225 0.11333465576171875 -0.1517181396484375 -3.9208984375 0.01025390625 -0.0007780790328979492 -0.0018371343612670898 0.10430526733398438 -0.020061492919921875
17.812 0.1024932861328125 -0.1534881591796875 -3.8778076171875 0.41259765625 -0.0011034607887268066 0.00023674964904785156 0.10441207885742188 -0.02289581298828125
17.82175 0.0925750732421875 -0.15805816650390625 -3.81396484375 0.7833251953125 -0.00022207200527191162 7.586181163787842e-05 0.10485458374023438 -0.024768829345703125
17.8315 0.08075714111328125 -0.16188812255859375 -3.702392578125 1.1614990234375 -0.0024579763412475586 -0.000225067138671875 0.10437393188476562 -0.027759552001953125
17.84125 0.0742950439453125 -0.1634368896484375 -3.562744140625 1.516357421875 -0.0024476051330566406 -0.00024700164794921875 0.10173797607421875 -0.02954864501953125
17.851 0.06488037109375 -0.165283203125 -3.395751953125 1.85302734375 -0.000850677490234375 -0.0025289058685302734 0.10060882568359375 -0.0301055908203125
17.86075 0.053131103515625 -0.16454315185546875 -3.2081298828125 2.1915283203125 -0.001656949520111084 0.0003345608711242676 0.09894180297851562 -0.032871246337890625
17.8705 0.0413055419921875 -0.16570281982421875 -2.973388671875 2.5057373046875 -0.0008878707885742188 -0.000552833080291748 0.09769821166992188 -0.03485107421875
17.88025 0.03292083740234375 -0.16254425048828125 -2.705078125 2.7960205078125 -0.0009853243827819824 -0.00021505355834960938 0.09568023681640625 -0.037258148193359375
17.89 0.02014923095703125 -0.1624908447265625 -2.39599609375 3.048828125 -0.0009376406669616699 -0.0006916522979736328 0.09224700927734375 -0.040508270263671875
17.89975 0.010650634765625 -0.16118621826171875 -2.0712890625 3.26220703125 -0.0005146265029907227 7.155537605285645e-05 0.09418106079101562 -0.042057037353515625
17.9095 0.00054931640625 -0.15856170654296875 -1.73583984375 3.44189453125 -0.002447366714477539 0.0006260871887207031 0.0906982421875 -0.045684814453125
17.91925 -0.0109100341796875 -0.1543121337890625 -1.393798828125 3.587890625 -0.0028069019317626953 0.00030803680419921875 0.0894317626953125 -0.04674530029296875
17.929 -0.0211029052734375 -0.15057373046875 -1.0379638671875 3.7034912109375 -0.0024319887161254883 -0.0005333423614501953 0.08645248413085938 -0.053226470947265625
17.93875 -0.031005859375 -0.146331787109375 -0.673583984375 3.797607421875 -0.0014884471893310547 -0.00046944618225097656 0.08675003051757812 -0.054531097412109375
17.9485 -0.04103851318359375 -0.14196014404296875 -0.296142578125 3.8526611328125 -0.0016301870346069336 -0.0012981891632080078 0.08456802368164062 -0.05809783935546875
17.95825 -0.0508575439453125 -0.13678741455078125 0.1082763671875 3.8790283203125 -0.0018195509910583496 0.0009661316871643066 0.08591461181640625 -0.059055328369140625
17.968 -0.0592498779296875 -0.13005828857421875 0.506103515625 3.83203125 -0.00208890438079834 0.0006554126739501953 0.07947921752929688 -0.06391525268554688
17.97775 -0.0661163330078125 -0.124420166015625 0.888671875 3.75537109375 -0.0007153451442718506 0.00025713443756103516 0.0791168212890625 -0.0648040771484375
17.9875 -0.0740509033203125 -0.1164398193359375 1.24951171875 3.611572265625 -0.0011841654777526855 0.0011047720909118652 0.0768890380859375 -0.06890487670898438
17.99725 -0.0830078125 -0.110870361328125 1.578125 3.46728515625 -0.0014190673828125 -8.666515350341797e-05 0.072723388671875 -0.0704193115234375
18.007 -0.08901214599609375 -0.1009063720703125 1.882568359375 3.2978515625 -0.00041484832763671875 0.0009807348251342773 0.06866836547851562 -0.07303619384765625
18.01675 -0.0938568115234375 -0.088592529296875 2.183349609375 3.12109375 -0.003343820571899414 2.777576446533203e-05 0.0638427734375 -0.07412338256835938
18.0265 -0.0987396240234375 -0.080780029296875 2.479248046875 2.915771484375 -0.001598358154296875 -0.0004913806915283203 0.06122589111328125 -0.07607269287109375
18.03625 -0.105743408203125 -0.070404052734375 2.782958984375 2.674560546875 -0.00047704577445983887 -0.00036984682083129883 0.05716705322265625 -0.0766754150390625
18.046 -0.1084442138671875 -0.06069183349609375 3.070556640625 2.384521484375 -0.0010617971420288086 0.00014150142669677734 0.052539825439453125 -0.079345703125
18.05575 -0.112518310546875 -0.050750732421875 3.30419921875 2.0478515625 -0.0010881423950195312 0.0013173818588256836 0.04749298095703125 -0.08111190795898438
18.0655 -0.11876678466796875 -0.03742218017578125 3.474853515625 1.67333984375 -0.001522839069366455 0.0017018318176269531 0.04339599609375 -0.08371734619140625
18.07525 -0.1192474365234375 -0.0281524658203125 3.6142578125 1.30517578125 -0.0016080141067504883 0.000619053840637207 0.0397796630859375 -0.08499908447265625
18.085 -0.1199188232421875 -0.01723480224609375 3.6923828125 0.94140625 -0.0011705756187438965 -8.845329284667969e-05 0.034358978271484375 -0.08853912353515625
18.09475 -0.1212310791015625 -0.00887298583984375 3.749267578125 0.603271484375 -0.002002716064453125 0.0005265474319458008 0.030399322509765625 -0.087615966796875
18.1045 -0.1201324462890625 0.0001678466796875 3.78759765625 0.25146484375 -0.0015268325805664062 9.47117805480957e-05 0.025524139404296875 -0.08568954467773438
18.11425 -0.11978530883789062 0.0142364501953125 3.82568359375 -0.0986328125 -0.0016269683837890625 -0.0013964176177978516 0.0198974609375 -0.0866851806640625
18.124 -0.1168975830078125 0.02536773681640625 3.8153076171875 -0.4765625 0.0003898143768310547 0.0018596649169921875 0.017597198486328125 -0.08707046508789062
18.13375 -0.11506271362304688 0.034893035888671875 3.7677001953125 -0.867919921875 -0.001108407974243164 0.001573801040649414 0.014904022216796875 -0.08527755737304688
18.1435 -0.10856246948242188 0.0451507568359375 3.653564453125 -1.26513671875 -0.0010762214660644531 0.0006943941116333008 0.0073699951171875 -0.082489013671875
18.15325 -0.104583740234375 0.05553436279296875 3.498779296875 -1.6201171875 -0.0013494491577148438 0.0013697147369384766 0.00274658203125 -0.08045196533203125
18.163 -0.09860992431640625 0.0667572021484375 3.3001708984375 -1.9495849609375 -0.0012642741203308105 0.0016530156135559082 -0.003849029541015625 -0.07874679565429688
18.17275 -0.09463882446289062 0.07540130615234375 3.092041015625 -2.2437744140625 0.0007295012474060059 0.0009507536888122559 -0.007999420166015625 -0.07648468017578125
18.1825 -0.08879470825195312 0.08455657958984375 2.86328125 -2.5196533203125 0.0007675886154174805 0.001325368881225586 -0.0128326416015625 -0.0756683349609375
18.19225 -0.08129119873046875 0.09212875366210938 2.6253662109375 -2.7945556640625 -0.0006308555603027344 0.001363217830657959 -0.018810272216796875 -0.07244873046875
18.202 -0.07167816162109375 0.10063552856445312 2.3438720703125 -3.043701171875 -0.0015456676483154297 0.0020052194595336914 -0.019626617431640625 -0.069671630859375
18.21175 -0.06422805786132812 0.10805511474609375 2.0394287109375 -3.2784423828125 0.0002276897430419922 0.0012001395225524902 -0.02381134033203125 -0.06718063354492188
18.2215 -0.0570220947265625 0.11508941650390625 1.690673828125 -3.47314453125 5.78761100769043e-05 0.000503838062286377 -0.02703094482421875 -0.0634918212890625
18.23125 -0.04970550537109375 0.11909866333007812 1.3367919921875 -3.6204833984375 0.0011333227157592773 0.0011510848999023438 -0.03093719482421875 -0.059551239013671875
18.241 -0.036937713623046875 0.12453460693359375 0.956298828125 -3.7188720703125 0.0004953145980834961 0.0014556050300598145 -0.0321807861328125 -0.05765533447265625
18.25075 -0.02616119384765625 0.13014984130859375 0.5955810546875 -3.7938232421875 -0.0007646083831787109 0.002089262008666992 -0.036464691162109375 -0.055980682373046875
18.2605 -0.0187225341796875 0.1313018798828125 0.2293701171875 -3.8199462890625 0.0014221668243408203 0.00013202428817749023 -0.039035797119140625 -0.04975128173828125
18.27025 -0.0071258544921875 0.13541412353515625 -0.1324462890625 -3.8282470703125 0.0007688403129577637 0.0003057718276977539 -0.04091644287109375 -0.045917510986328125
18.28 0.00405120849609375 0.13580322265625 -0.49951171875 -3.819091796875 0.0008004903793334961 0.0011441707611083984 -0.044803619384765625 -0.042087554931640625
18.28975 0.01609039306640625 0.14002227783203125 -0.886474609375 -3.762939453125 0.0002154707908630371 0.0014404058456420898 -0.0431365966796875 -0.038799285888671875
18.2995 0.0263214111328125 0.136260986328125 -1.262451171875 -3.65576171875 -7.796287536621094e-05 0.0008956789970397949 -0.04644012451171875 -0.02931976318359375
18.30925 0.0400848388671875 0.1361541748046875 -1.63916015625 -3.517578125 0.0012063980102539062 0.0016717910766601562 -0.04544830322265625 -0.02603912353515625
18.319 0.05035400390625 0.1365966796875 -1.98095703125 -3.322265625 0.00130540132522583 0.00033801794052124023 -0.04772186279296875 -0.024532318115234375
18.32875 0.06058502197265625 0.1346435546875 -2.28564453125 -3.10888671875 2.8848648071289062e-05 0.0015333294868469238 -0.048084259033203125 -0.01737213134765625
18.3385 0.0711212158203125 0.1309661865234375 -2.56787109375 -2.859375 0.00030106306076049805 0.0008447766304016113 -0.04891204833984375 -0.013336181640625
18.34825 0.08184814453125 0.1262359619140625 -2.850341796875 -2.609375 -0.000840604305267334 0.0013066530227661133 -0.049739837646484375 -0.009767532348632812
18.358 0.088653564453125 0.121429443359375 -3.0810546875 -2.31396484375 0.0008848905563354492 0.0008401870727539062 -0.04947662353515625 -0.0039806365966796875
18.36775 0.09839630126953125 0.1174163818359375 -3.31103515625 -2.000244140625 0.001058816909790039 0.00029283761978149414 -0.04833984375 -0.0004863739013671875
18.3775 0.1079254150390625 0.107635498046875 -3.49560546875 -1.66015625 0.0011576414108276367 0.0005735158920288086 -0.046077728271484375 0.00632476806640625
18.38725 0.115631103515625 0.1024627685546875 -3.647216796875 -1.306640625 0.0011638402938842773 0.0009179115295410156 -0.04462623596191406 0.008081436157226562
18.397 0.12386322021484375 0.0932769775390625 -3.74755859375 -0.934814453125 -8.511543273925781e-05 0.0005504786968231201 -0.04186058044433594 0.011247634887695312
18.40675 0.1296234130859375 0.0849609375 -3.807861328125 -0.559326171875 0.00015090405941009521 0.00031344592571258545 -0.041290283203125 0.018001556396484375
18.4165 0.13602447509765625 0.07566070556640625 -3.843505859375 -0.180908203125 0.0013589859008789062 0.001021742820739746 -0.03996849060058594 0.022058486938476562
18.42625 0.1425018310546875 0.06934356689453125 -3.85205078125 0.2034912109375 0.001363992691040039 -0.002156853675842285 -0.03742218017578125 0.027164459228515625
18.436 0.1473846435546875 0.0576629638671875 -3.810302734375 0.581298828125 0.0007328987121582031 0.0010453462600708008 -0.035213470458984375 0.031047821044921875
18.44575 0.152801513671875 0.0489044189453125 -3.726318359375 0.95703125 0.000745236873626709 0.00017833709716796875 -0.030818939208984375 0.0347442626953125
18.4555 0.15471649169921875 0.03920745849609375 -3.6031494140625 1.3277587890625 0.0009561479091644287 -0.00011157989501953125 -0.0280303955078125 0.037113189697265625
18.46525 0.157958984375 0.0301666259765625 -3.43896484375 1.6748046875 0.0005250275135040283 0.0003674328327178955 -0.02478790283203125 0.04131889343261719
18.475 0.16083526611328125 0.017913818359375 -3.2474365234375 1.9925537109375 0.0008006095886230469 0.0014081001281738281 -0.022405624389648438 0.04225921630859375
18.48475 0.16129302978515625 0.0087432861328125 -3.044189453125 2.28564453125 0.001051783561706543 -0.0003751516342163086 -0.016386032104492188 0.04402351379394531
18.4945 0.16329193115234375 -0.00037384033203125 -2.800537109375 2.568359375 0.0013467073440551758 -0.0009477734565734863 -0.0122528076171875 0.046764373779296875
18.50425 0.1620941162109375 -0.00980377197265625 -2.5367431640625 2.83203125 -0.0002609938383102417 -0.00014157593250274658 -0.007663726806640625 0.04914093017578125
18.514 0.160003662109375 -0.0196685791015625 -2.2431640625 3.07666015625 0.000910639762878418 -0.0001798868179321289 -0.002201080322265625 0.0490570068359375
18.52375 0.1613922119140625 -0.03338623046875 -1.924560546875 3.278564453125 0.00018036365509033203 0.0008182525634765625 0.0008087158203125 0.04981231689453125
18.5335 0.156036376953125 -0.04364776611328125 -1.5799560546875 3.4346923828125 0.0007872581481933594 -0.0008462667465209961 0.005161285400390625 0.05028343200683594
18.54325 0.1543426513671875 -0.0538787841796875 -1.23388671875 3.5550537109375 0.00179290771484375 -0.0001844167709350586 0.0111541748046875 0.051624298095703125
18.553 0.149078369140625 -0.06296539306640625 -0.8897705078125 3.6390380859375 -0.0006265640258789062 -7.614493370056152e-05 0.0165557861328125 0.052989959716796875
18.56275 0.14693450927734375 -0.07396697998046875 -0.5467529296875 3.7044677734375 -8.615851402282715e-05 -0.0006157457828521729 0.019237518310546875 0.0527801513671875
18.5725 0.14145660400390625 -0.08092498779296875 -0.1815185546875 3.747314453125 0.001963019371032715 0.0009208917617797852 0.02518463134765625 0.05181884765625
18.58225 0.13539886474609375 -0.08977508544921875 0.1785888671875 3.74609375 0.0007278025150299072 0.00018787384033203125 0.0296478271484375 0.05159759521484375
18.592 0.1288604736328125 -0.0995330810546875 0.55078125 3.7119140625 -7.653236389160156e-05 -0.0018677711486816406 0.03386688232421875 0.0481414794921875
18.60175 0.12323760986328125 -0.10671615600585938 0.918701171875 3.62744140625 -0.0004981756210327148 -0.0008823871612548828 0.038421630859375 0.047916412353515625
18.6115 0.1149749755859375 -0.1132965087890625 1.2607421875 3.516357421875 -0.00047582387924194336 -0.0006864070892333984 0.040019989013671875 0.043712615966796875
18.62125 0.10743331909179688 -0.12250900268554688 1.58984375 3.34521484375 0.0011080503463745117 8.082389831542969e-05 0.0453338623046875 0.04381561279296875
18.631 0.09857940673828125 -0.1273040771484375 1.884765625 3.17822265625 0.00034499168395996094 -0.0015492439270019531 0.05133819580078125 0.039211273193359375
18.64075 0.09073638916015625 -0.13402557373046875 2.161376953125 2.98046875 0.0006816983222961426 -0.0009723901748657227 0.05457305908203125 0.0354156494140625
18.6505 0.08205413818359375 -0.13849639892578125 2.4423828125 2.77880859375 0.00011193007230758667 -0.00013465434312820435 0.058200836181640625 0.030429840087890625
18.66025 0.07039642333984375 -0.14366912841796875 2.7001953125 2.527587890625 0.0004440993070602417 -0.00036861002445220947 0.059703826904296875 0.0270233154296875
18.67 0.0610809326171875 -0.147705078125 2.94677734375 2.26220703125 0.00043913722038269043 -4.598498344421387e-05 0.063507080078125 0.02085113525390625
18.67975 0.050994873046875 -0.15024566650390625 3.156982421875 1.951171875 0.0015300512313842773 0.0002911686897277832 0.064910888671875 0.0200347900390625
