!Created with skrf (http://scikit-rf.org).
# GHz S RI R 50.0 
!freq ReS11 ImS11 ReS21 ImS21 ReS12 ImS12 ReS22 ImS22
17.5 0.00843048095703125 -0.14311981201171875 -0.445037841796875 0.52032470703125 -0.00013878941535949707 0.0005966126918792725 0.09675216674804688 0.00109100341796875
17.50975 -0.0003662109375 -0.141021728515625 -0.395599365234375 0.551361083984375 -0.00020353496074676514 0.00045812129974365234 0.09885787963867188 3.814697265625e-05
17.5195 -0.0078125 -0.13520050048828125 -0.342041015625 0.576934814453125 -0.0006660223007202148 0.0010815262794494629 0.10382080078125 -0.000102996826171875
17.52925 -0.0167388916015625 -0.13196563720703125 -0.29052734375 0.599334716796875 -0.0012922883033752441 0.0006095767021179199 0.10438919067382812 -0.005260467529296875
17.539 -0.021697998046875 -0.126800537109375 -0.23974609375 0.61383056640625 -0.0009665489196777344 0.0011584758758544922 0.10605621337890625 -0.00885009765625
17.54875 -0.0313720703125 -0.124176025390625 -0.18792724609375 0.6251220703125 -0.00039207935333251953 0.0009591281414031982 0.11013031005859375 -0.010196685791015625
17.5585 -0.04000091552734375 -0.11916351318359375 -0.135345458984375 0.63287353515625 -0.0010178089141845703 0.00037163496017456055 0.11209487915039062 -0.015045166015625
17.56825 -0.04654693603515625 -0.11409759521484375 -0.086151123046875 0.63836669921875 -0.00173264741897583 0.00037419795989990234 0.1121978759765625 -0.020320892333984375
17.578 -0.05379486083984375 -0.10700225830078125 -0.032928466796875 0.636383056640625 -0.0007089376449584961 0.001149594783782959 0.11344528198242188 -0.023448944091796875
17.58775 -0.05892181396484375 -0.1042327880859375 0.019287109375 0.631866455078125 -0.0013645291328430176 0.0006493330001831055 0.114959716796875 -0.02484130859375
17.5975 -0.0627288818359375 -0.09626007080078125 0.07318115234375 0.622406005859375 -0.0015286803245544434 0.00033545494079589844 0.11489486694335938 -0.03015899658203125
17.60725 -0.06951904296875 -0.09223175048828125 0.121063232421875 0.607391357421875 -0.0005598068237304688 0.0016257762908935547 0.11308670043945312 -0.034267425537109375
17.617 -0.07364654541015625 -0.08429718017578125 0.16729736328125 0.58685302734375 -0.0006958246231079102 0.0010840892791748047 0.1140594482421875 -0.038970947265625
17.62675 -0.07888031005859375 -0.07698822021484375 0.212127685546875 0.5634765625 -0.0006272196769714355 0.00023508071899414062 0.11402130126953125 -0.04175567626953125
17.6365 -0.081634521484375 -0.0709686279296875 0.24847412109375 0.5362548828125 -0.0019838809967041016 0.0012671947479248047 0.113067626953125 -0.0482025146484375
17.64625 -0.085845947265625 -0.06177520751953125 0.2796630859375 0.51019287109375 0.00021827220916748047 0.0021011829376220703 0.11128616333007812 -0.0530853271484375
17.656 -0.08868408203125 -0.0566558837890625 0.3111572265625 0.482574462890625 -0.0001823902130126953 0.001571059226989746 0.10817718505859375 -0.058246612548828125
17.66575 -0.09145355224609375 -0.047821044921875 0.3404541015625 0.457122802734375 -0.0008294582366943359 0.001013636589050293 0.10729598999023438 -0.0613861083984375
17.6755 -0.0940093994140625 -0.04004669189453125 0.366363525390625 0.428863525390625 -0.0010575056076049805 0.002146601676940918 0.104888916015625 -0.06499481201171875
17.68525 -0.0968780517578125 -0.03229522705078125 0.39569091796875 0.4012451171875 -0.0004342198371887207 0.0011441707611083984 0.10211563110351562 -0.06877899169921875
17.695 -0.09842681884765625 -0.022953033447265625 0.42462158203125 0.3697509765625 0.00015747547149658203 0.0024747848510742188 0.09786224365234375 -0.074066162109375
17.70475 -0.09917068481445312 -0.01465606689453125 0.448089599609375 0.334503173828125 0.0008563995361328125 0.0005759000778198242 0.09365463256835938 -0.0784454345703125
17.7145 -0.100341796875 -0.00673675537109375 0.470703125 0.292999267578125 -0.00012362003326416016 0.001459658145904541 0.09041595458984375 -0.082489013671875
17.72425 -0.10147857666015625 0.001865386962890625 0.487457275390625 0.252716064453125 0.0009483098983764648 0.0017534494400024414 0.08763885498046875 -0.08685684204101562
17.734 -0.10221099853515625 0.0089111328125 0.49761962890625 0.21185302734375 -0.0008919239044189453 0.0013772249221801758 0.08319091796875 -0.09091949462890625
17.74375 -0.10153961181640625 0.0168304443359375 0.4998779296875 0.17218017578125 -0.0005712509155273438 0.0011001825332641602 0.07763671875 -0.0956878662109375
17.7535 -0.09941864013671875 0.023494720458984375 0.500244140625 0.136077880859375 -0.0007381439208984375 0.0013620257377624512 0.0732879638671875 -0.09740066528320312
17.76325 -0.0978546142578125 0.032291412353515625 0.50115966796875 0.10321044921875 0.00023344159126281738 0.0006794631481170654 0.06829452514648438 -0.0984649658203125
17.773 -0.09786605834960938 0.037548065185546875 0.500335693359375 0.07318115234375 0.00016194581985473633 0.0011073946952819824 0.06325912475585938 -0.10271835327148438
17.78275 -0.09649658203125 0.046630859375 0.498992919921875 0.040985107421875 0.0012871026992797852 0.0010350942611694336 0.058818817138671875 -0.10350418090820312
17.7925 -0.092620849609375 0.051517486572265625 0.49884033203125 0.009735107421875 6.3478946685791016e-06 0.0006196796894073486 0.05474853515625 -0.104644775390625
17.80225 -0.0877227783203125 0.058841705322265625 0.49658203125 -0.0225830078125 -0.0002486109733581543 0.0015501976013183594 0.05059814453125 -0.10806655883789062
17.812 -0.08445358276367188 0.06754302978515625 0.493927001953125 -0.054901123046875 -0.0001118779182434082 0.0009556710720062256 0.0426483154296875 -0.1073455810546875
17.82175 -0.07991409301757812 0.07524871826171875 0.48504638671875 -0.0869903564453125 0.0002225637435913086 -0.0004216879606246948 0.03997802734375 -0.10663223266601562
17.8315 -0.07677841186523438 0.08031463623046875 0.4742584228515625 -0.120758056640625 -0.00040525197982788086 0.0013170838356018066 0.032344818115234375 -0.1075439453125
17.84125 -0.07232666015625 0.0871429443359375 0.462249755859375 -0.1478271484375 0.00042617321014404297 0.001124262809753418 0.0256805419921875 -0.10819244384765625
17.851 -0.0660552978515625 0.09376907348632812 0.4449920654296875 -0.1749114990234375 0.0018440485000610352 0.0013626813888549805 0.022205352783203125 -0.10931777954101562
17.86075 -0.06327056884765625 0.09807968139648438 0.428375244140625 -0.1993560791015625 -8.940696716308594e-06 0.00080832839012146 0.01477813720703125 -0.10676956176757812
17.8705 -0.057399749755859375 0.104278564453125 0.4146575927734375 -0.2210540771484375 -0.0004837512969970703 0.001357734203338623 0.009006500244140625 -0.1058197021484375
17.88025 -0.051448822021484375 0.11085891723632812 0.39996337890625 -0.2404327392578125 -3.129243850708008e-06 0.0006619393825531006 0.004535675048828125 -0.10553359985351562
17.89 -0.047664642333984375 0.11683273315429688 0.387664794921875 -0.262298583984375 -0.000693202018737793 0.0015321969985961914 0.001064300537109375 -0.10315704345703125
17.89975 -0.041461944580078125 0.11989974975585938 0.3726959228515625 -0.2845001220703125 -3.641843795776367e-05 0.0011644363403320312 -0.00713348388671875 -0.103912353515625
17.9095 -0.03734588623046875 0.12416839599609375 0.3560333251953125 -0.30596923828125 -0.0013535022735595703 0.0014341473579406738 -0.01155853271484375 -0.10309600830078125
17.91925 -0.02867889404296875 0.126251220703125 0.338104248046875 -0.32904052734375 0.00035685300827026367 0.0007851719856262207 -0.014881134033203125 -0.10103225708007812
17.929 -0.02325439453125 0.1303863525390625 0.32000732421875 -0.34906005859375 0.0009770393371582031 0.0011739730834960938 -0.0211944580078125 -0.09796142578125
17.93875 -0.0157928466796875 0.13245391845703125 0.297210693359375 -0.36834716796875 0.0004462003707885742 0.0003477334976196289 -0.026195526123046875 -0.093780517578125
17.9485 -0.0083465576171875 0.13494873046875 0.278076171875 -0.38623046875 0.0016644001007080078 0.00039005279541015625 -0.030239105224609375 -0.0899200439453125
17.95825 -0.00209808349609375 0.13741302490234375 0.256927490234375 -0.399444580078125 0.001181960105895996 0.0005886554718017578 -0.032138824462890625 -0.08826828002929688
17.968 0.00553131103515625 0.13942718505859375 0.236480712890625 -0.416107177734375 0.001174330711364746 0.0022243261337280273 -0.038616180419921875 -0.0853118896484375
17.97775 0.0134429931640625 0.14052581787109375 0.2186279296875 -0.4312591552734375 0.0013413429260253906 -0.0003859996795654297 -0.042144775390625 -0.079254150390625
17.9875 0.020599365234375 0.141082763671875 0.1970062255859375 -0.44659423828125 0.0007611513137817383 0.00029474496841430664 -0.044952392578125 -0.07719039916992188
17.99725 0.02957916259765625 0.14194488525390625 0.1744232177734375 -0.4651336669921875 0.000278472900390625 0.0005932450294494629 -0.0508880615234375 -0.07196807861328125
18.007 0.03662872314453125 0.14298248291015625 0.150360107421875 -0.4835052490234375 0.0010361671447753906 0.0012390613555908203 -0.05429840087890625 -0.0681915283203125
18.01675 0.044586181640625 0.14225006103515625 0.1231689453125 -0.501129150390625 0.001240849494934082 0.0007157325744628906 -0.05741119384765625 -0.06287765502929688
18.0265 0.0523681640625 0.142730712890625 0.092041015625 -0.51953125 0.001010894775390625 0.0009827613830566406 -0.06227874755859375 -0.05780029296875
18.03625 0.0579833984375 0.1440887451171875 0.0584716796875 -0.5316162109375 0.0002638101577758789 0.0013561248779296875 -0.06432342529296875 -0.05345916748046875
18.046 0.0664520263671875 0.1430206298828125 0.023284912109375 -0.543121337890625 0.0006654560565948486 -0.0007787346839904785 -0.0681915283203125 -0.0477447509765625
18.05575 0.07275390625 0.139556884765625 -0.010986328125 -0.55206298828125 0.000692516565322876 3.361701965332031e-05 -0.07000350952148438 -0.042346954345703125
18.0655 0.0810546875 0.13983917236328125 -0.046966552734375 -0.55963134765625 0.000674128532409668 0.001391291618347168 -0.0721893310546875 -0.037944793701171875
18.07525 0.08963775634765625 0.136627197265625 -0.08587646484375 -0.566162109375 0.0012701749801635742 0.0006803274154663086 -0.075103759765625 -0.03240966796875
18.085 0.09627532958984375 0.1334686279296875 -0.12451171875 -0.57159423828125 0.000995337963104248 0.00037747621536254883 -0.07728958129882812 -0.027172088623046875
18.09475 0.10190582275390625 0.1314544677734375 -0.169036865234375 -0.5748291015625 0.0006154179573059082 0.0010720491409301758 -0.07590484619140625 -0.020740509033203125
18.1045 0.11118316650390625 0.1282501220703125 -0.2127685546875 -0.57403564453125 0.001323401927947998 -0.0003362894058227539 -0.07839202880859375 -0.01232147216796875
18.11425 0.11652374267578125 0.1257171630859375 -0.261932373046875 -0.5689697265625 0.0002133399248123169 0.00013162195682525635 -0.07634353637695312 -0.009120941162109375
18.124 0.12188720703125 0.121856689453125 -0.3109130859375 -0.56048583984375 0.0020072460174560547 -0.0005662441253662109 -0.0777435302734375 -6.866455078125e-05
18.13375 0.12900543212890625 0.11510467529296875 -0.360595703125 -0.5458984375 -0.00015372782945632935 0.00010071694850921631 -0.07538604736328125 0.00518798828125
18.1435 0.13510894775390625 0.1106414794921875 -0.40826416015625 -0.527008056640625 0.0015659928321838379 -0.000738680362701416 -0.07610321044921875 0.013660430908203125
18.15325 0.14040374755859375 0.10456085205078125 -0.4569091796875 -0.5028076171875 0.0020104646682739258 0.0001710653305053711 -0.07497787475585938 0.018482208251953125
18.163 0.1478118896484375 0.1002349853515625 -0.5032958984375 -0.472564697265625 0.0011840462684631348 6.735324859619141e-06 -0.07260513305664062 0.024959564208984375
18.17275 0.1531829833984375 0.09381103515625 -0.54718017578125 -0.43927001953125 0.0006778240203857422 0.00017508864402770996 -0.0691070556640625 0.03021240234375
18.1825 0.15966796875 0.088409423828125 -0.59136962890625 -0.4007568359375 -0.00017783045768737793 -0.000651925802230835 -0.06747055053710938 0.038303375244140625
18.19225 0.1623077392578125 0.0808258056640625 -0.633880615234375 -0.359588623046875 8.296966552734375e-05 -0.0003434717655181885 -0.06380462646484375 0.043476104736328125
18.202 0.1699981689453125 0.07546234130859375 -0.673370361328125 -0.312957763671875 0.0018462538719177246 -0.0002683401107788086 -0.06163978576660156 0.05196571350097656
18.21175 0.1727142333984375 0.0683135986328125 -0.70819091796875 -0.25750732421875 0.0005744695663452148 -0.001371622085571289 -0.0565643310546875 0.05680084228515625
18.2215 0.178619384765625 0.06113433837890625 -0.73675537109375 -0.199462890625 -0.0004150867462158203 -0.000340193510055542 -0.052234649658203125 0.06185722351074219
18.23125 0.1816558837890625 0.05413055419921875 -0.761566162109375 -0.140228271484375 -0.0006212592124938965 -0.0013619065284729004 -0.049182891845703125 0.06607818603515625
18.241 0.18341064453125 0.04673004150390625 -0.778106689453125 -0.075592041015625 -0.000326007604598999 -0.00047275424003601074 -0.0435943603515625 0.07090377807617188
18.25075 0.1856689453125 0.03905487060546875 -0.790252685546875 -0.01129150390625 0.00115126371383667 -8.20159912109375e-05 -0.0386199951171875 0.0750274658203125
18.2605 0.1897125244140625 0.03118133544921875 -0.79718017578125 0.052947998046875 -0.0001494288444519043 0.00025735795497894287 -0.032215118408203125 0.07909011840820312
18.27025 0.190216064453125 0.020538330078125 -0.799285888671875 0.118255615234375 -0.0006038844585418701 1.7434358596801758e-05 -0.026401519775390625 0.08158111572265625
18.28 0.19283294677734375 0.0130615234375 -0.79791259765625 0.189666748046875 -0.00023701786994934082 0.0006270408630371094 -0.018520355224609375 0.08606719970703125
18.28975 0.19513702392578125 0.0042266845703125 -0.7882080078125 0.256134033203125 -3.647804260253906e-05 -0.0012597441673278809 -0.011791229248046875 0.0890045166015625
18.2995 0.19408416748046875 -0.004180908203125 -0.77166748046875 0.327423095703125 0.0014382004737854004 -0.0009151697158813477 -0.003215789794921875 0.088104248046875
18.30925 0.1941680908203125 -0.0125732421875 -0.743896484375 0.3974609375 0.0008420944213867188 -0.0010622739791870117 0.00337982177734375 0.090972900390625
18.319 0.19312286376953125 -0.02207183837890625 -0.712127685546875 0.46270751953125 -0.00044804811477661133 -0.0011432766914367676 0.01010894775390625 0.09463882446289062
18.32875 0.1913909912109375 -0.02960205078125 -0.672607421875 0.5255126953125 0.000979602336883545 -0.0005573630332946777 0.020351409912109375 0.09389877319335938
18.3385 0.19197845458984375 -0.0398406982421875 -0.628173828125 0.57757568359375 0.00033342838287353516 0.000656425952911377 0.02663421630859375 0.09531021118164062
18.34825 0.190338134765625 -0.0480499267578125 -0.5828857421875 0.634063720703125 0.0007156133651733398 -0.00013813376426696777 0.0341033935546875 0.09540557861328125
18.358 0.188690185546875 -0.0564117431640625 -0.53369140625 0.681732177734375 0.0006024539470672607 -0.00031110644340515137 0.04212188720703125 0.092742919921875
18.36775 0.1859130859375 -0.064971923828125 -0.47930908203125 0.728515625 -0.0005552172660827637 -0.0006327033042907715 0.05091094970703125 0.0904998779296875
18.3775 0.183135986328125 -0.07204437255859375 -0.424041748046875 0.770416259765625 5.8531761169433594e-05 -0.0019538402557373047 0.05675506591796875 0.08997344970703125
18.38725 0.17913818359375 -0.0804443359375 -0.35784912109375 0.8104248046875 0.0013402104377746582 -0.000986635684967041 0.06475830078125 0.0870513916015625
18.397 0.17486572265625 -0.0887603759765625 -0.2889404296875 0.8421630859375 0.0006124377250671387 -0.0003687143325805664 0.071533203125 0.08294677734375
18.40675 0.171722412109375 -0.0949249267578125 -0.2147216796875 0.86907958984375 -0.00036400556564331055 -0.00014960765838623047 0.0781097412109375 0.0792999267578125
18.4165 0.16538238525390625 -0.10308837890625 -0.139923095703125 0.884429931640625 0.0003633946180343628 7.328391075134277e-05 0.08458709716796875 0.07601165771484375
18.42625 0.15837860107421875 -0.11078643798828125 -0.067108154296875 0.8902587890625 0.0013329386711120605 0.00012028217315673828 0.09162139892578125 0.07038116455078125
18.436 0.15311431884765625 -0.11647796630859375 0.002197265625 0.8919677734375 8.732080459594727e-05 -0.00028108060359954834 0.09772491455078125 0.06389617919921875
18.44575 0.14737701416015625 -0.1246185302734375 0.071990966796875 0.888580322265625 0.000315248966217041 -0.0008464455604553223 0.10198211669921875 0.056793212890625
18.4555 0.13968658447265625 -0.1288299560546875 0.13824462890625 0.88165283203125 0.0007277727127075195 -0.0011237859725952148 0.1054534912109375 0.04974365234375
18.46525 0.134796142578125 -0.1355438232421875 0.20916748046875 0.875732421875 0.0006643533706665039 -0.000409543514251709 0.1121368408203125 0.0421600341796875
18.475 0.12526702880859375 -0.13994598388671875 0.28009033203125 0.86492919921875 8.976459503173828e-05 0.0004462301731109619 0.11588287353515625 0.0357818603515625
18.48475 0.12140655517578125 -0.146331787109375 0.35162353515625 0.84478759765625 -0.00041484832763671875 -0.0007132887840270996 0.1199493408203125 0.02617645263671875
18.4945 0.1117095947265625 -0.14955902099609375 0.42437744140625 0.817626953125 0.00022962689399719238 -0.0009292662143707275 0.123382568359375 0.0170440673828125
18.50425 0.1039886474609375 -0.154754638671875 0.4949951171875 0.781005859375 0.0010600090026855469 -0.0009245872497558594 0.1235504150390625 0.00994873046875
18.514 0.0966644287109375 -0.15875244140625 0.5606689453125 0.734375 0.0008423328399658203 -0.0013314485549926758 0.1258392333984375 0.0027923583984375
18.52375 0.08800506591796875 -0.1602020263671875 0.6160888671875 0.68243408203125 0.0003891289234161377 -0.0009376704692840576 0.12456893920898438 -0.007106781005859375
18.5335 0.0819549560546875 -0.16402435302734375 0.66619873046875 0.63250732421875 0.00020137429237365723 0.00023443996906280518 0.125885009765625 -0.01477813720703125
18.54325 0.07323455810546875 -0.16849517822265625 0.70941162109375 0.578857421875 0.0009523630142211914 -0.001093149185180664 0.12454986572265625 -0.023281097412109375
18.553 0.0659332275390625 -0.16967010498046875 0.751708984375 0.522705078125 -0.0001283511519432068 0.0002321377396583557 0.12322235107421875 -0.029651641845703125
18.56275 0.05914306640625 -0.16855621337890625 0.78961181640625 0.46728515625 0.0003368109464645386 -0.0003459751605987549 0.12128448486328125 -0.037044525146484375
18.5725 0.04925537109375 -0.1696014404296875 0.8277587890625 0.40887451171875 -1.1920928955078125e-07 -0.00201416015625 0.11716842651367188 -0.045894622802734375
18.58225 0.04225921630859375 -0.169647216796875 0.861572265625 0.34478759765625 -0.00024318695068359375 -0.0007308721542358398 0.1134033203125 -0.05474853515625
18.592 0.033843994140625 -0.17282867431640625 0.88970947265625 0.2735595703125 0.001001119613647461 -0.0012882351875305176 0.10849380493164062 -0.060298919677734375
18.60175 0.025909423828125 -0.1708831787109375 0.912353515625 0.2008056640625 -0.0011539459228515625 -0.00024020671844482422 0.103790283203125 -0.0654144287109375
18.6115 0.016845703125 -0.16991424560546875 0.92510986328125 0.1268310546875 -0.0008304119110107422 0.0004025101661682129 0.09870529174804688 -0.07358932495117188
18.62125 0.00978851318359375 -0.16982269287109375 0.930633544921875 0.05364990234375 0.0010235905647277832 -0.0008707642555236816 0.09290313720703125 -0.079132080078125
18.631 0.002655029296875 -0.16773223876953125 0.9276123046875 -0.01397705078125 0.0003883540630340576 -6.809830665588379e-06 0.08701705932617188 -0.082916259765625
18.64075 -0.0061492919921875 -0.16605377197265625 0.922210693359375 -0.08074951171875 -0.00018846988677978516 -0.0008231401443481445 0.0812225341796875 -0.0864105224609375
18.6505 -0.0129241943359375 -0.16559600830078125 0.917449951171875 -0.14532470703125 0.00026857852935791016 -0.00063362717628479 0.0749053955078125 -0.08988189697265625
