!Created with skrf (http://scikit-rf.org).
# GHz S RI R 50.0 
!freq ReS11 ImS11 ReS21 ImS21 ReS12 ImS12 ReS22 ImS22
17.5 0.00830078125 -0.14434051513671875 -0.06096649169921875 0.12520599365234375 -0.000913470983505249 0.00010642409324645996 0.09801101684570312 0.0014190673828125
17.50975 -0.00091552734375 -0.14128875732421875 -0.041351318359375 0.127960205078125 -0.0007659792900085449 -0.00040531158447265625 0.10164642333984375 -0.00032806396484375
17.5195 -0.00806427001953125 -0.13702392578125 -0.02620697021484375 0.12978363037109375 -0.0006850063800811768 0.0006040036678314209 0.10324859619140625 -0.001529693603515625
17.52925 -0.018096923828125 -0.13262939453125 -0.0101470947265625 0.12659454345703125 -0.0015301108360290527 0.0010398626327514648 0.1055145263671875 -0.006221771240234375
17.539 -0.0225830078125 -0.12860107421875 0.0043792724609375 0.12249755859375 -0.0014986991882324219 0.00020015239715576172 0.10650634765625 -0.0084228515625
17.54875 -0.0335235595703125 -0.12496185302734375 0.0198822021484375 0.1161346435546875 -0.001361548900604248 0.0009816884994506836 0.10985565185546875 -0.01200103759765625
17.5585 -0.0419158935546875 -0.1198883056640625 0.03298187255859375 0.1091156005859375 -0.0016329288482666016 0.0008317232131958008 0.11096572875976562 -0.017192840576171875
17.56825 -0.0462799072265625 -0.11444854736328125 0.04421234130859375 0.1012420654296875 -0.0006511807441711426 -0.00023886561393737793 0.11214447021484375 -0.01923370361328125
17.578 -0.05336761474609375 -0.1087646484375 0.05426788330078125 0.0911407470703125 -0.0017262101173400879 -2.1576881408691406e-05 0.11290740966796875 -0.0245819091796875
17.58775 -0.059356689453125 -0.1035614013671875 0.06325531005859375 0.08016204833984375 -0.001339256763458252 0.0003356337547302246 0.11439132690429688 -0.026966094970703125
17.5975 -0.0655670166015625 -0.09786224365234375 0.071014404296875 0.06844329833984375 -0.0015570521354675293 0.0016403794288635254 0.1145782470703125 -0.032501220703125
17.60725 -0.07016754150390625 -0.0927581787109375 0.07617950439453125 0.05608367919921875 -0.001092076301574707 0.0006653666496276855 0.11223983764648438 -0.0350189208984375
17.617 -0.07647705078125 -0.08506011962890625 0.0785675048828125 0.041400909423828125 -0.0021251440048217773 0.0006865262985229492 0.11458206176757812 -0.040775299072265625
17.62675 -0.08016204833984375 -0.07704925537109375 0.07909774780273438 0.029987335205078125 -0.0006442666053771973 0.0005943179130554199 0.11424636840820312 -0.04399871826171875
17.6365 -0.08502197265625 -0.0691680908203125 0.07926177978515625 0.016815185546875 -0.00011467933654785156 0.0006819367408752441 0.1127777099609375 -0.04839324951171875
17.64625 -0.0873565673828125 -0.0612945556640625 0.07368087768554688 0.006839752197265625 -0.001401066780090332 0.0005050897598266602 0.11035919189453125 -0.05438232421875
17.656 -0.0908355712890625 -0.0564117431640625 0.07220840454101562 -0.005115509033203125 -0.00112074613571167 0.0009196996688842773 0.108062744140625 -0.05858612060546875
17.66575 -0.093658447265625 -0.045867919921875 0.066436767578125 -0.01439666748046875 -0.0003237724304199219 0.0014554858207702637 0.10721588134765625 -0.062488555908203125
17.6755 -0.0963897705078125 -0.03859710693359375 0.059978485107421875 -0.023736953735351562 -0.0010945796966552734 -0.00012028217315673828 0.10239028930664062 -0.06811904907226562
17.68525 -0.09842681884765625 -0.03101348876953125 0.05294036865234375 -0.030811309814453125 -0.0005816519260406494 0.00021031498908996582 0.10020828247070312 -0.07204055786132812
17.695 -0.09843063354492188 -0.022228240966796875 0.04546928405761719 -0.040225982666015625 -0.00046622753143310547 0.0010391473770141602 0.09675216674804688 -0.07404708862304688
17.70475 -0.09964752197265625 -0.0138397216796875 0.03524017333984375 -0.04562568664550781 -0.0015561580657958984 0.0017871856689453125 0.09499359130859375 -0.08014297485351562
17.7145 -0.10196304321289062 -0.005390167236328125 0.02510833740234375 -0.05096626281738281 -0.0005996227264404297 0.0012203454971313477 0.08975982666015625 -0.08390045166015625
17.72425 -0.10190963745117188 0.0028228759765625 0.013772964477539062 -0.052730560302734375 -0.0002849102020263672 0.0018318891525268555 0.08507919311523438 -0.08863067626953125
17.734 -0.1027984619140625 0.0096282958984375 0.000926971435546875 -0.053310394287109375 -0.0007549524307250977 0.0017963647842407227 0.08179473876953125 -0.091827392578125
17.74375 -0.10303497314453125 0.01795196533203125 -0.011081695556640625 -0.051303863525390625 -0.0007987618446350098 0.0007266402244567871 0.0771331787109375 -0.09653472900390625
17.7535 -0.10043716430664062 0.02483367919921875 -0.020809173583984375 -0.048999786376953125 0.00018161535263061523 0.0008002519607543945 0.0721893310546875 -0.09813308715820312
17.76325 -0.09987640380859375 0.033275604248046875 -0.030147552490234375 -0.043117523193359375 -0.0001785680651664734 4.945695400238037e-05 0.06650924682617188 -0.10044097900390625
17.773 -0.09822463989257812 0.039905548095703125 -0.039623260498046875 -0.038951873779296875 -0.00040465593338012695 0.0013251900672912598 0.06317138671875 -0.10224533081054688
17.78275 -0.0954742431640625 0.04860687255859375 -0.048763275146484375 -0.0318145751953125 0.0004273653030395508 0.002413153648376465 0.056201934814453125 -0.10320281982421875
17.7925 -0.09191131591796875 0.053348541259765625 -0.056644439697265625 -0.02342987060546875 -0.0008127093315124512 0.0016908049583435059 0.053264617919921875 -0.10577774047851562
17.80225 -0.089996337890625 0.06003570556640625 -0.064300537109375 -0.014446258544921875 0.0005612373352050781 0.0006405115127563477 0.048389434814453125 -0.10664749145507812
17.812 -0.08499526977539062 0.06917953491210938 -0.07068252563476562 -0.001708984375 0.0008165836334228516 0.0013169050216674805 0.0419921875 -0.10684585571289062
17.82175 -0.07978439331054688 0.07453155517578125 -0.07761383056640625 0.01143646240234375 3.080815076828003e-06 -0.00010794401168823242 0.037410736083984375 -0.1077728271484375
17.8315 -0.07643508911132812 0.08189010620117188 -0.07666778564453125 0.0263519287109375 0.00014412403106689453 0.0018923282623291016 0.03197479248046875 -0.10697174072265625
17.84125 -0.07269287109375 0.08774566650390625 -0.07811737060546875 0.0406646728515625 -0.0001494288444519043 0.0009472966194152832 0.02443695068359375 -0.10735321044921875
17.851 -0.0672607421875 0.09479522705078125 -0.07527542114257812 0.054965972900390625 0.00016783177852630615 0.00020404160022735596 0.021106719970703125 -0.1075439453125
17.86075 -0.061969757080078125 0.0994415283203125 -0.0706024169921875 0.06876373291015625 -0.000650554895401001 0.0008872449398040771 0.015361785888671875 -0.10548782348632812
17.8705 -0.057071685791015625 0.10518264770507812 -0.06612014770507812 0.0814971923828125 0.0002859830856323242 0.0019488334655761719 0.01045989990234375 -0.1041107177734375
17.88025 -0.0507659912109375 0.11125946044921875 -0.058521270751953125 0.09437179565429688 -0.0005920231342315674 0.0008546710014343262 0.003063201904296875 -0.10451507568359375
17.89 -0.0470428466796875 0.11777114868164062 -0.04944610595703125 0.10752105712890625 -0.00020459294319152832 0.0006031692028045654 -0.0032958984375 -0.10382843017578125
17.89975 -0.039279937744140625 0.12101364135742188 -0.03644561767578125 0.12159347534179688 0.0007070004940032959 9.250640869140625e-05 -0.007434844970703125 -0.10045242309570312
17.9095 -0.0362701416015625 0.12493896484375 -0.02344512939453125 0.13300323486328125 0.0006665587425231934 0.0006854534149169922 -0.013141632080078125 -0.10059738159179688
17.91925 -0.02672576904296875 0.12613677978515625 -0.00681304931640625 0.144195556640625 0.0008791685104370117 0.00032448768615722656 -0.016071319580078125 -0.09905624389648438
17.929 -0.0204925537109375 0.130615234375 0.0124359130859375 0.1513824462890625 0.0006606578826904297 0.001986980438232422 -0.022247314453125 -0.0964202880859375
17.93875 -0.0142059326171875 0.13254547119140625 0.03141021728515625 0.155853271484375 0.0006656646728515625 0.0010506510734558105 -0.026729583740234375 -0.0927276611328125
17.9485 -0.00678253173828125 0.13529205322265625 0.05405426025390625 0.15769195556640625 0.00026535987854003906 0.00031566619873046875 -0.03012847900390625 -0.08715438842773438
17.95825 -0.0007781982421875 0.13828277587890625 0.07593536376953125 0.15833282470703125 0.000755608081817627 0.0003134012222290039 -0.032855987548828125 -0.08644485473632812
17.968 0.00753021240234375 0.1402740478515625 0.099029541015625 0.153289794921875 0.0008422136306762695 0.0009709596633911133 -0.038787841796875 -0.08317947387695312
17.97775 0.01406097412109375 0.1399383544921875 0.1190032958984375 0.1503448486328125 0.0007231235504150391 0.0015056133270263672 -0.0428314208984375 -0.07861709594726562
17.9875 0.0237274169921875 0.14255523681640625 0.14349365234375 0.14111328125 0.0005883574485778809 0.00016042590141296387 -0.045795440673828125 -0.07516860961914062
17.99725 0.02973175048828125 0.142822265625 0.165802001953125 0.129852294921875 0.002150297164916992 -0.0002727508544921875 -0.050632476806640625 -0.07098388671875
18.007 0.0378265380859375 0.14249420166015625 0.1881561279296875 0.1160888671875 0.001295328140258789 0.0010488033294677734 -0.052398681640625 -0.06587982177734375
18.01675 0.04477691650390625 0.14310455322265625 0.209930419921875 0.0948028564453125 -0.00019246339797973633 0.001378774642944336 -0.058483123779296875 -0.0615692138671875
18.0265 0.052703857421875 0.143768310546875 0.229583740234375 0.071380615234375 0.000766456127166748 -0.0005016326904296875 -0.0607147216796875 -0.0573577880859375
18.03625 0.06097412109375 0.143890380859375 0.245025634765625 0.0460205078125 0.0008492469787597656 0.00026047229766845703 -0.06354522705078125 -0.0512847900390625
18.046 0.06700897216796875 0.1414031982421875 0.257781982421875 0.0159149169921875 0.001399695873260498 -0.00019502639770507812 -0.0648345947265625 -0.046611785888671875
18.05575 0.076568603515625 0.13904571533203125 0.2671661376953125 -0.0130767822265625 0.0009300112724304199 0.00015115737915039062 -0.06951904296875 -0.041805267333984375
18.0655 0.081787109375 0.13906097412109375 0.2702484130859375 -0.044219970703125 0.001659095287322998 0.0002532005310058594 -0.07261276245117188 -0.034854888916015625
18.07525 0.08904266357421875 0.135284423828125 0.2708892822265625 -0.075897216796875 0.0005213618278503418 0.0005221962928771973 -0.07325363159179688 -0.030517578125
18.085 0.09780120849609375 0.1339263916015625 0.2687530517578125 -0.10894775390625 0.001116633415222168 8.594989776611328e-05 -0.07527923583984375 -0.025783538818359375
18.09475 0.103118896484375 0.12931060791015625 0.260955810546875 -0.143951416015625 0.0009362101554870605 0.0005688667297363281 -0.07401275634765625 -0.019573211669921875
18.1045 0.1107177734375 0.12581634521484375 0.2509002685546875 -0.1768951416015625 0.001408219337463379 -0.00019693374633789062 -0.07653045654296875 -0.012790679931640625
18.11425 0.1166229248046875 0.1239166259765625 0.2359466552734375 -0.21099853515625 0.0002864152193069458 -1.9729137420654297e-05 -0.074493408203125 -0.008525848388671875
18.124 0.1223297119140625 0.1196441650390625 0.215576171875 -0.2416229248046875 0.0007741451263427734 -0.0007028579711914062 -0.07440948486328125 -0.00146484375
18.13375 0.128662109375 0.1148681640625 0.1905670166015625 -0.2706756591796875 0.0005679130554199219 0.0008712410926818848 -0.07322311401367188 0.00511932373046875
18.1435 0.1364593505859375 0.108306884765625 0.16497802734375 -0.2954254150390625 0.0012683272361755371 -0.000536799430847168 -0.07550811767578125 0.013427734375
18.15325 0.14130401611328125 0.10330963134765625 0.1318359375 -0.320037841796875 5.1468610763549805e-05 0.0003002732992172241 -0.07395172119140625 0.018772125244140625
18.163 0.147003173828125 0.098419189453125 0.0975341796875 -0.3377838134765625 0.00019838660955429077 -0.00023522228002548218 -0.06984710693359375 0.026409149169921875
18.17275 0.152801513671875 0.0939483642578125 0.0612945556640625 -0.3506622314453125 0.0004444122314453125 0.000667273998260498 -0.06659317016601562 0.031368255615234375
18.1825 0.1591644287109375 0.0861968994140625 0.024993896484375 -0.36273193359375 0.0009726285934448242 0.0011010169982910156 -0.06466293334960938 0.037944793701171875
18.19225 0.1627044677734375 0.0799102783203125 -0.0162811279296875 -0.36968994140625 0.0006514787673950195 -0.0006517767906188965 -0.06141471862792969 0.04492950439453125
18.202 0.1684417724609375 0.07472991943359375 -0.057586669921875 -0.3719329833984375 0.0009854435920715332 -0.0007267594337463379 -0.05957794189453125 0.05031394958496094
18.21175 0.1715850830078125 0.067962646484375 -0.099395751953125 -0.370086669921875 0.0013613700866699219 -0.0006109476089477539 -0.056430816650390625 0.05675506591796875
18.2215 0.17705535888671875 0.060302734375 -0.140625 -0.360076904296875 0.0006150901317596436 -0.0008058845996856689 -0.050201416015625 0.06039237976074219
18.23125 0.1811676025390625 0.05303955078125 -0.18035888671875 -0.34478759765625 0.0006319582462310791 -0.0009504854679107666 -0.047451019287109375 0.0644683837890625
18.241 0.1832275390625 0.0447845458984375 -0.216583251953125 -0.3287353515625 0.0009004771709442139 -0.0003108382225036621 -0.042034149169921875 0.07033920288085938
18.25075 0.18613433837890625 0.03804779052734375 -0.25323486328125 -0.306793212890625 0.00032451748847961426 -0.0002656280994415283 -0.03681182861328125 0.07529830932617188
18.2605 0.188140869140625 0.03108978271484375 -0.283203125 -0.280303955078125 -0.0007079839706420898 -0.0009243488311767578 -0.031070709228515625 0.07758712768554688
18.27025 0.1889495849609375 0.022613525390625 -0.314453125 -0.252777099609375 0.0003448575735092163 -0.0002852976322174072 -0.02436065673828125 0.08199310302734375
18.28 0.19164276123046875 0.012847900390625 -0.341644287109375 -0.222686767578125 0.0003272145986557007 -0.0004160255193710327 -0.019031524658203125 0.082244873046875
18.28975 0.19414520263671875 0.00403594970703125 -0.366546630859375 -0.18731689453125 0.0008122622966766357 -0.00030624866485595703 -0.010761260986328125 0.08593368530273438
18.2995 0.19362640380859375 -0.003204345703125 -0.388214111328125 -0.15118408203125 -0.00021088123321533203 -0.0004512965679168701 -0.003406524658203125 0.08654403686523438
18.30925 0.192230224609375 -0.0134429931640625 -0.403076171875 -0.11041259765625 5.53131103515625e-05 -0.0003815591335296631 0.00469207763671875 0.0876922607421875
18.319 0.19269561767578125 -0.0216217041015625 -0.414459228515625 -0.06829833984375 0.0003424137830734253 -0.00020197033882141113 0.01043701171875 0.09100723266601562
18.32875 0.19089508056640625 -0.02909088134765625 -0.420562744140625 -0.02777099609375 0.00044226646423339844 -0.0006783604621887207 0.0203094482421875 0.09151840209960938
18.3385 0.1901397705078125 -0.03865814208984375 -0.4201812744140625 0.0118408203125 0.00021457672119140625 -0.00027398765087127686 0.0296783447265625 0.09206390380859375
18.34825 0.18918609619140625 -0.04763031005859375 -0.4207763671875 0.0528564453125 0.00043529272079467773 -0.001434028148651123 0.03476715087890625 0.0929718017578125
18.358 0.18718719482421875 -0.05517578125 -0.414276123046875 0.0926361083984375 0.00039064884185791016 0.00020450353622436523 0.0434722900390625 0.09012603759765625
18.36775 0.18495941162109375 -0.06354522705078125 -0.4062652587890625 0.1320953369140625 0.0008849203586578369 -0.0006096363067626953 0.05097198486328125 0.08882904052734375
18.3775 0.1822357177734375 -0.071990966796875 -0.39520263671875 0.171112060546875 -0.0005094707012176514 0.00034868717193603516 0.05744171142578125 0.08695220947265625
18.38725 0.1802215576171875 -0.08010101318359375 -0.380340576171875 0.2091827392578125 0.0003807246685028076 -0.00041629374027252197 0.0654754638671875 0.08574676513671875
18.397 0.1756439208984375 -0.0879974365234375 -0.360076904296875 0.24481201171875 0.0014879703521728516 0.0011026859283447266 0.0703582763671875 0.0816192626953125
18.40675 0.1704864501953125 -0.0956268310546875 -0.335601806640625 0.281494140625 -0.0003751814365386963 0.00039446353912353516 0.078704833984375 0.077789306640625
18.4165 0.16580963134765625 -0.10225677490234375 -0.3077850341796875 0.3101043701171875 0.0012670159339904785 0.00011897087097167969 0.08283233642578125 0.0730438232421875
18.42625 0.16046142578125 -0.1102294921875 -0.277740478515625 0.33782958984375 0.0008122920989990234 0.00010728836059570312 0.09023284912109375 0.06815338134765625
18.436 0.1536712646484375 -0.1153106689453125 -0.246246337890625 0.3622589111328125 0.0010867118835449219 -0.0005859136581420898 0.097503662109375 0.06226348876953125
18.44575 0.1466217041015625 -0.1219329833984375 -0.2144927978515625 0.3826446533203125 0.0007782578468322754 0.0006488561630249023 0.1007080078125 0.0543670654296875
18.4555 0.1406402587890625 -0.1286773681640625 -0.182861328125 0.4028778076171875 0.00012430548667907715 0.0004633963108062744 0.10577392578125 0.04950714111328125
18.46525 0.13336944580078125 -0.13459014892578125 -0.1490631103515625 0.42059326171875 0.0010374784469604492 0.00035244226455688477 0.110382080078125 0.040985107421875
18.475 0.12650299072265625 -0.139251708984375 -0.113189697265625 0.435577392578125 0.0005666911602020264 -0.0003307461738586426 0.114990234375 0.0331878662109375
18.48475 0.12056732177734375 -0.14608001708984375 -0.07244873046875 0.44873046875 -0.00024463236331939697 -0.00018551945686340332 0.11801910400390625 0.026092529296875
18.4945 0.11260986328125 -0.14882659912109375 -0.029632568359375 0.4580841064453125 0.0014624595642089844 -0.0008955001831054688 0.1202850341796875 0.016082763671875
18.50425 0.1052703857421875 -0.15496826171875 0.012969970703125 0.462005615234375 0.0009484291076660156 -9.018182754516602e-05 0.1211395263671875 0.008453369140625
18.514 0.098846435546875 -0.1580963134765625 0.05670166015625 0.45928955078125 -0.0002491474151611328 -0.00034493207931518555 0.124267578125 0.00205230712890625
18.52375 0.08921051025390625 -0.159149169921875 0.0987548828125 0.450469970703125 0.0003586709499359131 -0.0008718967437744141 0.123382568359375 -0.006328582763671875
18.5335 0.083770751953125 -0.16333770751953125 0.1378173828125 0.4410400390625 0.00033295154571533203 0.00020816922187805176 0.1240234375 -0.015789031982421875
18.54325 0.0743560791015625 -0.16672515869140625 0.17608642578125 0.428680419921875 0.0006293952465057373 -0.00038504600524902344 0.12305068969726562 -0.02306365966796875
18.553 0.06761932373046875 -0.16992950439453125 0.21044921875 0.413055419921875 0.001693129539489746 -0.000510096549987793 0.1205902099609375 -0.030185699462890625
18.56275 0.05835723876953125 -0.1686553955078125 0.24468994140625 0.396820068359375 0.0005022883415222168 0.00018167495727539062 0.11948776245117188 -0.038372039794921875
18.5725 0.05062103271484375 -0.17015838623046875 0.280059814453125 0.37744140625 0.000709235668182373 0.0006524920463562012 0.11474609375 -0.04520416259765625
18.58225 0.043487548828125 -0.17138671875 0.31573486328125 0.35577392578125 0.0003596991300582886 9.222328662872314e-05 0.11051559448242188 -0.052532196044921875
18.592 0.03299713134765625 -0.17244720458984375 0.348114013671875 0.328521728515625 0.00047434866428375244 -0.00029903650283813477 0.10590744018554688 -0.059783935546875
18.60175 0.0260772705078125 -0.170562744140625 0.37652587890625 0.2978515625 -1.773238182067871e-06 0.00015203654766082764 0.10109710693359375 -0.06459808349609375
18.6115 0.01869964599609375 -0.16900634765625 0.403045654296875 0.26434326171875 -0.00025528669357299805 -0.0007665753364562988 0.09795379638671875 -0.07347869873046875
18.62125 0.01041412353515625 -0.169708251953125 0.424468994140625 0.228057861328125 -0.0006132423877716064 -0.00033932924270629883 0.0909881591796875 -0.07772064208984375
18.631 0.0025482177734375 -0.169097900390625 0.441253662109375 0.193603515625 0.0009610652923583984 -0.0018051862716674805 0.08525848388671875 -0.082611083984375
