!Created with skrf (http://scikit-rf.org).
# GHz S RI R 50.0 
!freq ReS11 ImS11 ReS21 ImS21 ReS12 ImS12 ReS22 ImS22
17.5 0.01277923583984375 -0.13980865478515625 -1.5849609375 2.04833984375 -0.0013872981071472168 0.00012946128845214844 0.09423065185546875 0.00536346435546875
17.50975 0.0028228759765625 -0.1374969482421875 -1.4078369140625 2.162841796875 -0.002440929412841797 0.0004316568374633789 0.09627151489257812 0.0046539306640625
17.5195 -0.002349853515625 -0.13282012939453125 -1.22021484375 2.25830078125 -0.0005020797252655029 0.00036704540252685547 0.09949874877929688 0.0033416748046875
17.52925 -0.0124969482421875 -0.129547119140625 -1.0333251953125 2.3463134765625 -0.0015224814414978027 0.0013453364372253418 0.10251235961914062 -0.00089263916015625
17.539 -0.0176544189453125 -0.1255950927734375 -0.845703125 2.41015625 -0.0012559890747070312 0.0008254051208496094 0.1020660400390625 -0.002349853515625
17.54875 -0.02618408203125 -0.12119293212890625 -0.6553955078125 2.4537353515625 -0.0012362003326416016 0.0011519193649291992 0.10673904418945312 -0.0060272216796875
17.5585 -0.03707122802734375 -0.11806488037109375 -0.4647216796875 2.4930419921875 -0.0013325214385986328 0.0009101033210754395 0.10845947265625 -0.010150909423828125
17.56825 -0.0408172607421875 -0.11263275146484375 -0.2777099609375 2.519287109375 -0.0014728903770446777 -0.00010079145431518555 0.11053085327148438 -0.01438140869140625
17.578 -0.04880523681640625 -0.1070404052734375 -0.0770263671875 2.533447265625 -0.000850379467010498 0.001118779182434082 0.11348342895507812 -0.01692962646484375
17.58775 -0.0545196533203125 -0.10300445556640625 0.1256103515625 2.53271484375 -0.0014406442642211914 0.001458287239074707 0.11238479614257812 -0.020465850830078125
17.5975 -0.05861663818359375 -0.09783172607421875 0.3367919921875 2.51171875 -0.0005169510841369629 0.0008897483348846436 0.1143035888671875 -0.02507781982421875
17.60725 -0.06462860107421875 -0.0926055908203125 0.537841796875 2.4658203125 -0.001544356346130371 0.0013266205787658691 0.11485671997070312 -0.02922821044921875
17.617 -0.07000732421875 -0.0853118896484375 0.729736328125 2.4002685546875 -0.001095890998840332 0.0003978610038757324 0.1147918701171875 -0.032871246337890625
17.62675 -0.07486724853515625 -0.07923126220703125 0.9071044921875 2.3133544921875 -0.0006868541240692139 0.0006894171237945557 0.11667251586914062 -0.0373382568359375
17.6365 -0.0785675048828125 -0.070709228515625 1.070556640625 2.21728515625 -0.0008261203765869141 0.001166701316833496 0.11518096923828125 -0.04390716552734375
17.64625 -0.0823211669921875 -0.063995361328125 1.2166748046875 2.118408203125 -0.00045055150985717773 0.0015150904655456543 0.1131439208984375 -0.047985076904296875
17.656 -0.08431243896484375 -0.05937957763671875 1.3541259765625 2.0196533203125 -0.0010442733764648438 0.0012417435646057129 0.11198043823242188 -0.05204010009765625
17.66575 -0.0866241455078125 -0.049346923828125 1.487060546875 1.9207763671875 -0.0003604888916015625 0.001379847526550293 0.10988998413085938 -0.05785369873046875
17.6755 -0.09210205078125 -0.04267120361328125 1.6207275390625 1.8143310546875 -0.00010609626770019531 0.00103759765625 0.106353759765625 -0.06264877319335938
17.68525 -0.09392547607421875 -0.03505706787109375 1.7579345703125 1.7047119140625 -0.00040553510189056396 0.00043448805809020996 0.10564041137695312 -0.06670761108398438
17.695 -0.09535980224609375 -0.02639007568359375 1.8953857421875 1.57568359375 -0.0010848641395568848 0.0018203258514404297 0.10292434692382812 -0.07084274291992188
17.70475 -0.09729385375976562 -0.01802825927734375 2.0230712890625 1.4200439453125 0.0009646415710449219 0.001531362533569336 0.09929656982421875 -0.07535552978515625
17.7145 -0.09833145141601562 -0.011196136474609375 2.1416015625 1.24853515625 0.0004417300224304199 0.001256108283996582 0.09609222412109375 -0.0800323486328125
17.72425 -0.09932327270507812 -0.0022125244140625 2.230224609375 1.0609130859375 -0.0009101629257202148 0.0004845559597015381 0.09238433837890625 -0.08386993408203125
17.734 -0.10065841674804688 0.00466156005859375 2.29150390625 0.8701171875 -0.0001882612705230713 0.0006845295429229736 0.08713150024414062 -0.08917236328125
17.74375 -0.1016845703125 0.011749267578125 2.323974609375 0.681396484375 -0.0009014606475830078 0.0012127161026000977 0.0830841064453125 -0.09449005126953125
17.7535 -0.09800338745117188 0.01816558837890625 2.345703125 0.5076904296875 -0.0005292296409606934 0.00104445219039917 0.07897186279296875 -0.0962371826171875
17.76325 -0.09771347045898438 0.0269927978515625 2.3607177734375 0.3468017578125 -0.00024205446243286133 0.0010185837745666504 0.07415771484375 -0.09854507446289062
17.773 -0.09680938720703125 0.03479766845703125 2.3670654296875 0.19140625 0.00037473440170288086 0.0008407831192016602 0.06994247436523438 -0.10201644897460938
17.78275 -0.09647369384765625 0.040454864501953125 2.3734130859375 0.0284423828125 -9.685754776000977e-05 0.0012941360473632812 0.063446044921875 -0.102783203125
17.7925 -0.09218597412109375 0.0467987060546875 2.380859375 -0.1363525390625 -0.000870436429977417 0.0006475448608398438 0.059787750244140625 -0.10430145263671875
17.80225 -0.09077072143554688 0.0538482666015625 2.380126953125 -0.31298828125 -4.100799560546875e-05 0.002173781394958496 0.0545501708984375 -0.10924148559570312
17.812 -0.08533859252929688 0.062107086181640625 2.3619384765625 -0.4979248046875 -0.0012017488479614258 0.0022521018981933594 0.04869842529296875 -0.1070404052734375
17.82175 -0.08179092407226562 0.0698089599609375 2.3212890625 -0.6806640625 0.0006697773933410645 0.00030666589736938477 0.04473876953125 -0.1086883544921875
17.8315 -0.078033447265625 0.07670211791992188 2.2530517578125 -0.8636474609375 -8.213520050048828e-05 0.0013325214385986328 0.0374298095703125 -0.1102752685546875
17.84125 -0.0748748779296875 0.0811767578125 2.175537109375 -1.03271484375 0.00063323974609375 0.0016045570373535156 0.0331878662109375 -0.110321044921875
17.851 -0.06964874267578125 0.08913421630859375 2.0736083984375 -1.1854248046875 -0.00043141841888427734 0.0012971162796020508 0.026378631591796875 -0.11124801635742188
17.86075 -0.06600570678710938 0.09530258178710938 1.9766845703125 -1.32196044921875 0.0011630058288574219 0.002108454704284668 0.019134521484375 -0.1098785400390625
17.8705 -0.06105804443359375 0.10021591186523438 1.8740234375 -1.4500732421875 0.0010373592376708984 0.001323699951171875 0.013454437255859375 -0.108856201171875
17.88025 -0.055728912353515625 0.10593795776367188 1.77020263671875 -1.57513427734375 0.000722050666809082 0.0016410350799560547 0.007366180419921875 -0.10869979858398438
17.89 -0.051410675048828125 0.1131439208984375 1.66632080078125 -1.6947021484375 -0.00047600269317626953 1.4394521713256836e-05 0.00286865234375 -0.10716629028320312
17.89975 -0.0456390380859375 0.11731338500976562 1.54888916015625 -1.8214111328125 0.0012013912200927734 0.0007495880126953125 -0.00302886962890625 -0.10721969604492188
17.9095 -0.040439605712890625 0.1212310791015625 1.4185791015625 -1.945068359375 0.001596212387084961 0.0013910531997680664 -0.009098052978515625 -0.10615158081054688
17.91925 -0.033233642578125 0.12493896484375 1.2705078125 -2.0517578125 0.00032898783683776855 0.0006011724472045898 -0.012622833251953125 -0.10371017456054688
17.929 -0.0275726318359375 0.128448486328125 1.11328125 -2.1533203125 0.0015668869018554688 0.0023603439331054688 -0.01995849609375 -0.10205841064453125
17.93875 -0.02093505859375 0.13213348388671875 0.943359375 -2.2308349609375 0.0011501312255859375 0.0008416175842285156 -0.024074554443359375 -0.09876251220703125
17.9485 -0.0125885009765625 0.134552001953125 0.77392578125 -2.2882080078125 0.0011752843856811523 0.0002695322036743164 -0.027851104736328125 -0.09554290771484375
17.95825 -0.0063323974609375 0.1368560791015625 0.6033935546875 -2.3350830078125 0.0010482072830200195 0.0017336606979370117 -0.03289031982421875 -0.09309768676757812
17.968 -9.918212890625e-05 0.1409759521484375 0.4383544921875 -2.3680419921875 0.00010943412780761719 0.0011720061302185059 -0.03873443603515625 -0.091064453125
17.97775 0.00817108154296875 0.14083099365234375 0.2779541015625 -2.3927001953125 0.002072930335998535 0.0005390644073486328 -0.04339599609375 -0.08602142333984375
17.9875 0.0171051025390625 0.1441192626953125 0.110107421875 -2.418701171875 0.0001887679100036621 0.0013514161109924316 -0.04689788818359375 -0.083099365234375
17.99725 0.0232391357421875 0.1439208984375 -0.0596923828125 -2.4378662109375 0.001226663589477539 0.001455068588256836 -0.05191802978515625 -0.07770538330078125
18.007 0.03124237060546875 0.14543914794921875 -0.2406005859375 -2.44873046875 -0.00020056962966918945 0.0007908344268798828 -0.054290771484375 -0.07283782958984375
18.01675 0.0399322509765625 0.14627838134765625 -0.4283447265625 -2.441650390625 0.0002665966749191284 0.00019411742687225342 -0.06024169921875 -0.0687713623046875
18.0265 0.0475921630859375 0.1475067138671875 -0.62060546875 -2.416748046875 0.00048297643661499023 0.00044977664947509766 -0.064361572265625 -0.0630340576171875
18.03625 0.0539398193359375 0.1471405029296875 -0.8115234375 -2.366455078125 0.0010979175567626953 -0.0010068416595458984 -0.06650543212890625 -0.05738067626953125
18.046 0.06314849853515625 0.1462860107421875 -0.9984130859375 -2.2979736328125 0.0015534162521362305 0.00019562244415283203 -0.06884765625 -0.053318023681640625
18.05575 0.07025909423828125 0.14455413818359375 -1.166259765625 -2.220458984375 -0.00045692920684814453 0.0014782547950744629 -0.07422637939453125 -0.046947479248046875
18.0655 0.0789642333984375 0.14402008056640625 -1.3221435546875 -2.126708984375 0.001741647720336914 0.0008734464645385742 -0.07735443115234375 -0.0421905517578125
18.07525 0.08719635009765625 0.14134979248046875 -1.4764404296875 -2.0302734375 0.0008891820907592773 -0.0001347362995147705 -0.0776214599609375 -0.035305023193359375
18.085 0.095123291015625 0.1398773193359375 -1.626953125 -1.9256591796875 0.0005147755146026611 9.697675704956055e-05 -0.08063125610351562 -0.02906036376953125
18.09475 0.100433349609375 0.1364593505859375 -1.7747802734375 -1.8133544921875 0.0007964670658111572 -0.0004011988639831543 -0.07900619506835938 -0.0235748291015625
18.1045 0.10944366455078125 0.1329193115234375 -1.918212890625 -1.6883544921875 0.0015572309494018555 -0.0005480051040649414 -0.08321380615234375 -0.01605224609375
18.11425 0.11588287353515625 0.130462646484375 -2.0584716796875 -1.5445556640625 0.00042513012886047363 -0.0005512833595275879 -0.08240509033203125 -0.010997772216796875
18.124 0.122894287109375 0.126678466796875 -2.185302734375 -1.387939453125 0.00040987133979797363 -7.429718971252441e-05 -0.08184814453125 -0.00386810302734375
18.13375 0.1296234130859375 0.12127685546875 -2.297607421875 -1.22412109375 0.0008658766746520996 -0.0008838176727294922 -0.07983779907226562 0.00319671630859375
18.1435 0.1361541748046875 0.1158599853515625 -2.391357421875 -1.04345703125 0.001406550407409668 -0.0008170008659362793 -0.08156585693359375 0.01297760009765625
18.15325 0.1423797607421875 0.1096954345703125 -2.4759521484375 -0.8553466796875 0.0003618597984313965 -0.0013033747673034668 -0.081085205078125 0.01731109619140625
18.163 0.150299072265625 0.10491943359375 -2.533935546875 -0.6661376953125 0.0009385347366333008 -0.00035944581031799316 -0.07833480834960938 0.026378631591796875
18.17275 0.1553955078125 0.098602294921875 -2.58935546875 -0.4703369140625 0.001595139503479004 0.0002224445343017578 -0.07387161254882812 0.030544281005859375
18.1825 0.16259765625 0.09259033203125 -2.6331787109375 -0.2757568359375 0.0007198452949523926 0.00025457143783569336 -0.07208633422851562 0.038715362548828125
18.19225 0.16748046875 0.084869384765625 -2.666259765625 -0.067626953125 0.0006528496742248535 0.0005251765251159668 -0.06908798217773438 0.046596527099609375
18.202 0.1718597412109375 0.07830047607421875 -2.6768798828125 0.1376953125 0.0013764500617980957 -0.000697791576385498 -0.06769943237304688 0.051624298095703125
18.21175 0.177459716796875 0.072265625 -2.668701171875 0.357666015625 0.0005587935447692871 -0.0007402300834655762 -0.062351226806640625 0.05794525146484375
18.2215 0.18247222900390625 0.063812255859375 -2.634033203125 0.5753173828125 -0.0007023811340332031 -0.000641942024230957 -0.056568145751953125 0.06324386596679688
18.23125 0.1855621337890625 0.05687713623046875 -2.5880126953125 0.7835693359375 0.0002356693148612976 -3.946572542190552e-05 -0.0536651611328125 0.06818389892578125
18.241 0.1884002685546875 0.04815673828125 -2.5159912109375 0.98193359375 -0.00042863190174102783 4.979968070983887e-05 -0.047847747802734375 0.0742645263671875
18.25075 0.19081878662109375 0.03949737548828125 -2.435302734375 1.1763916015625 0.0006997883319854736 -0.00031307339668273926 -0.042781829833984375 0.079345703125
18.2605 0.1935272216796875 0.03185272216796875 -2.3399658203125 1.3577880859375 0.0004931390285491943 -0.0007244348526000977 -0.035739898681640625 0.08342361450195312
18.27025 0.1949310302734375 0.0212554931640625 -2.2391357421875 1.53662109375 -0.00029431283473968506 -1.7449259757995605e-05 -0.02864837646484375 0.0861053466796875
18.28 0.1964263916015625 0.013275146484375 -2.123779296875 1.7213134765625 0.0012236833572387695 -0.0002849102020263672 -0.0225982666015625 0.08921051025390625
18.28975 0.19916534423828125 0.0042572021484375 -1.99267578125 1.89202880859375 -0.0003699362277984619 -0.0004634559154510498 -0.014995574951171875 0.09322738647460938
18.2995 0.199127197265625 -0.004058837890625 -1.8399658203125 2.05419921875 -0.00040096044540405273 -0.0006888508796691895 -0.00637054443359375 0.09322357177734375
18.30925 0.198089599609375 -0.01483154296875 -1.66357421875 2.203125 -2.7418136596679688e-05 -0.001629948616027832 0.00138092041015625 0.09654998779296875
18.319 0.1972198486328125 -0.023468017578125 -1.4771728515625 2.330322265625 -0.0002668797969818115 -0.0003043711185455322 0.007640838623046875 0.09830474853515625
18.32875 0.19634246826171875 -0.03095245361328125 -1.283447265625 2.43408203125 0.00023296475410461426 0.0004183650016784668 0.0185699462890625 0.10026168823242188
18.3385 0.19373321533203125 -0.0422515869140625 -1.0831298828125 2.516357421875 0.000533372163772583 -0.00026857852935791016 0.026500701904296875 0.099639892578125
18.34825 0.19377899169921875 -0.05033111572265625 -0.8897705078125 2.5931396484375 0.0009672641754150391 -0.0006714761257171631 0.0341949462890625 0.1016998291015625
18.358 0.1929168701171875 -0.059356689453125 -0.692626953125 2.65380859375 0.0004589557647705078 -0.0006440281867980957 0.0426025390625 0.1000518798828125
18.36775 0.1876068115234375 -0.0676727294921875 -0.48486328125 2.705078125 -0.0006352066993713379 -0.000564873218536377 0.05100250244140625 0.09844970703125
18.3775 0.18487548828125 -0.0749359130859375 -0.279296875 2.74609375 0.0004707127809524536 -0.00021976232528686523 0.0587310791015625 0.0954437255859375
18.38725 0.1806488037109375 -0.08465576171875 -0.0531005859375 2.7706298828125 0.0005839765071868896 -0.00035756826400756836 0.06507110595703125 0.0926513671875
18.397 0.17718505859375 -0.0927734375 0.1748046875 2.768798828125 -0.00028508901596069336 -4.979968070983887e-05 0.0738677978515625 0.08880615234375
18.40675 0.1721954345703125 -0.09893798828125 0.408935546875 2.74365234375 0.0006010532379150391 -0.00012969970703125 0.0811920166015625 0.0847625732421875
18.4165 0.16593170166015625 -0.1075439453125 0.6280517578125 2.69091796875 -4.986673593521118e-05 0.0001388639211654663 0.08657073974609375 0.0804443359375
18.42625 0.160400390625 -0.11452484130859375 0.8355712890625 2.61572265625 0.0006474554538726807 -1.3232231140136719e-05 0.09465789794921875 0.073486328125
18.436 0.15439605712890625 -0.12030029296875 1.0238037109375 2.527587890625 -0.000334322452545166 -0.0008086562156677246 0.10393524169921875 0.0687713623046875
18.44575 0.1471405029296875 -0.12671661376953125 1.2020263671875 2.4337158203125 0.0008594095706939697 -0.0008583664894104004 0.1051483154296875 0.06241607666015625
18.4555 0.1407623291015625 -0.1326904296875 1.374267578125 2.3333740234375 0.000287860631942749 -0.0003603994846343994 0.11069488525390625 0.05435943603515625
18.46525 0.13336181640625 -0.1402130126953125 1.5457763671875 2.2384033203125 0.0003046393394470215 -0.000599294900894165 0.117279052734375 0.0445098876953125
18.475 0.1252899169921875 -0.14299774169921875 1.71728515625 2.1207275390625 -0.0002866983413696289 -0.0009989142417907715 0.12210845947265625 0.038055419921875
18.48475 0.11890411376953125 -0.14917755126953125 1.88525390625 1.9833984375 -2.1345913410186768e-05 -0.0001333579421043396 0.12596893310546875 0.02887725830078125
18.4945 0.11086273193359375 -0.15240478515625 2.0433349609375 1.821044921875 -0.00031976401805877686 0.0003594309091567993 0.12857818603515625 0.01795196533203125
18.50425 0.1022491455078125 -0.1584320068359375 2.1884765625 1.641845703125 0.0001914501190185547 -0.0006327033042907715 0.1298065185546875 0.011444091796875
18.514 0.094207763671875 -0.1608428955078125 2.303466796875 1.448974609375 -0.0002906322479248047 -0.0016951560974121094 0.1297760009765625 0.002197265625
18.52375 0.0864715576171875 -0.1630401611328125 2.3914794921875 1.2503662109375 0.00019553303718566895 0.0005019009113311768 0.13111114501953125 -0.0074462890625
18.5335 0.08061981201171875 -0.16605377197265625 2.4598388671875 1.0565185546875 6.146728992462158e-06 -0.0001433044672012329 0.1318511962890625 -0.0140838623046875
18.54325 0.07099151611328125 -0.16827392578125 2.509765625 0.8719482421875 -0.00017261505126953125 0.000629812479019165 0.1315460205078125 -0.02352142333984375
18.553 0.06281280517578125 -0.17083740234375 2.5523681640625 0.6854248046875 0.00033527612686157227 -0.0012085437774658203 0.127532958984375 -0.0307769775390625
18.56275 0.0553741455078125 -0.1706695556640625 2.59326171875 0.5042724609375 -0.00012856721878051758 -0.0007980465888977051 0.1270294189453125 -0.03821563720703125
18.5725 0.04595947265625 -0.171722412109375 2.622802734375 0.314453125 0.000680088996887207 5.3822994232177734e-05 0.1220703125 -0.047946929931640625
18.58225 0.0390167236328125 -0.1722259521484375 2.641845703125 0.1162109375 -0.00019037723541259766 -0.0010058879852294922 0.11839675903320312 -0.05593109130859375
18.592 0.0297088623046875 -0.1730499267578125 2.64306640625 -0.0924072265625 0.0003831535577774048 5.258619785308838e-05 0.11425399780273438 -0.06306076049804688
18.60175 0.022216796875 -0.1711883544921875 2.62646484375 -0.30224609375 -0.00025665760040283203 -0.0009002685546875 0.1076812744140625 -0.0690765380859375
18.6115 0.01494598388671875 -0.1692352294921875 2.577880859375 -0.502685546875 0.0008234381675720215 0.0004703998565673828 0.10332489013671875 -0.07598876953125
18.62125 0.0069427490234375 -0.1678314208984375 2.5147705078125 -0.6922607421875 -0.0004431605339050293 -5.996227264404297e-05 0.09722900390625 -0.08358001708984375
18.631 -0.00080108642578125 -0.16729736328125 2.4415283203125 -0.8597412109375 -0.0001157224178314209 -0.0001567751169204712 0.0897674560546875 -0.08835220336914062
18.64075 -0.00812530517578125 -0.1651611328125 2.3564453125 -1.0201416015625 0.00022032856941223145 -0.0007251203060150146 0.08506011962890625 -0.0907135009765625
18.6505 -0.01465606689453125 -0.16356658935546875 2.2762451171875 -1.17333984375 -3.7103891372680664e-05 0.00013174861669540405 0.07779312133789062 -0.0945587158203125
18.66025 -0.02375030517578125 -0.15988922119140625 2.1895751953125 -1.3203125 0.0004737973213195801 -0.0009060800075531006 0.07059860229492188 -0.09746170043945312
18.67 -0.02982330322265625 -0.158172607421875 2.10009765625 -1.4720458984375 5.250796675682068e-05 5.159527063369751e-05 0.0655364990234375 -0.09930038452148438
18.67975 -0.03884124755859375 -0.15451812744140625 1.998291015625 -1.6240234375 -0.0003908872604370117 -0.001166999340057373 0.056934356689453125 -0.10201263427734375
