!Created with skrf (http://scikit-rf.org).
# GHz S RI R 50.0 
!freq ReS11 ImS11 ReS21 ImS21 ReS12 ImS12 ReS22 ImS22
17.5 0.00977325439453125 -0.1435089111328125 -0.618499755859375 0.74468994140625 -0.00011947751045227051 0.0007415115833282471 0.09665298461914062 0.002788543701171875
17.50975 5.340576171875e-05 -0.14014434814453125 -0.548553466796875 0.78955078125 -0.0012886524200439453 8.088350296020508e-05 0.0989990234375 0.000240325927734375
17.5195 -0.0074310302734375 -0.13507080078125 -0.477386474609375 0.827484130859375 -0.002443552017211914 0.001264333724975586 0.10217666625976562 -0.0001220703125
17.52925 -0.01567840576171875 -0.13123321533203125 -0.4046630859375 0.856842041015625 -0.0012180805206298828 0.0002614259719848633 0.10467529296875 -0.00492095947265625
17.539 -0.022491455078125 -0.12603759765625 -0.33258056640625 0.880859375 -0.0016914606094360352 0.0009770393371582031 0.1063995361328125 -0.00582122802734375
17.54875 -0.03110504150390625 -0.12323760986328125 -0.259552001953125 0.89703369140625 -0.0015752315521240234 0.0014657378196716309 0.10923004150390625 -0.010219573974609375
17.5585 -0.04010009765625 -0.11884307861328125 -0.1873779296875 0.908203125 -0.0012993812561035156 0.0003281831741333008 0.1104278564453125 -0.013385772705078125
17.56825 -0.04570770263671875 -0.1142425537109375 -0.118927001953125 0.91729736328125 -0.0011090636253356934 5.8531761169433594e-05 0.11178207397460938 -0.018924713134765625
17.578 -0.05194091796875 -0.1076507568359375 -0.042816162109375 0.919708251953125 -0.0024527311325073242 0.001652359962463379 0.1132965087890625 -0.02239990234375
17.58775 -0.05797576904296875 -0.103485107421875 0.03106689453125 0.915863037109375 -0.0013764500617980957 0.0015544891357421875 0.11267471313476562 -0.025585174560546875
17.5975 -0.063079833984375 -0.09726715087890625 0.1077880859375 0.90338134765625 -0.0009480714797973633 0.0023812055587768555 0.11510086059570312 -0.030609130859375
17.60725 -0.06880950927734375 -0.09259796142578125 0.1793212890625 0.88372802734375 -0.0011894702911376953 0.0008792877197265625 0.11255645751953125 -0.03383636474609375
17.617 -0.07395172119140625 -0.08379364013671875 0.24664306640625 0.8553466796875 0.000370904803276062 -9.299814701080322e-05 0.11455535888671875 -0.0377044677734375
17.62675 -0.07909393310546875 -0.076934814453125 0.31170654296875 0.82440185546875 -0.0017312169075012207 2.759695053100586e-05 0.11499786376953125 -0.04218292236328125
17.6365 -0.0831298828125 -0.06927490234375 0.366943359375 0.787841796875 -0.001029372215270996 1.049041748046875e-05 0.11290740966796875 -0.04638671875
17.64625 -0.0849456787109375 -0.06244659423828125 0.4154052734375 0.75006103515625 -0.0007004737854003906 0.000894397497177124 0.11186981201171875 -0.051425933837890625
17.656 -0.08815765380859375 -0.0565338134765625 0.46087646484375 0.71405029296875 -0.0007386505603790283 0.0005028247833251953 0.10838699340820312 -0.056316375732421875
17.66575 -0.09151458740234375 -0.047393798828125 0.50689697265625 0.67889404296875 0.00023257732391357422 0.00025710463523864746 0.10712432861328125 -0.060672760009765625
17.6755 -0.09511566162109375 -0.040771484375 0.55035400390625 0.64007568359375 -0.0005350708961486816 0.0008155703544616699 0.10472488403320312 -0.06585311889648438
17.68525 -0.09575653076171875 -0.03139495849609375 0.59515380859375 0.599365234375 -0.0014674067497253418 0.0012428760528564453 0.10076141357421875 -0.06879806518554688
17.695 -0.0973968505859375 -0.023097991943359375 0.638671875 0.5531005859375 -0.0016323328018188477 0.0026397705078125 0.10024642944335938 -0.07338333129882812
17.70475 -0.099609375 -0.015350341796875 0.679931640625 0.49932861328125 -0.00017219781875610352 0.0010522007942199707 0.0968780517578125 -0.07979583740234375
17.7145 -0.1013031005859375 -0.007770538330078125 0.7159423828125 0.44024658203125 0.00044596195220947266 0.0006982684135437012 0.09163665771484375 -0.08179855346679688
17.72425 -0.1002044677734375 0.000823974609375 0.74346923828125 0.37677001953125 -0.00011739134788513184 0.00047832727432250977 0.08766937255859375 -0.08690261840820312
17.734 -0.1017608642578125 0.0093536376953125 0.761962890625 0.314208984375 -0.00035202503204345703 0.001051783561706543 0.0836639404296875 -0.09061431884765625
17.74375 -0.1017608642578125 0.01625823974609375 0.76837158203125 0.253173828125 3.540515899658203e-05 0.0018520355224609375 0.07904815673828125 -0.094757080078125
17.7535 -0.09827804565429688 0.023571014404296875 0.772552490234375 0.197998046875 -0.0006549358367919922 0.001072525978088379 0.07434844970703125 -0.09714889526367188
17.76325 -0.09963226318359375 0.0308074951171875 0.77459716796875 0.1461181640625 0.0007833242416381836 0.00035762786865234375 0.068603515625 -0.09940719604492188
17.773 -0.09638595581054688 0.03783416748046875 0.77587890625 0.09527587890625 -0.00015115737915039062 0.00113755464553833 0.06476974487304688 -0.1024017333984375
17.78275 -0.09641265869140625 0.045528411865234375 0.77813720703125 0.046234130859375 0.0005518794059753418 0.0010006427764892578 0.059722900390625 -0.10338592529296875
17.7925 -0.09193801879882812 0.051258087158203125 0.778961181640625 -0.003204345703125 0.00016391277313232422 0.0012750029563903809 0.054859161376953125 -0.10614395141601562
17.80225 -0.08811569213867188 0.058074951171875 0.77764892578125 -0.05902099609375 0.0011229515075683594 0.0014754533767700195 0.050975799560546875 -0.10695648193359375
17.812 -0.08501815795898438 0.06566238403320312 0.772186279296875 -0.11376953125 -0.00013643503189086914 0.0013390183448791504 0.044704437255859375 -0.10788726806640625
17.82175 -0.08058929443359375 0.0738067626953125 0.759185791015625 -0.169158935546875 -0.0002574324607849121 0.0014334321022033691 0.03903961181640625 -0.10582733154296875
17.8315 -0.07651138305664062 0.0801544189453125 0.7398681640625 -0.223724365234375 0.0006530880928039551 0.0008667111396789551 0.03343963623046875 -0.10912704467773438
17.84125 -0.07286834716796875 0.085845947265625 0.7197265625 -0.2740478515625 -0.0005917549133300781 0.001630544662475586 0.02729034423828125 -0.1093597412109375
17.851 -0.06703948974609375 0.09375762939453125 0.689544677734375 -0.319427490234375 0.0006375312805175781 0.0009490251541137695 0.023937225341796875 -0.10906982421875
17.86075 -0.06346511840820312 0.09807586669921875 0.662811279296875 -0.359375 -8.463859558105469e-05 -0.0005999207496643066 0.015300750732421875 -0.10595321655273438
17.8705 -0.057941436767578125 0.10486221313476562 0.63525390625 -0.397674560546875 0.000821530818939209 0.0009306669235229492 0.01119232177734375 -0.10784912109375
17.88025 -0.053394317626953125 0.11022567749023438 0.607452392578125 -0.4327392578125 0.0012877583503723145 8.994340896606445e-05 0.003421783447265625 -0.10673904418945312
17.89 -0.046939849853515625 0.1147003173828125 0.58251953125 -0.47027587890625 0.0008579492568969727 0.001139521598815918 -0.0005950927734375 -0.10557174682617188
17.89975 -0.0414276123046875 0.1189422607421875 0.54998779296875 -0.507415771484375 0.0011817216873168945 0.0009725093841552734 -0.006099700927734375 -0.10428619384765625
17.9095 -0.03713226318359375 0.123260498046875 0.519256591796875 -0.54620361328125 0.0012447237968444824 7.069110870361328e-05 -0.010662078857421875 -0.10332870483398438
17.91925 -0.02916717529296875 0.126861572265625 0.482177734375 -0.58026123046875 0.0008940696716308594 0.001161813735961914 -0.014629364013671875 -0.09947586059570312
17.929 -0.0214996337890625 0.13006591796875 0.444580078125 -0.612548828125 0.0002856254577636719 0.0006530284881591797 -0.0208740234375 -0.09824371337890625
17.93875 -0.0163421630859375 0.13250732421875 0.40087890625 -0.6412353515625 -0.0002270042896270752 0.0006847381591796875 -0.024868011474609375 -0.0952301025390625
17.9485 -0.00971221923828125 0.135498046875 0.359344482421875 -0.665496826171875 0.001105666160583496 0.0012947320938110352 -0.0297088623046875 -0.09134292602539062
17.95825 -0.001678466796875 0.1383819580078125 0.31646728515625 -0.68536376953125 0.0005106925964355469 0.0011055469512939453 -0.033634185791015625 -0.08879852294921875
17.968 0.004852294921875 0.1404876708984375 0.275177001953125 -0.7032470703125 0.001063227653503418 0.0007272958755493164 -0.039520263671875 -0.086456298828125
17.97775 0.011474609375 0.14032745361328125 0.234649658203125 -0.7205810546875 0.0006667375564575195 0.0003185272216796875 -0.043209075927734375 -0.08096694946289062
17.9875 0.02054595947265625 0.142822265625 0.191192626953125 -0.7391357421875 0.0011529326438903809 0.0007345676422119141 -0.04538726806640625 -0.07666015625
17.99725 0.0276336669921875 0.14290618896484375 0.147918701171875 -0.75897216796875 0.0017590522766113281 0.0008846521377563477 -0.050243377685546875 -0.072113037109375
18.007 0.03549957275390625 0.1430816650390625 0.10040283203125 -0.775115966796875 0.0006481409072875977 0.001314401626586914 -0.05438232421875 -0.06964111328125
18.01675 0.04358673095703125 0.14388275146484375 0.049072265625 -0.79119873046875 0.00031131505966186523 0.001009523868560791 -0.05794525146484375 -0.06435394287109375
18.0265 0.05084228515625 0.1434173583984375 -0.0064697265625 -0.80133056640625 0.0009100437164306641 0.0003306865692138672 -0.0626983642578125 -0.0591583251953125
18.03625 0.058929443359375 0.14471435546875 -0.06231689453125 -0.8079833984375 0.0015256404876708984 -9.238719940185547e-05 -0.06401824951171875 -0.05275726318359375
18.046 0.06725311279296875 0.1432647705078125 -0.119964599609375 -0.80853271484375 0.0001646876335144043 0.0005377233028411865 -0.06819915771484375 -0.048145294189453125
18.05575 0.07318115234375 0.1402130126953125 -0.175018310546875 -0.805938720703125 0.0011998414993286133 0.0007865428924560547 -0.07073593139648438 -0.0432281494140625
18.0655 0.07990264892578125 0.1405181884765625 -0.22906494140625 -0.7978515625 0.00013446807861328125 6.093829870223999e-05 -0.07391357421875 -0.037792205810546875
18.07525 0.0882110595703125 0.13617706298828125 -0.28497314453125 -0.7889404296875 -4.6133995056152344e-05 0.0014110803604125977 -0.074249267578125 -0.031902313232421875
18.085 0.095977783203125 0.13504791259765625 -0.34307861328125 -0.77911376953125 0.0017173290252685547 -0.0008132457733154297 -0.07712554931640625 -0.02520751953125
18.09475 0.1021728515625 0.132049560546875 -0.401123046875 -0.76519775390625 0.0007239580154418945 -0.00043961405754089355 -0.07545852661132812 -0.02121734619140625
18.1045 0.109619140625 0.12837982177734375 -0.461669921875 -0.7469482421875 0.001903533935546875 -0.00010591745376586914 -0.07839202880859375 -0.012599945068359375
18.11425 0.116455078125 0.126007080078125 -0.52325439453125 -0.72265625 0.00098419189453125 0.00013011693954467773 -0.07762527465820312 -0.009471893310546875
18.124 0.1214447021484375 0.12127685546875 -0.583251953125 -0.6884765625 -0.0004603266716003418 -0.00045478343963623047 -0.07700347900390625 -0.00121307373046875
18.13375 0.12807464599609375 0.11757659912109375 -0.64208984375 -0.6534423828125 0.0003730654716491699 -0.0006428062915802002 -0.07720565795898438 0.00437164306640625
18.1435 0.13442230224609375 0.11142730712890625 -0.69964599609375 -0.61181640625 0.0007756054401397705 -0.00012069940567016602 -0.07666015625 0.011722564697265625
18.15325 0.14098358154296875 0.10630035400390625 -0.75396728515625 -0.56298828125 0.0008128881454467773 0.0002397298812866211 -0.0768890380859375 0.017322540283203125
18.163 0.1474761962890625 0.100128173828125 -0.80218505859375 -0.51141357421875 0.0008376836776733398 -0.0006301999092102051 -0.07403182983398438 0.02442169189453125
18.17275 0.15293121337890625 0.0936126708984375 -0.85186767578125 -0.45196533203125 0.001358628273010254 0.0007925033569335938 -0.070465087890625 0.03108978271484375
18.1825 0.15960693359375 0.0889739990234375 -0.89434814453125 -0.39190673828125 0.0015050768852233887 -0.001313328742980957 -0.06621551513671875 0.039028167724609375
18.19225 0.16385650634765625 0.08203125 -0.93572998046875 -0.32550048828125 0.00034314393997192383 0.0005075335502624512 -0.06424331665039062 0.044353485107421875
18.202 0.169708251953125 0.07666778564453125 -0.97265625 -0.2537841796875 0.0011270642280578613 -6.580352783203125e-05 -0.06265640258789062 0.0507049560546875
18.21175 0.1741485595703125 0.069549560546875 -1.0020751953125 -0.1763916015625 0.0007215738296508789 -0.00019681453704833984 -0.056976318359375 0.05596923828125
18.2215 0.17706298828125 0.06128692626953125 -1.02264404296875 -0.093505859375 0.0004127025604248047 -0.001157224178314209 -0.052577972412109375 0.06104278564453125
18.23125 0.1815338134765625 0.0546722412109375 -1.0345458984375 -0.01031494140625 -0.00031700730323791504 -0.0005392134189605713 -0.04851531982421875 0.06468963623046875
18.241 0.1847686767578125 0.0464019775390625 -1.04046630859375 0.07318115234375 0.0006826519966125488 -0.000398486852645874 -0.04343414306640625 0.07162857055664062
18.25075 0.18647003173828125 0.03885650634765625 -1.0394287109375 0.15704345703125 -3.123283386230469e-05 -0.000623166561126709 -0.038387298583984375 0.0758056640625
18.2605 0.18856048583984375 0.03144073486328125 -1.03082275390625 0.23992919921875 0.0002606809139251709 0.0006705820560455322 -0.03165435791015625 0.07926177978515625
18.27025 0.1914520263671875 0.02203369140625 -1.01849365234375 0.322265625 0.000390857458114624 -0.0007267296314239502 -0.026462554931640625 0.0857391357421875
18.28 0.19335174560546875 0.01366424560546875 -1.0001220703125 0.41094970703125 0.0006585419178009033 -0.00038936734199523926 -0.019641876220703125 0.08499526977539062
18.28975 0.1957244873046875 0.00423431396484375 -0.97344970703125 0.494293212890625 0.00015528500080108643 -0.00045242905616760254 -0.011180877685546875 0.0894317626953125
18.2995 0.19431304931640625 -0.00351715087890625 -0.93707275390625 0.58026123046875 0.0006095767021179199 -0.0016772150993347168 -0.005825042724609375 0.08912277221679688
18.30925 0.194122314453125 -0.0132293701171875 -0.8896484375 0.662109375 0.00044286251068115234 -0.001208186149597168 0.003997802734375 0.09181976318359375
18.319 0.19475555419921875 -0.0229339599609375 -0.833740234375 0.737274169921875 0.00028283894062042236 0.00020709633827209473 0.01129913330078125 0.09511566162109375
18.32875 0.192230224609375 -0.02951812744140625 -0.772308349609375 0.80645751953125 -0.0006480216979980469 -0.0006412863731384277 0.018787384033203125 0.0961151123046875
18.3385 0.19097137451171875 -0.0405426025390625 -0.704864501953125 0.866607666015625 -0.0004169940948486328 0.0005697309970855713 0.027309417724609375 0.09450912475585938
18.34825 0.1908721923828125 -0.04956817626953125 -0.637603759765625 0.92291259765625 0.0003284662961959839 -0.00028228759765625 0.034210205078125 0.09520721435546875
18.358 0.18849945068359375 -0.05643463134765625 -0.567718505859375 0.975555419921875 8.90493392944336e-05 -0.0014126896858215332 0.0435943603515625 0.09333038330078125
18.36775 0.18509674072265625 -0.06490325927734375 -0.49053955078125 1.02239990234375 0.0003949105739593506 -0.0005942583084106445 0.04938507080078125 0.093048095703125
18.3775 0.18326568603515625 -0.07196044921875 -0.410400390625 1.06585693359375 0.00014460086822509766 -0.0006237328052520752 0.05673980712890625 0.09014892578125
18.38725 0.17945098876953125 -0.0818023681640625 -0.3209228515625 1.10321044921875 -0.0003605484962463379 0.0008321404457092285 0.06554412841796875 0.08893585205078125
18.397 0.1751708984375 -0.0890045166015625 -0.228271484375 1.1298828125 0.0005105733871459961 -0.0004470944404602051 0.0713958740234375 0.08489990234375
18.40675 0.170989990234375 -0.096588134765625 -0.1285400390625 1.1512451171875 0.001329660415649414 -0.0007777214050292969 0.0792083740234375 0.0790557861328125
18.4165 0.165985107421875 -0.10407257080078125 -0.0335693359375 1.1563720703125 0.00044295191764831543 -9.068846702575684e-05 0.08397674560546875 0.07608795166015625
18.42625 0.15950775146484375 -0.109771728515625 0.0604248046875 1.1495361328125 0.0009484291076660156 -0.0011643171310424805 0.0919647216796875 0.0696563720703125
18.436 0.152435302734375 -0.11623382568359375 0.1488037109375 1.1400146484375 0.0005485415458679199 -0.000382840633392334 0.0986175537109375 0.0635528564453125
18.44575 0.14693450927734375 -0.1242218017578125 0.23345947265625 1.12432861328125 -0.00014168024063110352 -0.0009762048721313477 0.10163116455078125 0.058807373046875
18.4555 0.140594482421875 -0.13004302978515625 0.31756591796875 1.10284423828125 0.0007183551788330078 -0.00016751885414123535 0.10781097412109375 0.05107879638671875
18.46525 0.13439178466796875 -0.13643646240234375 0.4019775390625 1.0841064453125 0.0007418394088745117 -0.001252293586730957 0.11130523681640625 0.0430755615234375
18.475 0.1252288818359375 -0.14162445068359375 0.48834228515625 1.05743408203125 0.0008093416690826416 8.19861888885498e-05 0.117218017578125 0.036346435546875
18.48475 0.12061309814453125 -0.146026611328125 0.57568359375 1.0198974609375 0.0005485117435455322 9.062886238098145e-05 0.11978912353515625 0.02617645263671875
18.4945 0.11163330078125 -0.14916229248046875 0.66082763671875 0.97113037109375 0.0005615353584289551 -0.0002566874027252197 0.1222991943359375 0.01718902587890625
18.50425 0.103271484375 -0.1554718017578125 0.7452392578125 0.9149169921875 -0.000685274600982666 0.0005837678909301758 0.1256561279296875 0.0105743408203125
18.514 0.09710693359375 -0.1586151123046875 0.816162109375 0.848388671875 -1.8924474716186523e-05 0.0003402233123779297 0.126007080078125 0.0029296875
18.52375 0.0880279541015625 -0.1602325439453125 0.87884521484375 0.77490234375 0.0002814829349517822 0.00013105571269989014 0.1266021728515625 -0.00763702392578125
18.5335 0.08182525634765625 -0.16451263427734375 0.93280029296875 0.70074462890625 0.0002632737159729004 -0.000148087739944458 0.12714385986328125 -0.01419830322265625
18.54325 0.0738525390625 -0.16761016845703125 0.97674560546875 0.62799072265625 -0.0005994439125061035 -0.00044476985931396484 0.12494277954101562 -0.02272796630859375
18.553 0.0656585693359375 -0.1696014404296875 1.017578125 0.5533447265625 -0.00022020936012268066 -0.0006443262100219727 0.12382888793945312 -0.029750823974609375
18.56275 0.05869293212890625 -0.169708251953125 1.0592041015625 0.48089599609375 9.887665510177612e-05 3.5449862480163574e-05 0.12140274047851562 -0.037021636962890625
18.5725 0.049713134765625 -0.169952392578125 1.09490966796875 0.4012451171875 0.000796586275100708 -0.0007248818874359131 0.1161041259765625 -0.04619598388671875
18.58225 0.0417327880859375 -0.1705780029296875 1.127685546875 0.3167724609375 -0.0007974505424499512 -0.0010727643966674805 0.11413955688476562 -0.0542755126953125
18.592 0.0326080322265625 -0.171844482421875 1.15386962890625 0.22491455078125 0.00028461217880249023 -0.00032873451709747314 0.109771728515625 -0.06034088134765625
18.60175 0.02532958984375 -0.1707305908203125 1.172119140625 0.1329345703125 0.0008556842803955078 -2.199411392211914e-05 0.104827880859375 -0.06644439697265625
18.6115 0.017974853515625 -0.17012786865234375 1.1737060546875 0.03912353515625 0.00019055604934692383 -0.0010956525802612305 0.09918594360351562 -0.0738067626953125
18.62125 0.00937652587890625 -0.1692657470703125 1.16943359375 -0.0513916015625 5.930662155151367e-06 -0.0009303390979766846 0.092803955078125 -0.07983016967773438
18.631 0.00045013427734375 -0.1673583984375 1.15667724609375 -0.13482666015625 0.00023224949836730957 -0.0007188618183135986 0.08742141723632812 -0.08403396606445312
18.64075 -0.00730133056640625 -0.166961669921875 1.14068603515625 -0.21588134765625 0.0016536712646484375 -0.00015664100646972656 0.08198165893554688 -0.08777999877929688
18.6505 -0.013824462890625 -0.16544342041015625 1.12225341796875 -0.29461669921875 -0.0006537437438964844 -0.0006562471389770508 0.07509231567382812 -0.09132003784179688
18.66025 -0.0220184326171875 -0.16219329833984375 1.10357666015625 -0.37109375 0.0009434819221496582 -0.00015026330947875977 0.0682373046875 -0.09354782104492188
