!Created with skrf (http://scikit-rf.org).
# GHz S RI R 50.0 
!freq ReS11 ImS11 ReS21 ImS21 ReS12 ImS12 ReS22 ImS22
17.5 0.0094451904296875 -0.1436920166015625 -0.486846923828125 0.598876953125 -0.002464890480041504 0.0002923011779785156 0.09707260131835938 0.0025482177734375
17.50975 -0.00086212158203125 -0.14055633544921875 -0.43084716796875 0.634063720703125 -0.0018246769905090332 0.0005984306335449219 0.0990753173828125 0.001232147216796875
17.5195 -0.00775909423828125 -0.1348724365234375 -0.373016357421875 0.6614990234375 -0.0013475418090820312 0.0008395910263061523 0.10295867919921875 0.000125885009765625
17.52925 -0.01683807373046875 -0.13213348388671875 -0.313385009765625 0.6845703125 -0.0012300610542297363 0.0015835762023925781 0.10578536987304688 -0.00553131103515625
17.539 -0.02178955078125 -0.1268310546875 -0.25421142578125 0.7005615234375 -0.0014377832412719727 0.0003361701965332031 0.10559844970703125 -0.00786590576171875
17.54875 -0.03047943115234375 -0.12294769287109375 -0.195770263671875 0.713958740234375 -0.0012252330780029297 0.00039583444595336914 0.1091766357421875 -0.01071929931640625
17.5585 -0.0395050048828125 -0.11899566650390625 -0.137725830078125 0.721954345703125 -0.0008679628372192383 0.0007381439208984375 0.11101913452148438 -0.0150146484375
17.56825 -0.0458984375 -0.11435699462890625 -0.081939697265625 0.7266845703125 -0.0006837844848632812 0.00016176700592041016 0.11134719848632812 -0.017547607421875
17.578 -0.05275726318359375 -0.10826873779296875 -0.020904541015625 0.725128173828125 -0.0005637407302856445 -0.0001913607120513916 0.11370086669921875 -0.0210723876953125
17.58775 -0.05912017822265625 -0.1036834716796875 0.03692626953125 0.718994140625 -0.0013325810432434082 0.00016677379608154297 0.1142578125 -0.025424957275390625
17.5975 -0.06295013427734375 -0.0975341796875 0.098388671875 0.705810546875 -0.002619147300720215 0.001142263412475586 0.11337661743164062 -0.03050994873046875
17.60725 -0.06909942626953125 -0.09224700927734375 0.152923583984375 0.6895751953125 -0.001833498477935791 0.001113593578338623 0.11310958862304688 -0.0326690673828125
17.617 -0.0748291015625 -0.08477783203125 0.20672607421875 0.66485595703125 -0.00037479400634765625 0.00023409724235534668 0.11372756958007812 -0.039142608642578125
17.62675 -0.07913970947265625 -0.07769012451171875 0.253143310546875 0.63702392578125 -0.001955270767211914 0.0005625486373901367 0.11548995971679688 -0.041080474853515625
17.6365 -0.0825347900390625 -0.071044921875 0.29669189453125 0.6072998046875 -0.0003618001937866211 0.0005013346672058105 0.11328887939453125 -0.048004150390625
17.64625 -0.08560943603515625 -0.062530517578125 0.332763671875 0.576385498046875 -0.0005589723587036133 0.0026711225509643555 0.11125946044921875 -0.053424835205078125
17.656 -0.0897216796875 -0.0564727783203125 0.368988037109375 0.545318603515625 2.250075340270996e-05 0.0008721053600311279 0.10906219482421875 -0.05664825439453125
17.66575 -0.091156005859375 -0.047821044921875 0.402008056640625 0.515380859375 0.00047004222869873047 0.0013666152954101562 0.10695266723632812 -0.060626983642578125
17.6755 -0.09549713134765625 -0.04190826416015625 0.433685302734375 0.483795166015625 -0.0011811256408691406 0.002392292022705078 0.10366439819335938 -0.06559371948242188
17.68525 -0.09661102294921875 -0.03232574462890625 0.46514892578125 0.451751708984375 -0.0007155835628509521 0.0006927251815795898 0.10068893432617188 -0.06974411010742188
17.695 -0.09883880615234375 -0.023040771484375 0.498626708984375 0.41375732421875 -0.0007185935974121094 0.0008082389831542969 0.09926986694335938 -0.07389450073242188
17.70475 -0.09843063354492188 -0.0143890380859375 0.528564453125 0.372161865234375 -0.0007396936416625977 -0.00036913156509399414 0.09405899047851562 -0.0781402587890625
17.7145 -0.10198974609375 -0.006526947021484375 0.55218505859375 0.325408935546875 -0.0008805990219116211 0.0013560056686401367 0.09134674072265625 -0.08227920532226562
17.72425 -0.1002960205078125 0.000118255615234375 0.571197509765625 0.2767333984375 -0.0005446672439575195 0.0011892318725585938 0.08630752563476562 -0.08808135986328125
17.734 -0.10137176513671875 0.0095367431640625 0.58062744140625 0.2291259765625 -0.00015854835510253906 0.0012400150299072266 0.0825042724609375 -0.0914459228515625
17.74375 -0.1026458740234375 0.015106201171875 0.583740234375 0.18212890625 0.0005905628204345703 0.0012952089309692383 0.079254150390625 -0.0950775146484375
17.7535 -0.09894561767578125 0.023471832275390625 0.584503173828125 0.140472412109375 -1.2516975402832031e-06 0.0008534789085388184 0.07318115234375 -0.097503662109375
17.76325 -0.098358154296875 0.03156280517578125 0.585479736328125 0.101318359375 -0.00046372413635253906 0.002395153045654297 0.0695343017578125 -0.10004425048828125
17.773 -0.0978240966796875 0.037109375 0.585693359375 0.06622314453125 7.88569450378418e-05 0.0017527937889099121 0.06409072875976562 -0.10285186767578125
17.78275 -0.09548187255859375 0.046512603759765625 0.581085205078125 0.030120849609375 -2.1696090698242188e-05 0.0012439489364624023 0.059505462646484375 -0.10328292846679688
17.7925 -0.09169387817382812 0.05204010009765625 0.58221435546875 -0.008331298828125 -0.0001977682113647461 0.0010921359062194824 0.055225372314453125 -0.10638046264648438
17.80225 -0.08901596069335938 0.0590972900390625 0.579254150390625 -0.047210693359375 -7.140636444091797e-05 0.0011606216430664062 0.051593780517578125 -0.10587692260742188
17.812 -0.08524322509765625 0.06663894653320312 0.5721435546875 -0.086883544921875 0.000253140926361084 0.000549018383026123 0.042469024658203125 -0.10736465454101562
17.82175 -0.08074569702148438 0.07428741455078125 0.562408447265625 -0.12567138671875 0.00017786026000976562 0.002108335494995117 0.03934478759765625 -0.10703659057617188
17.8315 -0.07683563232421875 0.08044815063476562 0.546722412109375 -0.164154052734375 7.87973403930664e-05 0.0006920397281646729 0.032093048095703125 -0.107879638671875
17.84125 -0.07280731201171875 0.08734893798828125 0.53076171875 -0.19915771484375 0.0019834041595458984 0.0011188983917236328 0.0261077880859375 -0.10861968994140625
17.851 -0.06792449951171875 0.0940399169921875 0.5107421875 -0.230377197265625 -0.0004182755947113037 0.0008398890495300293 0.020999908447265625 -0.10810470581054688
17.86075 -0.06376266479492188 0.09855270385742188 0.492156982421875 -0.2576751708984375 -0.0004475712776184082 0.001612544059753418 0.0151519775390625 -0.10577774047851562
17.8705 -0.05809783935546875 0.10388946533203125 0.4716796875 -0.283294677734375 0.00034034252166748047 0.002138376235961914 0.0109405517578125 -0.10558319091796875
17.88025 -0.052642822265625 0.10873031616210938 0.45257568359375 -0.3089752197265625 0.0008307695388793945 0.001596212387084961 0.00543975830078125 -0.105743408203125
17.89 -0.047817230224609375 0.11496353149414062 0.433135986328125 -0.3330078125 0.0003941655158996582 0.0006902217864990234 -0.000102996826171875 -0.1038055419921875
17.89975 -0.03997039794921875 0.11850738525390625 0.4146270751953125 -0.35986328125 0.001226663589477539 0.00046497583389282227 -0.006427764892578125 -0.10367584228515625
17.9095 -0.0360107421875 0.12396240234375 0.3941802978515625 -0.3846893310546875 -0.00011205673217773438 0.0007708370685577393 -0.010692596435546875 -0.1013946533203125
17.91925 -0.0287017822265625 0.12664031982421875 0.3689117431640625 -0.4092559814453125 0.0007590353488922119 3.185868263244629e-05 -0.01561737060546875 -0.09938430786132812
17.929 -0.022552490234375 0.1305084228515625 0.344024658203125 -0.431976318359375 0.0005552768707275391 0.0013941526412963867 -0.02188873291015625 -0.09765625
17.93875 -0.01634979248046875 0.1332550048828125 0.3163299560546875 -0.4529571533203125 -0.0003286600112915039 0.0012369751930236816 -0.024204254150390625 -0.09455108642578125
17.9485 -0.008544921875 0.1340484619140625 0.289031982421875 -0.4719696044921875 0.0012650489807128906 -0.00026303529739379883 -0.02924346923828125 -0.0900726318359375
17.95825 -0.00336456298828125 0.1375274658203125 0.2609405517578125 -0.4883880615234375 0.001972675323486328 0.0006438493728637695 -0.033107757568359375 -0.0880126953125
17.968 0.00464630126953125 0.13970184326171875 0.2332763671875 -0.501373291015625 0.0011886954307556152 0.0005721449851989746 -0.038482666015625 -0.08620071411132812
17.97775 0.01139068603515625 0.14011383056640625 0.2098388671875 -0.51580810546875 0.001599431037902832 -0.0012053847312927246 -0.042949676513671875 -0.08113861083984375
17.9875 0.0211029052734375 0.14281463623046875 0.182373046875 -0.533233642578125 0.0014435052871704102 0.0005089044570922852 -0.04598236083984375 -0.07796478271484375
17.99725 0.02861785888671875 0.1413726806640625 0.15283203125 -0.552154541015625 0.00041174888610839844 0.0004571974277496338 -0.05022430419921875 -0.0731048583984375
18.007 0.0350189208984375 0.143768310546875 0.1209716796875 -0.567626953125 0.0008394718170166016 0.0004672408103942871 -0.05371856689453125 -0.0689849853515625
18.01675 0.04364776611328125 0.1442718505859375 0.08642578125 -0.58123779296875 0.0009486675262451172 0.0015614032745361328 -0.05797576904296875 -0.06276321411132812
18.0265 0.051177978515625 0.1434326171875 0.0496826171875 -0.5972900390625 8.234381675720215e-05 -0.00028395652770996094 -0.06339263916015625 -0.05950164794921875
18.03625 0.058197021484375 0.14447021484375 0.0111083984375 -0.6082763671875 0.0005916357040405273 0.00028705596923828125 -0.0650787353515625 -0.05179595947265625
18.046 0.0661468505859375 0.14263916015625 -0.030517578125 -0.61602783203125 0.0014980435371398926 -0.0003994107246398926 -0.06737136840820312 -0.046787261962890625
18.05575 0.0745697021484375 0.14086151123046875 -0.072357177734375 -0.619781494140625 0.0017611980438232422 -0.000482022762298584 -0.06914901733398438 -0.04227447509765625
18.0655 0.07952117919921875 0.14014434814453125 -0.1124267578125 -0.622467041015625 0.001659393310546875 0.000987410545349121 -0.074188232421875 -0.0368804931640625
18.07525 0.08794403076171875 0.13692474365234375 -0.1531982421875 -0.62274169921875 0.0006943047046661377 -3.933906555175781e-06 -0.0739288330078125 -0.031673431396484375
18.085 0.09728240966796875 0.1354827880859375 -0.199005126953125 -0.620574951171875 -0.00025272369384765625 -0.0002056509256362915 -0.07634353637695312 -0.02552032470703125
18.09475 0.1022491455078125 0.13208770751953125 -0.245361328125 -0.620513916015625 0.001202225685119629 0.00026667118072509766 -0.07389450073242188 -0.021450042724609375
18.1045 0.11005401611328125 0.12775421142578125 -0.2939453125 -0.6124267578125 -0.00045937299728393555 -0.0002855658531188965 -0.07706451416015625 -0.013454437255859375
18.11425 0.116851806640625 0.12596893310546875 -0.34576416015625 -0.60113525390625 -0.0006914734840393066 -0.0006576776504516602 -0.07596969604492188 -0.00966644287109375
18.124 0.1220550537109375 0.121307373046875 -0.39666748046875 -0.58465576171875 0.001096487045288086 -0.0011029243469238281 -0.07628631591796875 -0.00031280517578125
18.13375 0.12982940673828125 0.117279052734375 -0.44671630859375 -0.564697265625 0.001587510108947754 0.0002752542495727539 -0.07649612426757812 0.00392913818359375
18.1435 0.13498687744140625 0.1112060546875 -0.49755859375 -0.53668212890625 -1.3239681720733643e-05 -0.0001852959394454956 -0.07633590698242188 0.013458251953125
18.15325 0.14113616943359375 0.10486602783203125 -0.5443115234375 -0.5050048828125 0.0014322400093078613 -0.00011038780212402344 -0.07423782348632812 0.01739501953125
18.163 0.14711761474609375 0.0998992919921875 -0.59283447265625 -0.46942138671875 0.00023211538791656494 0.00023543834686279297 -0.07354354858398438 0.025333404541015625
18.17275 0.1535186767578125 0.0941009521484375 -0.63623046875 -0.42791748046875 0.0012717843055725098 0.00010532140731811523 -0.0684967041015625 0.02997589111328125
18.1825 0.1592254638671875 0.08769989013671875 -0.679443359375 -0.38525390625 0.0008324980735778809 -7.787346839904785e-05 -0.06624221801757812 0.0387725830078125
18.19225 0.16445159912109375 0.081085205078125 -0.7210693359375 -0.336669921875 0.0005077719688415527 -0.0009878873825073242 -0.06290054321289062 0.044223785400390625
18.202 0.16934967041015625 0.07540130615234375 -0.75860595703125 -0.28253173828125 -0.0003578662872314453 -0.0007537007331848145 -0.06261825561523438 0.05121612548828125
18.21175 0.17327880859375 0.068572998046875 -0.79046630859375 -0.22027587890625 0.00042182207107543945 -0.0006477832794189453 -0.056705474853515625 0.05715179443359375
18.2215 0.17919158935546875 0.06081390380859375 -0.8173828125 -0.155364990234375 0.000743180513381958 -0.0003502368927001953 -0.052120208740234375 0.06022453308105469
18.23125 0.1823577880859375 0.05425262451171875 -0.83538818359375 -0.089263916015625 0.0009047985076904297 1.8417835235595703e-05 -0.049266815185546875 0.0649261474609375
18.241 0.184356689453125 0.045928955078125 -0.849273681640625 -0.019927978515625 0.00041484832763671875 0.0002925097942352295 -0.0434722900390625 0.07149887084960938
18.25075 0.18538665771484375 0.03887939453125 -0.855133056640625 0.04840087890625 0.0003973245620727539 0.0001233518123626709 -0.03801727294921875 0.076385498046875
18.2605 0.188079833984375 0.03050994873046875 -0.855712890625 0.117523193359375 0.0012810230255126953 -0.0007722973823547363 -0.03128814697265625 0.07839584350585938
18.27025 0.19000244140625 0.0216064453125 -0.8519287109375 0.188934326171875 6.549060344696045e-06 -3.090314567089081e-05 -0.025421142578125 0.0824432373046875
18.28 0.192108154296875 0.01345062255859375 -0.844268798828125 0.261932373046875 0.0006072819232940674 -0.0007058978080749512 -0.018337249755859375 0.08546066284179688
18.28975 0.19464874267578125 0.00406646728515625 -0.830169677734375 0.334136962890625 0.0005452632904052734 -0.00030356645584106445 -0.010906219482421875 0.08867645263671875
18.2995 0.19622802734375 -0.00278472900390625 -0.80706787109375 0.40777587890625 0.00043207406997680664 -0.0009841322898864746 -0.004344940185546875 0.08771133422851562
18.30925 0.194488525390625 -0.0146484375 -0.77508544921875 0.48150634765625 0.0004971623420715332 -0.0006073117256164551 0.00290679931640625 0.0908203125
18.319 0.192779541015625 -0.023529052734375 -0.733856201171875 0.5491943359375 7.984042167663574e-05 -0.00020143389701843262 0.009304046630859375 0.09347915649414062
18.32875 0.1934051513671875 -0.0298919677734375 -0.6881103515625 0.60943603515625 0.0005590319633483887 -0.00027182698249816895 0.019603729248046875 0.09343719482421875
18.3385 0.19039154052734375 -0.03943634033203125 -0.637054443359375 0.6680908203125 -0.0004667937755584717 -0.00032278895378112793 0.028789520263671875 0.09589385986328125
18.34825 0.1904296875 -0.04804229736328125 -0.58642578125 0.71929931640625 0.00023946166038513184 0.0003815591335296631 0.03418731689453125 0.0948486328125
18.358 0.18804931640625 -0.05677032470703125 -0.529693603515625 0.7686767578125 0.0012919306755065918 0.00030881166458129883 0.0439453125 0.09256744384765625
18.36775 0.18572235107421875 -0.064849853515625 -0.469024658203125 0.81298828125 -0.000171661376953125 -0.00039258599281311035 0.050262451171875 0.09180450439453125
18.3775 0.1819610595703125 -0.07149505615234375 -0.40679931640625 0.857391357421875 -0.0005509257316589355 -0.0008590817451477051 0.056427001953125 0.08783721923828125
18.38725 0.17995452880859375 -0.08104705810546875 -0.3343505859375 0.894317626953125 0.0007594823837280273 0.00011977553367614746 0.0635986328125 0.08719635009765625
18.397 0.1756744384765625 -0.0891571044921875 -0.25701904296875 0.92510986328125 0.0003197193145751953 -0.0009444355964660645 0.071258544921875 0.0827789306640625
18.40675 0.1700439453125 -0.094970703125 -0.17742919921875 0.9459228515625 -0.0005505084991455078 -0.0013644695281982422 0.077880859375 0.0802764892578125
18.4165 0.16629791259765625 -0.103302001953125 -0.095794677734375 0.956329345703125 -0.0005294382572174072 -0.00023895502090454102 0.08367156982421875 0.0750732421875
18.42625 0.16118621826171875 -0.11000823974609375 -0.017822265625 0.960113525390625 0.00043345987796783447 -0.00046440958976745605 0.0914764404296875 0.068267822265625
18.436 0.15297698974609375 -0.1156158447265625 0.05609130859375 0.95733642578125 -0.00024145841598510742 0.00029613077640533447 0.09903717041015625 0.06439208984375
18.44575 0.1462860107421875 -0.12390899658203125 0.1302490234375 0.94976806640625 0.0006312727928161621 -0.00046581029891967773 0.1007843017578125 0.05736541748046875
18.4555 0.14102935791015625 -0.1288909912109375 0.20068359375 0.93902587890625 0.0007358789443969727 -0.0012902021408081055 0.1069488525390625 0.05211639404296875
18.46525 0.13425445556640625 -0.13533782958984375 0.274169921875 0.9278564453125 0.0007304847240447998 -0.0004672408103942871 0.11087799072265625 0.040924072265625
18.475 0.1263275146484375 -0.1403350830078125 0.34912109375 0.91180419921875 -9.801983833312988e-05 -0.0006240904331207275 0.11716461181640625 0.035003662109375
18.48475 0.1203460693359375 -0.14636993408203125 0.42486572265625 0.88604736328125 0.0007724165916442871 -0.00045868754386901855 0.12044525146484375 0.027008056640625
18.4945 0.11171722412109375 -0.150146484375 0.50140380859375 0.85125732421875 -0.0004355311393737793 -0.0008127093315124512 0.1233367919921875 0.0183868408203125
18.50425 0.102447509765625 -0.154052734375 0.575927734375 0.807861328125 0.00046265125274658203 0.00019091367721557617 0.1237945556640625 0.0099029541015625
18.514 0.0970306396484375 -0.158416748046875 0.6397705078125 0.757568359375 0.00039759278297424316 -0.00044849514961242676 0.1269683837890625 0.00244140625
18.52375 0.08768463134765625 -0.15976715087890625 0.69732666015625 0.69830322265625 0.000511854887008667 0.0003338456153869629 0.12566375732421875 -0.006805419921875
18.5335 0.08293914794921875 -0.1645355224609375 0.7462158203125 0.63922119140625 0.0008549690246582031 5.1915645599365234e-05 0.12603759765625 -0.01534271240234375
18.54325 0.0734100341796875 -0.16693878173828125 0.7889404296875 0.5797119140625 0.0003220587968826294 -0.000389978289604187 0.1245574951171875 -0.024074554443359375
18.553 0.0650787353515625 -0.16953277587890625 0.8284912109375 0.51885986328125 0.00013810396194458008 -0.000800788402557373 0.12160110473632812 -0.030063629150390625
18.56275 0.05832672119140625 -0.169403076171875 0.86767578125 0.4588623046875 0.00035321712493896484 -0.00010551512241363525 0.12076950073242188 -0.03812408447265625
18.5725 0.05078125 -0.17098236083984375 0.9033203125 0.3935546875 0.0005732476711273193 -0.00020897388458251953 0.11665725708007812 -0.046276092529296875
18.58225 0.04163360595703125 -0.1710662841796875 0.93829345703125 0.3250732421875 0.0012703537940979004 -0.0014323592185974121 0.1124267578125 -0.0538177490234375
18.592 0.0331878662109375 -0.17324066162109375 0.964111328125 0.24835205078125 0.0014829635620117188 -0.0011769533157348633 0.10869598388671875 -0.0597381591796875
18.60175 0.026092529296875 -0.1700439453125 0.98388671875 0.1705322265625 0.000425875186920166 0.00013458728790283203 0.1028900146484375 -0.06565093994140625
18.6115 0.0178680419921875 -0.17017364501953125 0.99346923828125 0.0894775390625 0.0006026625633239746 -0.0008138120174407959 0.0990753173828125 -0.07414627075195312
18.62125 0.009307861328125 -0.16902923583984375 0.994781494140625 0.01104736328125 -0.0008480548858642578 -0.0006887912750244141 0.09251785278320312 -0.07954788208007812
18.631 0.00173187255859375 -0.16790771484375 0.98883056640625 -0.058319091796875 -0.0005639493465423584 -0.00022223591804504395 0.087066650390625 -0.08304977416992188
18.64075 -0.006439208984375 -0.1661224365234375 0.9791259765625 -0.129852294921875 0.0012145638465881348 -0.0007669329643249512 0.0821533203125 -0.08774185180664062
18.6505 -0.0124969482421875 -0.166015625 0.967926025390625 -0.197784423828125 -8.225440979003906e-05 -0.0009956955909729004 0.075592041015625 -0.08976364135742188
