!Created with skrf (http://scikit-rf.org).
# GHz S RI R 50.0 
!freq ReS11 ImS11 ReS21 ImS21 ReS12 ImS12 ReS22 ImS22
17.5 0.0100250244140625 -0.1420135498046875 -0.75408935546875 0.8646240234375 -0.0015097260475158691 0.0013275146484375 0.09629058837890625 0.00220489501953125
17.50975 0.00063323974609375 -0.13935089111328125 -0.67681884765625 0.921875 -0.0015994906425476074 0.0008702278137207031 0.09853744506835938 0.001232147216796875
17.5195 -0.0070648193359375 -0.13555908203125 -0.593292236328125 0.96636962890625 -0.0011714696884155273 -0.0006632208824157715 0.10191726684570312 0.000995635986328125
17.52925 -0.0155487060546875 -0.13175201416015625 -0.50909423828125 1.00714111328125 -0.0019394159317016602 0.001679539680480957 0.10466766357421875 -0.004444122314453125
17.539 -0.0215301513671875 -0.12567138671875 -0.42626953125 1.037841796875 -0.0010898113250732422 0.0008645057678222656 0.10651397705078125 -0.00732421875
17.54875 -0.03069305419921875 -0.12253570556640625 -0.34100341796875 1.0595703125 -0.0013812780380249023 0.000553429126739502 0.10760498046875 -0.009235382080078125
17.5585 -0.039794921875 -0.117340087890625 -0.2554931640625 1.0775146484375 -0.0016377568244934082 7.361173629760742e-05 0.11053085327148438 -0.0152130126953125
17.56825 -0.04518890380859375 -0.114532470703125 -0.1728515625 1.09136962890625 0.0003229975700378418 0.0007572770118713379 0.11163330078125 -0.017620086669921875
17.578 -0.052398681640625 -0.107208251953125 -0.0855712890625 1.09710693359375 -0.0008264482021331787 0.0003314018249511719 0.11262893676757812 -0.02097320556640625
17.58775 -0.05774688720703125 -0.10251617431640625 0.00396728515625 1.09649658203125 -0.0016648173332214355 0.0003516077995300293 0.11270523071289062 -0.024730682373046875
17.5975 -0.0630950927734375 -0.0962677001953125 0.0943603515625 1.086181640625 6.0558319091796875e-05 0.000662684440612793 0.11405563354492188 -0.0292205810546875
17.60725 -0.068328857421875 -0.09285736083984375 0.181640625 1.0670166015625 -0.0014317035675048828 0.0006533265113830566 0.11441421508789062 -0.03289031982421875
17.617 -0.073028564453125 -0.084136962890625 0.26470947265625 1.04010009765625 -0.0010886788368225098 0.0001074075698852539 0.11457061767578125 -0.036365509033203125
17.62675 -0.077789306640625 -0.07755279541015625 0.34124755859375 1.005126953125 0.00027501583099365234 0.0009158849716186523 0.11431884765625 -0.041606903076171875
17.6365 -0.0815582275390625 -0.070648193359375 0.4112548828125 0.9649658203125 -1.71661376953125e-05 0.0006161928176879883 0.11267852783203125 -0.0468902587890625
17.64625 -0.0848541259765625 -0.0625762939453125 0.47161865234375 0.92315673828125 -0.0005838871002197266 0.0001837015151977539 0.11129379272460938 -0.050853729248046875
17.656 -0.08798980712890625 -0.05759429931640625 0.5308837890625 0.87994384765625 -0.001190185546875 0.0011063218116760254 0.10773849487304688 -0.056087493896484375
17.66575 -0.09015655517578125 -0.04779815673828125 0.587646484375 0.84100341796875 0.0002976655960083008 0.0008927583694458008 0.10778045654296875 -0.059642791748046875
17.6755 -0.09398651123046875 -0.04064178466796875 0.64129638671875 0.796875 -0.0009641051292419434 0.0011178851127624512 0.10466766357421875 -0.06563949584960938
17.68525 -0.09625244140625 -0.03214263916015625 0.698974609375 0.75152587890625 -0.00142669677734375 0.0017497539520263672 0.10152435302734375 -0.06936264038085938
17.695 -0.0982818603515625 -0.0239410400390625 0.75634765625 0.697509765625 0.0009887218475341797 0.0004165172576904297 0.10088729858398438 -0.07378768920898438
17.70475 -0.09813308715820312 -0.01569366455078125 0.80841064453125 0.6331787109375 -0.00035685300827026367 0.0010682344436645508 0.09630966186523438 -0.0775604248046875
17.7145 -0.10037612915039062 -0.007266998291015625 0.85614013671875 0.56243896484375 -0.00028461217880249023 0.0007638633251190186 0.08984756469726562 -0.08214187622070312
17.72425 -0.09932708740234375 0.000202178955078125 0.89398193359375 0.48797607421875 -0.0002634674310684204 0.0002959221601486206 0.0879058837890625 -0.08665847778320312
17.734 -0.1024322509765625 0.00797271728515625 0.920654296875 0.4129638671875 -0.0006701350212097168 0.0001627802848815918 0.0830535888671875 -0.09033966064453125
17.74375 -0.10265350341796875 0.015869140625 0.932861328125 0.33837890625 0.00031185150146484375 0.0008891820907592773 0.0787200927734375 -0.09592437744140625
17.7535 -0.09918975830078125 0.022609710693359375 0.94256591796875 0.267333984375 0.00023621320724487305 0.0014554262161254883 0.0759735107421875 -0.09723281860351562
17.76325 -0.0973358154296875 0.03142547607421875 0.9512939453125 0.20440673828125 3.0308961868286133e-05 0.0004193335771560669 0.06909942626953125 -0.099517822265625
17.773 -0.09555435180664062 0.0369720458984375 0.9541015625 0.14483642578125 -0.0007362067699432373 0.0002506375312805176 0.0662841796875 -0.10205078125
17.78275 -0.09473419189453125 0.044521331787109375 0.95916748046875 0.081787109375 -0.00042176246643066406 0.0028803348541259766 0.06101226806640625 -0.10326004028320312
17.7925 -0.09173202514648438 0.0514984130859375 0.962890625 0.01776123046875 -0.000503838062286377 0.0005843639373779297 0.056751251220703125 -0.10509490966796875
17.80225 -0.08942413330078125 0.058929443359375 0.964202880859375 -0.04998779296875 0.0014891624450683594 0.0009669065475463867 0.050853729248046875 -0.10700607299804688
17.812 -0.08434677124023438 0.06543731689453125 0.960662841796875 -0.121002197265625 0.0003775060176849365 0.0003577768802642822 0.044948577880859375 -0.10756683349609375
17.82175 -0.08063125610351562 0.07410812377929688 0.9481201171875 -0.19171142578125 6.538629531860352e-05 0.0010592937469482422 0.039028167724609375 -0.10729217529296875
17.8315 -0.07726669311523438 0.07862472534179688 0.928253173828125 -0.261322021484375 0.0007902383804321289 0.0014908313751220703 0.0335235595703125 -0.10937881469726562
17.84125 -0.07288360595703125 0.08542633056640625 0.90118408203125 -0.3260498046875 0.000339508056640625 0.0005767941474914551 0.02812957763671875 -0.108642578125
17.851 -0.06732177734375 0.09259796142578125 0.866943359375 -0.386474609375 -0.0007489323616027832 0.0015316605567932129 0.023212432861328125 -0.10787582397460938
17.86075 -0.06459808349609375 0.097564697265625 0.83514404296875 -0.4395751953125 0.0007877349853515625 0.001661539077758789 0.015911102294921875 -0.107574462890625
17.8705 -0.058048248291015625 0.10279464721679688 0.801849365234375 -0.4910888671875 0.0003765225410461426 0.0009662508964538574 0.01029205322265625 -0.10663223266601562
17.88025 -0.052684783935546875 0.11023712158203125 0.767913818359375 -0.538055419921875 8.89897346496582e-05 0.0010001063346862793 0.00435638427734375 -0.10538101196289062
17.89 -0.047698974609375 0.11376571655273438 0.73406982421875 -0.5863037109375 -0.0005688667297363281 0.0013814568519592285 -0.000522613525390625 -0.10494613647460938
17.89975 -0.0422515869140625 0.11767959594726562 0.694976806640625 -0.63671875 0.0007485151290893555 0.0002041161060333252 -0.005565643310546875 -0.10424041748046875
17.9095 -0.036670684814453125 0.1226654052734375 0.655975341796875 -0.685638427734375 0.00033912062644958496 -3.935396671295166e-05 -0.010101318359375 -0.10195159912109375
17.91925 -0.02978515625 0.126312255859375 0.60723876953125 -0.730926513671875 -0.0004201531410217285 0.0007767379283905029 -0.014385223388671875 -0.100372314453125
17.929 -0.0229034423828125 0.13055419921875 0.55523681640625 -0.77508544921875 0.0011115074157714844 0.001699686050415039 -0.02111053466796875 -0.0998077392578125
17.93875 -0.018035888671875 0.1334686279296875 0.498992919921875 -0.812286376953125 0.0009483993053436279 -0.0005307495594024658 -0.025180816650390625 -0.0963897705078125
17.9485 -0.00966644287109375 0.13523101806640625 0.44439697265625 -0.841156005859375 0.0008106827735900879 0.0005728602409362793 -0.029827117919921875 -0.0917816162109375
17.95825 -0.00183868408203125 0.1378021240234375 0.38519287109375 -0.869842529296875 0.0007442235946655273 0.0014036893844604492 -0.032535552978515625 -0.08878707885742188
17.968 0.00273895263671875 0.13852691650390625 0.332855224609375 -0.8939208984375 0.0006382167339324951 0.00021460652351379395 -0.037220001220703125 -0.0868072509765625
17.97775 0.011932373046875 0.14080810546875 0.27520751953125 -0.912109375 0.0020682811737060547 0.0005838871002197266 -0.042621612548828125 -0.08141708374023438
17.9875 0.0203094482421875 0.14359283447265625 0.219818115234375 -0.935882568359375 0.0015550851821899414 -0.0005611777305603027 -0.044445037841796875 -0.07806777954101562
17.99725 0.02805328369140625 0.14281463623046875 0.161163330078125 -0.957489013671875 0.0007943511009216309 5.21242618560791e-05 -0.04958343505859375 -0.07336044311523438
18.007 0.03412628173828125 0.14403533935546875 0.096405029296875 -0.97747802734375 0.0022721290588378906 -0.0007123947143554688 -0.053905487060546875 -0.06940078735351562
18.01675 0.0431976318359375 0.1441497802734375 0.029693603515625 -0.992279052734375 -0.00012826919555664062 0.0008366703987121582 -0.0575103759765625 -0.06354522705078125
18.0265 0.0491943359375 0.1447601318359375 -0.04150390625 -1.001708984375 0.0006759166717529297 0.0003548860549926758 -0.06328582763671875 -0.0597076416015625
18.03625 0.058074951171875 0.145111083984375 -0.1158447265625 -1.00244140625 0.00036263465881347656 -0.0010520219802856445 -0.064910888671875 -0.053863525390625
18.046 0.06595611572265625 0.14318084716796875 -0.19158935546875 -1.0008544921875 0.001024484634399414 0.0012727975845336914 -0.06659317016601562 -0.04863739013671875
18.05575 0.073028564453125 0.141082763671875 -0.26092529296875 -0.990966796875 0.0011209845542907715 0.0007627010345458984 -0.07171630859375 -0.043712615966796875
18.0655 0.08058929443359375 0.14180755615234375 -0.32977294921875 -0.977294921875 0.001095414161682129 -0.00047510862350463867 -0.07638931274414062 -0.038997650146484375
18.07525 0.0883331298828125 0.138214111328125 -0.39801025390625 -0.9593505859375 0.0006194114685058594 -0.00013870000839233398 -0.07471084594726562 -0.032497406005859375
18.085 0.0954742431640625 0.13529205322265625 -0.468994140625 -0.94024658203125 0.0008608400821685791 -0.00030940771102905273 -0.07709884643554688 -0.02707672119140625
18.09475 0.10205078125 0.13153839111328125 -0.539794921875 -0.91693115234375 0.0010333657264709473 0.00024515390396118164 -0.07555770874023438 -0.0209808349609375
18.1045 0.10994720458984375 0.12860107421875 -0.612548828125 -0.88739013671875 0.0003472864627838135 0.0004755556583404541 -0.07909011840820312 -0.014606475830078125
18.11425 0.11745452880859375 0.12639617919921875 -0.684814453125 -0.84979248046875 0.000850677490234375 -0.0012125968933105469 -0.077850341796875 -0.0087890625
18.124 0.1228179931640625 0.121612548828125 -0.7567138671875 -0.8056640625 -0.0006185770034790039 -0.0007996559143066406 -0.0785980224609375 -0.00154876708984375
18.13375 0.1288909912109375 0.11746978759765625 -0.82647705078125 -0.75439453125 0.0011367201805114746 0.0004074573516845703 -0.07662582397460938 0.005584716796875
18.1435 0.13494873046875 0.11324310302734375 -0.88909912109375 -0.69732666015625 0.001370072364807129 -0.001169443130493164 -0.07715988159179688 0.01160430908203125
18.15325 0.1422576904296875 0.1070709228515625 -0.9476318359375 -0.63201904296875 -0.00021272897720336914 -0.0008594989776611328 -0.07584762573242188 0.017333984375
18.163 0.1474609375 0.1014251708984375 -1.0028076171875 -0.56378173828125 0.001482248306274414 0.0008783340454101562 -0.07442474365234375 0.02442169189453125
18.17275 0.1542205810546875 0.0961456298828125 -1.05328369140625 -0.49005126953125 -0.00021252036094665527 -0.0007342398166656494 -0.06924819946289062 0.0311126708984375
18.1825 0.160430908203125 0.088104248046875 -1.10101318359375 -0.41448974609375 -7.420778274536133e-05 -0.0010104179382324219 -0.06774520874023438 0.0373077392578125
18.19225 0.16357421875 0.08208465576171875 -1.14483642578125 -0.32989501953125 0.0006170272827148438 -0.001113593578338623 -0.06426620483398438 0.044525146484375
18.202 0.16794586181640625 0.07666015625 -1.18096923828125 -0.24322509765625 0.0003635287284851074 0.00016352534294128418 -0.06275558471679688 0.051143646240234375
18.21175 0.1727752685546875 0.068634033203125 -1.2088623046875 -0.146728515625 0.00014638900756835938 -0.0009000301361083984 -0.05877685546875 0.05692291259765625
18.2215 0.17867279052734375 0.06101226806640625 -1.2252197265625 -0.0465087890625 0.0017189979553222656 -0.00013679265975952148 -0.05188941955566406 0.061550140380859375
18.23125 0.18328857421875 0.05486297607421875 -1.23388671875 0.05126953125 0.0012839436531066895 0.0001481175422668457 -0.04998016357421875 0.06470489501953125
18.241 0.1846466064453125 0.04615020751953125 -1.23333740234375 0.150146484375 0.0007491707801818848 -0.0005660653114318848 -0.043094635009765625 0.0718841552734375
18.25075 0.18735504150390625 0.0386505126953125 -1.22296142578125 0.24749755859375 -0.0001658797264099121 0.00013831257820129395 -0.038848876953125 0.07558441162109375
18.2605 0.18984222412109375 0.03157806396484375 -1.20880126953125 0.34552001953125 -0.0002738088369369507 0.00010414421558380127 -0.031463623046875 0.079071044921875
18.27025 0.19123077392578125 0.02164459228515625 -1.18634033203125 0.4417724609375 -0.0009835362434387207 -0.0007672309875488281 -0.026641845703125 0.08330535888671875
18.28 0.19416046142578125 0.01300048828125 -1.159912109375 0.5418701171875 0.00020748376846313477 -0.0014104843139648438 -0.019519805908203125 0.0861663818359375
18.28975 0.19647979736328125 0.00470733642578125 -1.12298583984375 0.638427734375 0.000538259744644165 -0.0009038150310516357 -0.0125579833984375 0.08998870849609375
18.2995 0.19452667236328125 -0.003448486328125 -1.071533203125 0.73626708984375 0.0004246234893798828 0.00031688809394836426 -0.00467681884765625 0.09029769897460938
18.30925 0.1959991455078125 -0.01409912109375 -1.01092529296875 0.8287353515625 0.0011649131774902344 -4.303455352783203e-05 0.0033721923828125 0.0927581787109375
18.319 0.19441986083984375 -0.02398681640625 -0.943267822265625 0.914093017578125 0.00042657554149627686 -0.00024363398551940918 0.009563446044921875 0.0941162109375
18.32875 0.19378662109375 -0.02983856201171875 -0.864776611328125 0.98846435546875 0.0003374367952346802 0.0001548081636428833 0.018268585205078125 0.09410476684570312
18.3385 0.1920166015625 -0.04034423828125 -0.7822265625 1.05548095703125 -0.0009060502052307129 -0.0009385943412780762 0.02777099609375 0.09659957885742188
18.34825 0.191009521484375 -0.048614501953125 -0.7003173828125 1.1173095703125 0.0002804696559906006 0.00047919154167175293 0.0332794189453125 0.0965728759765625
18.358 0.18846893310546875 -0.05693817138671875 -0.615234375 1.17138671875 9.363144636154175e-05 3.2588839530944824e-05 0.043914794921875 0.09271240234375
18.36775 0.1866912841796875 -0.06536102294921875 -0.5208740234375 1.22247314453125 -6.493180990219116e-06 -9.267404675483704e-05 0.05010986328125 0.09162139892578125
18.3775 0.18367767333984375 -0.072998046875 -0.42669677734375 1.26690673828125 -0.0010551810264587402 0.00010967254638671875 0.05804443359375 0.091796875
18.38725 0.17902374267578125 -0.08206939697265625 -0.31982421875 1.30645751953125 -0.0009182095527648926 -0.00010228157043457031 0.064697265625 0.08789825439453125
18.397 0.175323486328125 -0.08978271484375 -0.2113037109375 1.3321533203125 0.001078963279724121 -0.00022149085998535156 0.0716705322265625 0.0844573974609375
18.40675 0.1718597412109375 -0.095367431640625 -0.0955810546875 1.3499755859375 0.0003184676170349121 -0.0006821155548095703 0.0807647705078125 0.0785980224609375
18.4165 0.1653594970703125 -0.10431671142578125 0.0135498046875 1.35076904296875 -5.3785741329193115e-05 0.000155620276927948 0.08484649658203125 0.07697296142578125
18.42625 0.16014862060546875 -0.11061859130859375 0.12396240234375 1.34014892578125 0.0004204362630844116 -0.00021664798259735107 0.09311676025390625 0.0709075927734375
18.436 0.15451812744140625 -0.1174774169921875 0.22650146484375 1.3223876953125 -3.853440284729004e-05 -0.00031444430351257324 0.09989166259765625 0.06443023681640625
18.44575 0.14818572998046875 -0.1243896484375 0.32513427734375 1.29962158203125 -0.00012981891632080078 0.0010004043579101562 0.1032562255859375 0.05928802490234375
18.4555 0.1394500732421875 -0.1304779052734375 0.42022705078125 1.27410888671875 0.00026926398277282715 -0.0005294680595397949 0.108306884765625 0.05208587646484375
18.46525 0.13375091552734375 -0.13660430908203125 0.51751708984375 1.24554443359375 0.0004975199699401855 -0.0008775293827056885 0.11297607421875 0.0424652099609375
18.475 0.12595367431640625 -0.1408538818359375 0.61676025390625 1.20880126953125 -0.0006826519966125488 -0.0008329153060913086 0.11684417724609375 0.03539276123046875
18.48475 0.1201019287109375 -0.147308349609375 0.71453857421875 1.1605224609375 0.00034612417221069336 0.0010924935340881348 0.12155914306640625 0.02703857421875
18.4945 0.11231231689453125 -0.15064239501953125 0.81109619140625 1.09979248046875 4.38690185546875e-05 -0.0010069012641906738 0.124420166015625 0.01747894287109375
18.50425 0.1045074462890625 -0.15576171875 0.90380859375 1.02880859375 0.0015120506286621094 -0.0005675554275512695 0.1244659423828125 0.0104522705078125
18.514 0.0969390869140625 -0.15875244140625 0.98388671875 0.9495849609375 -0.00013595819473266602 -0.0004978775978088379 0.12659454345703125 0.0015716552734375
18.52375 0.0874786376953125 -0.16046142578125 1.05108642578125 0.86077880859375 0.0007169246673583984 0.0011515021324157715 0.12670135498046875 -0.00768280029296875
18.5335 0.08160400390625 -0.16490936279296875 1.10906982421875 0.7733154296875 0.001340031623840332 -0.000985562801361084 0.12757110595703125 -0.01450347900390625
18.54325 0.0727081298828125 -0.1677703857421875 1.155517578125 0.6846923828125 -0.0006824135780334473 -0.0007340908050537109 0.12601470947265625 -0.02271270751953125
18.553 0.06558990478515625 -0.16953277587890625 1.19866943359375 0.59637451171875 -0.0002124309539794922 -0.001177966594696045 0.122833251953125 -0.030986785888671875
18.56275 0.05849456787109375 -0.16919708251953125 1.242431640625 0.5101318359375 0.00035215914249420166 -0.00033630430698394775 0.12189102172851562 -0.037807464599609375
18.5725 0.0490570068359375 -0.17055511474609375 1.2802734375 0.41790771484375 0.00027430057525634766 -0.000490725040435791 0.11609268188476562 -0.045734405517578125
18.58225 0.04087066650390625 -0.1712188720703125 1.3135986328125 0.3199462890625 0.0005994737148284912 -9.119510650634766e-06 0.1140899658203125 -0.053730010986328125
18.592 0.03301239013671875 -0.17125701904296875 1.33721923828125 0.21435546875 0.0011044740676879883 -0.0007982254028320312 0.1096038818359375 -0.060089111328125
18.60175 0.0242156982421875 -0.1707000732421875 1.3538818359375 0.10693359375 0.00018852949142456055 -0.0006327033042907715 0.1040802001953125 -0.06659698486328125
18.6115 0.01676177978515625 -0.16936492919921875 1.3519287109375 -0.0010986328125 0.0007554292678833008 -0.0005452334880828857 0.09954452514648438 -0.0748138427734375
18.62125 0.00881195068359375 -0.1694488525390625 1.34234619140625 -0.10638427734375 -7.160007953643799e-05 0.00038413703441619873 0.0936737060546875 -0.07961273193359375
18.631 0.0008544921875 -0.16786956787109375 1.32391357421875 -0.2000732421875 0.0006208419799804688 -0.0015000700950622559 0.087371826171875 -0.083892822265625
18.64075 -0.0073089599609375 -0.16661834716796875 1.29876708984375 -0.29205322265625 -0.00022467970848083496 -0.0006061196327209473 0.08277130126953125 -0.08699798583984375
18.6505 -0.0133819580078125 -0.16478729248046875 1.27728271484375 -0.37847900390625 0.0007762908935546875 -0.0008821487426757812 0.07592391967773438 -0.09105300903320312
18.66025 -0.0215606689453125 -0.161865234375 1.250244140625 -0.46612548828125 -0.0005517005920410156 -0.0021244287490844727 0.06809234619140625 -0.09354400634765625
