!Created with skrf (http://scikit-rf.org).
# GHz S RI R 50.0 
!freq ReS11 ImS11 ReS21 ImS21 ReS12 ImS12 ReS22 ImS22
17.5 0.00933074951171875 -0.14434814453125 -0.0951385498046875 0.16390228271484375 -0.0007478594779968262 0.001542806625366211 0.09918212890625 0.001617431640625
17.50975 -0.0005340576171875 -0.14133453369140625 -0.0748291015625 0.16803741455078125 -0.0006667375564575195 0.0009505748748779297 0.10205841064453125 -0.000720977783203125
17.5195 -0.00838470458984375 -0.13677978515625 -0.05414581298828125 0.17017364501953125 -0.0015551447868347168 0.0011629462242126465 0.10442733764648438 -0.00102996826171875
17.52925 -0.0168304443359375 -0.13425445556640625 -0.0334320068359375 0.1708526611328125 -0.0011110305786132812 -0.0006594061851501465 0.10607147216796875 -0.006832122802734375
17.539 -0.0225067138671875 -0.1264495849609375 -0.0150604248046875 0.1675872802734375 -0.001143336296081543 0.00127410888671875 0.10636138916015625 -0.00847625732421875
17.54875 -0.03287506103515625 -0.12347412109375 0.001617431640625 0.1641998291015625 -0.0012848377227783203 0.0009629130363464355 0.10924530029296875 -0.012989044189453125
17.5585 -0.04178619384765625 -0.12039947509765625 0.01827239990234375 0.15770721435546875 -0.0008369684219360352 0.0010287165641784668 0.11106491088867188 -0.01644134521484375
17.56825 -0.04666900634765625 -0.11582183837890625 0.03327178955078125 0.15023040771484375 -0.0014743804931640625 0.0009315013885498047 0.1124267578125 -0.020542144775390625
17.578 -0.0546875 -0.108306884765625 0.04669189453125 0.14215087890625 -0.0013101696968078613 0.0009763836860656738 0.11346817016601562 -0.023555755615234375
17.58775 -0.06031036376953125 -0.10350799560546875 0.059967041015625 0.13147735595703125 5.316734313964844e-05 0.0011864304542541504 0.11354827880859375 -0.026401519775390625
17.5975 -0.06444549560546875 -0.0974884033203125 0.07199859619140625 0.117889404296875 -0.0011749863624572754 0.0006256103515625 0.11324691772460938 -0.032169342041015625
17.60725 -0.07015228271484375 -0.09304046630859375 0.0811614990234375 0.10413360595703125 -0.0012400150299072266 0.0020405054092407227 0.11359786987304688 -0.0346527099609375
17.617 -0.0756683349609375 -0.08373260498046875 0.0881195068359375 0.09123992919921875 -0.0008931159973144531 0.0010721087455749512 0.114898681640625 -0.038585662841796875
17.62675 -0.079864501953125 -0.0785064697265625 0.092254638671875 0.0776824951171875 -0.0007539987564086914 0.0008352696895599365 0.11405563354492188 -0.04425811767578125
17.6365 -0.0831451416015625 -0.0698089599609375 0.0936737060546875 0.06353759765625 -0.0004711747169494629 0.0002752244472503662 0.1131591796875 -0.0488739013671875
17.64625 -0.08766937255859375 -0.06191253662109375 0.09539031982421875 0.0511322021484375 -0.0007293820381164551 0.0008525848388671875 0.11013031005859375 -0.05393218994140625
17.656 -0.0904388427734375 -0.057098388671875 0.09540557861328125 0.0398406982421875 -0.0007783174514770508 0.0006476938724517822 0.1074066162109375 -0.05890655517578125
17.66575 -0.09252166748046875 -0.045867919921875 0.09354019165039062 0.029201507568359375 -0.0018279552459716797 0.0011954903602600098 0.10599517822265625 -0.061588287353515625
17.6755 -0.09699249267578125 -0.03946685791015625 0.09088134765625 0.01821136474609375 -0.0017943382263183594 0.0012471675872802734 0.10357666015625 -0.06897354125976562
17.68525 -0.0982666015625 -0.0313873291015625 0.08547210693359375 0.007427215576171875 -0.0008528828620910645 0.0019221305847167969 0.1008148193359375 -0.0709381103515625
17.695 -0.1000213623046875 -0.02233123779296875 0.08052825927734375 -0.003925323486328125 -0.001517951488494873 0.0014916062355041504 0.09769058227539062 -0.07532501220703125
17.70475 -0.09978103637695312 -0.014369964599609375 0.07431411743164062 -0.012851715087890625 -0.00022292137145996094 0.0013477206230163574 0.09400558471679688 -0.07876968383789062
17.7145 -0.10115432739257812 -0.00701904296875 0.0655517578125 -0.0183563232421875 1.9490718841552734e-05 0.0014197826385498047 0.08916473388671875 -0.08425521850585938
17.72425 -0.10160064697265625 0.002162933349609375 0.056240081787109375 -0.026460647583007812 -0.000491023063659668 0.000779956579208374 0.08467864990234375 -0.08813858032226562
17.734 -0.1021881103515625 0.01070404052734375 0.047557830810546875 -0.030181884765625 0.0003629922866821289 0.0007979869842529297 0.08248138427734375 -0.0921478271484375
17.74375 -0.10263824462890625 0.01776885986328125 0.035732269287109375 -0.0323028564453125 -0.0007541775703430176 0.000542759895324707 0.07659149169921875 -0.09558868408203125
17.7535 -0.09997177124023438 0.025089263916015625 0.02707672119140625 -0.03299713134765625 7.283687591552734e-05 0.0014197230339050293 0.07287979125976562 -0.09822845458984375
17.76325 -0.09865188598632812 0.0330657958984375 0.017950057983398438 -0.03206062316894531 0.00015437602996826172 0.002454042434692383 0.06708908081054688 -0.0986480712890625
17.773 -0.09847259521484375 0.038806915283203125 0.009922027587890625 -0.0285491943359375 0.0004189610481262207 0.0010524392127990723 0.062347412109375 -0.1030731201171875
17.78275 -0.09562301635742188 0.046764373779296875 0.001445770263671875 -0.02479839324951172 4.827976226806641e-06 0.0013069510459899902 0.058319091796875 -0.10365676879882812
17.7925 -0.09145736694335938 0.05318450927734375 -0.0066738128662109375 -0.020168304443359375 0.001623988151550293 0.0003377199172973633 0.0536346435546875 -0.10530471801757812
17.80225 -0.08974456787109375 0.060268402099609375 -0.013066291809082031 -0.01343536376953125 0.00012612342834472656 0.0021744966506958008 0.04827117919921875 -0.108154296875
17.812 -0.08505630493164062 0.06895828247070312 -0.021190643310546875 -0.006542205810546875 0.00027677416801452637 0.0005942881107330322 0.043182373046875 -0.10688018798828125
17.82175 -0.07933425903320312 0.07563018798828125 -0.025328636169433594 0.0022554397583007812 6.67572021484375e-05 0.001538693904876709 0.039215087890625 -0.10728836059570312
17.8315 -0.07765960693359375 0.08063125610351562 -0.029199600219726562 0.011996269226074219 0.0004930496215820312 0.000894010066986084 0.03304290771484375 -0.10814285278320312
17.84125 -0.07221221923828125 0.08685302734375 -0.028057098388671875 0.02154541015625 0.00037086009979248047 0.0010039806365966797 0.0250091552734375 -0.10738372802734375
17.851 -0.06623077392578125 0.09410476684570312 -0.027925491333007812 0.03127098083496094 0.0006145238876342773 0.0015017986297607422 0.021270751953125 -0.10776138305664062
17.86075 -0.0621795654296875 0.09940719604492188 -0.02519989013671875 0.04263114929199219 0.00017368793487548828 0.002109527587890625 0.0143890380859375 -0.10613632202148438
17.8705 -0.05641937255859375 0.10577011108398438 -0.02223968505859375 0.05432701110839844 -0.0004502534866333008 0.001226663589477539 0.00872802734375 -0.10602951049804688
17.88025 -0.051605224609375 0.11121749877929688 -0.017822265625 0.06380844116210938 0.00015872716903686523 -0.0005019605159759521 0.002010345458984375 -0.10333251953125
17.89 -0.045330047607421875 0.116455078125 -0.010608673095703125 0.073516845703125 -0.0004190206527709961 0.0018578171730041504 -0.001922607421875 -0.10280609130859375
17.89975 -0.039852142333984375 0.1209564208984375 -0.000640869140625 0.0843353271484375 0.0003695487976074219 0.001671910285949707 -0.006683349609375 -0.10208511352539062
17.9095 -0.034870147705078125 0.12276458740234375 0.011257171630859375 0.09294891357421875 6.29425048828125e-05 0.0010452866554260254 -0.01220703125 -0.10046005249023438
17.91925 -0.02696990966796875 0.12819671630859375 0.025421142578125 0.1002044677734375 0.0004690885543823242 0.0008313655853271484 -0.01708221435546875 -0.09844970703125
17.929 -0.020965576171875 0.1307220458984375 0.03997802734375 0.106109619140625 0.0016684532165527344 7.939338684082031e-05 -0.0220489501953125 -0.0954437255859375
17.93875 -0.01381683349609375 0.13375091552734375 0.05623626708984375 0.10878753662109375 2.9414892196655273e-05 0.0005040764808654785 -0.026683807373046875 -0.09267044067382812
17.9485 -0.00799560546875 0.135467529296875 0.0738525390625 0.1099395751953125 0.0004931092262268066 0.0010055899620056152 -0.02953338623046875 -0.09082794189453125
17.95825 -0.000732421875 0.1375732421875 0.09197998046875 0.1064300537109375 0.00026541948318481445 0.0004870891571044922 -0.03379058837890625 -0.08742523193359375
17.968 0.00756072998046875 0.14013671875 0.11037445068359375 0.10303497314453125 0.00048094987869262695 -0.0001798570156097412 -0.03917694091796875 -0.08352279663085938
17.97775 0.014892578125 0.14125823974609375 0.12823486328125 0.0964202880859375 -0.00022692233324050903 0.00014269351959228516 -0.043750762939453125 -0.0788116455078125
17.9875 0.02297210693359375 0.14239501953125 0.147430419921875 0.08746337890625 -0.0006636679172515869 0.00025713443756103516 -0.045654296875 -0.07576370239257812
17.99725 0.02999114990234375 0.14247894287109375 0.1660308837890625 0.0761871337890625 0.001395106315612793 0.0008198022842407227 -0.050518035888671875 -0.0711822509765625
18.007 0.03753662109375 0.142303466796875 0.18521881103515625 0.06020355224609375 0.0005395412445068359 -0.001311182975769043 -0.052722930908203125 -0.06649398803710938
18.01675 0.04511260986328125 0.14345550537109375 0.2026824951171875 0.04278564453125 0.001261889934539795 -0.00033104419708251953 -0.057373046875 -0.0621795654296875
18.0265 0.0522308349609375 0.14306640625 0.2154998779296875 0.0185089111328125 0.0007627606391906738 -0.0002785921096801758 -0.063262939453125 -0.05651092529296875
18.03625 0.0605926513671875 0.1434173583984375 0.227935791015625 -0.00738525390625 0.0003927946090698242 -0.0014783143997192383 -0.06533050537109375 -0.0530548095703125
18.046 0.068511962890625 0.14241790771484375 0.23592376708984375 -0.03388214111328125 0.0016632080078125 0.0007740259170532227 -0.065216064453125 -0.046527862548828125
18.05575 0.07611083984375 0.13855743408203125 0.239898681640625 -0.0616302490234375 0.000677943229675293 2.8520822525024414e-05 -0.06966018676757812 -0.042407989501953125
18.0655 0.08231353759765625 0.13924407958984375 0.24112701416015625 -0.09137725830078125 0.0011755824089050293 -0.0002371072769165039 -0.07190704345703125 -0.0363311767578125
18.07525 0.0886688232421875 0.1359710693359375 0.23773193359375 -0.1196136474609375 -0.0004285573959350586 0.0012754201889038086 -0.0733184814453125 -0.0308990478515625
18.085 0.09759521484375 0.13335418701171875 0.233306884765625 -0.1519317626953125 0.001165151596069336 0.000540316104888916 -0.0762786865234375 -0.024829864501953125
18.09475 0.10350799560546875 0.1306304931640625 0.2232513427734375 -0.181488037109375 0.0006944835186004639 -0.00022211670875549316 -0.073211669921875 -0.01938629150390625
18.1045 0.11038970947265625 0.125946044921875 0.21018218994140625 -0.213592529296875 0.00013518333435058594 -0.0004910528659820557 -0.07659530639648438 -0.012378692626953125
18.11425 0.11639404296875 0.12541961669921875 0.18996429443359375 -0.242828369140625 0.0003692805767059326 0.0001830458641052246 -0.07488632202148438 -0.00787353515625
18.124 0.1239013671875 0.119537353515625 0.167449951171875 -0.270172119140625 0.0011494159698486328 -0.0006948709487915039 -0.075927734375 -0.00051116943359375
18.13375 0.12909698486328125 0.11541748046875 0.1408538818359375 -0.2965240478515625 0.0018472671508789062 -0.0004661679267883301 -0.07375717163085938 0.005558013916015625
18.1435 0.13385772705078125 0.11023712158203125 0.10986328125 -0.31695556640625 8.748471736907959e-05 0.0001887679100036621 -0.073974609375 0.012546539306640625
18.15325 0.14080810546875 0.1034088134765625 0.0760955810546875 -0.33648681640625 -0.00015026330947875977 0.0006164908409118652 -0.07337570190429688 0.019512176513671875
18.163 0.146575927734375 0.0975799560546875 0.04290771484375 -0.349090576171875 0.0007138848304748535 -0.0005069971084594727 -0.0719146728515625 0.02666473388671875
18.17275 0.15210723876953125 0.0936431884765625 0.005401611328125 -0.359771728515625 0.0007879734039306641 -0.000976264476776123 -0.066375732421875 0.031978607177734375
18.1825 0.15900421142578125 0.086181640625 -0.0325775146484375 -0.3664093017578125 0.001675724983215332 -0.00027507543563842773 -0.06492996215820312 0.038543701171875
18.19225 0.1635894775390625 0.07962799072265625 -0.07318115234375 -0.3691558837890625 0.0009413957595825195 0.000883638858795166 -0.060932159423828125 0.04370689392089844
18.202 0.1676025390625 0.0748443603515625 -0.1128997802734375 -0.3674774169921875 -0.0005345642566680908 -4.214048385620117e-05 -0.05985260009765625 0.0508270263671875
18.21175 0.17266845703125 0.067657470703125 -0.15521240234375 -0.3585205078125 0.0006684660911560059 -0.00012427568435668945 -0.055774688720703125 0.05574798583984375
18.2215 0.17702484130859375 0.0591888427734375 -0.19482421875 -0.344879150390625 0.0009475052356719971 -0.00043830275535583496 -0.05065155029296875 0.06112098693847656
18.23125 0.18212890625 0.053863525390625 -0.23382568359375 -0.32806396484375 0.0011556744575500488 -0.0007463693618774414 -0.047756195068359375 0.06369781494140625
18.241 0.18274688720703125 0.0461578369140625 -0.26763916015625 -0.305572509765625 -0.00022155046463012695 -0.0008649826049804688 -0.0426177978515625 0.07123565673828125
18.25075 0.18498992919921875 0.0381622314453125 -0.301025390625 -0.279754638671875 0.0011876821517944336 -0.00036197900772094727 -0.036777496337890625 0.07304763793945312
18.2605 0.18848419189453125 0.03162384033203125 -0.3323974609375 -0.2513427734375 0.00039908289909362793 -0.0002781301736831665 -0.030803680419921875 0.07763671875
18.27025 0.18963623046875 0.02188873291015625 -0.358184814453125 -0.21881103515625 0.0007977485656738281 -0.0006375014781951904 -0.02310943603515625 0.08109283447265625
18.28 0.19113922119140625 0.0142669677734375 -0.383575439453125 -0.184173583984375 0.0012999176979064941 -0.0010209083557128906 -0.017864227294921875 0.08308792114257812
18.28975 0.19332122802734375 0.00362396240234375 -0.4051513671875 -0.148162841796875 -0.00013053417205810547 -0.0018150806427001953 -0.0108795166015625 0.08703231811523438
18.2995 0.19246673583984375 -0.00368499755859375 -0.422576904296875 -0.107147216796875 0.0001595914363861084 -0.0006538033485412598 -0.002216339111328125 0.08677291870117188
18.30925 0.1939849853515625 -0.0132598876953125 -0.4359130859375 -0.063262939453125 0.0010006427764892578 -0.0008619427680969238 0.00434112548828125 0.0906982421875
18.319 0.19249725341796875 -0.02254486083984375 -0.4422607421875 -0.0197906494140625 0.000498652458190918 -0.000762641429901123 0.010951995849609375 0.09094619750976562
18.32875 0.19107818603515625 -0.02866363525390625 -0.44293212890625 0.02398681640625 -0.00014013797044754028 3.7923455238342285e-06 0.02039337158203125 0.09209060668945312
18.3385 0.190399169921875 -0.0395965576171875 -0.43927001953125 0.0645599365234375 -0.0004684329032897949 -0.0006030797958374023 0.02884674072265625 0.09311676025390625
18.34825 0.18994140625 -0.04888153076171875 -0.4344635009765625 0.106536865234375 0.00011262297630310059 -0.000758439302444458 0.03387451171875 0.093048095703125
18.358 0.18752288818359375 -0.05559539794921875 -0.4259796142578125 0.146209716796875 0.0005617439746856689 -0.0002745389938354492 0.0433502197265625 0.09102630615234375
18.36775 0.18476104736328125 -0.06424713134765625 -0.4134368896484375 0.1869964599609375 -0.0005694329738616943 -0.00022158026695251465 0.04974365234375 0.09009552001953125
18.3775 0.18201446533203125 -0.07123565673828125 -0.3972930908203125 0.22442626953125 0.000894010066986084 0.00022929906845092773 0.05829620361328125 0.08814239501953125
18.38725 0.17845916748046875 -0.08002471923828125 -0.3778839111328125 0.26513671875 0.001189887523651123 -3.62396240234375e-05 0.06404876708984375 0.08565521240234375
18.397 0.174041748046875 -0.0883636474609375 -0.352935791015625 0.300933837890625 0.0007176995277404785 -0.0009257793426513672 0.070098876953125 0.0815887451171875
18.40675 0.1711578369140625 -0.094635009765625 -0.3248291015625 0.336395263671875 -8.112192153930664e-05 -0.0002849102020263672 0.0782318115234375 0.07666015625
18.4165 0.1653594970703125 -0.10219573974609375 -0.2933197021484375 0.36474609375 -0.00011824071407318115 -0.00017073750495910645 0.083953857421875 0.07372283935546875
18.42625 0.1590576171875 -0.10915374755859375 -0.2590789794921875 0.3906707763671875 0.00027567148208618164 -0.0006558597087860107 0.09009552001953125 0.06887054443359375
18.436 0.1529541015625 -0.1152496337890625 -0.2242431640625 0.4113006591796875 -6.590783596038818e-05 -0.00035043060779571533 0.0973052978515625 0.06219482421875
18.44575 0.147491455078125 -0.122772216796875 -0.189971923828125 0.430511474609375 0.0008188486099243164 4.4673681259155273e-05 0.1010284423828125 0.055084228515625
18.4555 0.14037322998046875 -0.127532958984375 -0.1522216796875 0.44805908203125 0.0012810230255126953 -0.0006888508796691895 0.10565948486328125 0.049468994140625
18.46525 0.135833740234375 -0.13474273681640625 -0.1168670654296875 0.4619598388671875 0.00021822750568389893 -0.00018833577632904053 0.111297607421875 0.0399627685546875
18.475 0.1251678466796875 -0.13948822021484375 -0.07666015625 0.4765472412109375 -0.00014528632164001465 -0.0006564557552337646 0.11478424072265625 0.03496551513671875
18.48475 0.12174224853515625 -0.14551544189453125 -0.0348663330078125 0.485992431640625 0.0002719759941101074 -0.0006434917449951172 0.11785888671875 0.02468109130859375
18.4945 0.1114349365234375 -0.148529052734375 0.01080322265625 0.491424560546875 0.00029437243938446045 0.00011336803436279297 0.1217803955078125 0.016082763671875
18.50425 0.1052093505859375 -0.15399169921875 0.059326171875 0.49078369140625 0.00042557716369628906 -0.0006799101829528809 0.1224365234375 0.0098114013671875
18.514 0.09783935546875 -0.1580047607421875 0.10504150390625 0.48388671875 -0.0005396604537963867 -0.0007687807083129883 0.1250457763671875 0.0015106201171875
18.52375 0.08898162841796875 -0.1586456298828125 0.144805908203125 0.47210693359375 0.00038617849349975586 -0.00101470947265625 0.12497711181640625 -0.006351470947265625
18.5335 0.08277130126953125 -0.16457366943359375 0.18585205078125 0.458587646484375 -0.0007325112819671631 -2.3573637008666992e-05 0.1252899169921875 -0.01543426513671875
18.54325 0.0756072998046875 -0.1671905517578125 0.2244873046875 0.44195556640625 0.00025197863578796387 -0.0007057785987854004 0.12409210205078125 -0.023662567138671875
18.553 0.0677642822265625 -0.16965484619140625 0.261138916015625 0.423614501953125 0.0011572837829589844 -0.000510871410369873 0.12098312377929688 -0.030033111572265625
18.56275 0.0591583251953125 -0.1700897216796875 0.29656982421875 0.40362548828125 0.0004934370517730713 -8.07642936706543e-05 0.11999130249023438 -0.03655242919921875
18.5725 0.05077362060546875 -0.17059326171875 0.329620361328125 0.381134033203125 0.0007807612419128418 -0.0013124346733093262 0.114349365234375 -0.0453643798828125
18.58225 0.04341888427734375 -0.17093658447265625 0.364654541015625 0.353607177734375 -0.0006150007247924805 -0.0006587505340576172 0.11142730712890625 -0.053508758544921875
18.592 0.03426361083984375 -0.171966552734375 0.398345947265625 0.322479248046875 0.0007377862930297852 0.0005914568901062012 0.10621261596679688 -0.0601348876953125
18.60175 0.0259857177734375 -0.17083740234375 0.4278564453125 0.28887939453125 -0.0002522468566894531 -0.0005377531051635742 0.10076141357421875 -0.0643310546875
18.6115 0.0187225341796875 -0.1696624755859375 0.449493408203125 0.250244140625 0.0004197806119918823 -0.00019872188568115234 0.09830474853515625 -0.07094955444335938
18.62125 0.0109710693359375 -0.16957855224609375 0.471649169921875 0.2127685546875 0.0013602972030639648 -0.0008129477500915527 0.09154129028320312 -0.07895278930664062
18.631 0.0019378662109375 -0.167755126953125 0.488037109375 0.1748046875 0.000675886869430542 -0.0005698502063751221 0.08411026000976562 -0.081787109375
