!Created with skrf (http://scikit-rf.org).
# GHz S RI R 50.0 
!freq ReS11 ImS11 ReS21 ImS21 ReS12 ImS12 ReS22 ImS22
17.5 0.00878143310546875 -0.143646240234375 -0.12613677978515625 0.18880462646484375 -0.000973045825958252 0.0012943744659423828 0.09832000732421875 0.00075531005859375
17.50975 -0.00115966796875 -0.142120361328125 -0.10332489013671875 0.1963653564453125 -0.0010402202606201172 0.0001748204231262207 0.1001739501953125 -0.000926971435546875
17.5195 -0.0082550048828125 -0.135986328125 -0.08038330078125 0.20172119140625 -0.0014187097549438477 0.0006459951400756836 0.102996826171875 -0.001399993896484375
17.52925 -0.01746368408203125 -0.13324737548828125 -0.058197021484375 0.20441436767578125 -0.001343846321105957 0.0009260773658752441 0.10619354248046875 -0.00635528564453125
17.539 -0.023101806640625 -0.1283721923828125 -0.036468505859375 0.2023162841796875 -0.00034743547439575195 -0.00017851591110229492 0.10654449462890625 -0.0082855224609375
17.54875 -0.03162384033203125 -0.12445831298828125 -0.01563262939453125 0.2000579833984375 2.6911497116088867e-05 0.0009092390537261963 0.10907363891601562 -0.012485504150390625
17.5585 -0.0421600341796875 -0.1199188232421875 0.0016021728515625 0.195465087890625 -0.0011962056159973145 0.0004906654357910156 0.11244964599609375 -0.01671600341796875
17.56825 -0.0471343994140625 -0.1148681640625 0.021881103515625 0.1891021728515625 -0.001876235008239746 0.0016494393348693848 0.11220169067382812 -0.019603729248046875
17.578 -0.05413818359375 -0.107696533203125 0.0376739501953125 0.18152618408203125 -0.0012520551681518555 0.00042188167572021484 0.1130523681640625 -0.0243072509765625
17.58775 -0.0592193603515625 -0.1046142578125 0.0543365478515625 0.17119598388671875 -0.0023833513259887695 0.002095460891723633 0.11344528198242188 -0.026851654052734375
17.5975 -0.06458282470703125 -0.0969085693359375 0.069915771484375 0.1590728759765625 -0.0016669034957885742 0.0008255839347839355 0.1141815185546875 -0.032215118408203125
17.60725 -0.0702056884765625 -0.0934906005859375 0.0802459716796875 0.14739990234375 -0.0010131597518920898 0.0005804300308227539 0.11226654052734375 -0.034343719482421875
17.617 -0.07547760009765625 -0.0847625732421875 0.09128570556640625 0.13385772705078125 -0.0005298256874084473 0.0015207529067993164 0.11460113525390625 -0.04026031494140625
17.62675 -0.08037567138671875 -0.07794189453125 0.0982208251953125 0.11766815185546875 -0.00135040283203125 0.001802682876586914 0.11492919921875 -0.043804168701171875
17.6365 -0.0832366943359375 -0.0712127685546875 0.104400634765625 0.103759765625 -0.0008101463317871094 0.0010445117950439453 0.11258697509765625 -0.0472869873046875
17.64625 -0.0883636474609375 -0.06085205078125 0.10668182373046875 0.089111328125 -0.0007825493812561035 0.0011655092239379883 0.11100006103515625 -0.052738189697265625
17.656 -0.09085845947265625 -0.05583953857421875 0.11002349853515625 0.07692718505859375 -0.0008122622966766357 0.0004419982433319092 0.10637283325195312 -0.059017181396484375
17.66575 -0.0927886962890625 -0.04569244384765625 0.11025238037109375 0.06385040283203125 -0.0007242262363433838 0.0007010400295257568 0.10608291625976562 -0.06157684326171875
17.6755 -0.09636688232421875 -0.03844451904296875 0.10964202880859375 0.05200958251953125 -0.0006219744682312012 0.001099705696105957 0.10179519653320312 -0.06840133666992188
17.68525 -0.0990447998046875 -0.03000640869140625 0.1083221435546875 0.04080963134765625 -0.0008486509323120117 0.0019195079803466797 0.10077667236328125 -0.07172775268554688
17.695 -0.09945297241210938 -0.021442413330078125 0.105926513671875 0.0302734375 -0.0007781386375427246 0.0009882450103759766 0.0981292724609375 -0.07560348510742188
17.70475 -0.10199737548828125 -0.014171600341796875 0.1028594970703125 0.018890380859375 7.000565528869629e-05 0.0005082488059997559 0.09363937377929688 -0.079254150390625
17.7145 -0.10107040405273438 -0.00498199462890625 0.09749984741210938 0.009479522705078125 -0.0016937851905822754 0.0009008049964904785 0.09069061279296875 -0.083404541015625
17.72425 -0.1011810302734375 0.001369476318359375 0.09048843383789062 -0.000652313232421875 -0.0007901489734649658 0.0008963048458099365 0.08511734008789062 -0.08887100219726562
17.734 -0.10337066650390625 0.0094757080078125 0.08263397216796875 -0.007904052734375 0.0006766319274902344 0.0016489028930664062 0.0816802978515625 -0.090484619140625
17.74375 -0.10295867919921875 0.0169830322265625 0.0738372802734375 -0.01209259033203125 0.0005097389221191406 0.0020024776458740234 0.07648468017578125 -0.096435546875
17.7535 -0.10112762451171875 0.024112701416015625 0.065704345703125 -0.014965057373046875 0.00030547380447387695 0.0016379952430725098 0.0736541748046875 -0.0990447998046875
17.76325 -0.0992889404296875 0.032135009765625 0.05768013000488281 -0.017759323120117188 0.0008351802825927734 0.0002669095993041992 0.06634521484375 -0.099945068359375
17.773 -0.09909820556640625 0.039398193359375 0.0491485595703125 -0.017103195190429688 0.0009372234344482422 0.0007456541061401367 0.06398773193359375 -0.10367584228515625
17.78275 -0.09587478637695312 0.0476531982421875 0.041164398193359375 -0.016513824462890625 -0.0004858970642089844 0.001775205135345459 0.057346343994140625 -0.1034698486328125
17.7925 -0.0923614501953125 0.05260467529296875 0.03525352478027344 -0.015167236328125 0.00046694278717041016 0.0005686283111572266 0.05410003662109375 -0.10659027099609375
17.80225 -0.08883285522460938 0.060001373291015625 0.027353286743164062 -0.013700485229492188 -0.0007712244987487793 0.0015308260917663574 0.048435211181640625 -0.10866165161132812
17.812 -0.08448028564453125 0.0677337646484375 0.021175384521484375 -0.007007598876953125 0.0002898573875427246 0.0016074776649475098 0.042633056640625 -0.10684585571289062
17.82175 -0.07992172241210938 0.07519912719726562 0.018747329711914062 -0.0028171539306640625 0.0006291866302490234 0.0014634132385253906 0.037807464599609375 -0.106842041015625
17.8315 -0.076416015625 0.08237075805664062 0.014376640319824219 0.004241943359375 0.00015988945960998535 0.0002871006727218628 0.031162261962890625 -0.1077423095703125
17.84125 -0.07311248779296875 0.088409423828125 0.012594223022460938 0.01065826416015625 0.0003228187561035156 0.0015233755111694336 0.02574920654296875 -0.1057281494140625
17.851 -0.06545639038085938 0.09514999389648438 0.010931015014648438 0.01946544647216797 0.001706838607788086 0.00027501583099365234 0.022457122802734375 -0.1071624755859375
17.86075 -0.063140869140625 0.099578857421875 0.012865066528320312 0.026670455932617188 0.0008412599563598633 0.001033008098602295 0.013835906982421875 -0.10589599609375
17.8705 -0.057010650634765625 0.10393905639648438 0.015790939331054688 0.033329010009765625 0.0005718469619750977 0.00241851806640625 0.008052825927734375 -0.10639190673828125
17.88025 -0.051181793212890625 0.1119537353515625 0.020521163940429688 0.04195404052734375 -0.00043594837188720703 0.0019561052322387695 0.00197601318359375 -0.1038665771484375
17.89 -0.04694366455078125 0.11668014526367188 0.02617645263671875 0.05039215087890625 0.0015734434127807617 0.0016301870346069336 -0.00217437744140625 -0.1031341552734375
17.89975 -0.040531158447265625 0.11994171142578125 0.0321807861328125 0.056064605712890625 0.0011185407638549805 0.0013816356658935547 -0.005252838134765625 -0.10216903686523438
17.9095 -0.036407470703125 0.12511444091796875 0.042461395263671875 0.062122344970703125 0.0009319186210632324 4.285573959350586e-05 -0.012142181396484375 -0.0994110107421875
17.91925 -0.028167724609375 0.1274261474609375 0.05385589599609375 0.06663894653320312 0.0004030466079711914 0.0009380578994750977 -0.016750335693359375 -0.09809112548828125
17.929 -0.0213470458984375 0.1305999755859375 0.0667724609375 0.0694580078125 0.001460433006286621 0.0005042552947998047 -0.02108001708984375 -0.0955810546875
17.93875 -0.0140533447265625 0.13341522216796875 0.07988739013671875 0.0705718994140625 -0.0006515085697174072 0.00032252073287963867 -0.026416778564453125 -0.09320831298828125
17.9485 -0.00795745849609375 0.135772705078125 0.09369659423828125 0.0690460205078125 0.00038954615592956543 -0.0002790391445159912 -0.03116607666015625 -0.08935928344726562
17.95825 0.0 0.13695526123046875 0.10848236083984375 0.0663909912109375 0.0010981559753417969 0.0006095767021179199 -0.031787872314453125 -0.08638381958007812
17.968 0.0061187744140625 0.13956451416015625 0.12526702880859375 0.0605316162109375 0.0007574558258056641 0.0013418197631835938 -0.039180755615234375 -0.08476638793945312
17.97775 0.01483917236328125 0.1407623291015625 0.13930511474609375 0.0541839599609375 2.2821128368377686e-05 1.6421079635620117e-05 -0.0426788330078125 -0.07812118530273438
17.9875 0.021759033203125 0.14293670654296875 0.15503692626953125 0.0444183349609375 0.0011084675788879395 8.58306884765625e-05 -0.04498291015625 -0.0753173828125
17.99725 0.0298919677734375 0.14228057861328125 0.17084503173828125 0.03128814697265625 -5.328655242919922e-05 0.0014214515686035156 -0.04882049560546875 -0.07137680053710938
18.007 0.036834716796875 0.14225006103515625 0.1848602294921875 0.016143798828125 0.0013071298599243164 0.00039845705032348633 -0.054317474365234375 -0.06613540649414062
18.01675 0.04546356201171875 0.14356231689453125 0.19891357421875 -0.00327301025390625 0.0009838342666625977 -0.00034177303314208984 -0.057567596435546875 -0.06354141235351562
18.0265 0.05255126953125 0.1433868408203125 0.2097320556640625 -0.02642822265625 3.5606324672698975e-05 5.764514207839966e-05 -0.06201934814453125 -0.0571746826171875
18.03625 0.058685302734375 0.14459228515625 0.2176361083984375 -0.050750732421875 0.001413106918334961 -0.0007240772247314453 -0.06438446044921875 -0.0519866943359375
18.046 0.0677947998046875 0.14249420166015625 0.2213592529296875 -0.078125 -0.0002828836441040039 -0.0011321306228637695 -0.06579208374023438 -0.04705047607421875
18.05575 0.07465362548828125 0.1392974853515625 0.22296142578125 -0.1031646728515625 0.0007932186126708984 0.0005658268928527832 -0.07050323486328125 -0.041202545166015625
18.0655 0.08162689208984375 0.13906097412109375 0.22023773193359375 -0.1314697265625 0.002472996711730957 0.00017786026000976562 -0.07157516479492188 -0.036983489990234375
18.07525 0.09000396728515625 0.13622283935546875 0.21602630615234375 -0.15827178955078125 0.0012912154197692871 0.0004566311836242676 -0.07277679443359375 -0.03058624267578125
18.085 0.097198486328125 0.1328582763671875 0.2068023681640625 -0.1879730224609375 0.002088308334350586 -0.0018562078475952148 -0.0747528076171875 -0.02487945556640625
18.09475 0.103240966796875 0.13092041015625 0.19419097900390625 -0.2159576416015625 0.0009528994560241699 0.0007804632186889648 -0.07376861572265625 -0.019901275634765625
18.1045 0.110076904296875 0.12640380859375 0.17801666259765625 -0.24701690673828125 0.0002334117889404297 0.0017857551574707031 -0.07669448852539062 -0.013031005859375
18.11425 0.11760711669921875 0.12514495849609375 0.1565704345703125 -0.271331787109375 0.0016245841979980469 -0.0004780888557434082 -0.07597732543945312 -0.0083465576171875
18.124 0.12237548828125 0.1204376220703125 0.1309814453125 -0.29901123046875 0.0007644891738891602 0.0002193450927734375 -0.0750885009765625 0.00074005126953125
18.13375 0.1283416748046875 0.1147308349609375 0.1025848388671875 -0.319580078125 0.00014415383338928223 8.206814527511597e-05 -0.07413482666015625 0.00507354736328125
18.1435 0.13428497314453125 0.1103973388671875 0.070831298828125 -0.338348388671875 0.0007696151733398438 0.0007625818252563477 -0.0757904052734375 0.014118194580078125
18.15325 0.14227294921875 0.10345458984375 0.0360107421875 -0.3519744873046875 0.0006737112998962402 8.621811866760254e-05 -0.07469558715820312 0.018924713134765625
18.163 0.1468048095703125 0.0990753173828125 -0.000152587890625 -0.364898681640625 7.96876847743988e-05 -0.00011726468801498413 -0.07043075561523438 0.025676727294921875
18.17275 0.1528778076171875 0.0941009521484375 -0.0388336181640625 -0.3704071044921875 0.0003987252712249756 0.0001977682113647461 -0.06779861450195312 0.030300140380859375
18.1825 0.15967559814453125 0.08750152587890625 -0.07733154296875 -0.3719482421875 0.0008046627044677734 -0.0005103349685668945 -0.06414794921875 0.038604736328125
18.19225 0.1631927490234375 0.08101654052734375 -0.11895751953125 -0.373199462890625 0.0018478631973266602 0.0006281137466430664 -0.06158256530761719 0.04461860656738281
18.202 0.1689910888671875 0.07513427734375 -0.158050537109375 -0.36541748046875 0.0006570816040039062 -1.385807991027832e-05 -0.06001091003417969 0.04962730407714844
18.21175 0.172576904296875 0.0671234130859375 -0.2015380859375 -0.355224609375 0.0009217262268066406 -0.0012443065643310547 -0.055469512939453125 0.055324554443359375
18.2215 0.17728424072265625 0.0587310791015625 -0.240814208984375 -0.33740234375 0.0008964836597442627 -0.0004360079765319824 -0.05072784423828125 0.06073570251464844
18.23125 0.18073272705078125 0.05202484130859375 -0.27783203125 -0.315338134765625 -0.00022773444652557373 -0.00019629299640655518 -0.04709625244140625 0.06524276733398438
18.241 0.183868408203125 0.0460052490234375 -0.311248779296875 -0.290191650390625 0.0008301734924316406 -0.0012745857238769531 -0.043178558349609375 0.06928634643554688
18.25075 0.18503570556640625 0.0369110107421875 -0.343292236328125 -0.26239013671875 0.00022459030151367188 -0.0009523928165435791 -0.03557586669921875 0.07402801513671875
18.2605 0.18731689453125 0.0313568115234375 -0.3709716796875 -0.229888916015625 0.001620173454284668 0.00014537572860717773 -0.030002593994140625 0.07772064208984375
18.27025 0.18814849853515625 0.0224456787109375 -0.39642333984375 -0.196075439453125 0.0006018877029418945 -0.0005391240119934082 -0.023181915283203125 0.08138656616210938
18.28 0.19101715087890625 0.01462554931640625 -0.422271728515625 -0.157470703125 -0.00036662817001342773 0.0005269944667816162 -0.0184173583984375 0.08406829833984375
18.28975 0.19417572021484375 0.004425048828125 -0.439453125 -0.1175537109375 0.0011854171752929688 -0.00043022632598876953 -0.0115203857421875 0.08730697631835938
18.2995 0.19329071044921875 -0.0028533935546875 -0.454681396484375 -0.074432373046875 -6.23464584350586e-05 -0.0007495284080505371 -0.002838134765625 0.0872802734375
18.30925 0.1951904296875 -0.014617919921875 -0.46380615234375 -0.02899169921875 -0.0009627342224121094 -0.0008187294006347656 0.00550079345703125 0.0886688232421875
18.319 0.19155120849609375 -0.021240234375 -0.4680633544921875 0.0174713134765625 0.0010614991188049316 -0.0003452897071838379 0.010456085205078125 0.09167861938476562
18.32875 0.19028472900390625 -0.0281219482421875 -0.465423583984375 0.061676025390625 0.00039893388748168945 -0.0009002089500427246 0.019802093505859375 0.09295272827148438
18.3385 0.19063568115234375 -0.03891754150390625 -0.4600372314453125 0.105010986328125 0.00012990832328796387 0.0003536790609359741 0.02797698974609375 0.092376708984375
18.34825 0.18918609619140625 -0.047119140625 -0.449981689453125 0.1470794677734375 0.0007948577404022217 -0.0002969205379486084 0.0353546142578125 0.09375
18.358 0.18668365478515625 -0.056304931640625 -0.4392242431640625 0.1897430419921875 -0.0004239678382873535 -0.0006150007247924805 0.043853759765625 0.09217071533203125
18.36775 0.184326171875 -0.06507110595703125 -0.4237060546875 0.2293548583984375 0.0003015100955963135 -0.0008008778095245361 0.049896240234375 0.0904541015625
18.3775 0.18158721923828125 -0.0703125 -0.40484619140625 0.2704315185546875 0.0004778057336807251 -3.1560659408569336e-05 0.05666351318359375 0.087493896484375
18.38725 0.1779937744140625 -0.08084869384765625 -0.379974365234375 0.3081817626953125 0.0009194314479827881 5.599856376647949e-05 0.06401824951171875 0.08629608154296875
18.397 0.1750030517578125 -0.08770751953125 -0.3533935546875 0.34564208984375 0.0005120038986206055 -2.4616718292236328e-05 0.0702972412109375 0.082305908203125
18.40675 0.169464111328125 -0.0943603515625 -0.320770263671875 0.37994384765625 0.00023853778839111328 -0.0003896355628967285 0.078887939453125 0.0779266357421875
18.4165 0.164947509765625 -0.10107421875 -0.2855987548828125 0.4088134765625 0.000441133975982666 -0.0006094574928283691 0.08432769775390625 0.0743255615234375
18.42625 0.16039276123046875 -0.11006927490234375 -0.246856689453125 0.4316558837890625 0.00035262107849121094 -0.0010962486267089844 0.09003448486328125 0.06768798828125
18.436 0.15360260009765625 -0.115631103515625 -0.2089691162109375 0.452484130859375 0.0002552419900894165 1.6540288925170898e-06 0.09783172607421875 0.06357574462890625
18.44575 0.147308349609375 -0.12273406982421875 -0.1702880859375 0.4681854248046875 -0.00022795796394348145 -0.0003695487976074219 0.10002899169921875 0.05475616455078125
18.4555 0.14052581787109375 -0.1285400390625 -0.1331024169921875 0.4844818115234375 -0.00020828843116760254 -0.0006698966026306152 0.1053924560546875 0.04904937744140625
18.46525 0.13437652587890625 -0.13433074951171875 -0.093414306640625 0.498931884765625 -0.0003266334533691406 -0.0008562207221984863 0.110809326171875 0.04175567626953125
18.475 0.126617431640625 -0.13970184326171875 -0.050689697265625 0.511627197265625 0.0013208389282226562 -0.0009284019470214844 0.114471435546875 0.03357696533203125
18.48475 0.12129974365234375 -0.14548492431640625 -0.004730224609375 0.51873779296875 9.101629257202148e-05 -0.0014627575874328613 0.11765289306640625 0.02569580078125
18.4945 0.1128387451171875 -0.14904022216796875 0.042877197265625 0.520721435546875 -0.00022105872631072998 -3.260374069213867e-05 0.1225433349609375 0.01674652099609375
18.50425 0.1038360595703125 -0.1543731689453125 0.090576171875 0.51727294921875 0.0002454519271850586 -0.001027226448059082 0.12237548828125 0.009918212890625
18.514 0.097991943359375 -0.1575775146484375 0.1378173828125 0.50921630859375 0.0005031824111938477 -0.00037658214569091797 0.124481201171875 0.00061798095703125
18.52375 0.089385986328125 -0.16048431396484375 0.18292236328125 0.493133544921875 0.0007524192333221436 -0.0005393028259277344 0.1249542236328125 -0.008541107177734375
18.5335 0.08365631103515625 -0.1648101806640625 0.2232666015625 0.47833251953125 0.0008269548416137695 -0.0007910430431365967 0.12592315673828125 -0.01450347900390625
18.54325 0.07464599609375 -0.16715240478515625 0.263641357421875 0.4581298828125 0.0007007122039794922 0.00019049644470214844 0.12392807006835938 -0.0224151611328125
18.553 0.0673980712890625 -0.16965484619140625 0.2979736328125 0.43499755859375 0.0009480118751525879 -0.000734180212020874 0.1214599609375 -0.03029632568359375
18.56275 0.05987548828125 -0.169403076171875 0.335205078125 0.41259765625 -0.00018520653247833252 0.00012567639350891113 0.11965560913085938 -0.037143707275390625
18.5725 0.0513763427734375 -0.17057037353515625 0.37091064453125 0.388671875 3.170967102050781e-05 -0.0009978413581848145 0.11433029174804688 -0.044704437255859375
18.58225 0.04264068603515625 -0.16974639892578125 0.405487060546875 0.358001708984375 -0.00015851855278015137 -0.0007814466953277588 0.11201095581054688 -0.053821563720703125
18.592 0.03362274169921875 -0.17366790771484375 0.438507080078125 0.323150634765625 -0.00028398633003234863 -0.0006455779075622559 0.10791778564453125 -0.060329437255859375
18.60175 0.027191162109375 -0.170440673828125 0.468017578125 0.28582763671875 0.001122117042541504 -0.0010024309158325195 0.10218048095703125 -0.06703948974609375
18.6115 0.018218994140625 -0.1692047119140625 0.491943359375 0.244903564453125 -0.000698089599609375 -0.0012543797492980957 0.0985107421875 -0.07245635986328125
18.62125 0.01079559326171875 -0.169677734375 0.511260986328125 0.202911376953125 0.00034427642822265625 -0.0005032122135162354 0.09091567993164062 -0.07914352416992188
18.631 0.00263214111328125 -0.16904449462890625 0.525177001953125 0.164520263671875 0.00047141313552856445 -0.001340031623840332 0.0869598388671875 -0.08135986328125
