!Created with skrf (http://scikit-rf.org).
# GHz S RI R 50.0 
!freq ReS11 ImS11 ReS21 ImS21 ReS12 ImS12 ReS22 ImS22
17.5 0.00933074951171875 -0.14359283447265625 -0.3769073486328125 0.46826171875 -0.0021092891693115234 0.0006213188171386719 0.097320556640625 0.00226593017578125
17.50975 -0.00058746337890625 -0.14122772216796875 -0.3331298828125 0.49560546875 -0.0019867420196533203 0.00033855438232421875 0.09921646118164062 -0.00077056884765625
17.5195 -0.007598876953125 -0.13597869873046875 -0.284332275390625 0.515625 -0.0019642114639282227 0.0011835098266601562 0.1035003662109375 -0.00075531005859375
17.52925 -0.016387939453125 -0.13269805908203125 -0.238037109375 0.532928466796875 -0.00038842856884002686 0.0001917034387588501 0.10566329956054688 -0.0047760009765625
17.539 -0.022796630859375 -0.1270599365234375 -0.1895751953125 0.544189453125 -0.0010710954666137695 0.0003396272659301758 0.10605621337890625 -0.007781982421875
17.54875 -0.03049468994140625 -0.12424468994140625 -0.143646240234375 0.55145263671875 -0.001743614673614502 0.0014598965644836426 0.10874557495117188 -0.01049041748046875
17.5585 -0.04003143310546875 -0.11946868896484375 -0.097625732421875 0.556304931640625 -0.0006638765335083008 0.0010845065116882324 0.10976028442382812 -0.01465606689453125
17.56825 -0.04590606689453125 -0.11508941650390625 -0.053375244140625 0.557281494140625 -0.0016447901725769043 0.0008222460746765137 0.11199569702148438 -0.01863861083984375
17.578 -0.05300140380859375 -0.10817718505859375 -0.006378173828125 0.556396484375 -0.0015254020690917969 0.001164078712463379 0.1129913330078125 -0.02272796630859375
17.58775 -0.05927276611328125 -0.10317230224609375 0.038970947265625 0.548248291015625 -0.0018392205238342285 0.00014770030975341797 0.11385726928710938 -0.025959014892578125
17.5975 -0.0641326904296875 -0.09860992431640625 0.08428955078125 0.535125732421875 0.0003966093063354492 0.001693129539489746 0.11413192749023438 -0.031696319580078125
17.60725 -0.06977081298828125 -0.0923919677734375 0.1282958984375 0.51959228515625 -0.0018978118896484375 0.0007098913192749023 0.11425018310546875 -0.033329010009765625
17.617 -0.07390594482421875 -0.08428192138671875 0.167236328125 0.50128173828125 -0.0006372928619384766 0.0008014142513275146 0.1150360107421875 -0.0386505126953125
17.62675 -0.07878875732421875 -0.0771331787109375 0.2030029296875 0.477569580078125 -0.0008776187896728516 0.0017303824424743652 0.11474227905273438 -0.043178558349609375
17.6365 -0.0825042724609375 -0.068756103515625 0.2333984375 0.45068359375 -0.0016269683837890625 0.0006960630416870117 0.11386871337890625 -0.048980712890625
17.64625 -0.08712005615234375 -0.06214141845703125 0.259368896484375 0.42657470703125 -0.0017132163047790527 0.00014907121658325195 0.11168670654296875 -0.05239105224609375
17.656 -0.0895538330078125 -0.0562896728515625 0.2840576171875 0.401092529296875 -0.0009118914604187012 0.0015947222709655762 0.10869598388671875 -0.057708740234375
17.66575 -0.09264373779296875 -0.04724884033203125 0.30810546875 0.37786865234375 0.00046634674072265625 0.0008878707885742188 0.10726165771484375 -0.06206512451171875
17.6755 -0.09621429443359375 -0.03958892822265625 0.328948974609375 0.350982666015625 -0.0021104812622070312 0.001904129981994629 0.10211181640625 -0.06780242919921875
17.68525 -0.0971221923828125 -0.032318115234375 0.352569580078125 0.32696533203125 -0.0005488693714141846 0.0005603432655334473 0.10034561157226562 -0.07079696655273438
17.695 -0.09856796264648438 -0.02136993408203125 0.37225341796875 0.297637939453125 0.00015605241060256958 4.542618989944458e-05 0.10026168823242188 -0.07300186157226562
17.70475 -0.09913253784179688 -0.0150909423828125 0.393341064453125 0.26629638671875 0.00010776519775390625 0.00041678547859191895 0.0938568115234375 -0.07830047607421875
17.7145 -0.10054779052734375 -0.005764007568359375 0.40887451171875 0.230621337890625 -0.0007304549217224121 0.0008115172386169434 0.08920669555664062 -0.08338546752929688
17.72425 -0.10176467895507812 0.001758575439453125 0.418060302734375 0.1943359375 -0.00017845630645751953 0.0018523335456848145 0.08644866943359375 -0.08757781982421875
17.734 -0.101043701171875 0.00878143310546875 0.42425537109375 0.159912109375 0.00024247169494628906 0.0004881620407104492 0.0829010009765625 -0.090362548828125
17.74375 -0.1020660400390625 0.01638031005859375 0.42333984375 0.125 -2.8133392333984375e-05 0.002126932144165039 0.0786285400390625 -0.0973052978515625
17.7535 -0.09976959228515625 0.023654937744140625 0.423492431640625 0.096405029296875 -0.0006228983402252197 0.0009637773036956787 0.07312774658203125 -0.09813308715820312
17.76325 -0.09946441650390625 0.031848907470703125 0.4203338623046875 0.068267822265625 0.000609278678894043 0.0004214644432067871 0.06772232055664062 -0.09827423095703125
17.773 -0.09793472290039062 0.038944244384765625 0.417022705078125 0.0419769287109375 0.0010247230529785156 0.0013666152954101562 0.06438064575195312 -0.10260391235351562
17.78275 -0.09519195556640625 0.045711517333984375 0.4129791259765625 0.017913818359375 -0.0004017353057861328 0.0011506080627441406 0.060009002685546875 -0.10369873046875
17.7925 -0.091644287109375 0.051998138427734375 0.4091796875 -0.0074005126953125 1.430511474609375e-05 0.0026532411575317383 0.05361175537109375 -0.10576248168945312
17.80225 -0.08936691284179688 0.060272216796875 0.4072265625 -0.032501220703125 -0.00012885034084320068 0.00046540796756744385 0.04976654052734375 -0.1073760986328125
17.812 -0.08464813232421875 0.06783676147460938 0.400726318359375 -0.0589752197265625 0.00028443336486816406 0.0012505054473876953 0.04285430908203125 -0.10736083984375
17.82175 -0.08011627197265625 0.0742950439453125 0.395050048828125 -0.08343505859375 0.001382589340209961 0.0013965368270874023 0.037364959716796875 -0.10690689086914062
17.8315 -0.07624435424804688 0.08017349243164062 0.3836822509765625 -0.1083221435546875 -9.177625179290771e-05 0.0004020482301712036 0.03308868408203125 -0.10866546630859375
17.84125 -0.0720367431640625 0.08628082275390625 0.371246337890625 -0.130279541015625 0.0008086562156677246 -4.863739013671875e-05 0.02667999267578125 -0.10805511474609375
17.851 -0.06634521484375 0.09408187866210938 0.357147216796875 -0.150390625 0.0007387995719909668 -9.548664093017578e-05 0.02339935302734375 -0.10731124877929688
17.86075 -0.06313705444335938 0.09778976440429688 0.3441619873046875 -0.167266845703125 0.0010662674903869629 0.0008830428123474121 0.015514373779296875 -0.10570144653320312
17.8705 -0.056873321533203125 0.1042633056640625 0.3316802978515625 -0.18243408203125 0.0006389617919921875 0.0014129877090454102 0.010730743408203125 -0.1062164306640625
17.88025 -0.052272796630859375 0.11025238037109375 0.3194122314453125 -0.1980743408203125 0.0007060766220092773 0.0016602277755737305 0.00437164306640625 -0.10466384887695312
17.89 -0.047573089599609375 0.11745452880859375 0.30889892578125 -0.210601806640625 0.0008906722068786621 0.0004290342330932617 -0.0009002685546875 -0.10382461547851562
17.89975 -0.041080474853515625 0.12029266357421875 0.299102783203125 -0.2271881103515625 0.001273036003112793 0.0009747743606567383 -0.005840301513671875 -0.10358810424804688
17.9095 -0.0361785888671875 0.12371063232421875 0.286468505859375 -0.2435302734375 0.00023597478866577148 0.0015101432800292969 -0.011577606201171875 -0.10188674926757812
17.91925 -0.02770233154296875 0.12685394287109375 0.2743377685546875 -0.2603302001953125 6.711483001708984e-05 0.0016680359840393066 -0.0157928466796875 -0.09984970092773438
17.929 -0.0208740234375 0.130828857421875 0.260467529296875 -0.2755126953125 0.0005272626876831055 0.00043004751205444336 -0.02126312255859375 -0.09686279296875
17.93875 -0.01543426513671875 0.13384246826171875 0.2459564208984375 -0.2888336181640625 0.00045105814933776855 0.00028389692306518555 -0.025554656982421875 -0.09466934204101562
17.9485 -0.00861358642578125 0.13605499267578125 0.2304229736328125 -0.301025390625 0.0006511807441711426 0.0011088848114013672 -0.030490875244140625 -0.09007644653320312
17.95825 -0.00212860107421875 0.13751220703125 0.2168121337890625 -0.3129119873046875 6.854534149169922e-05 0.0005123913288116455 -0.033626556396484375 -0.08856582641601562
17.968 0.003997802734375 0.14003753662109375 0.2041168212890625 -0.3252716064453125 0.0022592544555664062 2.396106719970703e-05 -0.039516448974609375 -0.08501434326171875
17.97775 0.01312255859375 0.1389007568359375 0.1910858154296875 -0.3387908935546875 0.0006382465362548828 0.0005249977111816406 -0.042484283447265625 -0.07907485961914062
17.9875 0.02211761474609375 0.14189910888671875 0.1771697998046875 -0.3523712158203125 0.0017739534378051758 0.0005829334259033203 -0.0442352294921875 -0.07617950439453125
17.99725 0.0289764404296875 0.142578125 0.1629486083984375 -0.3682861328125 3.618001937866211e-05 0.0004214644432067871 -0.05110931396484375 -0.0723724365234375
18.007 0.0362396240234375 0.14330291748046875 0.145538330078125 -0.386138916015625 9.28640365600586e-05 0.0007113814353942871 -0.05417633056640625 -0.06830215454101562
18.01675 0.04521942138671875 0.14344024658203125 0.126739501953125 -0.40234375 0.0019288063049316406 2.8133392333984375e-05 -0.057468414306640625 -0.062744140625
18.0265 0.051727294921875 0.142974853515625 0.10321044921875 -0.419708251953125 0.0015635490417480469 -0.0001800060272216797 -0.0622406005859375 -0.05693817138671875
18.03625 0.0589447021484375 0.145233154296875 0.079345703125 -0.435150146484375 0.0011963844299316406 0.0020635128021240234 -0.06421661376953125 -0.05362701416015625
18.046 0.06638336181640625 0.14178466796875 0.0518646240234375 -0.449951171875 0.001110374927520752 0.00015842914581298828 -0.06647491455078125 -0.047634124755859375
18.05575 0.07482147216796875 0.13990020751953125 0.023712158203125 -0.460205078125 -0.0006374716758728027 -0.0004724860191345215 -0.07049179077148438 -0.042064666748046875
18.0655 0.0812225341796875 0.13924407958984375 -0.0058135986328125 -0.47015380859375 0.0011445283889770508 0.001019597053527832 -0.074005126953125 -0.037540435791015625
18.07525 0.08856201171875 0.1362762451171875 -0.03521728515625 -0.480316162109375 0.000557631254196167 -0.0004176795482635498 -0.0742034912109375 -0.03083038330078125
18.085 0.09658050537109375 0.13439178466796875 -0.0706787109375 -0.490020751953125 0.0010724067687988281 0.0015004873275756836 -0.0771636962890625 -0.027008056640625
18.09475 0.1027374267578125 0.1309661865234375 -0.105987548828125 -0.496337890625 0.001192331314086914 0.0005344152450561523 -0.07504653930664062 -0.019866943359375
18.1045 0.10996246337890625 0.12775421142578125 -0.142547607421875 -0.502288818359375 0.001435995101928711 -0.00018680095672607422 -0.07646560668945312 -0.014133453369140625
18.11425 0.11623382568359375 0.1253814697265625 -0.18634033203125 -0.503814697265625 0.0010280609130859375 -0.0008597373962402344 -0.07514572143554688 -0.00875091552734375
18.124 0.1219024658203125 0.121337890625 -0.2313232421875 -0.4991455078125 0.0010777711868286133 -0.0007588863372802734 -0.07630157470703125 -0.00026702880859375
18.13375 0.129180908203125 0.11681365966796875 -0.27606201171875 -0.492462158203125 0.0015664100646972656 -0.0005322098731994629 -0.0760040283203125 0.0060272216796875
18.1435 0.13513946533203125 0.11101531982421875 -0.319183349609375 -0.479736328125 0.0007487833499908447 -0.0008476376533508301 -0.07555770874023438 0.01316070556640625
18.15325 0.14087677001953125 0.1051025390625 -0.364013671875 -0.460906982421875 0.0003914833068847656 0.0007863640785217285 -0.07573318481445312 0.0189666748046875
18.163 0.14776611328125 0.0994720458984375 -0.4063720703125 -0.4395751953125 -0.00016234815120697021 0.000337451696395874 -0.07302474975585938 0.024932861328125
18.17275 0.1526641845703125 0.093475341796875 -0.4501953125 -0.41461181640625 5.990266799926758e-06 -0.0006571710109710693 -0.06821823120117188 0.031768798828125
18.1825 0.1589813232421875 0.08718109130859375 -0.491912841796875 -0.38653564453125 0.00022900104522705078 -0.0005636215209960938 -0.06649017333984375 0.038909912109375
18.19225 0.162872314453125 0.08087158203125 -0.534912109375 -0.351593017578125 0.0007805824279785156 0.0008148550987243652 -0.064605712890625 0.044879913330078125
18.202 0.16893768310546875 0.07524871826171875 -0.571258544921875 -0.3118896484375 0.000390857458114624 -0.00033880770206451416 -0.0618133544921875 0.05181312561035156
18.21175 0.1723175048828125 0.068145751953125 -0.607421875 -0.2666015625 0.0003038942813873291 5.981326103210449e-05 -0.05709075927734375 0.0574951171875
18.2215 0.1776275634765625 0.06060028076171875 -0.637542724609375 -0.215789794921875 0.0003071129322052002 -0.00036416947841644287 -0.052494049072265625 0.06024360656738281
18.23125 0.18227386474609375 0.05452728271484375 -0.663604736328125 -0.1639404296875 0.0014435052871704102 8.034706115722656e-05 -0.049015045166015625 0.06433486938476562
18.241 0.1848602294921875 0.04659271240234375 -0.68365478515625 -0.108001708984375 0.00021998584270477295 -0.0002661794424057007 -0.0427703857421875 0.07159805297851562
18.25075 0.1866607666015625 0.0387115478515625 -0.699676513671875 -0.052032470703125 -5.7756900787353516e-05 -0.0011286139488220215 -0.03783416748046875 0.073699951171875
18.2605 0.19023895263671875 0.03060150146484375 -0.708251953125 0.00677490234375 0.0012094974517822266 0.0003803372383117676 -0.03264617919921875 0.07807159423828125
18.27025 0.1902618408203125 0.02173614501953125 -0.715423583984375 0.066009521484375 0.0006778240203857422 0.0007655024528503418 -0.023502349853515625 0.08192825317382812
18.28 0.193115234375 0.013580322265625 -0.717071533203125 0.1280517578125 -0.00027754902839660645 -0.00040644407272338867 -0.01871490478515625 0.08358001708984375
18.28975 0.19341278076171875 0.0038909912109375 -0.7122802734375 0.19091796875 0.0005289018154144287 -0.00024506449699401855 -0.0108642578125 0.08794403076171875
18.2995 0.19396209716796875 -0.003997802734375 -0.70306396484375 0.255218505859375 0.0005525946617126465 -0.0007437765598297119 -0.004428863525390625 0.08831024169921875
18.30925 0.1934356689453125 -0.0133209228515625 -0.68194580078125 0.320068359375 0.0009491443634033203 0.0002837181091308594 0.00453948974609375 0.090911865234375
18.319 0.19301605224609375 -0.02246856689453125 -0.657745361328125 0.382110595703125 0.0007489919662475586 -0.00010594725608825684 0.010906219482421875 0.09284210205078125
18.32875 0.19232177734375 -0.029266357421875 -0.6246337890625 0.43768310546875 0.0007459819316864014 -0.0008737444877624512 0.020908355712890625 0.09461593627929688
18.3385 0.19129180908203125 -0.03940582275390625 -0.5863037109375 0.490447998046875 0.0012483596801757812 -0.00046837329864501953 0.0290069580078125 0.09458160400390625
18.34825 0.18953704833984375 -0.0482330322265625 -0.548675537109375 0.54241943359375 -0.0003178417682647705 9.255111217498779e-05 0.03311920166015625 0.09403228759765625
18.358 0.18761444091796875 -0.0562744140625 -0.50726318359375 0.588653564453125 -0.0007151961326599121 -0.0003406405448913574 0.043243408203125 0.09283447265625
18.36775 0.1856842041015625 -0.06479644775390625 -0.459716796875 0.632354736328125 -0.00037100911140441895 -0.00018724799156188965 0.0501556396484375 0.08946990966796875
18.3775 0.18321990966796875 -0.0728759765625 -0.410980224609375 0.673248291015625 -0.0002776980400085449 -9.803473949432373e-05 0.05765533447265625 0.08861541748046875
18.38725 0.1795196533203125 -0.08165740966796875 -0.353179931640625 0.712860107421875 -0.00014284253120422363 -0.0007530152797698975 0.063232421875 0.086669921875
18.397 0.1756439208984375 -0.0894012451171875 -0.29302978515625 0.74505615234375 0.0003056526184082031 -0.00027316808700561523 0.07135009765625 0.0837860107421875
18.40675 0.1711578369140625 -0.0959320068359375 -0.225830078125 0.7713623046875 -0.0004801750183105469 -0.001049637794494629 0.0788421630859375 0.0786590576171875
18.4165 0.16526031494140625 -0.10265350341796875 -0.16021728515625 0.788848876953125 0.0007309913635253906 -0.00022429227828979492 0.0838623046875 0.0759124755859375
18.42625 0.1594085693359375 -0.1103363037109375 -0.0938720703125 0.79803466796875 9.09268856048584e-05 -0.00023493915796279907 0.0909271240234375 0.06839752197265625
18.436 0.1529388427734375 -0.11695098876953125 -0.03094482421875 0.8023681640625 -0.00033792853355407715 0.00011470913887023926 0.0991668701171875 0.06320953369140625
18.44575 0.14673614501953125 -0.123291015625 0.03192138671875 0.803497314453125 0.00015464425086975098 7.034093141555786e-05 0.10135650634765625 0.05612945556640625
18.4555 0.1390380859375 -0.12937164306640625 0.09326171875 0.80133056640625 -0.00018137693405151367 -0.00042766332626342773 0.10688018798828125 0.05008697509765625
18.46525 0.1347503662109375 -0.135955810546875 0.15631103515625 0.79901123046875 -0.00024303793907165527 -0.0002770423889160156 0.11154937744140625 0.0427703857421875
18.475 0.12534332275390625 -0.1396636962890625 0.21978759765625 0.7918701171875 7.647275924682617e-05 -0.0010166168212890625 0.11724853515625 0.03630828857421875
18.48475 0.1214599609375 -0.1452789306640625 0.28936767578125 0.77691650390625 5.292147397994995e-05 -0.00015170127153396606 0.11994171142578125 0.025299072265625
18.4945 0.11297607421875 -0.149444580078125 0.3563232421875 0.75311279296875 -0.0003631711006164551 -0.0006282329559326172 0.12267303466796875 0.01629638671875
18.50425 0.10479736328125 -0.1548309326171875 0.4217529296875 0.72265625 -0.0002124309539794922 -0.00029969215393066406 0.122894287109375 0.0098876953125
18.514 0.0974578857421875 -0.15838623046875 0.4822998046875 0.6856689453125 -0.00015641748905181885 0.00015904009342193604 0.1248016357421875 0.0025787353515625
18.52375 0.09023284912109375 -0.15918731689453125 0.53704833984375 0.64056396484375 0.0006777048110961914 -0.00025770068168640137 0.12628173828125 -0.00699615478515625
18.5335 0.0822906494140625 -0.16544342041015625 0.58270263671875 0.59466552734375 0.00028648972511291504 -0.0006506443023681641 0.1261444091796875 -0.015655517578125
18.54325 0.07391357421875 -0.166656494140625 0.6248779296875 0.54779052734375 0.00010484457015991211 0.0004152953624725342 0.12506866455078125 -0.02416229248046875
18.553 0.06610870361328125 -0.16927337646484375 0.66387939453125 0.49798583984375 0.0006917715072631836 -0.0011278986930847168 0.1234588623046875 -0.031696319580078125
18.56275 0.05870819091796875 -0.1689453125 0.7032470703125 0.45013427734375 0.0002066493034362793 -0.0007181167602539062 0.12064361572265625 -0.038311004638671875
18.5725 0.04937744140625 -0.1711578369140625 0.73931884765625 0.398681640625 0.0005226731300354004 5.8650970458984375e-05 0.11704635620117188 -0.04616546630859375
18.58225 0.0410003662109375 -0.1707611083984375 0.77252197265625 0.3397216796875 0.0003029555082321167 -0.00045825541019439697 0.11178970336914062 -0.052898406982421875
18.592 0.03324127197265625 -0.17369842529296875 0.80255126953125 0.27740478515625 0.00022172927856445312 0.000399857759475708 0.10826492309570312 -0.06110382080078125
18.60175 0.0261077880859375 -0.1715240478515625 0.82666015625 0.2105712890625 0.00020045042037963867 -0.0006070733070373535 0.10292816162109375 -0.0651702880859375
18.6115 0.01750946044921875 -0.16944122314453125 0.839141845703125 0.1424560546875 0.0009787678718566895 -0.0004798769950866699 0.0987396240234375 -0.0729522705078125
18.62125 0.0085906982421875 -0.1690216064453125 0.846893310546875 0.076171875 5.078315734863281e-05 -0.0013623237609863281 0.09175872802734375 -0.07912445068359375
18.631 0.00222015380859375 -0.16875457763671875 0.84832763671875 0.014862060546875 0.000536501407623291 6.389617919921875e-05 0.08567047119140625 -0.08306884765625
18.64075 -0.00592041015625 -0.16608428955078125 0.84503173828125 -0.04693603515625 -8.435547351837158e-05 0.000268787145614624 0.08074951171875 -0.08592605590820312
