!Created with skrf (http://scikit-rf.org).
# GHz S RI R 50.0 
!freq ReS11 ImS11 ReS21 ImS21 ReS12 ImS12 ReS22 ImS22
17.5 0.01401519775390625 -0.13837432861328125 -2.3372802734375 2.7896728515625 -0.0006598830223083496 -0.0005164742469787598 0.09099197387695312 0.006313323974609375
17.50975 0.00574493408203125 -0.136688232421875 -2.099609375 2.9652099609375 -0.0009219348430633545 0.00024455785751342773 0.09469223022460938 0.005397796630859375
17.5195 -0.0024566650390625 -0.1311798095703125 -1.8497314453125 3.1141357421875 -0.000841677188873291 0.0009362995624542236 0.09589385986328125 0.00665283203125
17.52925 -0.0111541748046875 -0.12818145751953125 -1.592529296875 3.2469482421875 -0.002331376075744629 0.0009511709213256836 0.10052490234375 0.0023193359375
17.539 -0.0170135498046875 -0.123260498046875 -1.33447265625 3.351806640625 -0.001285552978515625 -0.00035321712493896484 0.101776123046875 -0.00072479248046875
17.54875 -0.0245208740234375 -0.12047576904296875 -1.06640625 3.4276123046875 -0.0012850761413574219 0.00012630224227905273 0.10527801513671875 -0.003963470458984375
17.5585 -0.03476715087890625 -0.11638641357421875 -0.802001953125 3.4976806640625 -0.001653909683227539 -3.463029861450195e-05 0.10898590087890625 -0.007175445556640625
17.56825 -0.040191650390625 -0.11334991455078125 -0.5433349609375 3.55126953125 -0.0012429356575012207 0.001209855079650879 0.10822296142578125 -0.01183319091796875
17.578 -0.0467376708984375 -0.1074371337890625 -0.261474609375 3.5867919921875 -9.691715240478516e-05 0.0009946227073669434 0.1116943359375 -0.01398468017578125
17.58775 -0.051849365234375 -0.10272216796875 0.0274658203125 3.59765625 -0.00032836198806762695 0.0005165934562683105 0.11374664306640625 -0.017414093017578125
17.5975 -0.05673980712890625 -0.09671783447265625 0.325439453125 3.5843505859375 -0.0009363889694213867 -0.00010466575622558594 0.11276626586914062 -0.022125244140625
17.60725 -0.06215667724609375 -0.09276580810546875 0.6142578125 3.53271484375 -0.0009775161743164062 0.0012025237083435059 0.11494827270507812 -0.026103973388671875
17.617 -0.0677490234375 -0.08480072021484375 0.8916015625 3.453125 -0.0007083415985107422 0.0010364055633544922 0.11586380004882812 -0.029720306396484375
17.62675 -0.07297515869140625 -0.07854461669921875 1.154541015625 3.34521484375 -0.001237332820892334 0.0012639760971069336 0.11688995361328125 -0.03338623046875
17.6365 -0.0760955810546875 -0.07171630859375 1.39404296875 3.2197265625 -0.0006147623062133789 0.0011096000671386719 0.1160125732421875 -0.03975677490234375
17.64625 -0.0799407958984375 -0.06491851806640625 1.60693359375 3.08984375 0.00018640607595443726 3.960728645324707e-05 0.11473464965820312 -0.04498291015625
17.656 -0.08231353759765625 -0.06006622314453125 1.810546875 2.958740234375 -0.0010546445846557617 0.0014513731002807617 0.111907958984375 -0.049411773681640625
17.66575 -0.085205078125 -0.0504913330078125 2.011474609375 2.829345703125 -0.0002773404121398926 0.0010043978691101074 0.11072921752929688 -0.05361175537109375
17.6755 -0.08966827392578125 -0.0439453125 2.205322265625 2.687255859375 -0.0005361437797546387 0.0017765164375305176 0.10918807983398438 -0.059566497802734375
17.68525 -0.09139251708984375 -0.036529541015625 2.41162109375 2.543701171875 -0.0013203024864196777 0.0008821487426757812 0.10681915283203125 -0.06386947631835938
17.695 -0.09295654296875 -0.02816009521484375 2.617919921875 2.3681640625 -0.0012225508689880371 0.0011960864067077637 0.10488510131835938 -0.0679168701171875
17.70475 -0.09514236450195312 -0.019878387451171875 2.81494140625 2.156494140625 -0.0011609792709350586 0.0020055770874023438 0.10353851318359375 -0.07227325439453125
17.7145 -0.09806060791015625 -0.01239776611328125 2.9970703125 1.919677734375 -0.00036460161209106445 0.0018386244773864746 0.09737014770507812 -0.0784454345703125
17.72425 -0.09688568115234375 -0.005077362060546875 3.140625 1.651611328125 -0.0002129673957824707 0.0014170408248901367 0.09383773803710938 -0.08259201049804688
17.734 -0.099365234375 0.002277374267578125 3.24951171875 1.383544921875 -0.0008222460746765137 0.0010768771171569824 0.09032058715820312 -0.08686447143554688
17.74375 -0.10024261474609375 0.009063720703125 3.3037109375 1.1123046875 -0.0003752708435058594 0.0017653703689575195 0.0857086181640625 -0.09185028076171875
17.7535 -0.09667587280273438 0.017322540283203125 3.349609375 0.861328125 0.0008705854415893555 0.0009728074073791504 0.0826416015625 -0.0951995849609375
17.76325 -0.0973358154296875 0.025543212890625 3.3829345703125 0.6279296875 -8.910894393920898e-05 0.0018239021301269531 0.07666397094726562 -0.09718704223632812
17.773 -0.0971832275390625 0.030696868896484375 3.407958984375 0.4033203125 0.00025548040866851807 -9.420514106750488e-05 0.07190704345703125 -0.10036849975585938
17.78275 -0.09498214721679688 0.03858184814453125 3.4259033203125 0.169921875 -0.0006114840507507324 0.0009993910789489746 0.0677032470703125 -0.10231781005859375
17.7925 -0.09162521362304688 0.043804168701171875 3.45263671875 -0.068115234375 -0.0003248453140258789 0.0024421215057373047 0.06416702270507812 -0.10586166381835938
17.80225 -0.09081268310546875 0.0507354736328125 3.45947265625 -0.32861328125 -0.0006847381591796875 0.0019617080688476562 0.058567047119140625 -0.1074066162109375
17.812 -0.08710479736328125 0.0601959228515625 3.443115234375 -0.5986328125 0.0007380247116088867 0.0013185739517211914 0.051097869873046875 -0.10874176025390625
17.82175 -0.08182144165039062 0.066619873046875 3.40087890625 -0.8714599609375 3.972649574279785e-05 0.0006159543991088867 0.0465240478515625 -0.10921478271484375
17.8315 -0.07964706420898438 0.0734710693359375 3.319580078125 -1.1424560546875 0.0002799034118652344 0.002033710479736328 0.0414886474609375 -0.11136245727539062
17.84125 -0.07569122314453125 0.0804901123046875 3.212158203125 -1.396728515625 -0.00046455860137939453 0.00110626220703125 0.03414154052734375 -0.1108856201171875
17.851 -0.07102203369140625 0.087738037109375 3.07421875 -1.6287841796875 0.00021249055862426758 0.0005407631397247314 0.030345916748046875 -0.1112213134765625
17.86075 -0.06807327270507812 0.0931854248046875 2.936767578125 -1.837646484375 0.0005270242691040039 0.0008236169815063477 0.022975921630859375 -0.1113433837890625
17.8705 -0.06348037719726562 0.0990142822265625 2.7930908203125 -2.03271484375 0.0003249049186706543 0.0007239580154418945 0.017154693603515625 -0.11101913452148438
17.88025 -0.057952880859375 0.10576248168945312 2.64892578125 -2.2213134765625 -0.00023025274276733398 -2.187490463256836e-05 0.010356903076171875 -0.11194229125976562
17.89 -0.05274200439453125 0.11057662963867188 2.50244140625 -2.404296875 -0.00034922361373901367 0.001089334487915039 0.0056610107421875 -0.10926055908203125
17.89975 -0.047344207763671875 0.11528396606445312 2.329833984375 -2.59619140625 -0.00045496225357055664 -0.0004634261131286621 -0.000400543212890625 -0.10840225219726562
17.9095 -0.042644500732421875 0.11965179443359375 2.150146484375 -2.79150390625 7.295608520507812e-05 0.0009267330169677734 -0.00760650634765625 -0.108123779296875
17.91925 -0.03371429443359375 0.12321853637695312 1.9351806640625 -2.958984375 0.0002326667308807373 0.0005071759223937988 -0.011837005615234375 -0.10529708862304688
17.929 -0.0287933349609375 0.127655029296875 1.70654296875 -3.116943359375 0.0008590221405029297 0.0007810592651367188 -0.01849365234375 -0.1049652099609375
17.93875 -0.023040771484375 0.13126373291015625 1.452392578125 -3.23876953125 0.0007268786430358887 0.0008063912391662598 -0.022098541259765625 -0.10344314575195312
17.9485 -0.01572418212890625 0.13482666015625 1.19921875 -3.332763671875 0.0008881688117980957 0.0009350180625915527 -0.028045654296875 -0.1000213623046875
17.95825 -0.009918212890625 0.1375579833984375 0.9481201171875 -3.403564453125 0.0002110004425048828 0.002381563186645508 -0.03078460693359375 -0.09626007080078125
17.968 -0.0020294189453125 0.14031982421875 0.7039794921875 -3.4603271484375 0.0002409219741821289 0.0010361075401306152 -0.0384979248046875 -0.0952911376953125
17.97775 0.00444793701171875 0.1414337158203125 0.4637451171875 -3.5040283203125 0.001204848289489746 0.00015920400619506836 -0.04302978515625 -0.0874176025390625
17.9875 0.0135040283203125 0.1436614990234375 0.213623046875 -3.5447998046875 0.0012061595916748047 0.0013660192489624023 -0.04624176025390625 -0.08513641357421875
17.99725 0.0208892822265625 0.14583587646484375 -0.0404052734375 -3.5772705078125 0.0010012984275817871 0.0002853870391845703 -0.050811767578125 -0.0810394287109375
18.007 0.029266357421875 0.14582061767578125 -0.3094482421875 -3.593017578125 0.000860065221786499 -0.0007096529006958008 -0.0540771484375 -0.0773162841796875
18.01675 0.03643035888671875 0.14795684814453125 -0.59033203125 -3.58447265625 0.0015610456466674805 0.0017911195755004883 -0.06169891357421875 -0.07196044921875
18.0265 0.04486083984375 0.146331787109375 -0.87890625 -3.5498046875 0.001180410385131836 -0.0001550912857055664 -0.0656280517578125 -0.0650482177734375
18.03625 0.0520782470703125 0.1497344970703125 -1.166015625 -3.47607421875 0.0007013678550720215 -0.000735938549041748 -0.0678558349609375 -0.0601959228515625
18.046 0.06163787841796875 0.14797210693359375 -1.44580078125 -3.378173828125 0.0005236566066741943 0.00034552812576293945 -0.07056427001953125 -0.055328369140625
18.05575 0.06974029541015625 0.1452789306640625 -1.6962890625 -3.258056640625 0.0005968809127807617 -0.0001321732997894287 -0.0753631591796875 -0.049060821533203125
18.0655 0.07707977294921875 0.1463623046875 -1.9306640625 -3.118408203125 0.0006924867630004883 -0.0002713203430175781 -0.07932662963867188 -0.04443359375
18.07525 0.0853271484375 0.1443023681640625 -2.1572265625 -2.970703125 -1.767277717590332e-05 0.000840991735458374 -0.07943344116210938 -0.038242340087890625
18.085 0.09226226806640625 0.14237213134765625 -2.3828125 -2.81201171875 0.001928567886352539 0.00032889842987060547 -0.08257293701171875 -0.0303497314453125
18.09475 0.10022735595703125 0.1368865966796875 -2.596923828125 -2.64453125 0.0004720240831375122 -0.00047756731510162354 -0.081512451171875 -0.025592803955078125
18.1045 0.10790252685546875 0.13564300537109375 -2.80419921875 -2.4521484375 0.001982569694519043 0.0004372596740722656 -0.08473968505859375 -0.018398284912109375
18.11425 0.11590576171875 0.133026123046875 -3.009765625 -2.239013671875 0.0008120536804199219 -2.238154411315918e-05 -0.08559417724609375 -0.01335906982421875
18.124 0.121246337890625 0.1287841796875 -3.1904296875 -2.00439453125 0.00039273500442504883 0.0002421736717224121 -0.08528900146484375 -0.004119873046875
18.13375 0.1302642822265625 0.12457275390625 -3.3525390625 -1.76025390625 0.001155078411102295 -8.58306884765625e-05 -0.08414077758789062 0.001567840576171875
18.1435 0.1371612548828125 0.1187286376953125 -3.486328125 -1.491943359375 0.0005435943603515625 -0.0011812448501586914 -0.08283615112304688 0.010570526123046875
18.15325 0.142608642578125 0.1128082275390625 -3.6015625 -1.214111328125 0.0008761882781982422 0.0005155205726623535 -0.08526229858398438 0.016063690185546875
18.163 0.15155029296875 0.10845947265625 -3.68505859375 -0.9306640625 0.0006105899810791016 -0.0002796947956085205 -0.0806121826171875 0.024547576904296875
18.17275 0.155853271484375 0.1010589599609375 -3.75439453125 -0.645751953125 0.0007307827472686768 -0.0004444420337677002 -0.0789794921875 0.03212738037109375
18.1825 0.1629486083984375 0.0946197509765625 -3.809326171875 -0.356689453125 0.0008888840675354004 -0.0002486705780029297 -0.07525634765625 0.040859222412109375
18.19225 0.1668548583984375 0.087310791015625 -3.8472900390625 -0.052490234375 0.0005566775798797607 -0.0005590617656707764 -0.07205581665039062 0.04633331298828125
18.202 0.1740264892578125 0.0807647705078125 -3.8572998046875 0.2486572265625 0.0016426444053649902 -0.00020313262939453125 -0.07177352905273438 0.052440643310546875
18.21175 0.1791534423828125 0.072479248046875 -3.83740234375 0.568603515625 0.00023001432418823242 -0.0007350444793701172 -0.06645965576171875 0.0595703125
18.2215 0.18399810791015625 0.065155029296875 -3.7808837890625 0.87744140625 0.0011448860168457031 0.0005080699920654297 -0.059627532958984375 0.06484603881835938
18.23125 0.18853759765625 0.05678558349609375 -3.7037353515625 1.17578125 0.00018258392810821533 -0.0002816617488861084 -0.0558013916015625 0.06942367553710938
18.241 0.1907196044921875 0.0499420166015625 -3.5933837890625 1.4598388671875 0.0012310147285461426 -0.00015848875045776367 -0.051074981689453125 0.07599639892578125
18.25075 0.1938629150390625 0.03986358642578125 -3.4697265625 1.7308349609375 0.00030219554901123047 -0.0007067322731018066 -0.04679107666015625 0.0785064697265625
18.2605 0.19664764404296875 0.03265380859375 -3.3240966796875 1.9881591796875 0.00019791722297668457 -0.0008799135684967041 -0.038890838623046875 0.08578109741210938
18.27025 0.1974945068359375 0.02161407470703125 -3.1748046875 2.2412109375 1.169741153717041e-05 0.0004228353500366211 -0.0324554443359375 0.08946990966796875
18.28 0.199432373046875 0.01413726806640625 -2.9974365234375 2.4986572265625 0.0009088814258575439 -0.0005807876586914062 -0.025035858154296875 0.0915679931640625
18.28975 0.2027130126953125 0.0035400390625 -2.8076171875 2.73681640625 0.0009257495403289795 -3.108382225036621e-05 -0.0164642333984375 0.0966644287109375
18.2995 0.2019195556640625 -0.00356292724609375 -2.5802001953125 2.965087890625 -0.0011382699012756348 0.0001882314682006836 -0.008563995361328125 0.096405029296875
18.30925 0.2010040283203125 -0.0149383544921875 -2.322265625 3.171142578125 0.0013115406036376953 0.00014543533325195312 -9.1552734375e-05 0.09938812255859375
18.319 0.19963836669921875 -0.02487945556640625 -2.050048828125 3.34326171875 0.0007847845554351807 -0.0002487599849700928 0.00701904296875 0.10271072387695312
18.32875 0.19748687744140625 -0.0309906005859375 -1.76953125 3.4832763671875 -0.0004857778549194336 -0.00026991963386535645 0.0170135498046875 0.10329818725585938
18.3385 0.19567108154296875 -0.0422821044921875 -1.4854736328125 3.59423828125 0.0004534870386123657 -1.5094876289367676e-05 0.026153564453125 0.1033935546875
18.34825 0.19582366943359375 -0.05313873291015625 -1.2099609375 3.6966552734375 0.00013242661952972412 -0.00036688148975372314 0.03394317626953125 0.105621337890625
18.358 0.19301605224609375 -0.0616302490234375 -0.9326171875 3.7705078125 0.0006625652313232422 0.0012160539627075195 0.04383087158203125 0.10235595703125
18.36775 0.1910552978515625 -0.0701751708984375 -0.63720703125 3.8370361328125 0.00012755393981933594 -0.00020820647478103638 0.04993438720703125 0.10021209716796875
18.3775 0.18692779541015625 -0.0776214599609375 -0.3458251953125 3.89013671875 0.00022445619106292725 -0.0004511624574661255 0.05916595458984375 0.09793853759765625
18.38725 0.18318939208984375 -0.08776092529296875 -0.022705078125 3.918701171875 -0.0005081892013549805 -0.0006340742111206055 0.06646728515625 0.097076416015625
18.397 0.177642822265625 -0.0941925048828125 0.2978515625 3.9052734375 0.0008254051208496094 -0.0005599260330200195 0.0745849609375 0.0935821533203125
18.40675 0.173004150390625 -0.101593017578125 0.62841796875 3.8701171875 3.123283386230469e-05 -0.0011004209518432617 0.0827178955078125 0.08856201171875
18.4165 0.1666107177734375 -0.1096649169921875 0.93505859375 3.7802734375 0.0001653134822845459 -0.0005925595760345459 0.08831787109375 0.0836029052734375
18.42625 0.16058349609375 -0.1165313720703125 1.2236328125 3.66748046875 -0.00025272369384765625 -0.0006021261215209961 0.09757232666015625 0.0773773193359375
18.436 0.153076171875 -0.12172698974609375 1.4873046875 3.536865234375 0.0003382265567779541 0.00013332068920135498 0.10518646240234375 0.07172393798828125
18.44575 0.14748382568359375 -0.1295013427734375 1.734375 3.399169921875 -0.00018393993377685547 -0.00025600194931030273 0.109344482421875 0.06519317626953125
18.4555 0.1394500732421875 -0.13549041748046875 1.97021484375 3.254150390625 -0.0005424022674560547 -0.0006377696990966797 0.11483001708984375 0.0568389892578125
18.46525 0.13463592529296875 -0.14115142822265625 2.209716796875 3.111572265625 0.0003700852394104004 -0.0009889006614685059 0.119537353515625 0.04781341552734375
18.475 0.12470245361328125 -0.14593505859375 2.4443359375 2.945556640625 0.00028565526008605957 0.00043717026710510254 0.12418365478515625 0.039642333984375
18.48475 0.12029266357421875 -0.151763916015625 2.67724609375 2.750244140625 0.00044342875480651855 0.00012743473052978516 0.12688446044921875 0.03045654296875
18.4945 0.11005401611328125 -0.15523529052734375 2.895751953125 2.519287109375 -4.351139068603516e-06 -0.0001666247844696045 0.13170623779296875 0.021453857421875
18.50425 0.1005859375 -0.159088134765625 3.09423828125 2.26220703125 -0.00046622753143310547 -0.0001430511474609375 0.13140869140625 0.0130462646484375
18.514 0.0942230224609375 -0.1627655029296875 3.25390625 1.9921875 0.0005560517311096191 -0.00010538101196289062 0.13494873046875 0.004180908203125
18.52375 0.0845947265625 -0.164093017578125 3.3681640625 1.707763671875 0.0005202293395996094 0.00012257695198059082 0.1335906982421875 -0.00536346435546875
18.5335 0.07767486572265625 -0.16713714599609375 3.45361328125 1.43310546875 -0.0004577040672302246 -0.0006732344627380371 0.13455963134765625 -0.01474761962890625
18.54325 0.06871795654296875 -0.170013427734375 3.51708984375 1.17236328125 0.0009258687496185303 -0.0002893209457397461 0.13458251953125 -0.02274322509765625
18.553 0.06154632568359375 -0.17241668701171875 3.5673828125 0.912841796875 0.0006699264049530029 -4.547834396362305e-05 0.13182830810546875 -0.03171539306640625
18.56275 0.05165863037109375 -0.1710205078125 3.619140625 0.661865234375 0.0014852285385131836 -0.0006650090217590332 0.13067626953125 -0.0388336181640625
18.5725 0.04425811767578125 -0.1724395751953125 3.656494140625 0.3955078125 0.0012698173522949219 -0.0009623169898986816 0.12560272216796875 -0.0478057861328125
18.58225 0.03728485107421875 -0.17182159423828125 3.6806640625 0.119384765625 0.00015604496002197266 -0.0007727444171905518 0.12174606323242188 -0.056362152099609375
18.592 0.02841949462890625 -0.1728363037109375 3.673583984375 -0.169189453125 0.0010356307029724121 -0.0010929107666015625 0.11695098876953125 -0.06303024291992188
18.60175 0.0212249755859375 -0.1706390380859375 3.643310546875 -0.45751953125 0.0007609724998474121 -0.0006952285766601562 0.1112213134765625 -0.06982421875
18.6115 0.01319122314453125 -0.168548583984375 3.5723876953125 -0.738037109375 0.0008215606212615967 -0.0009404420852661133 0.10569000244140625 -0.07777786254882812
18.62125 0.00463104248046875 -0.16913604736328125 3.4793701171875 -1.0003662109375 0.0006111562252044678 -0.0008737146854400635 0.09912490844726562 -0.08414077758789062
18.631 -0.0021209716796875 -0.16709136962890625 3.366943359375 -1.2275390625 -8.928775787353516e-05 -0.0007477700710296631 0.09336471557617188 -0.08980560302734375
18.64075 -0.00971221923828125 -0.165679931640625 3.2508544921875 -1.448974609375 -0.0003403574228286743 2.6226043701171875e-06 0.08802032470703125 -0.09379959106445312
18.6505 -0.01607513427734375 -0.1636810302734375 3.1312255859375 -1.6583251953125 0.0004960596561431885 -0.00014510750770568848 0.07981109619140625 -0.0966339111328125
18.66025 -0.0253753662109375 -0.15982818603515625 3.0123291015625 -1.86083984375 -0.0005702972412109375 -0.0016160011291503906 0.07392120361328125 -0.10038375854492188
18.67 -0.03108978271484375 -0.15692901611328125 2.8841552734375 -2.0653076171875 0.00025044381618499756 7.741153240203857e-05 0.06630325317382812 -0.10198211669921875
18.67975 -0.03878021240234375 -0.153076171875 2.73828125 -2.2757568359375 -0.0007194280624389648 -0.0017056465148925781 0.05870819091796875 -0.10476303100585938
18.6895 -0.0443115234375 -0.1508941650390625 2.5625 -2.4757080078125 3.9517879486083984e-05 -0.0006042420864105225 0.052562713623046875 -0.106109619140625
