!Created with skrf (http://scikit-rf.org).
# GHz S RI R 50.0 
!freq ReS11 ImS11 ReS21 ImS21 ReS12 ImS12 ReS22 ImS22
17.5 0.00856781005859375 -0.14412689208984375 -0.3613739013671875 0.4380950927734375 -0.0011080503463745117 0.0009367465972900391 0.09739303588867188 0.000621795654296875
17.50975 -3.0517578125e-05 -0.140045166015625 -0.31689453125 0.4639892578125 -0.0015099048614501953 0.0006304383277893066 0.09980392456054688 -7.62939453125e-06
17.5195 -0.00800323486328125 -0.1364288330078125 -0.271240234375 0.4842071533203125 -0.0014987587928771973 0.0008004903793334961 0.10257720947265625 -0.001239776611328125
17.52925 -0.016815185546875 -0.132049560546875 -0.226776123046875 0.500244140625 -0.0003827810287475586 0.001507878303527832 0.10466766357421875 -0.00482177734375
17.539 -0.0225982666015625 -0.126861572265625 -0.18292236328125 0.50958251953125 -0.0009644031524658203 -0.000979781150817871 0.10610198974609375 -0.0078277587890625
17.54875 -0.0321502685546875 -0.12384033203125 -0.139862060546875 0.51611328125 -0.0014952421188354492 0.00043708086013793945 0.10881423950195312 -0.01111602783203125
17.5585 -0.0401611328125 -0.11844635009765625 -0.09564208984375 0.52239990234375 -0.0022355318069458008 0.0003756284713745117 0.1121368408203125 -0.01483154296875
17.56825 -0.0453338623046875 -0.1135406494140625 -0.054168701171875 0.522613525390625 -0.0011944770812988281 0.0008642673492431641 0.1120452880859375 -0.0193634033203125
17.578 -0.053314208984375 -0.10855865478515625 -0.01043701171875 0.52044677734375 -0.0010094642639160156 0.000981450080871582 0.11260986328125 -0.0231475830078125
17.58775 -0.0599212646484375 -0.10256195068359375 0.03277587890625 0.51324462890625 -0.0016593337059020996 0.0005733966827392578 0.11431884765625 -0.026126861572265625
17.5975 -0.06319427490234375 -0.09808349609375 0.0755615234375 0.502960205078125 -0.001302957534790039 0.0013567209243774414 0.11364364624023438 -0.03035736083984375
17.60725 -0.06955718994140625 -0.09180450439453125 0.116790771484375 0.48663330078125 -0.0023522377014160156 0.0017775297164916992 0.11234664916992188 -0.034412384033203125
17.617 -0.07489776611328125 -0.08481597900390625 0.152435302734375 0.468414306640625 -0.0010688304901123047 0.0017993450164794922 0.11420822143554688 -0.03832244873046875
17.62675 -0.07956695556640625 -0.07762908935546875 0.185150146484375 0.4468994140625 -0.0008794069290161133 0.002087712287902832 0.11485671997070312 -0.0434417724609375
17.6365 -0.0825042724609375 -0.0706787109375 0.21429443359375 0.42352294921875 -0.0017244815826416016 0.0007522106170654297 0.112762451171875 -0.04862213134765625
17.64625 -0.08599090576171875 -0.06284332275390625 0.239227294921875 0.398681640625 -0.0018347501754760742 0.001146554946899414 0.11066818237304688 -0.051357269287109375
17.656 -0.090118408203125 -0.05669403076171875 0.26251220703125 0.375 -0.0003287196159362793 0.0008558928966522217 0.10799407958984375 -0.057231903076171875
17.66575 -0.0921630859375 -0.0471038818359375 0.283599853515625 0.353515625 0.0006798505783081055 0.0014488697052001953 0.10720443725585938 -0.062469482421875
17.6755 -0.09546661376953125 -0.04019927978515625 0.302886962890625 0.32940673828125 -0.00031766295433044434 0.0008832812309265137 0.10331344604492188 -0.06635284423828125
17.68525 -0.0966339111328125 -0.03192901611328125 0.325592041015625 0.305450439453125 0.0006327033042907715 0.00024694204330444336 0.10129928588867188 -0.07232666015625
17.695 -0.09881591796875 -0.0232696533203125 0.343414306640625 0.279266357421875 -0.0008902251720428467 0.0007804632186889648 0.09758758544921875 -0.07538223266601562
17.70475 -0.09912109375 -0.013851165771484375 0.361602783203125 0.248382568359375 -0.000202864408493042 0.0009009838104248047 0.09470367431640625 -0.07884597778320312
17.7145 -0.10250091552734375 -0.0059967041015625 0.375579833984375 0.2169189453125 -0.0016135573387145996 0.0016060471534729004 0.09062576293945312 -0.0836029052734375
17.72425 -0.10036468505859375 0.001247406005859375 0.385772705078125 0.182586669921875 -0.00033593177795410156 0.0012241601943969727 0.08673095703125 -0.0879364013671875
17.734 -0.101593017578125 0.007720947265625 0.3890380859375 0.14996337890625 -0.0007436871528625488 0.0008032321929931641 0.08307647705078125 -0.09221649169921875
17.74375 -0.1028594970703125 0.0164794921875 0.391143798828125 0.11944580078125 0.0006365776062011719 0.0006895065307617188 0.07732391357421875 -0.0943145751953125
17.7535 -0.10001754760742188 0.02353668212890625 0.389678955078125 0.0926055908203125 0.00021064281463623047 0.002238631248474121 0.07361602783203125 -0.09832763671875
17.76325 -0.09899520874023438 0.0323944091796875 0.3857421875 0.067840576171875 2.4437904357910156e-05 0.001912534236907959 0.06734848022460938 -0.09946823120117188
17.773 -0.09624862670898438 0.039081573486328125 0.38348388671875 0.044830322265625 -0.00044292211532592773 0.0011121034622192383 0.06441879272460938 -0.10150527954101562
17.78275 -0.09595489501953125 0.046478271484375 0.380859375 0.023529052734375 -0.0007094442844390869 0.0008713901042938232 0.058200836181640625 -0.10297775268554688
17.7925 -0.0907440185546875 0.05193328857421875 0.377532958984375 0.0005645751953125 -0.00035077333450317383 0.0015205144882202148 0.05515289306640625 -0.10552215576171875
17.80225 -0.08771514892578125 0.05873870849609375 0.37396240234375 -0.0214385986328125 -0.0005612373352050781 0.0006085336208343506 0.050304412841796875 -0.1063232421875
17.812 -0.08623504638671875 0.0675811767578125 0.3680572509765625 -0.045501708984375 0.0014444589614868164 0.0017728805541992188 0.041534423828125 -0.1086883544921875
17.82175 -0.08048248291015625 0.07489013671875 0.3631134033203125 -0.0691070556640625 -0.0003902614116668701 0.0009328722953796387 0.039287567138671875 -0.10680007934570312
17.8315 -0.07709503173828125 0.0814666748046875 0.3513946533203125 -0.091339111328125 0.0017654895782470703 0.0011723041534423828 0.032196044921875 -0.10723876953125
17.84125 -0.07220458984375 0.08588409423828125 0.3419189453125 -0.110626220703125 -0.0009480118751525879 0.0006859898567199707 0.02570343017578125 -0.10935211181640625
17.851 -0.06700897216796875 0.09549713134765625 0.3297882080078125 -0.12701416015625 0.001088857650756836 0.00010347366333007812 0.021251678466796875 -0.10784530639648438
17.86075 -0.06262969970703125 0.09984970092773438 0.3181304931640625 -0.14373779296875 0.0008529424667358398 0.0013648271560668945 0.0147705078125 -0.10626983642578125
17.8705 -0.05728912353515625 0.10445022583007812 0.30853271484375 -0.1572265625 -0.00022274255752563477 0.001353919506072998 0.00920867919921875 -0.10512542724609375
17.88025 -0.05146026611328125 0.1101837158203125 0.298980712890625 -0.169219970703125 0.000873267650604248 0.000637054443359375 0.004192352294921875 -0.1047515869140625
17.89 -0.046344757080078125 0.11511611938476562 0.2888031005859375 -0.182220458984375 0.0008926987648010254 0.00032442808151245117 -0.00131988525390625 -0.10402297973632812
17.89975 -0.038970947265625 0.11919784545898438 0.2804718017578125 -0.198638916015625 0.0007994174957275391 0.0019801855087280273 -0.006671905517578125 -0.1031494140625
17.9095 -0.035308837890625 0.1239013671875 0.2717742919921875 -0.212493896484375 0.0012440681457519531 0.0011272430419921875 -0.011554718017578125 -0.101318359375
17.91925 -0.02928924560546875 0.12628173828125 0.2615509033203125 -0.2264862060546875 0.00112837553024292 0.0005292296409606934 -0.016643524169921875 -0.0997772216796875
17.929 -0.0225830078125 0.13018798828125 0.251708984375 -0.240814208984375 0.0016677379608154297 0.0005357265472412109 -0.0200653076171875 -0.09798431396484375
17.93875 -0.01554107666015625 0.13426971435546875 0.2383880615234375 -0.2536163330078125 -0.0001315474510192871 0.0005628764629364014 -0.024425506591796875 -0.09463882446289062
17.9485 -0.008544921875 0.13478851318359375 0.225189208984375 -0.2671051025390625 0.000478208065032959 0.0006930828094482422 -0.030452728271484375 -0.09028244018554688
17.95825 -0.00183868408203125 0.1367645263671875 0.2152862548828125 -0.2797393798828125 0.0007024407386779785 0.0008304119110107422 -0.032199859619140625 -0.08674240112304688
17.968 0.00617218017578125 0.13968658447265625 0.204498291015625 -0.2893218994140625 0.0011674165725708008 0.0008027553558349609 -0.037860870361328125 -0.08379745483398438
17.97775 0.0140228271484375 0.14144134521484375 0.1952972412109375 -0.3028411865234375 0.001570582389831543 0.0006406307220458984 -0.041168212890625 -0.07967758178710938
17.9875 0.0207061767578125 0.1424560546875 0.183135986328125 -0.3169403076171875 0.00023984909057617188 -0.0006726086139678955 -0.04668426513671875 -0.07591629028320312
17.99725 0.02936553955078125 0.14228057861328125 0.17230224609375 -0.3349151611328125 0.0009205341339111328 0.0008344650268554688 -0.05019378662109375 -0.07246780395507812
18.007 0.0367431640625 0.14333343505859375 0.1578369140625 -0.352081298828125 0.0002340376377105713 0.00010150671005249023 -0.053256988525390625 -0.06690216064453125
18.01675 0.04412841796875 0.14318084716796875 0.1402130126953125 -0.3698883056640625 0.0015436410903930664 0.0016770362854003906 -0.05825042724609375 -0.0632171630859375
18.0265 0.0517120361328125 0.14239501953125 0.120452880859375 -0.38861083984375 0.0005927085876464844 0.001417398452758789 -0.0620574951171875 -0.05725860595703125
18.03625 0.059906005859375 0.143096923828125 0.098114013671875 -0.40496826171875 0.0010074377059936523 0.0004781484603881836 -0.064300537109375 -0.05309295654296875
18.046 0.0672149658203125 0.142730712890625 0.0735626220703125 -0.419219970703125 5.1528215408325195e-05 -0.00015675276517868042 -0.06727218627929688 -0.0471954345703125
18.05575 0.07407379150390625 0.13935089111328125 0.048126220703125 -0.4340057373046875 0.0011424422264099121 0.0006557106971740723 -0.0696563720703125 -0.041385650634765625
18.0655 0.08135986328125 0.1398773193359375 0.0220947265625 -0.44720458984375 0.0014105439186096191 -0.0009132027626037598 -0.07226181030273438 -0.0382080078125
18.07525 0.088043212890625 0.13619232177734375 -0.007293701171875 -0.459228515625 0.0009371936321258545 -3.30507755279541e-05 -0.075469970703125 -0.030971527099609375
18.085 0.095245361328125 0.13459014892578125 -0.039794921875 -0.4697265625 0.0004812777042388916 9.179115295410156e-06 -0.07572174072265625 -0.025115966796875
18.09475 0.1028289794921875 0.13094329833984375 -0.0753173828125 -0.478546142578125 0.0012225508689880371 4.988908767700195e-05 -0.0754852294921875 -0.020526885986328125
18.1045 0.11103057861328125 0.1268463134765625 -0.11212158203125 -0.4869384765625 0.0002068355679512024 -0.0002241581678390503 -0.07686233520507812 -0.01410675048828125
18.11425 0.11647796630859375 0.12511444091796875 -0.152587890625 -0.490509033203125 -0.00010786950588226318 0.00013227015733718872 -0.07723617553710938 -0.0087738037109375
18.124 0.1232452392578125 0.1196441650390625 -0.1947021484375 -0.4901123046875 -4.64022159576416e-05 -0.0001805722713470459 -0.076202392578125 -0.00118255615234375
18.13375 0.1291046142578125 0.1163177490234375 -0.238189697265625 -0.484771728515625 0.0014597177505493164 0.0001494884490966797 -0.07484054565429688 0.003650665283203125
18.1435 0.133819580078125 0.1109161376953125 -0.2813720703125 -0.4755859375 0.002007603645324707 0.0004712343215942383 -0.07706069946289062 0.013622283935546875
18.15325 0.14093780517578125 0.10512542724609375 -0.327545166015625 -0.4603271484375 1.2099742889404297e-05 -0.001018822193145752 -0.0733184814453125 0.0181121826171875
18.163 0.1486358642578125 0.0995025634765625 -0.370452880859375 -0.441375732421875 0.0008914172649383545 -1.4841556549072266e-05 -0.07199478149414062 0.025203704833984375
18.17275 0.153472900390625 0.095672607421875 -0.413604736328125 -0.418304443359375 0.000210493803024292 -0.0006999671459197998 -0.06948471069335938 0.031681060791015625
18.1825 0.1593780517578125 0.08704376220703125 -0.45452880859375 -0.393402099609375 0.0008937418460845947 6.431341171264648e-05 -0.066314697265625 0.038555145263671875
18.19225 0.1621246337890625 0.08110809326171875 -0.497772216796875 -0.36004638671875 0.00021055340766906738 0.0006235837936401367 -0.0632476806640625 0.04419708251953125
18.202 0.16887664794921875 0.07410430908203125 -0.537322998046875 -0.325042724609375 0.0005221664905548096 0.0003578066825866699 -0.0616302490234375 0.05122184753417969
18.21175 0.171875 0.0694122314453125 -0.57415771484375 -0.28076171875 0.0011174678802490234 -0.0004597902297973633 -0.056560516357421875 0.05756378173828125
18.2215 0.1775665283203125 0.0609283447265625 -0.606109619140625 -0.234954833984375 0.00010912120342254639 -0.0004033297300338745 -0.05084228515625 0.06011009216308594
18.23125 0.18196868896484375 0.0550689697265625 -0.631256103515625 -0.1845703125 0.00041985511779785156 0.0004795491695404053 -0.048061370849609375 0.06560516357421875
18.241 0.18338775634765625 0.0460662841796875 -0.65380859375 -0.13134765625 0.0009027719497680664 0.0005291104316711426 -0.0434112548828125 0.07033157348632812
18.25075 0.18694305419921875 0.03833770751953125 -0.6715087890625 -0.076507568359375 0.0004052668809890747 -7.218122482299805e-05 -0.037342071533203125 0.07364654541015625
18.2605 0.18829345703125 0.03008270263671875 -0.68365478515625 -0.02069091796875 5.7309865951538086e-05 0.00013805925846099854 -0.03101348876953125 0.07807540893554688
18.27025 0.19008636474609375 0.021575927734375 -0.691864013671875 0.036376953125 0.0007146894931793213 -0.000489652156829834 -0.024517059326171875 0.08215713500976562
18.28 0.19152069091796875 0.0137939453125 -0.696807861328125 0.097564697265625 -0.0004112720489501953 -0.00011685490608215332 -0.018238067626953125 0.08503341674804688
18.28975 0.1939849853515625 0.0036163330078125 -0.69512939453125 0.159454345703125 0.0008214116096496582 -0.000191420316696167 -0.0109100341796875 0.08782577514648438
18.2995 0.19260406494140625 -0.0036773681640625 -0.685455322265625 0.221221923828125 0.0001608133316040039 0.0005326569080352783 -0.004009246826171875 0.0887603759765625
18.30925 0.1946563720703125 -0.0130615234375 -0.6702880859375 0.2855224609375 -0.0010592937469482422 -6.389617919921875e-05 0.003509521484375 0.08984375
18.319 0.1923065185546875 -0.02276611328125 -0.646636962890625 0.346923828125 -0.00015279650688171387 -0.0004691481590270996 0.011531829833984375 0.09415435791015625
18.32875 0.19322967529296875 -0.029083251953125 -0.617431640625 0.404632568359375 6.392598152160645e-05 -3.007054328918457e-05 0.01902008056640625 0.09213638305664062
18.3385 0.19046783447265625 -0.03865814208984375 -0.583740234375 0.455841064453125 0.0005798637866973877 0.0004030466079711914 0.0262451171875 0.09438323974609375
18.34825 0.19042205810546875 -0.049072265625 -0.547698974609375 0.505096435546875 0.0008094906806945801 -0.0007162988185882568 0.0351409912109375 0.09527587890625
18.358 0.18755340576171875 -0.05655670166015625 -0.508514404296875 0.550872802734375 0.0006776750087738037 -4.363059997558594e-05 0.0426788330078125 0.09093475341796875
18.36775 0.18590545654296875 -0.0658721923828125 -0.464019775390625 0.598388671875 0.0006734132766723633 0.00015789270401000977 0.05017852783203125 0.091522216796875
18.3775 0.18212127685546875 -0.07164764404296875 -0.41748046875 0.640228271484375 -0.0007311701774597168 -0.0004838705062866211 0.0574951171875 0.08953857421875
18.38725 0.17940521240234375 -0.0804290771484375 -0.362884521484375 0.678009033203125 0.0011036396026611328 -0.0006213784217834473 0.063751220703125 0.0881500244140625
18.397 0.1751251220703125 -0.089080810546875 -0.30377197265625 0.71185302734375 -0.0005583763122558594 -0.00016051530838012695 0.0703887939453125 0.0831298828125
18.40675 0.17041015625 -0.0962066650390625 -0.2421875 0.74066162109375 0.000272214412689209 -0.0009120702743530273 0.078765869140625 0.077056884765625
18.4165 0.16483306884765625 -0.10305023193359375 -0.178863525390625 0.758056640625 0.0006440579891204834 -0.00014609098434448242 0.0845947265625 0.075225830078125
18.42625 0.1594390869140625 -0.1094818115234375 -0.11297607421875 0.76849365234375 -6.377696990966797e-06 0.0002077743411064148 0.090576171875 0.070465087890625
18.436 0.15345001220703125 -0.1165618896484375 -0.052825927734375 0.7769775390625 0.000697404146194458 -0.00012749433517456055 0.0995025634765625 0.06398773193359375
18.44575 0.1471710205078125 -0.122955322265625 0.009185791015625 0.779144287109375 0.00033035874366760254 -2.8654932975769043e-05 0.10100555419921875 0.0563201904296875
18.4555 0.14035797119140625 -0.12993621826171875 0.068389892578125 0.778411865234375 -0.0004145205020904541 0.0001550614833831787 0.1067962646484375 0.05034637451171875
18.46525 0.1343536376953125 -0.13538360595703125 0.12884521484375 0.776763916015625 0.0006470680236816406 -0.0003128349781036377 0.11086273193359375 0.0414581298828125
18.475 0.12624359130859375 -0.14163970947265625 0.192352294921875 0.77276611328125 0.0010167360305786133 0.00017279386520385742 0.11542510986328125 0.03382110595703125
18.48475 0.12059783935546875 -0.147064208984375 0.256591796875 0.76019287109375 1.1742115020751953e-05 -0.00108414888381958 0.11873626708984375 0.0269775390625
18.4945 0.1109619140625 -0.14890289306640625 0.3260498046875 0.73870849609375 0.00031635165214538574 -0.0005207359790802002 0.12236785888671875 0.0166015625
18.50425 0.103790283203125 -0.15484619140625 0.388427734375 0.71044921875 -0.00023740530014038086 -0.00048410892486572266 0.12286376953125 0.01171875
18.514 0.09796142578125 -0.1578216552734375 0.44921875 0.6751708984375 7.343292236328125e-05 -0.0005166530609130859 0.1263427734375 0.002288818359375
18.52375 0.089111328125 -0.15898895263671875 0.50323486328125 0.63275146484375 0.0018941164016723633 -0.0007022619247436523 0.12512969970703125 -0.00677490234375
18.5335 0.08281707763671875 -0.16471099853515625 0.55029296875 0.59027099609375 0.0003363192081451416 -0.00016908347606658936 0.12640380859375 -0.014068603515625
18.54325 0.074005126953125 -0.167724609375 0.59197998046875 0.5467529296875 -0.000811159610748291 -0.0007159709930419922 0.1236419677734375 -0.023838043212890625
18.553 0.0665130615234375 -0.169342041015625 0.6309814453125 0.500244140625 0.0001563429832458496 -0.0010998845100402832 0.12147140502929688 -0.02972412109375
18.56275 0.05881500244140625 -0.16977691650390625 0.67120361328125 0.4537353515625 0.0010011792182922363 -0.0005030632019042969 0.1211700439453125 -0.038227081298828125
18.5725 0.05097198486328125 -0.1704864501953125 0.7080078125 0.4017333984375 0.0004399418830871582 -0.0007892251014709473 0.11556625366210938 -0.04715728759765625
18.58225 0.04288482666015625 -0.1707000732421875 0.7421875 0.34954833984375 0.0001071542501449585 -0.00030478835105895996 0.11281585693359375 -0.052490234375
18.592 0.03354644775390625 -0.1726531982421875 0.773681640625 0.2886962890625 0.0009123682975769043 -0.0003603696823120117 0.10634231567382812 -0.059696197509765625
18.60175 0.02532958984375 -0.170257568359375 0.797607421875 0.2236328125 0.00011217594146728516 -0.0006811022758483887 0.10248565673828125 -0.0652923583984375
18.6115 0.0178070068359375 -0.1700592041015625 0.812164306640625 0.159027099609375 -0.0003409385681152344 -0.0011698603630065918 0.09828567504882812 -0.07376480102539062
18.62125 0.00994110107421875 -0.16907501220703125 0.819976806640625 0.09356689453125 0.0007177591323852539 -4.178285598754883e-05 0.09269332885742188 -0.07883453369140625
18.631 0.00254058837890625 -0.1685333251953125 0.82330322265625 0.03204345703125 2.4437904357910156e-05 -0.0019692182540893555 0.0854644775390625 -0.08303451538085938
18.64075 -0.00537872314453125 -0.16695404052734375 0.8218994140625 -0.026824951171875 -8.205324411392212e-05 0.00020329654216766357 0.07997512817382812 -0.08617401123046875
18.6505 -0.01177978515625 -0.1659088134765625 0.820526123046875 -0.0858154296875 9.399652481079102e-05 -0.0015331506729125977 0.07555389404296875 -0.08958816528320312
