!Created with skrf (http://scikit-rf.org).
# GHz S RI R 50.0 
!freq ReS11 ImS11 ReS21 ImS21 ReS12 ImS12 ReS22 ImS22
17.5 0.01540374755859375 -0.13816070556640625 -2.4962158203125 3.2421875 -0.0007727146148681641 0.0007759332656860352 0.09002304077148438 0.007946014404296875
17.50975 0.00527191162109375 -0.1351470947265625 -2.2249755859375 3.4312744140625 -0.0026818513870239258 0.0010012388229370117 0.09273910522460938 0.00768280029296875
17.5195 -0.001129150390625 -0.13050079345703125 -1.9334716796875 3.5855712890625 -0.001507103443145752 0.0007769465446472168 0.09739303588867188 0.006313323974609375
17.52925 -0.00989532470703125 -0.12866973876953125 -1.63916015625 3.7255859375 -0.0009570717811584473 -0.0005764961242675781 0.09980392456054688 0.00290679931640625
17.539 -0.0162353515625 -0.1235809326171875 -1.33935546875 3.83056640625 -0.0009364485740661621 0.00044912099838256836 0.1021881103515625 0.0009002685546875
17.54875 -0.02313232421875 -0.1197357177734375 -1.037841796875 3.9012451171875 -0.00043016672134399414 0.0006426870822906494 0.10554122924804688 -0.002422332763671875
17.5585 -0.03272247314453125 -0.116973876953125 -0.736328125 3.968505859375 -0.0012007355690002441 0.0009037256240844727 0.10663223266601562 -0.006809234619140625
17.56825 -0.0380706787109375 -0.1127471923828125 -0.44384765625 4.01513671875 -0.0010851621627807617 0.0014604926109313965 0.10982513427734375 -0.00897216796875
17.578 -0.04383087158203125 -0.10581207275390625 -0.12451171875 4.0400390625 -0.0012538433074951172 0.00036644935607910156 0.10970306396484375 -0.015079498291015625
17.58775 -0.0506134033203125 -0.10286712646484375 0.1962890625 4.0400390625 -0.0009369850158691406 0.0011632442474365234 0.11273193359375 -0.01702117919921875
17.5975 -0.05538177490234375 -0.0973968505859375 0.53271484375 4.00927734375 -0.001436769962310791 0.00015300512313842773 0.11461639404296875 -0.02097320556640625
17.60725 -0.06113433837890625 -0.09346771240234375 0.85546875 3.939453125 -0.0017699599266052246 0.0012232065200805664 0.113922119140625 -0.02410125732421875
17.617 -0.0665435791015625 -0.08611297607421875 1.16259765625 3.8349609375 -0.0004703700542449951 0.0006617903709411621 0.11501312255859375 -0.027950286865234375
17.62675 -0.07053375244140625 -0.080474853515625 1.45361328125 3.70556640625 -0.0007951259613037109 0.0016999244689941406 0.11785888671875 -0.0342559814453125
17.6365 -0.073760986328125 -0.0727386474609375 1.7177734375 3.5517578125 1.7762184143066406e-05 0.001314997673034668 0.11737823486328125 -0.038330078125
17.64625 -0.078369140625 -0.0660858154296875 1.952880859375 3.397705078125 -0.0015548467636108398 0.0008976459503173828 0.1149749755859375 -0.043956756591796875
17.656 -0.0822296142578125 -0.05938720703125 2.17822265625 3.239013671875 -0.0007424354553222656 0.0011902451515197754 0.1124725341796875 -0.047641754150390625
17.66575 -0.0848846435546875 -0.0515899658203125 2.39404296875 3.085693359375 -0.0010055899620056152 0.0015430450439453125 0.11103057861328125 -0.05471038818359375
17.6755 -0.08853912353515625 -0.0449371337890625 2.60693359375 2.914306640625 -0.000382840633392334 0.0013213157653808594 0.11034011840820312 -0.059932708740234375
17.68525 -0.09085845947265625 -0.03656005859375 2.82958984375 2.7412109375 -0.00048211216926574707 -9.381771087646484e-05 0.10692977905273438 -0.06264114379882812
17.695 -0.09514617919921875 -0.0298919677734375 3.053955078125 2.53173828125 -0.0002542734146118164 0.002060532569885254 0.106292724609375 -0.06763458251953125
17.70475 -0.09357452392578125 -0.021038055419921875 3.2646484375 2.28564453125 9.828805923461914e-05 0.000906825065612793 0.101318359375 -0.0725860595703125
17.7145 -0.09699249267578125 -0.01325225830078125 3.457275390625 2.008056640625 -0.0005393028259277344 0.0016243457794189453 0.09883880615234375 -0.07714462280273438
17.72425 -0.09806060791015625 -0.005596160888671875 3.606201171875 1.705078125 5.728006362915039e-05 0.0018303394317626953 0.09469223022460938 -0.08136749267578125
17.734 -0.09966278076171875 0.0019683837890625 3.71044921875 1.393798828125 -0.00036919116973876953 0.001577913761138916 0.09270095825195312 -0.088165283203125
17.74375 -0.09954833984375 0.0069580078125 3.76220703125 1.087890625 0.0010330677032470703 0.0012116432189941406 0.08637237548828125 -0.091400146484375
17.7535 -0.09696578979492188 0.015472412109375 3.80078125 0.801513671875 0.0005722641944885254 0.001119852066040039 0.08382034301757812 -0.09637069702148438
17.76325 -0.09764862060546875 0.02386474609375 3.828125 0.536376953125 9.167194366455078e-05 0.0023927688598632812 0.079376220703125 -0.0966644287109375
17.773 -0.09639358520507812 0.0303497314453125 3.8427734375 0.28271484375 0.000646054744720459 0.0009090304374694824 0.07375717163085938 -0.10205841064453125
17.78275 -0.09589004516601562 0.036712646484375 3.853759765625 0.021484375 0.0003203153610229492 0.0017497539520263672 0.069488525390625 -0.10353469848632812
17.7925 -0.0933685302734375 0.0433502197265625 3.8675537109375 -0.2462158203125 -0.00019663572311401367 0.0007064342498779297 0.0629730224609375 -0.10673904418945312
17.80225 -0.0907440185546875 0.05072784423828125 3.8653564453125 -0.5386962890625 7.584691047668457e-05 0.00047019124031066895 0.059185028076171875 -0.10821533203125
17.812 -0.08679962158203125 0.058349609375 3.833251953125 -0.8409423828125 -0.00024050474166870117 0.001557767391204834 0.05315399169921875 -0.10942459106445312
17.82175 -0.08391952514648438 0.0671234130859375 3.7672119140625 -1.14501953125 -0.0004787445068359375 0.0018474459648132324 0.04940032958984375 -0.11004257202148438
17.8315 -0.07984161376953125 0.07259750366210938 3.664306640625 -1.4490966796875 -0.00036591291427612305 0.0010752081871032715 0.0413818359375 -0.11186599731445312
17.84125 -0.0768585205078125 0.07763671875 3.533203125 -1.7333984375 -0.0006791353225708008 0.0007101893424987793 0.03466033935546875 -0.11383056640625
17.851 -0.07106781005859375 0.08629608154296875 3.35888671875 -1.983154296875 0.0010036230087280273 0.001255035400390625 0.029308319091796875 -0.1127471923828125
17.86075 -0.06896591186523438 0.09279632568359375 3.1947021484375 -2.2078857421875 -0.00020742416381835938 0.0020290613174438477 0.023509979248046875 -0.11169052124023438
17.8705 -0.06291961669921875 0.09906005859375 3.021240234375 -2.418212890625 0.0003573298454284668 0.0014240741729736328 0.0180206298828125 -0.11259841918945312
17.88025 -0.059253692626953125 0.10510635375976562 2.850341796875 -2.6209716796875 6.836652755737305e-05 0.00013565272092819214 0.01277923583984375 -0.11382675170898438
17.89 -0.054714202880859375 0.11099624633789062 2.6781005859375 -2.822998046875 0.0008201003074645996 0.0006229281425476074 0.005107879638671875 -0.1110687255859375
17.89975 -0.048641204833984375 0.11483001708984375 2.4771728515625 -3.02880859375 -0.0003933906555175781 0.0024851560592651367 -0.001384735107421875 -0.11176300048828125
17.9095 -0.043548583984375 0.1194915771484375 2.26025390625 -3.2322998046875 0.0006063282489776611 -0.0006686151027679443 -0.006237030029296875 -0.1075897216796875
17.91925 -0.03751373291015625 0.12343215942382812 2.0140380859375 -3.4127197265625 -0.0008624792098999023 0.002036571502685547 -0.011993408203125 -0.10916900634765625
17.929 -0.0315093994140625 0.1275787353515625 1.746337890625 -3.576416015625 0.00033032894134521484 0.00041282176971435547 -0.01731109619140625 -0.105743408203125
17.93875 -0.02606201171875 0.133148193359375 1.4583740234375 -3.7054443359375 0.0008979439735412598 0.0010374784469604492 -0.0214080810546875 -0.10430908203125
17.9485 -0.0177459716796875 0.134368896484375 1.1656494140625 -3.7911376953125 0.0011079907417297363 0.0004757046699523926 -0.0281982421875 -0.1012115478515625
17.95825 -0.01032257080078125 0.138214111328125 0.8795166015625 -3.8570556640625 0.0005379617214202881 -0.0002480447292327881 -0.03211212158203125 -0.09649658203125
17.968 -0.00417327880859375 0.14068603515625 0.60205078125 -3.9063720703125 0.0009719133377075195 0.0015184879302978516 -0.0381317138671875 -0.0944671630859375
17.97775 0.0047454833984375 0.142242431640625 0.33056640625 -3.93701171875 0.0001894235610961914 0.0004385709762573242 -0.044036865234375 -0.08852386474609375
17.9875 0.012725830078125 0.1448211669921875 0.047119140625 -3.968994140625 0.0006993710994720459 -0.00021725893020629883 -0.04608917236328125 -0.08754730224609375
17.99725 0.02034759521484375 0.14517974853515625 -0.23974609375 -3.99267578125 0.0005272626876831055 0.0005651712417602539 -0.05194091796875 -0.081939697265625
18.007 0.02790069580078125 0.1478271484375 -0.5400390625 -3.997314453125 0.0022628307342529297 0.0007888078689575195 -0.05594635009765625 -0.0760650634765625
18.01675 0.03588104248046875 0.14820098876953125 -0.8505859375 -3.96875 0.00013425946235656738 0.00048613548278808594 -0.0604248046875 -0.0728607177734375
18.0265 0.044189453125 0.14852142333984375 -1.17431640625 -3.916259765625 1.500546932220459e-05 0.0002738386392593384 -0.06561279296875 -0.067962646484375
18.03625 0.052703857421875 0.1505126953125 -1.49072265625 -3.8154296875 0.00036066770553588867 0.00022685527801513672 -0.068939208984375 -0.06292724609375
18.046 0.06093597412109375 0.1491851806640625 -1.7958984375 -3.688232421875 0.0001593083143234253 -0.00016608834266662598 -0.071929931640625 -0.056671142578125
18.05575 0.06957244873046875 0.14618682861328125 -2.06982421875 -3.535400390625 0.001560807228088379 0.0005736351013183594 -0.07666778564453125 -0.05039215087890625
18.0655 0.0768280029296875 0.146636962890625 -2.323974609375 -3.367431640625 0.0009710788726806641 0.0003558993339538574 -0.07981109619140625 -0.0449981689453125
18.07525 0.08428192138671875 0.14531707763671875 -2.56689453125 -3.1845703125 0.0013335943222045898 -0.00019073486328125 -0.08063507080078125 -0.03830718994140625
18.085 0.0937042236328125 0.1431121826171875 -2.80615234375 -2.998779296875 0.0005849599838256836 -0.0001881420612335205 -0.08448028564453125 -0.031772613525390625
18.09475 0.09928131103515625 0.1392974853515625 -3.0341796875 -2.792724609375 0.001186370849609375 0.0003109574317932129 -0.08298873901367188 -0.026515960693359375
18.1045 0.1089324951171875 0.13561248779296875 -3.252685546875 -2.568603515625 0.0006916224956512451 -0.0002657771110534668 -0.0855712890625 -0.018642425537109375
18.11425 0.115570068359375 0.1346282958984375 -3.462646484375 -2.315673828125 0.000462949275970459 -5.066394805908203e-07 -0.08586502075195312 -0.012439727783203125
18.124 0.12237548828125 0.129669189453125 -3.64892578125 -2.04638671875 0.001013636589050293 -0.00022995471954345703 -0.08644866943359375 -0.00428009033203125
18.13375 0.1304168701171875 0.125732421875 -3.812255859375 -1.761474609375 0.0011518001556396484 0.0010193586349487305 -0.08551788330078125 0.003398895263671875
18.1435 0.137847900390625 0.1197357177734375 -3.944580078125 -1.458740234375 4.629790782928467e-05 -0.00039152801036834717 -0.08621597290039062 0.010181427001953125
18.15325 0.1433868408203125 0.1130523681640625 -4.053955078125 -1.142822265625 0.0009325146675109863 -0.00017368793487548828 -0.08579254150390625 0.017612457275390625
18.163 0.15167236328125 0.1080780029296875 -4.135498046875 -0.83056640625 0.0006531476974487305 -0.0012207627296447754 -0.081787109375 0.024738311767578125
18.17275 0.1573333740234375 0.101104736328125 -4.193115234375 -0.509765625 0.0010169148445129395 -0.0007327795028686523 -0.078033447265625 0.031841278076171875
18.1825 0.1639251708984375 0.095977783203125 -4.239990234375 -0.185791015625 -0.0010977387428283691 -3.874301910400391e-06 -0.07770156860351562 0.0403594970703125
18.19225 0.168212890625 0.08746337890625 -4.260986328125 0.151123046875 -9.635090827941895e-05 -0.0005780160427093506 -0.07413482666015625 0.047466278076171875
18.202 0.175384521484375 0.082366943359375 -4.25244140625 0.482666015625 0.00037807226181030273 -0.0009307861328125 -0.07215499877929688 0.05333709716796875
18.21175 0.1792755126953125 0.0741119384765625 -4.2080078125 0.83349609375 -0.0004715919494628906 -0.0011668205261230469 -0.0653533935546875 0.06009674072265625
18.2215 0.18524932861328125 0.06626129150390625 -4.126220703125 1.17431640625 0.001359105110168457 -0.00012046098709106445 -0.06267166137695312 0.06591415405273438
18.23125 0.18872833251953125 0.05704498291015625 -4.02001953125 1.49365234375 0.0005267560482025146 -0.00044396519660949707 -0.058155059814453125 0.06992721557617188
18.241 0.19127655029296875 0.04959869384765625 -3.8836669921875 1.801025390625 0.00047266483306884766 -0.001566171646118164 -0.050907135009765625 0.07787322998046875
18.25075 0.194610595703125 0.04041290283203125 -3.73046875 2.0911865234375 0.00036978721618652344 0.0004372894763946533 -0.045135498046875 0.08202362060546875
18.2605 0.19647979736328125 0.03231048583984375 -3.5565185546875 2.36669921875 0.00014027953147888184 -0.0005305111408233643 -0.03890228271484375 0.08624649047851562
18.27025 0.19751739501953125 0.02289581298828125 -3.3726806640625 2.634521484375 0.00015920400619506836 -0.001189589500427246 -0.03224945068359375 0.09032440185546875
18.28 0.2002716064453125 0.0128326416015625 -3.171875 2.909423828125 0.0010585784912109375 -0.0005602836608886719 -0.02471160888671875 0.09258651733398438
18.28975 0.20262908935546875 0.00270843505859375 -2.94482421875 3.1578369140625 0.0006880760192871094 -0.001238405704498291 -0.0163421630859375 0.09814071655273438
18.2995 0.2017669677734375 -0.0049896240234375 -2.685302734375 3.3980712890625 0.0007480382919311523 -0.0004680156707763672 -0.00891876220703125 0.09902191162109375
18.30925 0.201080322265625 -0.0151824951171875 -2.391845703125 3.608154296875 -0.00026148557662963867 -0.0005799531936645508 -4.57763671875e-05 0.1017303466796875
18.319 0.20037078857421875 -0.0258026123046875 -2.084228515625 3.7867431640625 0.0005195140838623047 0.00020188093185424805 0.006534576416015625 0.10436630249023438
18.32875 0.19854736328125 -0.03162384033203125 -1.766357421875 3.92236328125 0.00027555227279663086 -0.0011320114135742188 0.01610565185546875 0.10455703735351562
18.3385 0.19815826416015625 -0.04399871826171875 -1.450439453125 4.02734375 0.00035077333450317383 -0.0005865693092346191 0.02701568603515625 0.1053009033203125
18.34825 0.1960906982421875 -0.05316162109375 -1.1416015625 4.11962890625 -0.00039643049240112305 -0.0010055899620056152 0.0350494384765625 0.10443115234375
18.358 0.1920928955078125 -0.0612030029296875 -0.833251953125 4.18603515625 -0.00011336803436279297 -0.0011974573135375977 0.0428619384765625 0.1029510498046875
18.36775 0.190216064453125 -0.0713043212890625 -0.5078125 4.243896484375 -0.0006221532821655273 -0.0015943050384521484 0.05115509033203125 0.10245513916015625
18.3775 0.1871795654296875 -0.07750701904296875 -0.18603515625 4.285888671875 0.0005027949810028076 0.0002810955047607422 0.0592041015625 0.10070037841796875
18.38725 0.18180084228515625 -0.08722686767578125 0.167236328125 4.294677734375 0.0008363127708435059 -0.0010568499565124512 0.06659698486328125 0.09700775146484375
18.397 0.1790618896484375 -0.095184326171875 0.51806640625 4.26904296875 0.00018537044525146484 1.9282102584838867e-05 0.07476806640625 0.0937652587890625
18.40675 0.1734466552734375 -0.1031951904296875 0.8818359375 4.2099609375 5.5789947509765625e-05 0.000680387020111084 0.082427978515625 0.0889739990234375
18.4165 0.1674957275390625 -0.11083221435546875 1.21044921875 4.1044921875 0.0002536177635192871 -0.0006492435932159424 0.088592529296875 0.0838775634765625
18.42625 0.1617279052734375 -0.1171875 1.521484375 3.962890625 -0.0006101429462432861 -0.00016891956329345703 0.09755706787109375 0.079559326171875
18.436 0.15331268310546875 -0.12393951416015625 1.800537109375 3.807861328125 8.213520050048828e-05 -0.0005204081535339355 0.10553741455078125 0.07180023193359375
18.44575 0.14630889892578125 -0.13094329833984375 2.06494140625 3.64111328125 0.00026713311672210693 -0.000405922532081604 0.11035919189453125 0.0646209716796875
18.4555 0.13909912109375 -0.135040283203125 2.314697265625 3.471435546875 0.000495612621307373 -8.612871170043945e-05 0.11463165283203125 0.058502197265625
18.46525 0.1322174072265625 -0.142578125 2.568603515625 3.303466796875 0.0010914802551269531 -0.00010907649993896484 0.11968231201171875 0.04692840576171875
18.475 0.12432861328125 -0.1470489501953125 2.8154296875 3.11279296875 4.121661186218262e-05 -0.0005620419979095459 0.12537384033203125 0.03887939453125
18.48475 0.11894989013671875 -0.15288543701171875 3.061767578125 2.885986328125 -0.0002685040235519409 0.00026163458824157715 0.13074493408203125 0.031951904296875
18.4945 0.10858154296875 -0.1553192138671875 3.287353515625 2.623291015625 0.00036334991455078125 0.00030872225761413574 0.1326141357421875 0.02214813232421875
18.50425 0.0998382568359375 -0.1604156494140625 3.48974609375 2.3349609375 2.276897430419922e-05 -0.0010803937911987305 0.1334686279296875 0.013214111328125
18.514 0.093994140625 -0.1640167236328125 3.6484375 2.02734375 0.0005697011947631836 -0.0003186464309692383 0.1349945068359375 0.004241943359375
18.52375 0.08251190185546875 -0.1648101806640625 3.75830078125 1.710693359375 0.0008439123630523682 -8.440017700195312e-05 0.13498687744140625 -0.0058746337890625
18.5335 0.07648468017578125 -0.168670654296875 3.843505859375 1.408935546875 0.0001700371503829956 -0.00019055604934692383 0.13657379150390625 -0.01514434814453125
18.54325 0.06900787353515625 -0.169036865234375 3.8974609375 1.12060546875 -0.0004566311836242676 -0.0006462931632995605 0.135498046875 -0.023406982421875
18.553 0.06060028076171875 -0.1718292236328125 3.94140625 0.838623046875 0.0003745555877685547 -0.0011473894119262695 0.13346099853515625 -0.0316619873046875
18.56275 0.052459716796875 -0.1714324951171875 3.98291015625 0.56005859375 8.206069469451904e-05 0.0002982616424560547 0.1310272216796875 -0.040191650390625
18.5725 0.0443572998046875 -0.1707763671875 4.01171875 0.269775390625 0.00044277310371398926 -0.00048120319843292236 0.12591552734375 -0.0482025146484375
18.58225 0.03752899169921875 -0.17150115966796875 4.0224609375 -0.0322265625 0.0005958974361419678 -0.0005998313426971436 0.12263107299804688 -0.057621002197265625
18.592 0.02789306640625 -0.1729583740234375 4.00830078125 -0.34716796875 0.0014860033988952637 -0.00015431642532348633 0.11807632446289062 -0.06522750854492188
18.60175 0.0198974609375 -0.170745849609375 3.95947265625 -0.66162109375 0.0002512931823730469 -0.0010025501251220703 0.1118316650390625 -0.07088470458984375
18.6115 0.01218414306640625 -0.16724395751953125 3.869140625 -0.9615478515625 0.0005050897598266602 -0.002044200897216797 0.10665130615234375 -0.07903671264648438
18.62125 0.00412750244140625 -0.1681365966796875 3.75244140625 -1.2410888671875 0.0005036592483520508 -0.0012428760528564453 0.0996856689453125 -0.0855560302734375
18.631 -0.00344085693359375 -0.16692352294921875 3.623779296875 -1.486083984375 0.0011210441589355469 -0.0005267858505249023 0.09331130981445312 -0.09054183959960938
18.64075 -0.0113677978515625 -0.16486358642578125 3.4793701171875 -1.720458984375 0.0008013248443603516 -0.0008956491947174072 0.08777999877929688 -0.09421157836914062
18.6505 -0.01627349853515625 -0.1634063720703125 3.34619140625 -1.941162109375 -0.0006008744239807129 0.0006600916385650635 0.0810089111328125 -0.09929275512695312
18.66025 -0.02570343017578125 -0.15911102294921875 3.2027587890625 -2.1544189453125 0.0006570219993591309 -0.0007451176643371582 0.07361984252929688 -0.10050582885742188
18.67 -0.03112030029296875 -0.156219482421875 3.0506591796875 -2.3721923828125 0.0005575120449066162 3.7163496017456055e-05 0.06842803955078125 -0.10303878784179688
18.67975 -0.0387420654296875 -0.15421295166015625 2.8863525390625 -2.589599609375 -0.00017895549535751343 0.0001997053623199463 0.05896759033203125 -0.10561752319335938
18.6895 -0.04581451416015625 -0.1495208740234375 2.690673828125 -2.80126953125 0.0007617175579071045 -0.0009151101112365723 0.05213165283203125 -0.10548782348632812
