!Created with skrf (http://scikit-rf.org).
# GHz S RI R 50.0 
!freq ReS11 ImS11 ReS21 ImS21 ReS12 ImS12 ReS22 ImS22
17.5 0.0123748779296875 -0.14138031005859375 -1.47216796875 1.76458740234375 -0.00160294771194458 0.000598907470703125 0.09351348876953125 0.004650115966796875
17.50975 0.002471923828125 -0.13843536376953125 -1.321044921875 1.876708984375 -0.0018692612648010254 0.0013686418533325195 0.0957183837890625 0.002777099609375
17.5195 -0.004486083984375 -0.13362884521484375 -1.1590576171875 1.967041015625 -0.0009927153587341309 0.00045609474182128906 0.10056304931640625 0.003353118896484375
17.52925 -0.01313018798828125 -0.1307525634765625 -0.994873046875 2.0494384765625 -0.0008092820644378662 -7.656216621398926e-05 0.10276031494140625 -0.001972198486328125
17.539 -0.019256591796875 -0.1251373291015625 -0.830322265625 2.113525390625 -0.0019080638885498047 0.0012857913970947266 0.10259246826171875 -0.00431060791015625
17.54875 -0.02826690673828125 -0.1214752197265625 -0.6614990234375 2.16015625 -0.0030832290649414062 0.00043845176696777344 0.10607147216796875 -0.006984710693359375
17.5585 -0.036895751953125 -0.11757659912109375 -0.493896484375 2.200439453125 -0.002322554588317871 0.0002009868621826172 0.10885238647460938 -0.010875701904296875
17.56825 -0.0416107177734375 -0.1131134033203125 -0.32861328125 2.2293701171875 -0.0017132759094238281 0.0004686117172241211 0.1107635498046875 -0.0145416259765625
17.578 -0.04821014404296875 -0.107818603515625 -0.151123046875 2.2481689453125 -0.0015063285827636719 0.0011272430419921875 0.11293411254882812 -0.01869964599609375
17.58775 -0.0548248291015625 -0.10332489013671875 0.0303955078125 2.251708984375 -0.0008186995983123779 -2.7418136596679688e-06 0.11320877075195312 -0.021427154541015625
17.5975 -0.0586395263671875 -0.0974578857421875 0.21630859375 2.2371826171875 -0.0025407075881958008 6.783008575439453e-05 0.11350631713867188 -0.02674102783203125
17.60725 -0.0652618408203125 -0.0925750732421875 0.3958740234375 2.2010498046875 -0.0013039112091064453 0.0014612078666687012 0.11233901977539062 -0.02872467041015625
17.617 -0.07103729248046875 -0.0844879150390625 0.5682373046875 2.1478271484375 -0.0010046958923339844 0.0014347434043884277 0.11537551879882812 -0.033740997314453125
17.62675 -0.0749053955078125 -0.07904815673828125 0.72705078125 2.0802001953125 -0.0010892152786254883 0.000614166259765625 0.11475753784179688 -0.03856658935546875
17.6365 -0.0789031982421875 -0.071014404296875 0.877197265625 2.001953125 -0.0013434886932373047 -0.0003243684768676758 0.1134185791015625 -0.04422760009765625
17.64625 -0.08281707763671875 -0.06295013427734375 1.0068359375 1.9176025390625 -0.0012106895446777344 0.0013059377670288086 0.11126708984375 -0.048557281494140625
17.656 -0.08642578125 -0.05816650390625 1.133056640625 1.83447265625 -0.000771939754486084 0.0017601847648620605 0.10835647583007812 -0.05283355712890625
17.66575 -0.08838653564453125 -0.04784393310546875 1.2557373046875 1.756103515625 -0.0007311701774597168 0.001408696174621582 0.108062744140625 -0.0579833984375
17.6755 -0.0916290283203125 -0.04242706298828125 1.3765869140625 1.6651611328125 0.00012299418449401855 0.0008031129837036133 0.10692596435546875 -0.06375503540039062
17.68525 -0.093963623046875 -0.03374481201171875 1.5015869140625 1.57275390625 -0.00040534138679504395 0.0008956193923950195 0.10406494140625 -0.06653594970703125
17.695 -0.09743499755859375 -0.02533721923828125 1.6280517578125 1.4617919921875 0.0005023479461669922 0.0020908117294311523 0.10332489013671875 -0.0706329345703125
17.70475 -0.09727859497070312 -0.0184478759765625 1.7452392578125 1.327880859375 -0.0006683468818664551 0.0012385249137878418 0.09807968139648438 -0.07608413696289062
17.7145 -0.09856796264648438 -0.01038360595703125 1.8548583984375 1.177734375 -6.172060966491699e-05 0.00073203444480896 0.09534835815429688 -0.07930374145507812
17.72425 -0.0990142822265625 -0.0023345947265625 1.9405517578125 1.01611328125 -0.00035250186920166016 0.0020955801010131836 0.09112167358398438 -0.08426284790039062
17.734 -0.09981536865234375 0.004154205322265625 2.0 0.8497314453125 -9.447336196899414e-05 0.0008227527141571045 0.086395263671875 -0.08945083618164062
17.74375 -0.101531982421875 0.01318359375 2.031982421875 0.685302734375 -0.0005294680595397949 -0.00026535987854003906 0.0823974609375 -0.09316253662109375
17.7535 -0.097412109375 0.019878387451171875 2.0599365234375 0.532958984375 -0.00011491775512695312 0.00098341703414917 0.07756805419921875 -0.09615707397460938
17.76325 -0.09775924682617188 0.028820037841796875 2.0771484375 0.3892822265625 0.0005657672882080078 0.0013821125030517578 0.07047653198242188 -0.10028839111328125
17.773 -0.09622955322265625 0.034053802490234375 2.0914306640625 0.2529296875 -0.00015172362327575684 0.0007443726062774658 0.06854629516601562 -0.10126113891601562
17.78275 -0.09454345703125 0.0416107177734375 2.102294921875 0.1103515625 -0.0006254911422729492 0.001290738582611084 0.06384658813476562 -0.10252761840820312
17.7925 -0.09154129028320312 0.047260284423828125 2.1158447265625 -0.0357666015625 -0.0006726980209350586 0.0010251402854919434 0.058597564697265625 -0.1050262451171875
17.80225 -0.09012222290039062 0.053089141845703125 2.1199951171875 -0.1912841796875 -0.0005929470062255859 0.0014976859092712402 0.05405426025390625 -0.10648345947265625
17.812 -0.08603286743164062 0.06293106079101562 2.1082763671875 -0.354248046875 -0.0006526708602905273 0.0016890168190002441 0.048130035400390625 -0.10766220092773438
17.82175 -0.08195114135742188 0.07007598876953125 2.0794677734375 -0.517333984375 -0.00013487786054611206 0.00015524029731750488 0.0438690185546875 -0.11001968383789062
17.8315 -0.07882308959960938 0.07751083374023438 2.03076171875 -0.6806640625 0.0011887550354003906 0.0014023780822753906 0.036029815673828125 -0.11052703857421875
17.84125 -0.073577880859375 0.08292388916015625 1.965576171875 -0.833740234375 -0.0004718303680419922 0.0014435052871704102 0.03026580810546875 -0.11037445068359375
17.851 -0.06895065307617188 0.09046554565429688 1.8822021484375 -0.970703125 0.0009347200393676758 0.001253962516784668 0.026142120361328125 -0.11092376708984375
17.86075 -0.0664215087890625 0.09509658813476562 1.80255126953125 -1.09619140625 5.6684017181396484e-05 0.0009855031967163086 0.018341064453125 -0.10867691040039062
17.8705 -0.059856414794921875 0.10226821899414062 1.71783447265625 -1.21246337890625 -0.0006458759307861328 0.0010394454002380371 0.013439178466796875 -0.10990524291992188
17.88025 -0.055080413818359375 0.10770416259765625 1.62847900390625 -1.32537841796875 -0.00020819902420043945 0.0014089345932006836 0.00762939453125 -0.11022567749023438
17.89 -0.050273895263671875 0.11161041259765625 1.5462646484375 -1.4378662109375 0.0014181137084960938 0.0017910003662109375 0.00244903564453125 -0.10747528076171875
17.89975 -0.044841766357421875 0.11803436279296875 1.4417724609375 -1.55255126953125 0.001009821891784668 0.0004075169563293457 -0.00351715087890625 -0.10739517211914062
17.9095 -0.040531158447265625 0.12189865112304688 1.3343505859375 -1.6666259765625 0.0014394521713256836 0.001317739486694336 -0.009937286376953125 -0.10532379150390625
17.91925 -0.033023834228515625 0.12407684326171875 1.20867919921875 -1.769287109375 0.0004513263702392578 0.0015137195587158203 -0.013111114501953125 -0.10323333740234375
17.929 -0.025543212890625 0.1287994384765625 1.075927734375 -1.864990234375 0.00021445751190185547 0.00046694278717041016 -0.01995086669921875 -0.10327911376953125
17.93875 -0.0196990966796875 0.13175201416015625 0.92974853515625 -1.94183349609375 0.0017026662826538086 0.0012841224670410156 -0.025882720947265625 -0.09955215454101562
17.9485 -0.013214111328125 0.134735107421875 0.78350830078125 -1.99969482421875 0.0008369684219360352 0.0009017586708068848 -0.02872467041015625 -0.09575653076171875
17.95825 -0.00679779052734375 0.13763427734375 0.6343994140625 -2.048828125 0.0008071660995483398 0.001166224479675293 -0.032073974609375 -0.09245681762695312
17.968 0.00090789794921875 0.140472412109375 0.4927978515625 -2.085693359375 0.00038373470306396484 0.0007338523864746094 -0.03844451904296875 -0.08837127685546875
17.97775 0.00846099853515625 0.14049530029296875 0.3515625 -2.114501953125 0.0019832849502563477 0.0006470680236816406 -0.0435028076171875 -0.08470916748046875
17.9875 0.016998291015625 0.1432342529296875 0.2042236328125 -2.1468505859375 0.0014861226081848145 -0.00032973289489746094 -0.04584503173828125 -0.08109283447265625
17.99725 0.0241241455078125 0.14408111572265625 0.053466796875 -2.1717529296875 0.0008231401443481445 0.0003522634506225586 -0.05068206787109375 -0.07753753662109375
18.007 0.0312042236328125 0.1440887451171875 -0.1077880859375 -2.1903076171875 0.0005632638931274414 0.0009594559669494629 -0.0550537109375 -0.07245635986328125
18.01675 0.03878021240234375 0.1446685791015625 -0.272705078125 -2.1904296875 0.0005942285060882568 0.0002512037754058838 -0.05863189697265625 -0.06867218017578125
18.0265 0.0474853515625 0.145294189453125 -0.44384765625 -2.17919921875 -9.5367431640625e-06 0.0005044937133789062 -0.064117431640625 -0.0625
18.03625 0.055206298828125 0.146820068359375 -0.6162109375 -2.14697265625 0.0010164976119995117 0.0006638765335083008 -0.066131591796875 -0.05682373046875
18.046 0.06209564208984375 0.14533233642578125 -0.783447265625 -2.095703125 0.0005879998207092285 -0.0006894171237945557 -0.06830978393554688 -0.052410125732421875
18.05575 0.07199859619140625 0.14249420166015625 -0.9375 -2.033447265625 0.0009638667106628418 0.0009254813194274902 -0.07273483276367188 -0.046428680419921875
18.0655 0.07913970947265625 0.1422576904296875 -1.0814208984375 -1.9610595703125 0.00027298927307128906 0.0007787346839904785 -0.07603073120117188 -0.040042877197265625
18.07525 0.08666229248046875 0.1400604248046875 -1.22607421875 -1.8848876953125 7.648393511772156e-05 -7.276982069015503e-05 -0.07625961303710938 -0.03484344482421875
18.085 0.0946502685546875 0.1385345458984375 -1.36572265625 -1.798583984375 0.0008324384689331055 0.0001195371150970459 -0.081329345703125 -0.030338287353515625
18.09475 0.09995269775390625 0.13501739501953125 -1.5037841796875 -1.7052001953125 -0.0004580169916152954 0.0003285408020019531 -0.07842636108398438 -0.0237274169921875
18.1045 0.1087188720703125 0.13105010986328125 -1.6390380859375 -1.6038818359375 0.000986337661743164 -0.0012288093566894531 -0.08028030395507812 -0.015384674072265625
18.11425 0.11644744873046875 0.12961578369140625 -1.7686767578125 -1.480224609375 0.0004534721374511719 0.0007710456848144531 -0.0799713134765625 -0.011081695556640625
18.124 0.122039794921875 0.12542724609375 -1.89208984375 -1.348388671875 -0.0004100203514099121 -0.00029474496841430664 -0.07988739013671875 -0.002655029296875
18.13375 0.128631591796875 0.1213531494140625 -2.0015869140625 -1.2042236328125 0.0005342662334442139 0.0002568364143371582 -0.08015060424804688 0.003681182861328125
18.1435 0.135772705078125 0.11541748046875 -2.09423828125 -1.0504150390625 0.0003566145896911621 -0.001119852066040039 -0.080322265625 0.01145172119140625
18.15325 0.14300537109375 0.1092529296875 -2.17919921875 -0.885009765625 0.0005954504013061523 -0.0002919137477874756 -0.08033370971679688 0.017940521240234375
18.163 0.1490020751953125 0.1035614013671875 -2.24755859375 -0.7177734375 0.00017121434211730957 -0.0006663203239440918 -0.07651901245117188 0.024566650390625
18.17275 0.154815673828125 0.09783935546875 -2.3065185546875 -0.5487060546875 0.0005408823490142822 -0.0002866089344024658 -0.07469940185546875 0.0319976806640625
18.1825 0.1617889404296875 0.09149169921875 -2.357421875 -0.3731689453125 0.0006246566772460938 -0.0013164877891540527 -0.07166671752929688 0.03948211669921875
18.19225 0.1660614013671875 0.0840301513671875 -2.3988037109375 -0.1868896484375 0.00031407177448272705 -9.535253047943115e-05 -0.06951141357421875 0.045818328857421875
18.202 0.1711578369140625 0.079193115234375 -2.4185791015625 -0.000244140625 0.0006982684135437012 0.000774681568145752 -0.06752777099609375 0.05207061767578125
18.21175 0.1761932373046875 0.071197509765625 -2.423583984375 0.198974609375 0.0013347864151000977 -0.0004335641860961914 -0.06036376953125 0.058544158935546875
18.2215 0.1805877685546875 0.06246185302734375 -2.406494140625 0.39501953125 0.0006492137908935547 -0.0010347366333007812 -0.05670166015625 0.0633544921875
18.23125 0.18553924560546875 0.05654144287109375 -2.3726806640625 0.5863037109375 0.0007556676864624023 -0.0013312101364135742 -0.052581787109375 0.06711196899414062
18.241 0.18880462646484375 0.04814910888671875 -2.3189697265625 0.77099609375 0.001910567283630371 7.045269012451172e-05 -0.04781341552734375 0.07333755493164062
18.25075 0.18976593017578125 0.03885650634765625 -2.255615234375 0.94921875 0.0012677907943725586 -0.00013196468353271484 -0.042949676513671875 0.077301025390625
18.2605 0.19332122802734375 0.032196044921875 -2.1802978515625 1.1207275390625 0.00109785795211792 -0.0002594590187072754 -0.036365509033203125 0.0810089111328125
18.27025 0.1939697265625 0.0222930908203125 -2.0960693359375 1.288330078125 0.0005900561809539795 -0.0006614029407501221 -0.02960968017578125 0.08657455444335938
18.28 0.19680023193359375 0.0139923095703125 -1.9993896484375 1.4581298828125 0.0007007122039794922 -0.00026410818099975586 -0.022174835205078125 0.089385986328125
18.28975 0.198150634765625 0.0037689208984375 -1.88720703125 1.62200927734375 -7.43865966796875e-05 -0.0009909868240356445 -0.014484405517578125 0.09136962890625
18.2995 0.1984100341796875 -0.003204345703125 -1.75628662109375 1.77813720703125 -9.417533874511719e-05 -0.0010519623756408691 -0.005870819091796875 0.09360885620117188
18.30925 0.197265625 -0.0147552490234375 -1.6060791015625 1.9222412109375 0.0011162757873535156 -0.0007600784301757812 0.00185394287109375 0.09503173828125
18.319 0.19785308837890625 -0.02414703369140625 -1.4434814453125 2.0462646484375 0.0014013051986694336 -9.125471115112305e-05 0.007266998291015625 0.0979156494140625
18.32875 0.19670867919921875 -0.030792236328125 -1.27099609375 2.149169921875 -0.0007774233818054199 -0.000857234001159668 0.018268585205078125 0.0997314453125
18.3385 0.1943206787109375 -0.04082489013671875 -1.09375 2.23681640625 -0.0004004240036010742 -0.000711977481842041 0.02679443359375 0.1002044677734375
18.34825 0.19448089599609375 -0.05042266845703125 -0.920654296875 2.31494140625 -0.00034293532371520996 -0.0005310177803039551 0.03437042236328125 0.100982666015625
18.358 0.18932342529296875 -0.05907440185546875 -0.7462158203125 2.38232421875 0.0004360079765319824 -0.0014845728874206543 0.04367828369140625 0.098114013671875
18.36775 0.18768310546875 -0.06751251220703125 -0.556396484375 2.439208984375 0.000371396541595459 -0.0006992518901824951 0.050384521484375 0.09622955322265625
18.3775 0.1857757568359375 -0.07381439208984375 -0.369873046875 2.4859619140625 -0.00026288628578186035 0.00011396408081054688 0.05789947509765625 0.09394073486328125
18.38725 0.180999755859375 -0.08490753173828125 -0.1678466796875 2.516357421875 0.000258028507232666 -0.0006878376007080078 0.065338134765625 0.09234619140625
18.397 0.1766204833984375 -0.091949462890625 0.04296875 2.5263671875 -0.0011446475982666016 -0.0008062124252319336 0.0721282958984375 0.088958740234375
18.40675 0.171417236328125 -0.0987396240234375 0.256591796875 2.515380859375 0.0008641481399536133 -0.00044792890548706055 0.08087158203125 0.083709716796875
18.4165 0.1656341552734375 -0.10619354248046875 0.4588623046875 2.4736328125 -0.0011295080184936523 4.1425228118896484e-05 0.0865478515625 0.07981109619140625
18.42625 0.161285400390625 -0.1140594482421875 0.6517333984375 2.4163818359375 0.0014744400978088379 -4.673004150390625e-05 0.0931854248046875 0.07396697998046875
18.436 0.15329742431640625 -0.118743896484375 0.8280029296875 2.3450927734375 0.00019341707229614258 0.00040733814239501953 0.10118865966796875 0.06690216064453125
18.44575 0.14705657958984375 -0.1265869140625 0.995849609375 2.266357421875 0.0005991756916046143 0.00033929944038391113 0.10691070556640625 0.0608673095703125
18.4555 0.1400146484375 -0.1328887939453125 1.15576171875 2.183349609375 0.0014929771423339844 0.00024121999740600586 0.11051177978515625 0.0548553466796875
18.46525 0.1349945068359375 -0.13864898681640625 1.318359375 2.102783203125 0.00011135637760162354 0.0002662539482116699 0.11639404296875 0.04550933837890625
18.475 0.12400054931640625 -0.14353179931640625 1.48095703125 2.0045166015625 0.00024174153804779053 8.119642734527588e-05 0.11959075927734375 0.03667449951171875
18.48475 0.1190643310546875 -0.14916229248046875 1.6412353515625 1.8873291015625 0.00017219781875610352 -0.0004485398530960083 0.1253509521484375 0.03082275390625
18.4945 0.110748291015625 -0.1526336669921875 1.79248046875 1.74462890625 -0.0007852911949157715 -0.001004040241241455 0.1270294189453125 0.01937103271484375
18.50425 0.1013641357421875 -0.1578521728515625 1.931884765625 1.587158203125 0.0011441707611083984 0.00044083595275878906 0.1283416748046875 0.0114288330078125
18.514 0.0962677001953125 -0.1593170166015625 2.04541015625 1.415771484375 0.00045418739318847656 -0.0006914138793945312 0.12994384765625 0.0032501220703125
18.52375 0.08635711669921875 -0.16236114501953125 2.134765625 1.2386474609375 0.00024777650833129883 0.0002694427967071533 0.13019561767578125 -0.0057220458984375
18.5335 0.07916259765625 -0.1669464111328125 2.20703125 1.063720703125 0.0004775822162628174 0.0002410411834716797 0.13182830810546875 -0.014251708984375
18.54325 0.07106781005859375 -0.1686553955078125 2.2607421875 0.8948974609375 0.0006167888641357422 0.00042635202407836914 0.1308746337890625 -0.02370452880859375
18.553 0.06305694580078125 -0.170196533203125 2.3048095703125 0.7271728515625 0.0006072819232940674 -0.000415802001953125 0.12714385986328125 -0.03131103515625
18.56275 0.05619049072265625 -0.17113494873046875 2.3524169921875 0.5631103515625 0.0004894733428955078 -0.0002593994140625 0.12494659423828125 -0.040103912353515625
18.5725 0.04676055908203125 -0.17209625244140625 2.3857421875 0.387451171875 0.00014721602201461792 -3.2901763916015625e-05 0.12060165405273438 -0.04736328125
18.58225 0.039459228515625 -0.17182159423828125 2.4141845703125 0.208740234375 0.000567704439163208 -2.5331974029541016e-06 0.11823272705078125 -0.055667877197265625
18.592 0.0318145751953125 -0.17259979248046875 2.42333984375 0.015380859375 0.0004760921001434326 -0.0005790591239929199 0.11283493041992188 -0.06264495849609375
18.60175 0.0228271484375 -0.170867919921875 2.41796875 -0.17529296875 0.000662386417388916 -0.00014853477478027344 0.10750579833984375 -0.06836700439453125
18.6115 0.01537322998046875 -0.16895294189453125 2.380615234375 -0.363037109375 -0.0001137852668762207 -0.0006362795829772949 0.1037139892578125 -0.07698440551757812
18.62125 0.00589752197265625 -0.16706085205078125 2.3304443359375 -0.5390625 0.0007743239402770996 0.00016671419143676758 0.09679031372070312 -0.081329345703125
18.631 -0.00072479248046875 -0.16693878173828125 2.2706298828125 -0.696533203125 0.0003510713577270508 -0.001972675323486328 0.08961868286132812 -0.08576583862304688
18.64075 -0.00836944580078125 -0.16640472412109375 2.20068359375 -0.8470458984375 -0.00036326050758361816 -0.00039440393447875977 0.08423233032226562 -0.09058380126953125
18.6505 -0.014739990234375 -0.16230010986328125 2.1322021484375 -0.990234375 0.000851750373840332 -0.0013734102249145508 0.07795333862304688 -0.09406280517578125
18.66025 -0.02313995361328125 -0.1605072021484375 2.0576171875 -1.1307373046875 0.00026357173919677734 -0.001247704029083252 0.07063674926757812 -0.09687042236328125
18.67 -0.02886962890625 -0.1580810546875 1.9815673828125 -1.2735595703125 0.00036291778087615967 -0.00038079917430877686 0.06450653076171875 -0.09838104248046875
