!Created with skrf (http://scikit-rf.org).
# GHz S RI R 50.0 
!freq ReS11 ImS11 ReS21 ImS21 ReS12 ImS12 ReS22 ImS22
17.5 0.008087158203125 -0.1432647705078125 -0.065032958984375 0.1306610107421875 -0.0013402104377746582 0.0014951825141906738 0.09798812866210938 0.001255035400390625
17.50975 -0.00164031982421875 -0.14150238037109375 -0.0458831787109375 0.13394927978515625 -0.0018001198768615723 0.0001245737075805664 0.10042190551757812 -0.000823974609375
17.5195 -0.0078277587890625 -0.1371917724609375 -0.0291900634765625 0.1339874267578125 -0.0008765757083892822 0.0007565915584564209 0.10378265380859375 -0.00107574462890625
17.52925 -0.01734161376953125 -0.13311767578125 -0.01232147216796875 0.13397979736328125 -0.002064824104309082 0.0003459453582763672 0.10672760009765625 -0.006618499755859375
17.539 -0.023895263671875 -0.1280364990234375 0.0026397705078125 0.129974365234375 -0.001503586769104004 0.00022614002227783203 0.10638427734375 -0.01079559326171875
17.54875 -0.03165435791015625 -0.12359619140625 0.01750946044921875 0.12294769287109375 -0.0016669631004333496 0.0009865760803222656 0.10995101928710938 -0.011341094970703125
17.5585 -0.04213714599609375 -0.12056732177734375 0.03094482421875 0.1165618896484375 -0.0014309287071228027 0.0010500550270080566 0.11211395263671875 -0.015277862548828125
17.56825 -0.04717254638671875 -0.1152191162109375 0.04322052001953125 0.10919189453125 -0.001642763614654541 0.0013514161109924316 0.11220550537109375 -0.01959991455078125
17.578 -0.05445098876953125 -0.10739898681640625 0.05568695068359375 0.09819793701171875 -0.0008009672164916992 0.001440882682800293 0.11253738403320312 -0.024105072021484375
17.58775 -0.05962371826171875 -0.10541534423828125 0.06456756591796875 0.08721923828125 -0.001078784465789795 0.0006349086761474609 0.11457061767578125 -0.027435302734375
17.5975 -0.0648345947265625 -0.0969696044921875 0.07147979736328125 0.0757293701171875 -0.0015475153923034668 0.0006496310234069824 0.11440277099609375 -0.031749725341796875
17.60725 -0.07012939453125 -0.0931854248046875 0.07740020751953125 0.0611114501953125 -0.0011501908302307129 0.001622617244720459 0.11434555053710938 -0.035984039306640625
17.617 -0.0762481689453125 -0.08496856689453125 0.0810546875 0.0491485595703125 -0.0009891986846923828 0.0009142160415649414 0.11367416381835938 -0.03946685791015625
17.62675 -0.08049774169921875 -0.07703399658203125 0.081695556640625 0.035572052001953125 -0.0009319782257080078 -0.00015664100646972656 0.11370086669921875 -0.043426513671875
17.6365 -0.08331298828125 -0.0699005126953125 0.083251953125 0.023193359375 -0.0013434886932373047 0.0015681982040405273 0.11237335205078125 -0.0500030517578125
17.64625 -0.08740234375 -0.0625152587890625 0.08059310913085938 0.012332916259765625 -0.0005993843078613281 0.000993967056274414 0.11087799072265625 -0.053924560546875
17.656 -0.09197998046875 -0.05525970458984375 0.07543182373046875 0.00115966796875 -0.001117706298828125 0.00033527612686157227 0.10733795166015625 -0.05916595458984375
17.66575 -0.09322357177734375 -0.04656982421875 0.070404052734375 -0.00775909423828125 -0.0007589459419250488 0.0012036561965942383 0.107086181640625 -0.06281280517578125
17.6755 -0.09680938720703125 -0.039459228515625 0.06633377075195312 -0.01845550537109375 -0.00016057491302490234 0.000723719596862793 0.10276412963867188 -0.06755447387695312
17.68525 -0.09841156005859375 -0.0309906005859375 0.05767631530761719 -0.027408599853515625 -0.0011076927185058594 0.0017921924591064453 0.10152816772460938 -0.07297134399414062
17.695 -0.09923553466796875 -0.02361297607421875 0.05204200744628906 -0.03565788269042969 -0.0004373788833618164 0.001191258430480957 0.096923828125 -0.07638168334960938
17.70475 -0.10026931762695312 -0.0134735107421875 0.04131889343261719 -0.041706085205078125 7.897615432739258e-06 0.0007773637771606445 0.09403610229492188 -0.08021163940429688
17.7145 -0.1024322509765625 -0.006290435791015625 0.030305862426757812 -0.0481109619140625 -0.0007108449935913086 0.0020064115524291992 0.08966827392578125 -0.08406829833984375
17.72425 -0.10170364379882812 0.001995086669921875 0.018426895141601562 -0.04993247985839844 -0.00015217065811157227 0.0002028942108154297 0.08609390258789062 -0.08771896362304688
17.734 -0.10221099853515625 0.00881195068359375 0.008563995361328125 -0.052036285400390625 -0.00028771162033081055 0.0004540085792541504 0.08209991455078125 -0.09154510498046875
17.74375 -0.10286712646484375 0.01776123046875 -0.0030517578125 -0.04974365234375 -0.0002961158752441406 0.0014617443084716797 0.07643890380859375 -0.09566497802734375
17.7535 -0.10027313232421875 0.02536773681640625 -0.012731552124023438 -0.04741096496582031 0.0005036592483520508 0.0018805265426635742 0.07170486450195312 -0.09978866577148438
17.76325 -0.09804153442382812 0.033203125 -0.024097442626953125 -0.043430328369140625 0.0006073713302612305 0.0008524656295776367 0.06727218627929688 -0.0990753173828125
17.773 -0.09762191772460938 0.03973388671875 -0.033111572265625 -0.0383453369140625 -0.0001529008150100708 0.0004285275936126709 0.06393814086914062 -0.10287857055664062
17.78275 -0.0961456298828125 0.047855377197265625 -0.042755126953125 -0.031253814697265625 0.0005102753639221191 0.0013568401336669922 0.05865478515625 -0.10418319702148438
17.7925 -0.09186553955078125 0.053348541259765625 -0.050846099853515625 -0.02381134033203125 -0.0003218650817871094 0.0021562576293945312 0.05178070068359375 -0.10552597045898438
17.80225 -0.09004974365234375 0.060764312744140625 -0.057281494140625 -0.014892578125 3.4689903259277344e-05 0.0005529224872589111 0.0480804443359375 -0.106842041015625
17.812 -0.084716796875 0.06790542602539062 -0.06512069702148438 -0.003292083740234375 0.0010675787925720215 0.000829160213470459 0.042316436767578125 -0.10768508911132812
17.82175 -0.08020401000976562 0.07520294189453125 -0.06799697875976562 0.009449005126953125 0.00013020634651184082 0.0006883442401885986 0.03791046142578125 -0.10666275024414062
17.8315 -0.076385498046875 0.08251571655273438 -0.0710601806640625 0.021747589111328125 -0.0003952533006668091 0.0004015117883682251 0.031375885009765625 -0.1067352294921875
17.84125 -0.07192230224609375 0.0882415771484375 -0.07172393798828125 0.036956787109375 -0.0006945133209228516 0.0021784305572509766 0.0254058837890625 -0.10693359375
17.851 -0.0666046142578125 0.0953216552734375 -0.07004547119140625 0.04985809326171875 0.0004108548164367676 0.0010528564453125 0.02060699462890625 -0.10736083984375
17.86075 -0.0619659423828125 0.09908294677734375 -0.06475830078125 0.06279373168945312 -6.586313247680664e-05 0.00190812349319458 0.013919830322265625 -0.10534286499023438
17.8705 -0.056804656982421875 0.10605621337890625 -0.061023712158203125 0.07686996459960938 -0.00014718621969223022 4.9367547035217285e-05 0.009418487548828125 -0.10517120361328125
17.88025 -0.05129241943359375 0.11117172241210938 -0.0523223876953125 0.08916854858398438 -0.00032716989517211914 0.00038999319076538086 0.00299072265625 -0.10449981689453125
17.89 -0.045955657958984375 0.1165313720703125 -0.044330596923828125 0.1024322509765625 0.0010892152786254883 0.0009173154830932617 -0.000732421875 -0.10319900512695312
17.89975 -0.040569305419921875 0.121795654296875 -0.031696319580078125 0.11571884155273438 0.0012618303298950195 0.002057194709777832 -0.007984161376953125 -0.10142135620117188
17.9095 -0.0355224609375 0.12445068359375 -0.0176239013671875 0.12646484375 0.001208186149597168 0.0003243684768676758 -0.01279449462890625 -0.100555419921875
17.91925 -0.02765655517578125 0.126617431640625 -0.0009765625 0.1351470947265625 0.000942230224609375 0.0021039247512817383 -0.015270233154296875 -0.09731292724609375
17.929 -0.02105712890625 0.13153076171875 0.0158843994140625 0.1444091796875 0.001977682113647461 0.0006802082061767578 -0.02259063720703125 -0.09682464599609375
17.93875 -0.014923095703125 0.1341400146484375 0.0364837646484375 0.1483917236328125 0.0002765357494354248 0.000628054141998291 -0.026935577392578125 -0.09300994873046875
17.9485 -0.007965087890625 0.135498046875 0.05606842041015625 0.14966583251953125 0.0004971623420715332 0.0013433098793029785 -0.0296173095703125 -0.08839797973632812
17.95825 -0.00017547607421875 0.13791656494140625 0.076416015625 0.15087127685546875 0.001094818115234375 0.001072525978088379 -0.0343170166015625 -0.087158203125
17.968 0.00555419921875 0.13983917236328125 0.09943389892578125 0.14859771728515625 0.0004242360591888428 0.0004966259002685547 -0.0388641357421875 -0.0833892822265625
17.97775 0.01459503173828125 0.1402587890625 0.11968994140625 0.1421356201171875 -0.00010162591934204102 0.0003118664026260376 -0.043819427490234375 -0.08009719848632812
17.9875 0.02297210693359375 0.1419677734375 0.14324951171875 0.1337432861328125 -0.00014188885688781738 0.0006330907344818115 -0.045246124267578125 -0.0764312744140625
17.99725 0.03067779541015625 0.1421661376953125 0.1652069091796875 0.121673583984375 0.0006816983222961426 0.0007006525993347168 -0.04988861083984375 -0.07062530517578125
18.007 0.0377044677734375 0.14373016357421875 0.1884613037109375 0.107269287109375 0.0012778043746948242 0.0002034902572631836 -0.053318023681640625 -0.0667724609375
18.01675 0.04515838623046875 0.14253997802734375 0.208282470703125 0.08856201171875 0.0008466243743896484 0.0011785030364990234 -0.0588226318359375 -0.061908721923828125
18.0265 0.052703857421875 0.1435546875 0.226837158203125 0.065521240234375 -9.047985076904297e-05 -0.0008104443550109863 -0.06089019775390625 -0.0572052001953125
18.03625 0.059661865234375 0.1431427001953125 0.242156982421875 0.038299560546875 -0.00018516182899475098 0.0004337728023529053 -0.0644073486328125 -0.05185699462890625
18.046 0.06866455078125 0.14173126220703125 0.2542877197265625 0.0088958740234375 0.0004112720489501953 0.00043010711669921875 -0.06426239013671875 -0.047626495361328125
18.05575 0.07524871826171875 0.13855743408203125 0.2615814208984375 -0.020263671875 0.0012895464897155762 4.088878631591797e-05 -0.07032012939453125 -0.04116058349609375
18.0655 0.0805511474609375 0.13866424560546875 0.263885498046875 -0.051239013671875 0.0006392002105712891 0.001377701759338379 -0.07226943969726562 -0.03522491455078125
18.07525 0.0895538330078125 0.13573455810546875 0.264190673828125 -0.081634521484375 -0.00015109777450561523 -0.001111745834350586 -0.07289886474609375 -0.031429290771484375
18.085 0.09629058837890625 0.13356781005859375 0.2629852294921875 -0.1150054931640625 0.0002199411392211914 0.0003923475742340088 -0.0761566162109375 -0.02445220947265625
18.09475 0.1015167236328125 0.1298370361328125 0.25579833984375 -0.1492919921875 0.0006441771984100342 -0.0005525946617126465 -0.07415771484375 -0.019680023193359375
18.1045 0.11049652099609375 0.1264495849609375 0.245391845703125 -0.181640625 0.0004197359085083008 0.0010773539543151855 -0.0758209228515625 -0.0130157470703125
18.11425 0.116790771484375 0.12343597412109375 0.22907257080078125 -0.2137451171875 0.0005244314670562744 -3.656744956970215e-05 -0.07612228393554688 -0.0078125
18.124 0.1222991943359375 0.118988037109375 0.2075653076171875 -0.244659423828125 0.00022488832473754883 -0.0007581114768981934 -0.0738983154296875 -0.00022125244140625
18.13375 0.1281280517578125 0.11588287353515625 0.1836090087890625 -0.27386474609375 0.000797957181930542 1.0609626770019531e-05 -0.07477569580078125 0.004974365234375
18.1435 0.13462066650390625 0.10980987548828125 0.1538543701171875 -0.2982635498046875 0.0010673999786376953 0.00069427490234375 -0.07456588745117188 0.01422882080078125
18.15325 0.14078521728515625 0.103912353515625 0.1225433349609375 -0.3204498291015625 0.0003998875617980957 -0.0009654760360717773 -0.07366943359375 0.01941680908203125
18.163 0.1477508544921875 0.09893798828125 0.0894775390625 -0.338165283203125 0.0006774961948394775 -0.0004172027111053467 -0.07041549682617188 0.025020599365234375
18.17275 0.15241241455078125 0.09323883056640625 0.052886962890625 -0.3505706787109375 0.0006041526794433594 0.0003719925880432129 -0.06626510620117188 0.03260040283203125
18.1825 0.15877532958984375 0.08676910400390625 0.0154571533203125 -0.3620758056640625 0.0008092224597930908 -0.0007381141185760498 -0.0651702880859375 0.038707733154296875
18.19225 0.1617584228515625 0.08074188232421875 -0.0252227783203125 -0.3683319091796875 0.00013728439807891846 -0.00032261013984680176 -0.06184196472167969 0.04538726806640625
18.202 0.168243408203125 0.07488250732421875 -0.0656280517578125 -0.3700408935546875 1.4334917068481445e-05 -0.0008360147476196289 -0.060001373291015625 0.05055999755859375
18.21175 0.1719207763671875 0.0673370361328125 -0.107025146484375 -0.365997314453125 -0.0007040500640869141 -0.0007114410400390625 -0.0547943115234375 0.0545806884765625
18.2215 0.17645263671875 0.0595550537109375 -0.149627685546875 -0.35638427734375 0.0009347498416900635 -0.00040525197982788086 -0.05049896240234375 0.060546875
18.23125 0.18062591552734375 0.0544586181640625 -0.1875 -0.34344482421875 0.0004298686981201172 0.000295102596282959 -0.046855926513671875 0.06439590454101562
18.241 0.1834564208984375 0.04547119140625 -0.224700927734375 -0.32342529296875 0.0008238255977630615 -0.00013327598571777344 -0.043018341064453125 0.07062149047851562
18.25075 0.18483734130859375 0.03772735595703125 -0.258056640625 -0.302001953125 0.0002567768096923828 -0.00032073259353637695 -0.0362396240234375 0.0736236572265625
18.2605 0.18841552734375 0.03086090087890625 -0.29150390625 -0.275299072265625 5.269050598144531e-05 -0.0013074278831481934 -0.03087615966796875 0.07640838623046875
18.27025 0.1887664794921875 0.021759033203125 -0.32110595703125 -0.2464599609375 -2.658367156982422e-05 0.0003902614116668701 -0.02386474609375 0.08173370361328125
18.28 0.19098663330078125 0.01326751708984375 -0.348602294921875 -0.21484375 -2.0757317543029785e-05 -0.0004246830940246582 -0.01778411865234375 0.08290863037109375
18.28975 0.19347381591796875 0.003692626953125 -0.3720703125 -0.1800537109375 0.0009764432907104492 -0.0014439225196838379 -0.010677337646484375 0.0868072509765625
18.2995 0.19315338134765625 -0.00254058837890625 -0.391998291015625 -0.1424560546875 -0.00011517852544784546 -1.3403594493865967e-05 -0.0036163330078125 0.08804702758789062
18.30925 0.193695068359375 -0.012969970703125 -0.40740966796875 -0.10345458984375 0.0010303258895874023 -0.0008361339569091797 0.00429534912109375 0.08884429931640625
18.319 0.19243621826171875 -0.0232086181640625 -0.4173431396484375 -0.061614990234375 0.00096893310546875 -0.0010859966278076172 0.012645721435546875 0.0927276611328125
18.32875 0.1911773681640625 -0.0283660888671875 -0.422393798828125 -0.0198211669921875 1.862645149230957e-05 -0.0006135702133178711 0.02001953125 0.09185409545898438
18.3385 0.18984222412109375 -0.03800201416015625 -0.4233551025390625 0.0216522216796875 -0.00027114152908325195 0.00017559528350830078 0.02866363525390625 0.09241485595703125
18.34825 0.18963623046875 -0.04839324951171875 -0.419769287109375 0.060455322265625 0.00036847591400146484 -0.0005269646644592285 0.0350341796875 0.09346771240234375
18.358 0.18792724609375 -0.05551910400390625 -0.4152984619140625 0.1016693115234375 0.0011696815490722656 0.00043255090713500977 0.0429534912109375 0.0898895263671875
18.36775 0.1846923828125 -0.06497955322265625 -0.4079132080078125 0.1401519775390625 -1.1444091796875e-05 -0.00025366246700286865 0.04981231689453125 0.08892059326171875
18.3775 0.1816253662109375 -0.07146453857421875 -0.39520263671875 0.1785125732421875 7.249414920806885e-05 0.00032104551792144775 0.05623626708984375 0.087493896484375
18.38725 0.17923736572265625 -0.0810699462890625 -0.380035400390625 0.2173309326171875 -0.00041294097900390625 -0.000873565673828125 0.06396484375 0.08504486083984375
18.397 0.1740875244140625 -0.08746337890625 -0.35711669921875 0.2547607421875 0.0009241104125976562 -0.00031447410583496094 0.0706329345703125 0.0816650390625
18.40675 0.1697235107421875 -0.0952301025390625 -0.331390380859375 0.288818359375 -0.00031694769859313965 9.274482727050781e-05 0.0781402587890625 0.0771331787109375
18.4165 0.1652679443359375 -0.1018829345703125 -0.303680419921875 0.319091796875 -0.00015500187873840332 -0.000482410192489624 0.0836334228515625 0.073638916015625
18.42625 0.1582183837890625 -0.109375 -0.2742156982421875 0.34661865234375 0.0005412101745605469 -0.0004614293575286865 0.09046173095703125 0.0684356689453125
18.436 0.15227508544921875 -0.1146392822265625 -0.243072509765625 0.3673248291015625 -0.00033217668533325195 -0.0012124180793762207 0.09808349609375 0.06209564208984375
18.44575 0.14698028564453125 -0.12258148193359375 -0.2105712890625 0.3892669677734375 0.0013638138771057129 -0.0003247261047363281 0.101226806640625 0.05572509765625
18.4555 0.13974761962890625 -0.1275634765625 -0.177459716796875 0.4073486328125 -0.0005268752574920654 -0.0003897249698638916 0.10711669921875 0.04869842529296875
18.46525 0.1349029541015625 -0.13417816162109375 -0.143951416015625 0.426177978515625 -0.00029659271240234375 -0.0007977485656738281 0.11053466796875 0.04048919677734375
18.475 0.12601470947265625 -0.13849639892578125 -0.106170654296875 0.4410400390625 9.781122207641602e-05 -0.0010383129119873047 0.1151123046875 0.0327606201171875
18.48475 0.12126922607421875 -0.1461639404296875 -0.0668792724609375 0.454345703125 -9.500980377197266e-05 -0.0006240308284759521 0.1183624267578125 0.02429962158203125
18.4945 0.1121368408203125 -0.1492919921875 -0.02227783203125 0.463104248046875 0.0003895312547683716 -0.0002977997064590454 0.12162017822265625 0.01709747314453125
18.50425 0.104461669921875 -0.1548004150390625 0.020782470703125 0.46533203125 3.647804260253906e-05 0.0006260871887207031 0.1220855712890625 0.0089569091796875
18.514 0.09857177734375 -0.1575927734375 0.06524658203125 0.46270751953125 0.00011199712753295898 -0.0007200241088867188 0.12530517578125 0.001739501953125
18.52375 0.08864593505859375 -0.159393310546875 0.10589599609375 0.454315185546875 0.00014919042587280273 -0.001047670841217041 0.12395858764648438 -0.008136749267578125
18.5335 0.08353424072265625 -0.16341400146484375 0.145965576171875 0.443511962890625 0.0012223124504089355 -9.614229202270508e-05 0.1241302490234375 -0.015796661376953125
18.54325 0.0745697021484375 -0.1678619384765625 0.182769775390625 0.4293212890625 0.0010088086128234863 -4.506111145019531e-05 0.12244415283203125 -0.023403167724609375
18.553 0.06678009033203125 -0.16916656494140625 0.218414306640625 0.413330078125 0.00017064809799194336 5.242973566055298e-05 0.11988449096679688 -0.029083251953125
18.56275 0.05983734130859375 -0.1689605712890625 0.253631591796875 0.39764404296875 0.0002586841583251953 -0.00047163665294647217 0.11960983276367188 -0.038616180419921875
18.5725 0.05124664306640625 -0.1700897216796875 0.2880859375 0.37646484375 0.0010625720024108887 4.172325134277344e-07 0.11398696899414062 -0.04618072509765625
18.58225 0.04327392578125 -0.17073822021484375 0.3209228515625 0.353759765625 0.0005298852920532227 -0.0005871355533599854 0.11134719848632812 -0.052459716796875
18.592 0.034759521484375 -0.1716766357421875 0.3543701171875 0.326568603515625 0.00047332048416137695 -0.0011548399925231934 0.10605621337890625 -0.0592193603515625
18.60175 0.0261383056640625 -0.170867919921875 0.38543701171875 0.29656982421875 -3.522634506225586e-05 -0.0007348060607910156 0.10242462158203125 -0.06319427490234375
18.6115 0.018798828125 -0.17028045654296875 0.411285400390625 0.261566162109375 0.001270294189453125 -0.000689387321472168 0.09727096557617188 -0.07252120971679688
18.62125 0.0098876953125 -0.16980743408203125 0.43328857421875 0.225494384765625 0.00043044984340667725 -0.0002391338348388672 0.090606689453125 -0.07825851440429688
18.631 0.002777099609375 -0.16808319091796875 0.450225830078125 0.191070556640625 0.00035765767097473145 -0.00012291967868804932 0.08443450927734375 -0.08196258544921875
