!Created with skrf (http://scikit-rf.org).
# GHz S RI R 50.0 
!freq ReS11 ImS11 ReS21 ImS21 ReS12 ImS12 ReS22 ImS22
17.5 0.009735107421875 -0.14203643798828125 -0.59246826171875 0.684600830078125 -0.0009493529796600342 0.00020042061805725098 0.097198486328125 0.002536773681640625
17.50975 -0.00051116943359375 -0.14073944091796875 -0.529144287109375 0.72833251953125 -0.0013066530227661133 5.608797073364258e-05 0.09857177734375 0.001079559326171875
17.5195 -0.007904052734375 -0.13555145263671875 -0.463592529296875 0.763153076171875 -9.939074516296387e-05 0.00028677284717559814 0.10296249389648438 0.000713348388671875
17.52925 -0.015869140625 -0.131866455078125 -0.3966064453125 0.794036865234375 -0.0016521811485290527 0.00031870603561401367 0.104827880859375 -0.004634857177734375
17.539 -0.02264404296875 -0.127288818359375 -0.3292236328125 0.815185546875 -0.0012433528900146484 0.0017586946487426758 0.1067962646484375 -0.00750732421875
17.54875 -0.03153228759765625 -0.12282562255859375 -0.261016845703125 0.8321533203125 -0.0016067028045654297 0.0007120966911315918 0.10747909545898438 -0.0098724365234375
17.5585 -0.04084014892578125 -0.1195220947265625 -0.19384765625 0.84539794921875 -0.0010721087455749512 0.0009446144104003906 0.1114501953125 -0.013149261474609375
17.56825 -0.04524993896484375 -0.11525726318359375 -0.128265380859375 0.854278564453125 -0.0011059045791625977 0.0011903047561645508 0.1109466552734375 -0.018138885498046875
17.578 -0.05306243896484375 -0.10832977294921875 -0.058135986328125 0.857391357421875 -0.0008351802825927734 0.0009929537773132324 0.11284637451171875 -0.021636962890625
17.58775 -0.05875396728515625 -0.10262298583984375 0.011505126953125 0.8538818359375 -0.0011403560638427734 0.0009694695472717285 0.11305999755859375 -0.024486541748046875
17.5975 -0.0617218017578125 -0.09647369384765625 0.082763671875 0.84356689453125 -0.0011292695999145508 0.0004917383193969727 0.11417388916015625 -0.029155731201171875
17.60725 -0.06819915771484375 -0.0926971435546875 0.14959716796875 0.826812744140625 -0.0007541179656982422 0.0015568733215332031 0.11275100708007812 -0.0343475341796875
17.617 -0.07343292236328125 -0.0851287841796875 0.21343994140625 0.80340576171875 -0.00017540156841278076 0.0003177374601364136 0.11379623413085938 -0.0386199951171875
17.62675 -0.0781402587890625 -0.07755279541015625 0.272216796875 0.77496337890625 -0.0013642311096191406 0.0017808079719543457 0.11394500732421875 -0.042224884033203125
17.6365 -0.0809783935546875 -0.06951904296875 0.323974609375 0.74169921875 -0.002120494842529297 0.0015349388122558594 0.1122283935546875 -0.04769134521484375
17.64625 -0.08580780029296875 -0.062225341796875 0.37255859375 0.70574951171875 -0.0010607242584228516 0.002376079559326172 0.11178970336914062 -0.05139923095703125
17.656 -0.08922576904296875 -0.05666351318359375 0.41436767578125 0.67333984375 -0.0007254481315612793 0.0015586614608764648 0.10761642456054688 -0.056385040283203125
17.66575 -0.09119415283203125 -0.04691314697265625 0.45831298828125 0.6407470703125 -0.0002943873405456543 0.001483619213104248 0.1075897216796875 -0.06177520751953125
17.6755 -0.09326934814453125 -0.041015625 0.4976806640625 0.605224609375 -0.0009881854057312012 0.0007128715515136719 0.10437774658203125 -0.0661773681640625
17.68525 -0.09632110595703125 -0.03191375732421875 0.5394287109375 0.56817626953125 -0.00027777254581451416 0.00041784346103668213 0.102142333984375 -0.07006072998046875
17.695 -0.09778594970703125 -0.02417755126953125 0.58148193359375 0.5263671875 -0.00036072731018066406 0.0020017623901367188 0.09935379028320312 -0.07358932495117188
17.70475 -0.09688186645507812 -0.01470947265625 0.61944580078125 0.47674560546875 -5.173683166503906e-05 0.0008929967880249023 0.096221923828125 -0.07796096801757812
17.7145 -0.1006927490234375 -0.00666046142578125 0.65460205078125 0.42413330078125 -4.5239925384521484e-05 0.0011156797409057617 0.0919647216796875 -0.08336257934570312
17.72425 -0.10037994384765625 0.001800537109375 0.68035888671875 0.36566162109375 -0.0002886652946472168 0.0006762444972991943 0.08825302124023438 -0.08660888671875
17.734 -0.10187530517578125 0.0089111328125 0.6988525390625 0.30828857421875 0.00045609474182128906 0.0009236335754394531 0.08478546142578125 -0.09149932861328125
17.74375 -0.10146331787109375 0.0141448974609375 0.706787109375 0.251708984375 0.00036215782165527344 0.0021834373474121094 0.0797119140625 -0.09641265869140625
17.7535 -0.09850692749023438 0.02191925048828125 0.71221923828125 0.200103759765625 -0.0010016560554504395 0.0011049509048461914 0.0745086669921875 -0.09810256958007812
17.76325 -0.09794235229492188 0.03055572509765625 0.714691162109375 0.15301513671875 -0.0010094046592712402 0.0012955665588378906 0.06871795654296875 -0.09882736206054688
17.773 -0.09820938110351562 0.03778076171875 0.716766357421875 0.10833740234375 0.00046706199645996094 0.0008975863456726074 0.06461334228515625 -0.10214614868164062
17.78275 -0.09442901611328125 0.046215057373046875 0.71942138671875 0.061614990234375 0.00020051002502441406 0.001057267189025879 0.059780120849609375 -0.10354995727539062
17.7925 -0.09148788452148438 0.052364349365234375 0.719970703125 0.01513671875 -0.0011238455772399902 0.001007080078125 0.055728912353515625 -0.104400634765625
17.80225 -0.08887863159179688 0.057537078857421875 0.72021484375 -0.035186767578125 0.0012038946151733398 0.0021796226501464844 0.05025482177734375 -0.106719970703125
17.812 -0.08467864990234375 0.06578445434570312 0.7156982421875 -0.085113525390625 0.0007245540618896484 0.001272439956665039 0.04505157470703125 -0.10699462890625
17.82175 -0.07988739013671875 0.07337570190429688 0.70648193359375 -0.136138916015625 0.0006425976753234863 0.0003909468650817871 0.040073394775390625 -0.10594940185546875
17.8315 -0.07763290405273438 0.08156585693359375 0.690643310546875 -0.185882568359375 0.00032150745391845703 0.0018684864044189453 0.03350067138671875 -0.10849761962890625
17.84125 -0.07257843017578125 0.08683013916015625 0.6724853515625 -0.23309326171875 -0.0006405115127563477 0.0013036727905273438 0.02800750732421875 -0.10897064208984375
17.851 -0.06688308715820312 0.09362411499023438 0.648712158203125 -0.27581787109375 -0.00010156631469726562 0.0006502866744995117 0.022853851318359375 -0.10790252685546875
17.86075 -0.06412124633789062 0.0971832275390625 0.62530517578125 -0.310638427734375 -0.0004476308822631836 0.0008789300918579102 0.015926361083984375 -0.107940673828125
17.8705 -0.059764862060546875 0.10284423828125 0.6004638671875 -0.348175048828125 2.872943878173828e-05 0.0008937418460845947 0.010204315185546875 -0.10698699951171875
17.88025 -0.05263519287109375 0.10982894897460938 0.578460693359375 -0.382598876953125 0.0006182193756103516 0.001439809799194336 0.00385284423828125 -0.1056060791015625
17.89 -0.047637939453125 0.11638641357421875 0.5533447265625 -0.41461181640625 0.0014101266860961914 0.0012847185134887695 0.00012969970703125 -0.10401153564453125
17.89975 -0.041141510009765625 0.11940383911132812 0.527862548828125 -0.45068359375 -1.2874603271484375e-05 0.0013410449028015137 -0.004741668701171875 -0.1027679443359375
17.9095 -0.03710174560546875 0.12365341186523438 0.5008544921875 -0.486328125 0.0012570619583129883 0.0011773109436035156 -0.010349273681640625 -0.10156631469726562
17.91925 -0.0284271240234375 0.1256866455078125 0.46893310546875 -0.5218505859375 0.0006317496299743652 0.0007815361022949219 -0.01515960693359375 -0.09914398193359375
17.929 -0.0228271484375 0.1293182373046875 0.43463134765625 -0.55279541015625 4.597008228302002e-05 0.00019291043281555176 -0.0204315185546875 -0.0982208251953125
17.93875 -0.01602935791015625 0.13390350341796875 0.396392822265625 -0.57916259765625 0.0008456110954284668 0.0004093050956726074 -0.025493621826171875 -0.09384536743164062
17.9485 -0.00878143310546875 0.134674072265625 0.358642578125 -0.6024169921875 0.0010634660720825195 0.000887453556060791 -0.028957366943359375 -0.091339111328125
17.95825 -0.0016326904296875 0.13759613037109375 0.32177734375 -0.6234130859375 0.0004811882972717285 0.0009883642196655273 -0.03414154052734375 -0.08882522583007812
17.968 0.00424957275390625 0.14092254638671875 0.283843994140625 -0.642822265625 0.0009436607360839844 0.0013326406478881836 -0.038814544677734375 -0.08538055419921875
17.97775 0.01324462890625 0.14029693603515625 0.2484130859375 -0.660400390625 -8.845329284667969e-05 0.0016535520553588867 -0.043121337890625 -0.08087539672851562
17.9875 0.02020263671875 0.14182281494140625 0.2099609375 -0.681427001953125 0.0012449026107788086 0.0008598566055297852 -0.04532623291015625 -0.07828521728515625
17.99725 0.02828216552734375 0.1422882080078125 0.170440673828125 -0.70159912109375 0.0012646913528442383 0.0007545948028564453 -0.050579071044921875 -0.07257461547851562
18.007 0.0353546142578125 0.14324188232421875 0.127593994140625 -0.71990966796875 0.001739501953125 0.0010432004928588867 -0.05622100830078125 -0.06885528564453125
18.01675 0.04364776611328125 0.14398193359375 0.08074951171875 -0.737396240234375 0.0007562339305877686 9.876489639282227e-05 -0.058406829833984375 -0.0646820068359375
18.0265 0.0508880615234375 0.1425323486328125 0.02972412109375 -0.75103759765625 0.0009336471557617188 0.0010112524032592773 -0.06243133544921875 -0.05934906005859375
18.03625 0.0578155517578125 0.1446075439453125 -0.02227783203125 -0.75823974609375 0.0006480813026428223 -0.0003428459167480469 -0.06516265869140625 -0.05440521240234375
18.046 0.06594085693359375 0.1439208984375 -0.078704833984375 -0.763031005859375 0.0006532371044158936 -0.0003358125686645508 -0.06676483154296875 -0.049915313720703125
18.05575 0.07379913330078125 0.1397705078125 -0.129119873046875 -0.763092041015625 0.0005726218223571777 0.0009157061576843262 -0.06995773315429688 -0.04264068603515625
18.0655 0.0811614990234375 0.1399383544921875 -0.18060302734375 -0.760955810546875 -0.00011618435382843018 -0.00022336840629577637 -0.074127197265625 -0.038974761962890625
18.07525 0.0882568359375 0.1375885009765625 -0.234619140625 -0.75469970703125 0.0011748671531677246 0.00021028518676757812 -0.07421112060546875 -0.031955718994140625
18.085 0.095977783203125 0.1353607177734375 -0.28875732421875 -0.74957275390625 0.0011854171752929688 0.0008586645126342773 -0.076080322265625 -0.02581787109375
18.09475 0.10272216796875 0.13158416748046875 -0.344970703125 -0.73956298828125 0.0017001628875732422 0.0002461671829223633 -0.07492446899414062 -0.020938873291015625
18.1045 0.10892486572265625 0.12857818603515625 -0.40264892578125 -0.72662353515625 0.0005987882614135742 0.0005660653114318848 -0.07947540283203125 -0.012699127197265625
18.11425 0.11634063720703125 0.12625885009765625 -0.46356201171875 -0.70416259765625 0.00014434754848480225 0.00010256469249725342 -0.07823562622070312 -0.009632110595703125
18.124 0.1222076416015625 0.121429443359375 -0.5233154296875 -0.679931640625 0.0012698173522949219 0.0007660388946533203 -0.0762939453125 -0.002105712890625
18.13375 0.1300048828125 0.116851806640625 -0.579833984375 -0.64874267578125 0.001070857048034668 -0.0008544325828552246 -0.07651519775390625 0.005496978759765625
18.1435 0.134674072265625 0.11217498779296875 -0.63812255859375 -0.61053466796875 0.00033411383628845215 -0.0005564391613006592 -0.07684326171875 0.013439178466796875
18.15325 0.14099884033203125 0.1064605712890625 -0.69293212890625 -0.56494140625 0.0016205310821533203 0.0002741813659667969 -0.07643890380859375 0.0187530517578125
18.163 0.147735595703125 0.10015869140625 -0.74249267578125 -0.5181884765625 0.00014926493167877197 -0.00033177435398101807 -0.07177352905273438 0.025463104248046875
18.17275 0.15200042724609375 0.09374237060546875 -0.7899169921875 -0.46551513671875 0.001286625862121582 -2.4437904357910156e-05 -0.069091796875 0.03118896484375
18.1825 0.15911865234375 0.0886077880859375 -0.83563232421875 -0.4105224609375 0.0004538297653198242 -0.0006343424320220947 -0.0673675537109375 0.0364227294921875
18.19225 0.16355133056640625 0.0814208984375 -0.878173828125 -0.34783935546875 0.0007304847240447998 -0.0005394220352172852 -0.06447219848632812 0.04479217529296875
18.202 0.16941070556640625 0.07569122314453125 -0.9158935546875 -0.28106689453125 0.0005204975605010986 -0.0007753968238830566 -0.0630035400390625 0.0502777099609375
18.21175 0.1729278564453125 0.0692138671875 -0.9476318359375 -0.2056884765625 -6.034970283508301e-05 0.0004105865955352783 -0.05640411376953125 0.05776214599609375
18.2215 0.17749786376953125 0.061248779296875 -0.97100830078125 -0.12744140625 0.0006366074085235596 -0.0006071329116821289 -0.051849365234375 0.060596466064453125
18.23125 0.181640625 0.054443359375 -0.9871826171875 -0.048583984375 0.00021585822105407715 -0.0007510781288146973 -0.048858642578125 0.0661163330078125
18.241 0.1855621337890625 0.04706573486328125 -0.997406005859375 0.030609130859375 0.0009928345680236816 -0.0010342597961425781 -0.045196533203125 0.0709991455078125
18.25075 0.18735504150390625 0.039031982421875 -0.99688720703125 0.111663818359375 0.0005821287631988525 4.315376281738281e-05 -0.03798675537109375 0.07609939575195312
18.2605 0.18912506103515625 0.02970123291015625 -0.99310302734375 0.1907958984375 0.0005549192428588867 5.5164098739624023e-05 -0.031398773193359375 0.0787506103515625
18.27025 0.19161224365234375 0.021820068359375 -0.98492431640625 0.2713623046875 0.0007115602493286133 0.0006128549575805664 -0.024860382080078125 0.08288955688476562
18.28 0.19335174560546875 0.0125274658203125 -0.97125244140625 0.35589599609375 -0.00022359192371368408 -0.00020931661128997803 -0.01837921142578125 0.08466339111328125
18.28975 0.19406890869140625 0.00322723388671875 -0.949371337890625 0.440093994140625 0.0004088878631591797 0.0008034110069274902 -0.012332916259765625 0.08952713012695312
18.2995 0.19390106201171875 -0.003662109375 -0.91748046875 0.522613525390625 0.00039839744567871094 9.804964065551758e-05 -0.00399017333984375 0.09004974365234375
18.30925 0.1945343017578125 -0.0139923095703125 -0.8748779296875 0.60211181640625 -0.0001429915428161621 0.00027242302894592285 0.003326416015625 0.0908203125
18.319 0.1929473876953125 -0.02303314208984375 -0.82415771484375 0.67767333984375 0.0015499591827392578 -0.0013476014137268066 0.01062774658203125 0.09600448608398438
18.32875 0.192169189453125 -0.02899169921875 -0.76641845703125 0.74493408203125 -0.0002906918525695801 -0.0005180537700653076 0.019824981689453125 0.093841552734375
18.3385 0.1919097900390625 -0.04084014892578125 -0.7042236328125 0.80621337890625 0.0014903545379638672 0.0005532503128051758 0.027820587158203125 0.09425735473632812
18.34825 0.19092559814453125 -0.0483551025390625 -0.64093017578125 0.863525390625 0.0004852414131164551 6.765127182006836e-06 0.0326995849609375 0.09479522705078125
18.358 0.18758392333984375 -0.057464599609375 -0.574310302734375 0.914642333984375 0.00014922022819519043 -0.000867992639541626 0.04375457763671875 0.093505859375
18.36775 0.18538665771484375 -0.06439208984375 -0.501129150390625 0.96551513671875 0.0007518529891967773 -0.00019541382789611816 0.0500946044921875 0.091400146484375
18.3775 0.1828155517578125 -0.073455810546875 -0.42779541015625 1.010009765625 -0.0003814399242401123 -0.0004337728023529053 0.05675506591796875 0.08925628662109375
18.38725 0.179107666015625 -0.0812835693359375 -0.341552734375 1.0489501953125 -0.0003729015588760376 0.0003550499677658081 0.06516265869140625 0.0877685546875
18.397 0.1747589111328125 -0.0892333984375 -0.253662109375 1.0762939453125 -0.0001500248908996582 -0.0006759166717529297 0.0717620849609375 0.083892822265625
18.40675 0.1707000732421875 -0.0962677001953125 -0.15966796875 1.10009765625 -0.0007965564727783203 -0.00040543079376220703 0.079132080078125 0.0797882080078125
18.4165 0.1648101806640625 -0.1037139892578125 -0.06866455078125 1.1090087890625 -0.00017149746417999268 -0.0002547800540924072 0.0827789306640625 0.075439453125
18.42625 0.16054534912109375 -0.1122283935546875 0.02203369140625 1.10675048828125 0.00026898086071014404 0.00018909573554992676 0.09105682373046875 0.069549560546875
18.436 0.15314483642578125 -0.1165771484375 0.1085205078125 1.098388671875 0.0005851089954376221 -0.0005912482738494873 0.09869384765625 0.06549072265625
18.44575 0.14708709716796875 -0.12419891357421875 0.19061279296875 1.085205078125 -0.0005673468112945557 -0.00028204917907714844 0.10294342041015625 0.057159423828125
18.4555 0.13925933837890625 -0.1297607421875 0.27264404296875 1.06982421875 0.0011587142944335938 -0.0008412599563598633 0.10764312744140625 0.05023193359375
18.46525 0.1346588134765625 -0.13533782958984375 0.35516357421875 1.05157470703125 -1.4483928680419922e-05 -0.001702427864074707 0.1132659912109375 0.0420989990234375
18.475 0.1252899169921875 -0.14154815673828125 0.43853759765625 1.02947998046875 -0.0003167837858200073 -6.341934204101562e-05 0.11684417724609375 0.03559112548828125
18.48475 0.12100982666015625 -0.14638519287109375 0.52392578125 0.99615478515625 0.0006176531314849854 -0.000536799430847168 0.1200408935546875 0.02677154541015625
18.4945 0.111297607421875 -0.150848388671875 0.60894775390625 0.953369140625 -0.0002779960632324219 -0.0004277229309082031 0.12296295166015625 0.017913818359375
18.50425 0.10491943359375 -0.155487060546875 0.6883544921875 0.899658203125 0.0001671910285949707 0.000629127025604248 0.124053955078125 0.010528564453125
18.514 0.09649658203125 -0.1581878662109375 0.762939453125 0.8382568359375 -4.787743091583252e-05 0.00014600157737731934 0.1264495849609375 0.0020904541015625
18.52375 0.08771514892578125 -0.16069793701171875 0.82330322265625 0.76885986328125 0.00018353015184402466 -2.2314488887786865e-05 0.12609100341796875 -0.0068817138671875
18.5335 0.08145904541015625 -0.16524505615234375 0.87823486328125 0.6981201171875 0.0002721846103668213 -0.0006063878536224365 0.12750244140625 -0.01557159423828125
18.54325 0.07318115234375 -0.1674041748046875 0.92230224609375 0.6287841796875 -0.00015407800674438477 0.0007827877998352051 0.125640869140625 -0.02262115478515625
18.553 0.06594085693359375 -0.16884613037109375 0.96441650390625 0.5595703125 0.0003737807273864746 -0.001454472541809082 0.12355422973632812 -0.029857635498046875
18.56275 0.058074951171875 -0.169708251953125 1.0068359375 0.4906005859375 -0.00015325099229812622 5.204230546951294e-05 0.12169647216796875 -0.03844451904296875
18.5725 0.0487823486328125 -0.17069244384765625 1.04510498046875 0.4154052734375 0.0007085800170898438 6.714463233947754e-05 0.11642074584960938 -0.045867919921875
18.58225 0.04174041748046875 -0.1711578369140625 1.07818603515625 0.33392333984375 0.0006013214588165283 -0.00037989020347595215 0.11285018920898438 -0.05387115478515625
18.592 0.0331268310546875 -0.17173004150390625 1.1041259765625 0.24725341796875 -8.878111839294434e-05 -0.0007579028606414795 0.10974884033203125 -0.061138153076171875
18.60175 0.02459716796875 -0.1703643798828125 1.1231689453125 0.1568603515625 0.0010074377059936523 -0.0008810758590698242 0.1038665771484375 -0.0661773681640625
18.6115 0.017547607421875 -0.16949462890625 1.12933349609375 0.06732177734375 -0.0005688667297363281 -0.0006244778633117676 0.09971237182617188 -0.07440948486328125
18.62125 0.00843048095703125 -0.16976165771484375 1.12872314453125 -0.021484375 0.0008337497711181641 -0.0004336833953857422 0.09293365478515625 -0.07921218872070312
18.631 0.00254058837890625 -0.16790771484375 1.11798095703125 -0.10052490234375 0.0007292628288269043 -0.000583648681640625 0.08735275268554688 -0.08233642578125
18.64075 -0.00626373291015625 -0.166748046875 1.10479736328125 -0.18023681640625 0.00017920136451721191 -0.0004916787147521973 0.08179092407226562 -0.0873870849609375
18.6505 -0.01274871826171875 -0.16545867919921875 1.088134765625 -0.25518798828125 0.0004418492317199707 -0.0005903542041778564 0.074859619140625 -0.0912933349609375
