!Created with skrf (http://scikit-rf.org).
# GHz S RI R 50.0 
!freq ReS11 ImS11 ReS21 ImS21 ReS12 ImS12 ReS22 ImS22
17.5 0.011505126953125 -0.14080047607421875 -1.2706298828125 1.6331787109375 -0.0017077922821044922 0.0002498030662536621 0.094879150390625 0.004180908203125
17.50975 0.00199127197265625 -0.1385498046875 -1.129638671875 1.72589111328125 -0.0018329024314880371 0.00044614076614379883 0.09836578369140625 0.00281524658203125
17.5195 -0.00585174560546875 -0.1354522705078125 -0.978759765625 1.80316162109375 -0.0006853938102722168 0.00140303373336792 0.09988784790039062 0.002391815185546875
17.52925 -0.013702392578125 -0.131103515625 -0.829833984375 1.8720703125 -0.0014412999153137207 0.0013474225997924805 0.10269927978515625 -0.001903533935546875
17.539 -0.019500732421875 -0.1247406005859375 -0.6788330078125 1.923095703125 -0.0017412900924682617 0.0004620552062988281 0.10430145263671875 -0.00463104248046875
17.54875 -0.02779388427734375 -0.12274932861328125 -0.52349853515625 1.95648193359375 -0.0013939738273620605 0.0005370378494262695 0.10588836669921875 -0.00589752197265625
17.5585 -0.03701019287109375 -0.11769866943359375 -0.3726806640625 1.9892578125 -0.001111149787902832 0.000643610954284668 0.10990524291992188 -0.0102691650390625
17.56825 -0.04273223876953125 -0.1133270263671875 -0.2220458984375 2.01025390625 -0.000819087028503418 0.001371145248413086 0.1092376708984375 -0.014141082763671875
17.578 -0.0490875244140625 -0.10655975341796875 -0.060302734375 2.0194091796875 -0.001269221305847168 -0.00021767616271972656 0.112701416015625 -0.019634246826171875
17.58775 -0.05517578125 -0.10308837890625 0.1016845703125 2.0162353515625 -0.0007484555244445801 0.0017058253288269043 0.11429977416992188 -0.021503448486328125
17.5975 -0.058807373046875 -0.09645843505859375 0.26904296875 1.99462890625 -0.001146078109741211 0.0012121796607971191 0.11337661743164062 -0.026927947998046875
17.60725 -0.06487274169921875 -0.091766357421875 0.4267578125 1.9552001953125 -0.0010703206062316895 0.0013571977615356445 0.11348342895507812 -0.030437469482421875
17.617 -0.0717315673828125 -0.085235595703125 0.5810546875 1.89990234375 -0.00018325448036193848 0.00034177303314208984 0.11524581909179688 -0.03469085693359375
17.62675 -0.07590484619140625 -0.07958221435546875 0.720703125 1.8338623046875 -0.00016573071479797363 0.0008269250392913818 0.11565399169921875 -0.0391845703125
17.6365 -0.0797271728515625 -0.07177734375 0.850830078125 1.75927734375 -0.0003190040588378906 0.0019475221633911133 0.1155548095703125 -0.04346466064453125
17.64625 -0.0837860107421875 -0.06414031982421875 0.9642333984375 1.6790771484375 -0.00037026405334472656 0.0011391639709472656 0.11182785034179688 -0.049224853515625
17.656 -0.08599853515625 -0.0583648681640625 1.0736083984375 1.6004638671875 -0.00044354796409606934 0.00045680999755859375 0.10970306396484375 -0.053466796875
17.66575 -0.089996337890625 -0.04821014404296875 1.1802978515625 1.5242919921875 -0.001597762107849121 0.0002365708351135254 0.10861968994140625 -0.057338714599609375
17.6755 -0.093963623046875 -0.042236328125 1.2828369140625 1.4354248046875 -0.0003276020288467407 0.00014165043830871582 0.10538864135742188 -0.06258392333984375
17.68525 -0.09490966796875 -0.03534698486328125 1.390869140625 1.349365234375 -0.0002865791320800781 0.0011809468269348145 0.10305023193359375 -0.06859588623046875
17.695 -0.09645843505859375 -0.024829864501953125 1.4967041015625 1.2431640625 -0.00045233964920043945 0.001719057559967041 0.10094070434570312 -0.0723724365234375
17.70475 -0.09660720825195312 -0.017425537109375 1.5966796875 1.1195068359375 -0.0003389716148376465 0.0014188289642333984 0.09783935546875 -0.076385498046875
17.7145 -0.09877777099609375 -0.009368896484375 1.6875 0.9835205078125 -0.0006762146949768066 0.001023709774017334 0.09444808959960938 -0.07984542846679688
17.72425 -0.0985870361328125 -0.00162506103515625 1.7552490234375 0.8359375 0.0007139444351196289 0.0011643171310424805 0.08970260620117188 -0.0848388671875
17.734 -0.10042572021484375 0.005573272705078125 1.803955078125 0.6859130859375 -0.0006183981895446777 -0.00019913911819458008 0.08594894409179688 -0.08879852294921875
17.74375 -0.10071563720703125 0.01291656494140625 1.8271484375 0.539306640625 -0.0002694129943847656 0.0008910894393920898 0.08293914794921875 -0.0938262939453125
17.7535 -0.09869766235351562 0.020114898681640625 1.8441162109375 0.4044189453125 -0.0010120868682861328 0.0009028911590576172 0.07828521728515625 -0.09731292724609375
17.76325 -0.09808349609375 0.02806854248046875 1.85498046875 0.2757568359375 -8.815526962280273e-05 0.0006580948829650879 0.07268905639648438 -0.09818267822265625
17.773 -0.0973968505859375 0.034824371337890625 1.859130859375 0.1544189453125 -0.0002630650997161865 0.0007999241352081299 0.0677490234375 -0.10184097290039062
17.78275 -0.09582138061523438 0.043506622314453125 1.86566162109375 0.02886962890625 -0.0013177990913391113 0.0004481077194213867 0.06278610229492188 -0.10253143310546875
17.7925 -0.0911865234375 0.048419952392578125 1.87078857421875 -0.09979248046875 0.0005548000335693359 0.001820206642150879 0.05706024169921875 -0.104736328125
17.80225 -0.0900115966796875 0.05620574951171875 1.86895751953125 -0.23895263671875 -0.0009202957153320312 0.0021953582763671875 0.052490234375 -0.10701370239257812
17.812 -0.08448410034179688 0.0626373291015625 1.85186767578125 -0.37896728515625 0.0004990696907043457 0.0008475184440612793 0.046955108642578125 -0.10886383056640625
17.82175 -0.08144378662109375 0.07007598876953125 1.82147216796875 -0.5252685546875 0.0007207393646240234 0.0007048249244689941 0.042327880859375 -0.10894775390625
17.8315 -0.07845687866210938 0.07659912109375 1.7694091796875 -0.66497802734375 0.0008075237274169922 0.0005285739898681641 0.036418914794921875 -0.11026763916015625
17.84125 -0.07456207275390625 0.0835723876953125 1.707763671875 -0.79638671875 0.0007089376449584961 0.0011311769485473633 0.0290679931640625 -0.10982513427734375
17.851 -0.06974029541015625 0.09089279174804688 1.62860107421875 -0.914794921875 0.0004252195358276367 0.0011129975318908691 0.024593353271484375 -0.11065292358398438
17.86075 -0.06551742553710938 0.09632110595703125 1.5540771484375 -1.02020263671875 0.0012176036834716797 0.0014240741729736328 0.017459869384765625 -0.10862350463867188
17.8705 -0.059146881103515625 0.10094833374023438 1.47393798828125 -1.11981201171875 0.0004742145538330078 0.0010228157043457031 0.013843536376953125 -0.10903167724609375
17.88025 -0.055843353271484375 0.10854339599609375 1.395751953125 -1.21533203125 0.0010353326797485352 0.0019145011901855469 0.00655364990234375 -0.10796737670898438
17.89 -0.050136566162109375 0.11266708374023438 1.31689453125 -1.30950927734375 0.00027549266815185547 5.7324767112731934e-05 0.002033233642578125 -0.1074066162109375
17.89975 -0.044498443603515625 0.11876296997070312 1.22576904296875 -1.40472412109375 0.0015982389450073242 0.0010371208190917969 -0.003116607666015625 -0.10692596435546875
17.9095 -0.039031982421875 0.121490478515625 1.12591552734375 -1.5025634765625 0.0009332895278930664 0.0002143383026123047 -0.01007843017578125 -0.10540771484375
17.91925 -0.03165435791015625 0.12560272216796875 1.012451171875 -1.5894775390625 8.50185751914978e-05 8.583813905715942e-05 -0.012420654296875 -0.10345077514648438
17.929 -0.0252227783203125 0.1289520263671875 0.892822265625 -1.6678466796875 -0.0004718303680419922 0.0010495185852050781 -0.01953887939453125 -0.101165771484375
17.93875 -0.01763916015625 0.133056640625 0.763916015625 -1.7286376953125 0.00017771124839782715 0.0007771551609039307 -0.02442169189453125 -0.10003280639648438
17.9485 -0.0118865966796875 0.13484954833984375 0.63348388671875 -1.77386474609375 0.0012516975402832031 0.0005766749382019043 -0.029567718505859375 -0.09450912475585938
17.95825 -0.00614166259765625 0.13748931884765625 0.5057373046875 -1.81146240234375 0.0007423162460327148 -0.00014638900756835938 -0.03357696533203125 -0.092803955078125
17.968 0.0012054443359375 0.13919830322265625 0.37921142578125 -1.84295654296875 0.00021120905876159668 0.00018003582954406738 -0.03897857666015625 -0.0896148681640625
17.97775 0.00940704345703125 0.14081573486328125 0.2567138671875 -1.8603515625 -4.5299530029296875e-05 0.0011536478996276855 -0.0433807373046875 -0.08499908447265625
17.9875 0.01816558837890625 0.14450836181640625 0.129638671875 -1.88458251953125 -0.00010498613119125366 8.741766214370728e-05 -0.04615020751953125 -0.0802459716796875
17.99725 0.02508544921875 0.14453887939453125 -0.0032958984375 -1.9046630859375 0.0008033514022827148 0.0008088350296020508 -0.05092620849609375 -0.07711029052734375
18.007 0.03170013427734375 0.1443328857421875 -0.14111328125 -1.9129638671875 0.0008507370948791504 0.000471651554107666 -0.05394744873046875 -0.07193756103515625
18.01675 0.04149627685546875 0.145050048828125 -0.28466796875 -1.9136962890625 -7.861852645874023e-05 0.0004429370164871216 -0.05922698974609375 -0.0673675537109375
18.0265 0.0484771728515625 0.1453704833984375 -0.43310546875 -1.8984375 0.0013562440872192383 -0.00025284290313720703 -0.064483642578125 -0.0638427734375
18.03625 0.056793212890625 0.1470184326171875 -0.582275390625 -1.86767578125 0.0021109580993652344 0.0007538795471191406 -0.0655517578125 -0.0570831298828125
18.046 0.0636444091796875 0.145751953125 -0.7275390625 -1.8206787109375 -0.0008028745651245117 0.0008276104927062988 -0.06786346435546875 -0.051410675048828125
18.05575 0.07268524169921875 0.14257049560546875 -0.8587646484375 -1.76611328125 0.001257479190826416 -0.0009377598762512207 -0.07240676879882812 -0.04547119140625
18.0655 0.07927703857421875 0.14239501953125 -0.9825439453125 -1.699462890625 0.001681208610534668 -0.000914454460144043 -0.0755157470703125 -0.040134429931640625
18.07525 0.08758544921875 0.13924407958984375 -1.105224609375 -1.6314697265625 0.0018644332885742188 0.00027441978454589844 -0.07777786254882812 -0.034030914306640625
18.085 0.09503936767578125 0.13735198974609375 -1.2265625 -1.555908203125 0.00036194920539855957 0.0003191828727722168 -0.07985305786132812 -0.0281219482421875
18.09475 0.10181427001953125 0.13541412353515625 -1.34521484375 -1.4739990234375 0.0008839666843414307 -0.00032332539558410645 -0.07756805419921875 -0.02227783203125
18.1045 0.10887908935546875 0.1303253173828125 -1.46044921875 -1.3814697265625 0.000613480806350708 -7.56978988647461e-05 -0.08145523071289062 -0.016246795654296875
18.11425 0.1158599853515625 0.12914276123046875 -1.5743408203125 -1.2734375 0.001613616943359375 -0.0006363987922668457 -0.08155059814453125 -0.010650634765625
18.124 0.12249755859375 0.1233978271484375 -1.680419921875 -1.157470703125 0.0007727146148681641 -0.00028759241104125977 -0.08008575439453125 -0.00213623046875
18.13375 0.1286773681640625 0.11869049072265625 -1.775146484375 -1.0318603515625 0.00013947486877441406 0.00034646689891815186 -0.08012771606445312 0.002964019775390625
18.1435 0.1362762451171875 0.114898681640625 -1.8551025390625 -0.8944091796875 0.0014818906784057617 4.32133674621582e-05 -0.08020401000976562 0.011653900146484375
18.15325 0.141937255859375 0.1083831787109375 -1.9296875 -0.7513427734375 -0.0001569986343383789 -0.0003922879695892334 -0.07806015014648438 0.018718719482421875
18.163 0.1503143310546875 0.103546142578125 -1.988525390625 -0.606689453125 0.0012037158012390137 -0.00025790929794311523 -0.07568359375 0.024753570556640625
18.17275 0.154632568359375 0.09759521484375 -2.0362548828125 -0.455810546875 0.0006438791751861572 -0.0002632439136505127 -0.07273101806640625 0.031284332275390625
18.1825 0.16180419921875 0.0900115966796875 -2.0819091796875 -0.301513671875 0.0001965165138244629 -0.0006895959377288818 -0.07052993774414062 0.03856658935546875
18.19225 0.1653900146484375 0.084564208984375 -2.1160888671875 -0.1370849609375 6.082653999328613e-05 0.0005688965320587158 -0.06721115112304688 0.04578399658203125
18.202 0.17071533203125 0.07765960693359375 -2.130615234375 0.0252685546875 0.0005667805671691895 -0.0004315376281738281 -0.06520843505859375 0.052700042724609375
18.21175 0.1757965087890625 0.0697174072265625 -2.13427734375 0.200927734375 0.0001354217529296875 0.0007378458976745605 -0.060832977294921875 0.0584869384765625
18.2215 0.18140411376953125 0.06243896484375 -2.1201171875 0.3726806640625 0.00020691752433776855 -0.00013089925050735474 -0.0550994873046875 0.06275177001953125
18.23125 0.1851806640625 0.05582427978515625 -2.087890625 0.540771484375 0.0010095834732055664 -0.00022590160369873047 -0.051967620849609375 0.06824874877929688
18.241 0.1874847412109375 0.047882080078125 -2.044189453125 0.7037353515625 5.9276819229125977e-05 -0.0005282163619995117 -0.0478363037109375 0.07359695434570312
18.25075 0.18963623046875 0.03798675537109375 -1.986328125 0.8597412109375 0.0010449886322021484 2.1398067474365234e-05 -0.040008544921875 0.07661056518554688
18.2605 0.19237518310546875 0.03244781494140625 -1.91766357421875 1.0140380859375 0.0007129311561584473 -0.0017853379249572754 -0.03375244140625 0.08087158203125
18.27025 0.19437408447265625 0.02274322509765625 -1.84295654296875 1.16009521484375 0.0003654956817626953 0.00016805529594421387 -0.027416229248046875 0.08491134643554688
18.28 0.1949615478515625 0.01345062255859375 -1.758056640625 1.313232421875 0.0014841556549072266 -0.0006685256958007812 -0.02142333984375 0.08820724487304688
18.28975 0.19720458984375 0.0035552978515625 -1.659423828125 1.45538330078125 -0.00018090009689331055 -0.0009368658065795898 -0.014179229736328125 0.09225845336914062
18.2995 0.19820404052734375 -0.0036163330078125 -1.542724609375 1.59307861328125 -0.000252455472946167 -0.00013794004917144775 -0.006732940673828125 0.09184646606445312
18.30925 0.1972503662109375 -0.0135040283203125 -1.4058837890625 1.7193603515625 0.0008078813552856445 -0.0004603266716003418 0.00356292724609375 0.09563446044921875
18.319 0.1962127685546875 -0.02313995361328125 -1.26141357421875 1.8311767578125 0.0013516545295715332 -0.0002576112747192383 0.009189605712890625 0.09825515747070312
18.32875 0.19647216796875 -0.0306854248046875 -1.10809326171875 1.92230224609375 0.0013550519943237305 -0.0005469322204589844 0.01831817626953125 0.09760665893554688
18.3385 0.1942138671875 -0.0416412353515625 -0.9512939453125 1.9974365234375 -0.000716865062713623 -0.0006650686264038086 0.02701568603515625 0.09778976440429688
18.34825 0.19243621826171875 -0.04946136474609375 -0.7960205078125 2.0653076171875 -0.0002821385860443115 -0.0005877912044525146 0.03379058837890625 0.097930908203125
18.358 0.190216064453125 -0.0587158203125 -0.6400146484375 2.1248779296875 0.00047691166400909424 -0.00035884976387023926 0.04401397705078125 0.0974578857421875
18.36775 0.1873779296875 -0.066864013671875 -0.4736328125 2.172607421875 0.0006593763828277588 8.970499038696289e-06 0.0500946044921875 0.09525299072265625
18.3775 0.18414306640625 -0.07424163818359375 -0.30615234375 2.2152099609375 0.0002253800630569458 -2.707540988922119e-05 0.0574188232421875 0.0926971435546875
18.38725 0.180999755859375 -0.0846710205078125 -0.124267578125 2.2418212890625 0.0007635653018951416 9.363889694213867e-05 0.065185546875 0.0910491943359375
18.397 0.176513671875 -0.0919036865234375 0.061767578125 2.246337890625 0.0006403923034667969 0.0001392364501953125 0.0732574462890625 0.087890625
18.40675 0.1720123291015625 -0.098388671875 0.25244140625 2.23388671875 0.0005191564559936523 -0.0005841255187988281 0.0804901123046875 0.083465576171875
18.4165 0.16539764404296875 -0.1048126220703125 0.4302978515625 2.197265625 0.0006737112998962402 0.0005841851234436035 0.08782196044921875 0.0782928466796875
18.42625 0.16141510009765625 -0.11321258544921875 0.6007080078125 2.1405029296875 -0.0003479123115539551 -0.0006644725799560547 0.09381866455078125 0.07305145263671875
18.436 0.15319061279296875 -0.1189422607421875 0.75830078125 2.0789794921875 0.00103682279586792 -0.00025844573974609375 0.10135650634765625 0.0672760009765625
18.44575 0.146514892578125 -0.12529754638671875 0.9072265625 2.0091552734375 -0.0008980035781860352 -0.0014996528625488281 0.10494232177734375 0.06002044677734375
18.4555 0.14015960693359375 -0.1324310302734375 1.0496826171875 1.935546875 -0.00016134977340698242 -0.0006658434867858887 0.11077117919921875 0.053070068359375
18.46525 0.1333465576171875 -0.1378173828125 1.1962890625 1.859619140625 -0.00037664175033569336 -0.0009506940841674805 0.1156768798828125 0.04412078857421875
18.475 0.124114990234375 -0.14249420166015625 1.3397216796875 1.776611328125 -7.926672697067261e-05 -0.00013603270053863525 0.11907958984375 0.0375213623046875
18.48475 0.11881256103515625 -0.147979736328125 1.4788818359375 1.666259765625 -0.0006605386734008789 -0.0003815889358520508 0.1230926513671875 0.02777099609375
18.4945 0.11005401611328125 -0.1522064208984375 1.613037109375 1.5404052734375 -0.0005209445953369141 -0.0005962848663330078 0.1259918212890625 0.0191802978515625
18.50425 0.10089111328125 -0.1579132080078125 1.73828125 1.3984375 -0.0006082057952880859 0.00019794702529907227 0.1276702880859375 0.0113677978515625
18.514 0.096405029296875 -0.1605987548828125 1.840087890625 1.24609375 0.0007277727127075195 -0.0007625222206115723 0.1302490234375 0.002960205078125
18.52375 0.08567047119140625 -0.1622161865234375 1.9183349609375 1.0845947265625 0.0003479421138763428 -0.0008715987205505371 0.129150390625 -0.00688934326171875
18.5335 0.078887939453125 -0.16538238525390625 1.9783935546875 0.9295654296875 0.0009824037551879883 -0.0001431107521057129 0.13071441650390625 -0.0137786865234375
18.54325 0.0717010498046875 -0.16823577880859375 2.025634765625 0.777099609375 0.0008680820465087891 0.0003676414489746094 0.12989044189453125 -0.02324676513671875
18.553 0.06252288818359375 -0.17026519775390625 2.0655517578125 0.6290283203125 -0.00013703107833862305 -0.00024440884590148926 0.1268463134765625 -0.03076934814453125
18.56275 0.05626678466796875 -0.17081451416015625 2.1041259765625 0.4794921875 -1.2081116437911987e-05 -2.6734545826911926e-05 0.12529754638671875 -0.03993988037109375
18.5725 0.04853057861328125 -0.1710205078125 2.1390380859375 0.325927734375 0.0002685040235519409 -0.0003896951675415039 0.1209259033203125 -0.0469970703125
18.58225 0.03890228271484375 -0.1716766357421875 2.1619873046875 0.1640625 0.001154780387878418 -1.2993812561035156e-05 0.115814208984375 -0.055591583251953125
18.592 0.0309295654296875 -0.17193603515625 2.168212890625 -0.005615234375 0.0011121630668640137 0.00016456842422485352 0.11144256591796875 -0.06240081787109375
18.60175 0.0234375 -0.1706085205078125 2.159423828125 -0.178955078125 0.0004292726516723633 0.0007623434066772461 0.10718536376953125 -0.06878662109375
18.6115 0.0149383544921875 -0.1696319580078125 2.1285400390625 -0.3460693359375 0.0006018579006195068 -0.000702977180480957 0.102081298828125 -0.07550430297851562
18.62125 0.00708770751953125 -0.16822052001953125 2.0802001953125 -0.5032958984375 -0.0005046725273132324 -9.882450103759766e-05 0.095428466796875 -0.08095550537109375
18.631 -0.0012054443359375 -0.16779327392578125 2.0257568359375 -0.644775390625 0.0004457235336303711 -0.00024697184562683105 0.08968734741210938 -0.08535003662109375
18.64075 -0.00879669189453125 -0.16620635986328125 1.96234130859375 -0.77801513671875 5.4836273193359375e-05 -0.00032560527324676514 0.0843963623046875 -0.08959579467773438
18.6505 -0.0134429931640625 -0.1634674072265625 1.89801025390625 -0.90545654296875 -0.00027310848236083984 -0.00022390484809875488 0.07831573486328125 -0.0947418212890625
18.66025 -0.0236968994140625 -0.161376953125 1.83489990234375 -1.03277587890625 0.0007858872413635254 -0.0006857216358184814 0.06938934326171875 -0.09685897827148438
18.67 -0.02841949462890625 -0.15887451171875 1.7633056640625 -1.1600341796875 0.0002523064613342285 -0.0007035434246063232 0.063507080078125 -0.09685897827148438
