!Created with skrf (http://scikit-rf.org).
# GHz S RI R 50.0 
!freq ReS11 ImS11 ReS21 ImS21 ReS12 ImS12 ReS22 ImS22
17.5 0.0112762451171875 -0.14057159423828125 -1.1279296875 1.33349609375 -0.0014985203742980957 -0.0002149343490600586 0.09500885009765625 0.00344085693359375
17.50975 0.00147247314453125 -0.13884735107421875 -1.01007080078125 1.417724609375 -0.001779019832611084 0.0007056593894958496 0.09771347045898438 0.0024566650390625
17.5195 -0.0070343017578125 -0.13574981689453125 -0.88580322265625 1.4893798828125 -0.0013407468795776367 -0.0002536177635192871 0.10007476806640625 0.001026153564453125
17.52925 -0.0146636962890625 -0.1301727294921875 -0.76165771484375 1.55145263671875 -0.0012192130088806152 0.0006397366523742676 0.10305404663085938 -0.002857208251953125
17.539 -0.0194549560546875 -0.1259613037109375 -0.6353759765625 1.5982666015625 -0.0019282102584838867 0.0004451274871826172 0.10517120361328125 -0.00492095947265625
17.54875 -0.029266357421875 -0.12151336669921875 -0.5067138671875 1.63336181640625 -0.0014127492904663086 0.00017184019088745117 0.10692596435546875 -0.008213043212890625
17.5585 -0.03875732421875 -0.11835479736328125 -0.377197265625 1.66375732421875 -0.0011023879051208496 0.00013315677642822266 0.10837173461914062 -0.010692596435546875
17.56825 -0.04233551025390625 -0.11392974853515625 -0.25396728515625 1.68499755859375 -0.0015274882316589355 0.0012522339820861816 0.10962295532226562 -0.01528167724609375
17.578 -0.05019378662109375 -0.1085662841796875 -0.1168212890625 1.69879150390625 -0.0006487071514129639 0.000845104455947876 0.11318588256835938 -0.0207366943359375
17.58775 -0.056243896484375 -0.10297393798828125 0.0185546875 1.6986083984375 -0.0012360215187072754 0.0008183121681213379 0.11175918579101562 -0.02204132080078125
17.5975 -0.06166839599609375 -0.096282958984375 0.16015625 1.6859130859375 5.221366882324219e-05 -0.0002546459436416626 0.1142730712890625 -0.028766632080078125
17.60725 -0.06682586669921875 -0.09218597412109375 0.29473876953125 1.65838623046875 -0.0006690621376037598 0.0009003877639770508 0.1123046875 -0.03067779541015625
17.617 -0.0729827880859375 -0.083404541015625 0.4227294921875 1.6168212890625 -0.0011168718338012695 0.0008845329284667969 0.11525344848632812 -0.036098480224609375
17.62675 -0.07635498046875 -0.07720947265625 0.5440673828125 1.5635986328125 -0.000951230525970459 0.0009202361106872559 0.115325927734375 -0.038372039794921875
17.6365 -0.0786590576171875 -0.0709686279296875 0.653564453125 1.5029296875 -0.0007594823837280273 0.001067519187927246 0.1148834228515625 -0.04583740234375
17.64625 -0.08411407470703125 -0.0628814697265625 0.751220703125 1.44091796875 -0.0010028481483459473 0.0008285641670227051 0.11327362060546875 -0.0503692626953125
17.656 -0.087127685546875 -0.05757904052734375 0.8470458984375 1.3775634765625 0.0002142488956451416 0.0007650554180145264 0.1097259521484375 -0.055858612060546875
17.66575 -0.0894012451171875 -0.048126220703125 0.9368896484375 1.316650390625 -0.0004176497459411621 0.0008468925952911377 0.1087646484375 -0.059444427490234375
17.6755 -0.0938873291015625 -0.0426025390625 1.027587890625 1.2481689453125 -0.0005547404289245605 0.0007206201553344727 0.10541152954101562 -0.06401443481445312
17.68525 -0.0951690673828125 -0.03423309326171875 1.1182861328125 1.1798095703125 0.00012379884719848633 0.0009748935699462891 0.10361480712890625 -0.06949234008789062
17.695 -0.09531402587890625 -0.024196624755859375 1.2103271484375 1.0927734375 -0.0007213354110717773 0.0014696717262268066 0.10165023803710938 -0.0718536376953125
17.70475 -0.0987091064453125 -0.0163726806640625 1.300048828125 0.9947509765625 -0.00012415647506713867 0.001042008399963379 0.097259521484375 -0.07785797119140625
17.7145 -0.09903335571289062 -0.008518218994140625 1.3792724609375 0.8826904296875 0.00014597177505493164 0.0011301040649414062 0.0927276611328125 -0.08170318603515625
17.72425 -0.09920120239257812 -0.000942230224609375 1.43896484375 0.7608642578125 -0.0004729032516479492 0.0021773576736450195 0.08940887451171875 -0.08578109741210938
17.734 -0.10100173950195312 0.006603240966796875 1.4818115234375 0.639404296875 -0.0009608268737792969 0.0005209147930145264 0.08457183837890625 -0.08914947509765625
17.74375 -0.10202789306640625 0.0141448974609375 1.50830078125 0.5186767578125 0.0008469820022583008 0.0009067058563232422 0.08017730712890625 -0.0945892333984375
17.7535 -0.09908294677734375 0.022014617919921875 1.52850341796875 0.404052734375 -0.0017504692077636719 0.001328885555267334 0.07709503173828125 -0.09688949584960938
17.76325 -0.09818267822265625 0.029994964599609375 1.539306640625 0.29876708984375 0.0001602768898010254 0.0002759099006652832 0.07140731811523438 -0.09921646118164062
17.773 -0.09603118896484375 0.035465240478515625 1.55023193359375 0.19879150390625 -0.0002865791320800781 0.002675175666809082 0.066864013671875 -0.10275650024414062
17.78275 -0.09458541870117188 0.042888641357421875 1.55633544921875 0.0946044921875 0.000428617000579834 0.0004228651523590088 0.06249237060546875 -0.1032867431640625
17.7925 -0.09272003173828125 0.0492095947265625 1.56597900390625 -0.01129150390625 -0.0003603696823120117 0.0017376542091369629 0.0565185546875 -0.10577011108398438
17.80225 -0.08803939819335938 0.056499481201171875 1.5687255859375 -0.1246337890625 -3.546476364135742e-06 0.0006362199783325195 0.05205535888671875 -0.10741424560546875
17.812 -0.08536148071289062 0.06461715698242188 1.559326171875 -0.24603271484375 0.00016438961029052734 0.0009289383888244629 0.04557037353515625 -0.108612060546875
17.82175 -0.08119583129882812 0.07176971435546875 1.54052734375 -0.36474609375 -0.0006898641586303711 0.0012294650077819824 0.04068756103515625 -0.1082305908203125
17.8315 -0.07910919189453125 0.0782318115234375 1.5028076171875 -0.4827880859375 -8.940696716308594e-06 0.0029082298278808594 0.03582000732421875 -0.10846710205078125
17.84125 -0.07326507568359375 0.0849456787109375 1.45849609375 -0.5921630859375 0.0008213520050048828 0.0012607574462890625 0.028778076171875 -0.10918426513671875
17.851 -0.06834793090820312 0.09231185913085938 1.395263671875 -0.6943359375 5.248934030532837e-06 -6.663426756858826e-05 0.0240020751953125 -0.10892868041992188
17.86075 -0.06444931030273438 0.09640884399414062 1.33905029296875 -0.7841796875 -0.00045809149742126465 0.0009661316871643066 0.017253875732421875 -0.10813140869140625
17.8705 -0.05821990966796875 0.10010147094726562 1.27716064453125 -0.8677978515625 0.0008846521377563477 0.0012273788452148438 0.01226806640625 -0.10882568359375
17.88025 -0.05333709716796875 0.108428955078125 1.21734619140625 -0.95245361328125 0.0004639625549316406 0.000937044620513916 0.006603240966796875 -0.10779190063476562
17.89 -0.049549102783203125 0.11577224731445312 1.15576171875 -1.0343017578125 0.0008815526962280273 0.0011638402938842773 0.001270294189453125 -0.10504531860351562
17.89975 -0.042575836181640625 0.118408203125 1.08685302734375 -1.1175537109375 0.0007278323173522949 0.0007637143135070801 -0.002899169921875 -0.10565948486328125
17.9095 -0.0380859375 0.122222900390625 1.0084228515625 -1.1986083984375 0.0003863871097564697 9.685754776000977e-05 -0.00966644287109375 -0.10457229614257812
17.91925 -0.0296478271484375 0.12506103515625 0.9193115234375 -1.27642822265625 0.0006789565086364746 0.0002493560314178467 -0.01462554931640625 -0.10178375244140625
17.929 -0.025115966796875 0.128387451171875 0.82666015625 -1.3468017578125 -0.00014528632164001465 0.0004118978977203369 -0.01915740966796875 -0.1011505126953125
17.93875 -0.01894378662109375 0.13216400146484375 0.721435546875 -1.40576171875 0.0018439292907714844 0.000796198844909668 -0.02487945556640625 -0.097412109375
17.9485 -0.01136016845703125 0.13541412353515625 0.61785888671875 -1.44830322265625 0.0003822445869445801 0.0010215044021606445 -0.03015899658203125 -0.09407424926757812
17.95825 -0.00495147705078125 0.13750457763671875 0.51519775390625 -1.48583984375 0.00043594837188720703 0.0012968778610229492 -0.0325775146484375 -0.091705322265625
17.968 0.002166748046875 0.13967132568359375 0.4130859375 -1.517333984375 0.0009299516677856445 7.05718994140625e-05 -0.037708282470703125 -0.08687973022460938
17.97775 0.0097198486328125 0.141357421875 0.31256103515625 -1.54180908203125 0.0006835460662841797 0.0005555152893066406 -0.04279327392578125 -0.08307647705078125
17.9875 0.01915740966796875 0.14321136474609375 0.20849609375 -1.56982421875 0.0012078285217285156 0.0006185173988342285 -0.04640960693359375 -0.0802459716796875
17.99725 0.026214599609375 0.14397430419921875 0.103271484375 -1.59521484375 0.00039708614349365234 0.0006029605865478516 -0.0494384765625 -0.07521820068359375
18.007 0.032806396484375 0.1431884765625 -0.0123291015625 -1.6121826171875 0.00047600269317626953 0.0005854368209838867 -0.0548095703125 -0.07073974609375
18.01675 0.04113006591796875 0.1447601318359375 -0.13201904296875 -1.61859130859375 0.00045669078826904297 -0.0006222426891326904 -0.05826568603515625 -0.06583786010742188
18.0265 0.0494537353515625 0.1457672119140625 -0.2562255859375 -1.6180419921875 0.0014393329620361328 -5.1140785217285156e-05 -0.0626983642578125 -0.06098175048828125
18.03625 0.056610107421875 0.1458587646484375 -0.3802490234375 -1.6002197265625 0.0012259483337402344 -0.00014519691467285156 -0.0649566650390625 -0.05649566650390625
18.046 0.064483642578125 0.14524078369140625 -0.50390625 -1.5714111328125 0.00047147274017333984 -0.0005814135074615479 -0.06776809692382812 -0.05129241943359375
18.05575 0.07154083251953125 0.14261627197265625 -0.616455078125 -1.53564453125 3.473460674285889e-05 0.00045259296894073486 -0.07227706909179688 -0.04578399658203125
18.0655 0.07952880859375 0.1411895751953125 -0.724609375 -1.4906005859375 0.0011954903602600098 0.0003924369812011719 -0.07515716552734375 -0.03943634033203125
18.07525 0.08725738525390625 0.13996124267578125 -0.832275390625 -1.4407958984375 4.9486756324768066e-05 0.00034946203231811523 -0.07742691040039062 -0.033458709716796875
18.085 0.09627532958984375 0.1369171142578125 -0.9415283203125 -1.3868408203125 0.0010050535202026367 -0.00012832880020141602 -0.079132080078125 -0.028076171875
18.09475 0.10208892822265625 0.133544921875 -1.047607421875 -1.32861328125 0.0005766153335571289 0.0009739398956298828 -0.0767364501953125 -0.02234649658203125
18.1045 0.1091461181640625 0.13060760498046875 -1.1512451171875 -1.2596435546875 0.0006025433540344238 0.0007649064064025879 -0.08086395263671875 -0.01407623291015625
18.11425 0.1161041259765625 0.12762451171875 -1.2550048828125 -1.1778564453125 -0.00016385316848754883 -0.0010180473327636719 -0.07931900024414062 -0.010990142822265625
18.124 0.122467041015625 0.1237640380859375 -1.353515625 -1.0859375 0.0012165307998657227 -0.0001380443572998047 -0.0800323486328125 -0.00299835205078125
18.13375 0.1293182373046875 0.1195526123046875 -1.443603515625 -0.9881591796875 0.00025266408920288086 -0.0014847517013549805 -0.07904434204101562 0.002819061279296875
18.1435 0.135406494140625 0.11383819580078125 -1.5225830078125 -0.8770751953125 0.0004392862319946289 0.001045525074005127 -0.07944869995117188 0.013580322265625
18.15325 0.1421051025390625 0.108489990234375 -1.595947265625 -0.7623291015625 0.0015483498573303223 0.0002155900001525879 -0.0778656005859375 0.017436981201171875
18.163 0.1485137939453125 0.1016845703125 -1.6556396484375 -0.64111328125 0.0003126859664916992 -0.0003192126750946045 -0.07479095458984375 0.0261688232421875
18.17275 0.1547088623046875 0.0962677001953125 -1.710693359375 -0.516357421875 0.0005294680595397949 -0.0007049739360809326 -0.07135009765625 0.031429290771484375
18.1825 0.16064453125 0.090179443359375 -1.76171875 -0.388671875 0.0006124675273895264 -5.093216896057129e-05 -0.06983566284179688 0.039081573486328125
18.19225 0.164794921875 0.0832061767578125 -1.80322265625 -0.2535400390625 0.00110703706741333 -0.0005713701248168945 -0.0677337646484375 0.0445556640625
18.202 0.1694488525390625 0.07767486572265625 -1.82989501953125 -0.11309814453125 0.0006878077983856201 -6.809830665588379e-05 -0.06473159790039062 0.050750732421875
18.21175 0.1740570068359375 0.0709686279296875 -1.8458251953125 0.0396728515625 0.0003478825092315674 -0.0001150965690612793 -0.058643341064453125 0.0572052001953125
18.2215 0.18015289306640625 0.0620269775390625 -1.84466552734375 0.18878173828125 0.00046387314796447754 0.00011879205703735352 -0.05512237548828125 0.0626983642578125
18.23125 0.18314361572265625 0.05603790283203125 -1.8331298828125 0.33575439453125 -8.738040924072266e-05 -0.0011295676231384277 -0.052455902099609375 0.06757736206054688
18.241 0.1858978271484375 0.04718017578125 -1.802734375 0.48046875 0.0004476010799407959 -0.0008622109889984131 -0.047016143798828125 0.07275009155273438
18.25075 0.18944549560546875 0.0397796630859375 -1.765625 0.61956787109375 0.0008068084716796875 -0.0007824301719665527 -0.040802001953125 0.07709121704101562
18.2605 0.19017791748046875 0.03145599365234375 -1.7147216796875 0.75494384765625 0.0007597804069519043 -0.000681072473526001 -0.033664703369140625 0.0806427001953125
18.27025 0.192962646484375 0.02222442626953125 -1.66302490234375 0.888427734375 5.379319190979004e-05 -0.000527501106262207 -0.026714324951171875 0.08538055419921875
18.28 0.19512176513671875 0.01248931884765625 -1.5987548828125 1.02838134765625 0.00012138485908508301 0.00039505958557128906 -0.02085113525390625 0.0880889892578125
18.28975 0.19733428955078125 0.00341796875 -1.52197265625 1.1580810546875 0.0005148649215698242 4.1425228118896484e-06 -0.013042449951171875 0.0914764404296875
18.2995 0.1981658935546875 -0.00548553466796875 -1.43072509765625 1.2843017578125 0.000258713960647583 0.00011073052883148193 -0.00565338134765625 0.09088897705078125
18.30925 0.1965789794921875 -0.013702392578125 -1.3206787109375 1.4027099609375 0.00022339820861816406 -0.0010640621185302734 0.00159454345703125 0.09421539306640625
18.319 0.19535064697265625 -0.02283477783203125 -1.1982421875 1.50909423828125 -0.0002936422824859619 -0.00022852420806884766 0.010986328125 0.09713363647460938
18.32875 0.1938323974609375 -0.02927398681640625 -1.07513427734375 1.60186767578125 -0.0005666017532348633 -0.0011011362075805664 0.019054412841796875 0.09687042236328125
18.3385 0.19336700439453125 -0.0405120849609375 -0.941650390625 1.67633056640625 0.0012827515602111816 -0.000520169734954834 0.0275421142578125 0.0984039306640625
18.34825 0.19081878662109375 -0.0497894287109375 -0.814208984375 1.7479248046875 0.00017095357179641724 6.089359521865845e-05 0.03466796875 0.09809112548828125
18.358 0.18988800048828125 -0.05892181396484375 -0.6785888671875 1.808837890625 0.0006641745567321777 -0.0005771815776824951 0.0435333251953125 0.097137451171875
18.36775 0.1862945556640625 -0.06728363037109375 -0.53765869140625 1.86407470703125 -0.00034174323081970215 -0.0003606081008911133 0.05014801025390625 0.09442901611328125
18.3775 0.18377685546875 -0.0737457275390625 -0.39483642578125 1.9085693359375 5.602836608886719e-05 -0.0010689496994018555 0.0579986572265625 0.0919189453125
18.38725 0.17966461181640625 -0.08376312255859375 -0.23553466796875 1.943603515625 7.37607479095459e-05 -0.0007349848747253418 0.065185546875 0.09004974365234375
18.397 0.177001953125 -0.0899810791015625 -0.0743408203125 1.9599609375 8.487701416015625e-05 0.0004366636276245117 0.0729217529296875 0.085968017578125
18.40675 0.172210693359375 -0.0982513427734375 0.09375 1.9638671875 0.000977635383605957 -0.0003668069839477539 0.080169677734375 0.082916259765625
18.4165 0.16527557373046875 -0.10565948486328125 0.251953125 1.9407958984375 0.0003165006637573242 -0.0010764002799987793 0.08606719970703125 0.0780792236328125
18.42625 0.15941619873046875 -0.11383056640625 0.4052734375 1.9036865234375 0.0007739663124084473 0.0004919171333312988 0.0942535400390625 0.0723876953125
18.436 0.15338897705078125 -0.11832427978515625 0.5458984375 1.857177734375 -0.0011403560638427734 0.0004864335060119629 0.1015625 0.06679534912109375
18.44575 0.14715576171875 -0.1253814697265625 0.680908203125 1.8048095703125 -0.00020128488540649414 -3.3833086490631104e-05 0.1047210693359375 0.06049346923828125
18.4555 0.139007568359375 -0.13082122802734375 0.810546875 1.7498779296875 0.0005093812942504883 0.0002244412899017334 0.109619140625 0.05194091796875
18.46525 0.13372039794921875 -0.13720703125 0.94140625 1.690185546875 0.0007154941558837891 0.00030535459518432617 0.11492156982421875 0.04422760009765625
18.475 0.125762939453125 -0.142333984375 1.0731201171875 1.6226806640625 0.0010158419609069824 0.00011938810348510742 0.1191253662109375 0.0364837646484375
18.48475 0.12023162841796875 -0.14820098876953125 1.20458984375 1.537353515625 0.0008735954761505127 -0.0006629824638366699 0.12293243408203125 0.0270843505859375
18.4945 0.110687255859375 -0.15122222900390625 1.3310546875 1.435791015625 0.0007046759128570557 -0.00045481324195861816 0.126190185546875 0.01851654052734375
18.50425 0.104095458984375 -0.156707763671875 1.44775390625 1.319091796875 0.0005873441696166992 -0.0006111860275268555 0.1274261474609375 0.01092529296875
18.514 0.0970611572265625 -0.1588592529296875 1.54541015625 1.189697265625 0.00011068582534790039 -0.0009431838989257812 0.128936767578125 0.003173828125
18.52375 0.08658599853515625 -0.1612091064453125 1.6243896484375 1.0535888671875 0.0016338825225830078 -0.0009573698043823242 0.12784576416015625 -0.00679779052734375
18.5335 0.07962799072265625 -0.16532135009765625 1.6861572265625 0.919677734375 -0.00011590123176574707 -0.0003975331783294678 0.1306610107421875 -0.01317596435546875
18.54325 0.072174072265625 -0.16933441162109375 1.7386474609375 0.7913818359375 0.0004941225051879883 -0.0006406307220458984 0.12757110595703125 -0.02382659912109375
18.553 0.06430816650390625 -0.169403076171875 1.78125 0.6595458984375 0.0005915164947509766 0.00010386109352111816 0.12580108642578125 -0.03060150146484375
18.56275 0.056610107421875 -0.1700592041015625 1.8255615234375 0.533203125 0.00045371055603027344 -0.0006587803363800049 0.12458419799804688 -0.038578033447265625
18.5725 0.047515869140625 -0.17108154296875 1.8631591796875 0.3966064453125 0.0004425346851348877 -0.000677943229675293 0.11899566650390625 -0.047481536865234375
18.58225 0.04000091552734375 -0.17134857177734375 1.8900146484375 0.255859375 0.0006093978881835938 -0.00035387277603149414 0.11566925048828125 -0.054546356201171875
18.592 0.031768798828125 -0.17304229736328125 1.9078369140625 0.105712890625 0.0011726021766662598 -0.0007075667381286621 0.11083602905273438 -0.062450408935546875
18.60175 0.0237579345703125 -0.1716461181640625 1.910888671875 -0.0491943359375 0.000881195068359375 -0.0010143518447875977 0.105621337890625 -0.0671234130859375
18.6115 0.01627349853515625 -0.16962432861328125 1.89208984375 -0.19805908203125 0.0005235373973846436 -0.000359266996383667 0.10161209106445312 -0.07474517822265625
18.62125 0.00823974609375 -0.16849517822265625 1.8599853515625 -0.34027099609375 0.0009354948997497559 -0.0011597275733947754 0.09517288208007812 -0.0811767578125
18.631 -1.52587890625e-05 -0.16776275634765625 1.81927490234375 -0.46728515625 -0.00046196579933166504 -0.0001112818717956543 0.08909988403320312 -0.08628463745117188
18.64075 -0.0081939697265625 -0.1663818359375 1.77191162109375 -0.59088134765625 -0.0003956258296966553 -0.0004950165748596191 0.08380126953125 -0.08890151977539062
18.6505 -0.01404571533203125 -0.16478729248046875 1.7225341796875 -0.70709228515625 -3.147125244140625e-05 -0.0006045997142791748 0.07715988159179688 -0.09317398071289062
18.66025 -0.0225982666015625 -0.1614227294921875 1.67156982421875 -0.822021484375 -8.821487426757812e-05 -0.0014333724975585938 0.0702972412109375 -0.09647369384765625
18.67 -0.02800750732421875 -0.1596527099609375 1.61663818359375 -0.939208984375 0.0004380643367767334 -0.00019088387489318848 0.06459808349609375 -0.09813690185546875
