!Created with skrf (http://scikit-rf.org).
# GHz S RI R 50.0 
!freq ReS11 ImS11 ReS21 ImS21 ReS12 ImS12 ReS22 ImS22
17.5 0.00939178466796875 -0.14327239990234375 -0.345977783203125 0.4161224365234375 -0.0012770891189575195 -0.0005220770835876465 0.0970611572265625 0.00145721435546875
17.50975 -0.0015716552734375 -0.14060211181640625 -0.305206298828125 0.441741943359375 -0.0012518763542175293 0.00025177001953125 0.10098648071289062 -3.0517578125e-05
17.5195 -0.00759124755859375 -0.1370086669921875 -0.262420654296875 0.4590301513671875 -0.0009987950325012207 0.0011460185050964355 0.1032562255859375 -0.00179290771484375
17.52925 -0.017578125 -0.133056640625 -0.217620849609375 0.47613525390625 -0.0008960366249084473 0.0001640021800994873 0.10575103759765625 -0.0059967041015625
17.539 -0.0225677490234375 -0.126953125 -0.173736572265625 0.485382080078125 5.5670738220214844e-05 0.0013501644134521484 0.10652923583984375 -0.007720947265625
17.54875 -0.0309600830078125 -0.12470245361328125 -0.1334991455078125 0.492095947265625 -0.0011498332023620605 -0.0006480216979980469 0.10866546630859375 -0.011852264404296875
17.5585 -0.04128265380859375 -0.11844635009765625 -0.0918426513671875 0.4953460693359375 -0.0011227130889892578 0.00045096874237060547 0.11038589477539062 -0.0156097412109375
17.56825 -0.04621124267578125 -0.11473846435546875 -0.052398681640625 0.4976348876953125 -0.0008617937564849854 0.0007367730140686035 0.1124267578125 -0.019378662109375
17.578 -0.0525665283203125 -0.10662841796875 -0.0101470947265625 0.4943084716796875 -0.0020443201065063477 0.0012744665145874023 0.11389923095703125 -0.0229949951171875
17.58775 -0.05860137939453125 -0.10442352294921875 0.0306396484375 0.487457275390625 -0.0005004405975341797 0.0006456673145294189 0.11374282836914062 -0.0258636474609375
17.5975 -0.0639801025390625 -0.097564697265625 0.072113037109375 0.477020263671875 -0.0027573108673095703 0.0010503530502319336 0.11370468139648438 -0.0320281982421875
17.60725 -0.06876373291015625 -0.09241485595703125 0.10858154296875 0.46240234375 -0.002152681350708008 0.0010722875595092773 0.11214828491210938 -0.0350799560546875
17.617 -0.0752410888671875 -0.0841522216796875 0.144134521484375 0.443939208984375 -0.0006970763206481934 0.0008093118667602539 0.11374282836914062 -0.039947509765625
17.62675 -0.0800628662109375 -0.0778350830078125 0.17449951171875 0.42236328125 -0.00043764710426330566 0.00040931999683380127 0.1132965087890625 -0.043487548828125
17.6365 -0.0830230712890625 -0.0692596435546875 0.20233154296875 0.400634765625 -0.0007507801055908203 0.002118349075317383 0.113922119140625 -0.048004150390625
17.64625 -0.08718109130859375 -0.06244659423828125 0.22637939453125 0.37786865234375 -0.0009468197822570801 0.0006345808506011963 0.11080551147460938 -0.0529632568359375
17.656 -0.08914947509765625 -0.05629730224609375 0.248504638671875 0.354522705078125 -0.0008164346218109131 0.0007922947406768799 0.10667800903320312 -0.058025360107421875
17.66575 -0.09210205078125 -0.04735565185546875 0.2667236328125 0.332275390625 -0.0007809996604919434 0.0015467405319213867 0.1076812744140625 -0.06250381469726562
17.6755 -0.0966339111328125 -0.03949737548828125 0.28680419921875 0.310302734375 -0.0007173120975494385 0.0008373558521270752 0.10231781005859375 -0.06786346435546875
17.68525 -0.0966949462890625 -0.0314483642578125 0.3055419921875 0.287841796875 -0.0017179250717163086 -0.0005555152893066406 0.10059356689453125 -0.07071685791015625
17.695 -0.09920501708984375 -0.0229949951171875 0.324188232421875 0.262237548828125 -0.0006071925163269043 0.0013753175735473633 0.09867477416992188 -0.0745086669921875
17.70475 -0.10033416748046875 -0.01363372802734375 0.33978271484375 0.233978271484375 -0.0012629032135009766 0.002298712730407715 0.0942840576171875 -0.07871246337890625
17.7145 -0.10162734985351562 -0.0064239501953125 0.354034423828125 0.203887939453125 -0.00037616491317749023 0.0016390681266784668 0.09023284912109375 -0.08258438110351562
17.72425 -0.10062789916992188 0.001476287841796875 0.36077880859375 0.172637939453125 -0.0011974573135375977 0.0009254217147827148 0.08540725708007812 -0.08658218383789062
17.734 -0.10308837890625 0.0083160400390625 0.36456298828125 0.141357421875 0.00047588348388671875 0.0011289119720458984 0.08441925048828125 -0.09049224853515625
17.74375 -0.10330963134765625 0.01531982421875 0.365234375 0.112884521484375 0.0001728534698486328 0.0016199350357055664 0.07868194580078125 -0.09676361083984375
17.7535 -0.09868621826171875 0.0224609375 0.3621978759765625 0.087371826171875 0.0005949139595031738 1.9043684005737305e-05 0.07235336303710938 -0.09831619262695312
17.76325 -0.09728622436523438 0.032375335693359375 0.358795166015625 0.064849853515625 -7.489323616027832e-05 0.000254020094871521 0.06789016723632812 -0.10036849975585938
17.773 -0.09702301025390625 0.039134979248046875 0.358612060546875 0.04473876953125 0.00031726062297821045 0.00015807151794433594 0.06391525268554688 -0.10186386108398438
17.78275 -0.09511184692382812 0.04622650146484375 0.353485107421875 0.02252197265625 0.00037980079650878906 0.0014902353286743164 0.0589141845703125 -0.10382080078125
17.7925 -0.09254837036132812 0.052349090576171875 0.35235595703125 0.00341796875 -0.00017595291137695312 0.0010247230529785156 0.054264068603515625 -0.10611343383789062
17.80225 -0.08898544311523438 0.059795379638671875 0.347930908203125 -0.018096923828125 -0.000659257173538208 0.0007794499397277832 0.048885345458984375 -0.10633468627929688
17.812 -0.08390045166015625 0.06734848022460938 0.3414459228515625 -0.0410003662109375 0.000260770320892334 0.0009715557098388672 0.04168701171875 -0.10705184936523438
17.82175 -0.08037567138671875 0.0747528076171875 0.3369293212890625 -0.0599822998046875 -0.00042575597763061523 0.0013453960418701172 0.0403594970703125 -0.10718154907226562
17.8315 -0.07708358764648438 0.08132553100585938 0.327880859375 -0.0790252685546875 0.0006889104843139648 0.001954793930053711 0.0323028564453125 -0.1082611083984375
17.84125 -0.0729522705078125 0.08643341064453125 0.319183349609375 -0.09796142578125 0.00024199485778808594 0.0010465383529663086 0.02564239501953125 -0.1074066162109375
17.851 -0.0672454833984375 0.09473419189453125 0.3074798583984375 -0.1124114990234375 -0.00037357211112976074 0.00016845762729644775 0.02142333984375 -0.10805130004882812
17.86075 -0.06282806396484375 0.0997314453125 0.297637939453125 -0.126800537109375 0.0008003115653991699 0.0009832978248596191 0.015590667724609375 -0.10721969604492188
17.8705 -0.05701446533203125 0.10396194458007812 0.2873992919921875 -0.1390228271484375 0.000690460205078125 0.001854538917541504 0.010356903076171875 -0.106414794921875
17.88025 -0.05263519287109375 0.11011886596679688 0.2796783447265625 -0.1510467529296875 0.0006652474403381348 -0.00014859437942504883 0.0048065185546875 -0.1055755615234375
17.89 -0.046405792236328125 0.11532211303710938 0.2722320556640625 -0.1614837646484375 -0.0005106925964355469 0.0013275742530822754 -0.000942230224609375 -0.1052093505859375
17.89975 -0.040996551513671875 0.1199188232421875 0.2641448974609375 -0.1756591796875 0.001213669776916504 0.0012857913970947266 -0.005809783935546875 -0.1025848388671875
17.9095 -0.035663604736328125 0.12345123291015625 0.2564849853515625 -0.1895599365234375 0.001131296157836914 0.0005396604537963867 -0.011173248291015625 -0.10063552856445312
17.91925 -0.0283050537109375 0.1271209716796875 0.2480926513671875 -0.2028350830078125 0.00013053417205810547 0.0010761022567749023 -0.015399932861328125 -0.09799575805664062
17.929 -0.0220947265625 0.1322021484375 0.2402801513671875 -0.2152557373046875 -0.0005006194114685059 0.00032788515090942383 -0.02050018310546875 -0.09737396240234375
17.93875 -0.01410675048828125 0.13335418701171875 0.22978973388671875 -0.22888946533203125 0.0004067718982696533 0.0005266368389129639 -0.025257110595703125 -0.09241867065429688
17.9485 -0.00942230224609375 0.13553619384765625 0.21993255615234375 -0.23995208740234375 0.000382840633392334 0.0011616945266723633 -0.031040191650390625 -0.08974075317382812
17.95825 -0.00189208984375 0.1362152099609375 0.2101287841796875 -0.24924468994140625 0.0005830526351928711 0.000849306583404541 -0.033214569091796875 -0.08860015869140625
17.968 0.00519561767578125 0.14044952392578125 0.20257568359375 -0.2637481689453125 0.0002874135971069336 0.0015766620635986328 -0.038364410400390625 -0.08497238159179688
17.97775 0.0123443603515625 0.13979339599609375 0.19384765625 -0.275360107421875 0.0012843608856201172 -0.00031572580337524414 -0.041988372802734375 -0.07930374145507812
17.9875 0.02123260498046875 0.1413116455078125 0.184844970703125 -0.2904205322265625 -8.046627044677734e-06 0.0014510750770568848 -0.04524993896484375 -0.07612228393554688
17.99725 0.02902984619140625 0.14200592041015625 0.17572021484375 -0.3051910400390625 0.00144195556640625 0.0012968778610229492 -0.0504608154296875 -0.07210540771484375
18.007 0.0366058349609375 0.1434478759765625 0.164642333984375 -0.3249359130859375 0.0007402002811431885 1.6927719116210938e-05 -0.0537109375 -0.06853485107421875
18.01675 0.0443878173828125 0.1442718505859375 0.1482086181640625 -0.343353271484375 0.00013880431652069092 -0.00015363842248916626 -0.0573577880859375 -0.061717987060546875
18.0265 0.0517425537109375 0.1429595947265625 0.130157470703125 -0.36163330078125 0.00043392181396484375 0.0011273622512817383 -0.06295013427734375 -0.057464599609375
18.03625 0.058624267578125 0.1434783935546875 0.11199951171875 -0.379058837890625 0.000783085823059082 -0.0009114742279052734 -0.06351470947265625 -0.0532379150390625
18.046 0.06699371337890625 0.142303466796875 0.0893096923828125 -0.394500732421875 0.00015117228031158447 0.0002107471227645874 -0.0662841796875 -0.046756744384765625
18.05575 0.07318115234375 0.13922119140625 0.06439208984375 -0.4096221923828125 0.0011612772941589355 -0.0001925826072692871 -0.0681610107421875 -0.043224334716796875
18.0655 0.08219146728515625 0.13954925537109375 0.0386505126953125 -0.425079345703125 0.0018485784530639648 -0.0007980465888977051 -0.072265625 -0.037967681884765625
18.07525 0.08868408203125 0.13562774658203125 0.0108795166015625 -0.438079833984375 0.001370072364807129 0.00020569562911987305 -0.07474899291992188 -0.0309600830078125
18.085 0.09619140625 0.1330108642578125 -0.0192108154296875 -0.449737548828125 0.0013550519943237305 0.00047385692596435547 -0.0758514404296875 -0.025836944580078125
18.09475 0.10239410400390625 0.1309051513671875 -0.051544189453125 -0.46295166015625 0.0017852783203125 0.0012445449829101562 -0.0738525390625 -0.019367218017578125
18.1045 0.1110076904296875 0.1264190673828125 -0.08697509765625 -0.471221923828125 0.001401662826538086 -0.00026595592498779297 -0.07604598999023438 -0.013858795166015625
18.11425 0.11586761474609375 0.12509918212890625 -0.12738037109375 -0.47503662109375 0.0009954571723937988 -8.857250213623047e-05 -0.07675552368164062 -0.008983612060546875
18.124 0.1212921142578125 0.1200714111328125 -0.16790771484375 -0.47821044921875 0.0007011890411376953 3.737211227416992e-05 -0.0752716064453125 -0.0001068115234375
18.13375 0.1282958984375 0.1159515380859375 -0.21142578125 -0.475494384765625 0.001202225685119629 0.00012546777725219727 -0.0757904052734375 0.005199432373046875
18.1435 0.13431549072265625 0.111541748046875 -0.25518798828125 -0.46771240234375 0.0005952119827270508 0.00048345327377319336 -0.07548141479492188 0.01306915283203125
18.15325 0.14066314697265625 0.10451507568359375 -0.2982177734375 -0.456268310546875 0.00022548437118530273 0.00011833012104034424 -0.0745391845703125 0.01863861083984375
18.163 0.1480712890625 0.099609375 -0.343292236328125 -0.43927001953125 0.0004730820655822754 -0.00110703706741333 -0.07137298583984375 0.0262908935546875
18.17275 0.152984619140625 0.094146728515625 -0.384490966796875 -0.4197998046875 0.0017561912536621094 0.0010368824005126953 -0.06887435913085938 0.031581878662109375
18.1825 0.15882110595703125 0.08747100830078125 -0.426910400390625 -0.3963623046875 0.001201927661895752 -0.0001315474510192871 -0.06592178344726562 0.038967132568359375
18.19225 0.162109375 0.0810394287109375 -0.470855712890625 -0.3658447265625 0.000998079776763916 -0.00010532140731811523 -0.0633544921875 0.0447845458984375
18.202 0.16876220703125 0.075469970703125 -0.5093994140625 -0.33203125 -0.00010398030281066895 0.00024856626987457275 -0.06172370910644531 0.05017662048339844
18.21175 0.1709442138671875 0.0682830810546875 -0.545654296875 -0.291015625 0.00044977664947509766 -0.0012044906616210938 -0.055942535400390625 0.05677032470703125
18.2215 0.1790313720703125 0.061004638671875 -0.578582763671875 -0.245849609375 0.0008626282215118408 -0.0009591281414031982 -0.05072975158691406 0.06192207336425781
18.23125 0.18155670166015625 0.0538177490234375 -0.607818603515625 -0.198822021484375 -0.00034675002098083496 -0.0005527734756469727 -0.048137664794921875 0.06441116333007812
18.241 0.1837158203125 0.04691314697265625 -0.631561279296875 -0.147186279296875 0.000607222318649292 -8.821487426757812e-05 -0.0433502197265625 0.07077789306640625
18.25075 0.18633270263671875 0.0383148193359375 -0.648101806640625 -0.094146728515625 0.0006742179393768311 -0.0003629028797149658 -0.0380859375 0.07508087158203125
18.2605 0.1890411376953125 0.03082275390625 -0.66259765625 -0.039215087890625 0.0019528865814208984 -0.001252889633178711 -0.030750274658203125 0.0786895751953125
18.27025 0.190673828125 0.02132415771484375 -0.672393798828125 0.016387939453125 -0.0004450678825378418 0.0007142722606658936 -0.02390289306640625 0.08209228515625
18.28 0.19378662109375 0.0132598876953125 -0.678741455078125 0.0743408203125 0.0009493827819824219 -0.0004942119121551514 -0.017086029052734375 0.08481979370117188
18.28975 0.19382476806640625 0.0038604736328125 -0.67901611328125 0.1357421875 0.0010767579078674316 0.0007751584053039551 -0.011089324951171875 0.08804702758789062
18.2995 0.19396209716796875 -0.00399017333984375 -0.673614501953125 0.196258544921875 -0.0011401176452636719 -0.0005491971969604492 -0.004268646240234375 0.08860397338867188
18.30925 0.193115234375 -0.012786865234375 -0.65771484375 0.25909423828125 -0.00030618906021118164 -0.0004526972770690918 0.0041961669921875 0.089935302734375
18.319 0.1927337646484375 -0.0230865478515625 -0.6378173828125 0.32000732421875 -0.00021582841873168945 0.0006772279739379883 0.01025390625 0.09371185302734375
18.32875 0.19217681884765625 -0.02886962890625 -0.610626220703125 0.376312255859375 0.0005859136581420898 -0.0011051297187805176 0.019832611083984375 0.09375
18.3385 0.1913604736328125 -0.0405120849609375 -0.57879638671875 0.426727294921875 0.00011855363845825195 -0.0013489127159118652 0.02806854248046875 0.09284210205078125
18.34825 0.19007110595703125 -0.04946136474609375 -0.544586181640625 0.477569580078125 0.00044029951095581055 -0.0005892515182495117 0.03507232666015625 0.09436798095703125
18.358 0.18798065185546875 -0.05606842041015625 -0.508453369140625 0.523101806640625 0.00023895502090454102 -0.00047394633293151855 0.04486846923828125 0.0924530029296875
18.36775 0.183990478515625 -0.0655364990234375 -0.464935302734375 0.568511962890625 -0.0007815361022949219 -0.001799464225769043 0.0491180419921875 0.0908203125
18.3775 0.1814727783203125 -0.07122039794921875 -0.42071533203125 0.61181640625 0.0013364553451538086 -0.0005807280540466309 0.058197021484375 0.08864593505859375
18.38725 0.17882537841796875 -0.08148956298828125 -0.369354248046875 0.649871826171875 9.636580944061279e-05 -0.00024344027042388916 0.06427001953125 0.08583831787109375
18.397 0.1755523681640625 -0.0876007080078125 -0.31414794921875 0.684814453125 0.0002177506685256958 -8.384883403778076e-05 0.0720062255859375 0.0839080810546875
18.40675 0.170745849609375 -0.095855712890625 -0.2513427734375 0.71356201171875 -0.0010756254196166992 -0.00018143653869628906 0.0777130126953125 0.0782623291015625
18.4165 0.1654205322265625 -0.10205078125 -0.189849853515625 0.73394775390625 4.623830318450928e-05 0.00037623941898345947 0.08367156982421875 0.0745086669921875
18.42625 0.16059112548828125 -0.1103973388671875 -0.128082275390625 0.745697021484375 0.00035093724727630615 -0.00026530027389526367 0.090850830078125 0.06804656982421875
18.436 0.152740478515625 -0.11594390869140625 -0.06707763671875 0.75396728515625 -0.00038892030715942383 -0.00048348307609558105 0.0972747802734375 0.06406402587890625
18.44575 0.146636962890625 -0.1231231689453125 -0.0093994140625 0.756988525390625 -0.0001238211989402771 -3.316253423690796e-05 0.10186004638671875 0.0556488037109375
18.4555 0.1407470703125 -0.1284942626953125 0.04937744140625 0.758026123046875 -0.0008563101291656494 0.0005280375480651855 0.10659027099609375 0.0512237548828125
18.46525 0.13471221923828125 -0.135894775390625 0.10919189453125 0.7587890625 0.0007239580154418945 -0.00044468045234680176 0.11096954345703125 0.04129791259765625
18.475 0.12555694580078125 -0.14009857177734375 0.1708984375 0.75445556640625 -0.0004597008228302002 -0.00043958425521850586 0.11580657958984375 0.03479766845703125
18.48475 0.12041473388671875 -0.14626312255859375 0.23626708984375 0.742462158203125 0.0005894899368286133 0.00019851326942443848 0.11911773681640625 0.02618408203125
18.4945 0.11252593994140625 -0.14983367919921875 0.30023193359375 0.7254638671875 0.0009374916553497314 -0.0002766549587249756 0.124237060546875 0.0169525146484375
18.50425 0.1036376953125 -0.15478515625 0.363037109375 0.698486328125 -0.0007901191711425781 9.125471115112305e-05 0.1228179931640625 0.00958251953125
18.514 0.0972900390625 -0.157440185546875 0.4232177734375 0.6671142578125 9.978562593460083e-05 -5.7153403759002686e-05 0.124481201171875 0.00168609619140625
18.52375 0.08980560302734375 -0.16021728515625 0.476806640625 0.62744140625 0.0007651448249816895 -0.00019538402557373047 0.125701904296875 -0.0070953369140625
18.5335 0.0823516845703125 -0.1629791259765625 0.52276611328125 0.58697509765625 -0.0003267526626586914 -0.0009378790855407715 0.12497329711914062 -0.0152130126953125
18.54325 0.074920654296875 -0.166717529296875 0.5673828125 0.54400634765625 0.0011917352676391602 0.0002657175064086914 0.1243133544921875 -0.023040771484375
18.553 0.06713104248046875 -0.17014312744140625 0.606689453125 0.4979248046875 -0.000122755765914917 -0.0007458329200744629 0.12239837646484375 -0.02935791015625
18.56275 0.05859375 -0.169097900390625 0.643798828125 0.4544677734375 -0.0001659393310546875 -0.00035578012466430664 0.12030410766601562 -0.037811279296875
18.5725 0.04987335205078125 -0.17012786865234375 0.682861328125 0.40643310546875 0.0005678534507751465 -0.0007776618003845215 0.11707305908203125 -0.044864654541015625
18.58225 0.04251861572265625 -0.1719207763671875 0.71710205078125 0.35211181640625 0.0004996359348297119 0.00021395087242126465 0.1134490966796875 -0.0533599853515625
18.592 0.0339202880859375 -0.17206573486328125 0.74737548828125 0.293701171875 0.001328587532043457 -0.0011751651763916016 0.1073455810546875 -0.0603179931640625
18.60175 0.026214599609375 -0.17169189453125 0.77374267578125 0.23223876953125 0.000209808349609375 0.0006085634231567383 0.101715087890625 -0.06485748291015625
18.6115 0.0171966552734375 -0.1691131591796875 0.7877197265625 0.16790771484375 0.0001545548439025879 -0.0007698535919189453 0.09787750244140625 -0.0726165771484375
18.62125 0.00887298583984375 -0.16967010498046875 0.80010986328125 0.10552978515625 0.0002605915069580078 -0.0004982352256774902 0.09171676635742188 -0.07788848876953125
18.631 0.002410888671875 -0.1687164306640625 0.80224609375 0.04718017578125 0.0007779598236083984 -0.000798642635345459 0.08663177490234375 -0.082550048828125
18.64075 -0.0057525634765625 -0.166351318359375 0.80316162109375 -0.01263427734375 -0.0004876852035522461 -0.0007204413414001465 0.07962417602539062 -0.08589553833007812
18.6505 -0.0120697021484375 -0.1647491455078125 0.801239013671875 -0.069091796875 9.72449779510498e-05 -0.0005049705505371094 0.07540512084960938 -0.09032821655273438
