!Created with skrf (http://scikit-rf.org).
# GHz S RI R 50.0 
!freq ReS11 ImS11 ReS21 ImS21 ReS12 ImS12 ReS22 ImS22
17.5 0.00960540771484375 -0.14269256591796875 -0.465423583984375 0.55084228515625 -0.0011532902717590332 0.00028127431869506836 0.0971832275390625 0.002170562744140625
17.50975 -0.000518798828125 -0.140106201171875 -0.4136962890625 0.583648681640625 -0.0019878149032592773 0.0002429485321044922 0.100189208984375 0.00048065185546875
17.5195 -0.0082550048828125 -0.1367645263671875 -0.359130859375 0.60992431640625 -0.0018733739852905273 0.0009154677391052246 0.10363388061523438 -0.0007476806640625
17.52925 -0.01638031005859375 -0.13248443603515625 -0.30364990234375 0.634063720703125 -0.00131988525390625 0.0005879402160644531 0.10422134399414062 -0.004161834716796875
17.539 -0.023590087890625 -0.1266021728515625 -0.25006103515625 0.6502685546875 -0.0008692145347595215 0.0006937980651855469 0.10650634765625 -0.0070648193359375
17.54875 -0.031463623046875 -0.12384033203125 -0.19500732421875 0.66009521484375 -0.0016068220138549805 0.0022733211517333984 0.10875701904296875 -0.012111663818359375
17.5585 -0.03981781005859375 -0.119873046875 -0.138885498046875 0.669097900390625 -0.0008748173713684082 0.0010609030723571777 0.11129379272460938 -0.015857696533203125
17.56825 -0.0461883544921875 -0.1146392822265625 -0.0872802734375 0.673187255859375 -0.0014611482620239258 0.00039821863174438477 0.11095046997070312 -0.0173797607421875
17.578 -0.0527801513671875 -0.1084747314453125 -0.030792236328125 0.67291259765625 -0.0013818144798278809 0.0010271072387695312 0.11348724365234375 -0.022899627685546875
17.58775 -0.05800628662109375 -0.10363006591796875 0.02325439453125 0.668121337890625 -0.0007773637771606445 0.0019062161445617676 0.114044189453125 -0.025989532470703125
17.5975 -0.0630645751953125 -0.0978851318359375 0.078765869140625 0.65863037109375 -0.00018459558486938477 0.0015864372253417969 0.114501953125 -0.0288543701171875
17.60725 -0.06931304931640625 -0.092193603515625 0.130828857421875 0.642608642578125 -0.0016403794288635254 0.0014162063598632812 0.11254501342773438 -0.03398895263671875
17.617 -0.074432373046875 -0.0833282470703125 0.179962158203125 0.62017822265625 -0.0006209611892700195 0.0017042160034179688 0.11405563354492188 -0.038875579833984375
17.62675 -0.07910919189453125 -0.07674407958984375 0.225555419921875 0.59576416015625 -3.743171691894531e-05 0.0011860132217407227 0.11297988891601562 -0.0428619384765625
17.6365 -0.082427978515625 -0.0697174072265625 0.265625 0.56878662109375 -0.0009063482284545898 0.0010454654693603516 0.11336517333984375 -0.0489654541015625
17.64625 -0.08615875244140625 -0.0614013671875 0.299591064453125 0.540924072265625 -0.0013933181762695312 3.0279159545898438e-05 0.11169815063476562 -0.052989959716796875
17.656 -0.08768463134765625 -0.0560760498046875 0.332000732421875 0.511505126953125 -0.0010290145874023438 0.0014409422874450684 0.108306884765625 -0.0573883056640625
17.66575 -0.09085845947265625 -0.0465087890625 0.364532470703125 0.485626220703125 -0.0031442642211914062 0.0022492408752441406 0.10826492309570312 -0.06085205078125
17.6755 -0.0946044921875 -0.03986358642578125 0.392425537109375 0.455322265625 -3.355741500854492e-05 0.001050412654876709 0.1043243408203125 -0.06673812866210938
17.68525 -0.0962677001953125 -0.032257080078125 0.423797607421875 0.42578125 -0.00044715404510498047 0.00242769718170166 0.10018157958984375 -0.07090377807617188
17.695 -0.09717178344726562 -0.023193359375 0.45220947265625 0.390960693359375 -0.002110719680786133 0.0008106231689453125 0.09829330444335938 -0.07410049438476562
17.70475 -0.09907913208007812 -0.01451873779296875 0.48016357421875 0.351470947265625 2.0563602447509766e-05 0.0016552209854125977 0.09375381469726562 -0.078582763671875
17.7145 -0.1001739501953125 -0.006313323974609375 0.504180908203125 0.30999755859375 0.0007985234260559082 0.000963747501373291 0.0906982421875 -0.0849151611328125
17.72425 -0.100555419921875 0.001495361328125 0.520843505859375 0.266021728515625 -0.0007635056972503662 0.0005823373794555664 0.08605194091796875 -0.086334228515625
17.734 -0.10152435302734375 0.00792694091796875 0.53179931640625 0.22247314453125 -0.0008724331855773926 0.000755012035369873 0.08319854736328125 -0.090240478515625
17.74375 -0.103363037109375 0.01537322998046875 0.53485107421875 0.1790771484375 0.0004086494445800781 0.0017194747924804688 0.07855224609375 -0.0967559814453125
17.7535 -0.100128173828125 0.0227508544921875 0.536163330078125 0.141357421875 0.00013619661331176758 0.000999748706817627 0.07298660278320312 -0.09784317016601562
17.76325 -0.09720611572265625 0.0310821533203125 0.537628173828125 0.106903076171875 -0.0008069872856140137 0.0017673969268798828 0.0673980712890625 -0.09876632690429688
17.773 -0.097320556640625 0.03900146484375 0.535400390625 0.073272705078125 0.0004544854164123535 0.001084744930267334 0.0649261474609375 -0.10117340087890625
17.78275 -0.09509658813476562 0.04586029052734375 0.535247802734375 0.03887939453125 0.0011142492294311523 0.0015741586685180664 0.058788299560546875 -0.10360336303710938
17.7925 -0.09241485595703125 0.051998138427734375 0.53375244140625 0.00634765625 0.0008385181427001953 0.0012222528457641602 0.053882598876953125 -0.10527420043945312
17.80225 -0.0889892578125 0.059833526611328125 0.532379150390625 -0.027984619140625 0.0005711913108825684 0.001155555248260498 0.050724029541015625 -0.10770416259765625
17.812 -0.08555221557617188 0.06650543212890625 0.5267333984375 -0.066192626953125 0.0013418793678283691 0.0004813075065612793 0.0428466796875 -0.107330322265625
17.82175 -0.08068466186523438 0.07526779174804688 0.518829345703125 -0.100555419921875 0.00029009580612182617 0.0006267428398132324 0.03948211669921875 -0.10739898681640625
17.8315 -0.07726669311523438 0.07975387573242188 0.50732421875 -0.135528564453125 -0.0002384185791015625 0.0018529891967773438 0.033321380615234375 -0.10864639282226562
17.84125 -0.07112884521484375 0.086883544921875 0.493743896484375 -0.169525146484375 -0.001234889030456543 0.0011898279190063477 0.02850341796875 -0.1067657470703125
17.851 -0.06726455688476562 0.09444046020507812 0.4743804931640625 -0.196075439453125 -0.00028389692306518555 0.0015087723731994629 0.022396087646484375 -0.10761260986328125
17.86075 -0.06389236450195312 0.09765625 0.458587646484375 -0.2226104736328125 -0.00044333934783935547 0.0006717443466186523 0.015880584716796875 -0.1054840087890625
17.8705 -0.057239532470703125 0.1044769287109375 0.440887451171875 -0.2462310791015625 0.00014019012451171875 0.0018936395645141602 0.0108795166015625 -0.10591888427734375
17.88025 -0.0525360107421875 0.10946273803710938 0.4254913330078125 -0.268646240234375 0.00028592348098754883 0.0011103153228759766 0.0044403076171875 -0.10639190673828125
17.89 -0.0481109619140625 0.11456680297851562 0.4107208251953125 -0.291778564453125 0.001093745231628418 0.0017098188400268555 0.000335693359375 -0.10353851318359375
17.89975 -0.0421142578125 0.11973953247070312 0.391845703125 -0.315643310546875 0.0006184577941894531 0.0008795857429504395 -0.006649017333984375 -0.10301971435546875
17.9095 -0.0362396240234375 0.1239471435546875 0.3751068115234375 -0.34051513671875 0.0004550814628601074 0.0007320642471313477 -0.01209259033203125 -0.101409912109375
17.91925 -0.02999114990234375 0.127471923828125 0.3543243408203125 -0.3636932373046875 0.0006349086761474609 -0.0002459585666656494 -0.016185760498046875 -0.0990447998046875
17.929 -0.0218048095703125 0.129364013671875 0.333251953125 -0.385772705078125 0.001343846321105957 -0.0001913309097290039 -0.02097320556640625 -0.09758758544921875
17.93875 -0.01540374755859375 0.132720947265625 0.30859375 -0.4039154052734375 0.0015426874160766602 0.0011614561080932617 -0.026248931884765625 -0.09362411499023438
17.9485 -0.00832366943359375 0.13550567626953125 0.2851715087890625 -0.422576904296875 0.0008442103862762451 -0.00019600987434387207 -0.0292816162109375 -0.09058761596679688
17.95825 -0.002685546875 0.1372222900390625 0.2612457275390625 -0.4374847412109375 0.0012967586517333984 0.0009503364562988281 -0.032421112060546875 -0.08786773681640625
17.968 0.005767822265625 0.140045166015625 0.2387237548828125 -0.45233154296875 0.0011010169982910156 0.0014090538024902344 -0.038425445556640625 -0.0855560302734375
17.97775 0.0124969482421875 0.1398773193359375 0.2164306640625 -0.4686126708984375 0.0003750920295715332 0.00020995736122131348 -0.043304443359375 -0.0791778564453125
17.9875 0.0215606689453125 0.14246368408203125 0.1930694580078125 -0.486328125 0.0014598369598388672 0.001708984375 -0.045734405517578125 -0.07664108276367188
17.99725 0.027191162109375 0.142669677734375 0.168060302734375 -0.502105712890625 0.0006237626075744629 0.0003482699394226074 -0.05104827880859375 -0.07293701171875
18.007 0.03646087646484375 0.14369964599609375 0.1412353515625 -0.52069091796875 -0.0005565285682678223 -0.0006661415100097656 -0.053680419921875 -0.06731414794921875
18.01675 0.04351043701171875 0.1434783935546875 0.109130859375 -0.539154052734375 0.0011897683143615723 -0.0005140900611877441 -0.057201385498046875 -0.063507080078125
18.0265 0.0506744384765625 0.142486572265625 0.076416015625 -0.5538330078125 0.00043261051177978516 0.0006433725357055664 -0.061309814453125 -0.05860137939453125
18.03625 0.0594482421875 0.1441192626953125 0.04010009765625 -0.5673828125 0.0003851950168609619 5.0127506256103516e-05 -0.06500244140625 -0.052398681640625
18.046 0.0666961669921875 0.14246368408203125 0.002655029296875 -0.576934814453125 0.000589519739151001 0.0001811981201171875 -0.06688308715820312 -0.047817230224609375
18.05575 0.07372283935546875 0.1413726806640625 -0.036285400390625 -0.58447265625 0.0013062357902526855 0.0004108548164367676 -0.06983566284179688 -0.043315887451171875
18.0655 0.08243560791015625 0.13881683349609375 -0.075469970703125 -0.590057373046875 0.0007478594779968262 -0.0008339285850524902 -0.07244873046875 -0.037151336669921875
18.07525 0.08864593505859375 0.13836669921875 -0.113983154296875 -0.59356689453125 0.001151740550994873 0.00031369924545288086 -0.07476043701171875 -0.030414581298828125
18.085 0.09619903564453125 0.13494873046875 -0.157012939453125 -0.595977783203125 0.0016869306564331055 0.0002480745315551758 -0.07629013061523438 -0.025783538818359375
18.09475 0.1025390625 0.13150787353515625 -0.201171875 -0.597259521484375 0.000980973243713379 -2.6226043701171875e-06 -0.07356643676757812 -0.020740509033203125
18.1045 0.11029815673828125 0.1278076171875 -0.24810791015625 -0.594970703125 -4.242360591888428e-05 0.0002547651529312134 -0.07645797729492188 -0.01337432861328125
18.11425 0.11541748046875 0.1259918212890625 -0.2969970703125 -0.585540771484375 0.00043082237243652344 -0.0004257112741470337 -0.076263427734375 -0.0089111328125
18.124 0.1216888427734375 0.1207733154296875 -0.3489990234375 -0.57379150390625 0.00075531005859375 -0.00037658214569091797 -0.0769805908203125 -0.0005340576171875
18.13375 0.12828826904296875 0.1161346435546875 -0.396636962890625 -0.5550537109375 6.160140037536621e-05 -0.00013378262519836426 -0.075531005859375 0.0052337646484375
18.1435 0.13437652587890625 0.11084747314453125 -0.446533203125 -0.531707763671875 0.0014216899871826172 0.0001710653305053711 -0.07530593872070312 0.012966156005859375
18.15325 0.140899658203125 0.1058502197265625 -0.49639892578125 -0.50531005859375 -3.5822391510009766e-05 -0.0005689263343811035 -0.07376480102539062 0.018047332763671875
18.163 0.1469573974609375 0.099700927734375 -0.54046630859375 -0.47381591796875 0.0009540319442749023 -0.0007864236831665039 -0.0725250244140625 0.02515411376953125
18.17275 0.1529693603515625 0.0941009521484375 -0.58636474609375 -0.43603515625 0.0001522153615951538 -5.0164759159088135e-05 -0.0700225830078125 0.031917572021484375
18.1825 0.1586456298828125 0.08783721923828125 -0.6307373046875 -0.39752197265625 -0.00019699335098266602 -0.0008543729782104492 -0.06676483154296875 0.03807830810546875
18.19225 0.16416168212890625 0.081573486328125 -0.6734619140625 -0.35137939453125 0.00030153989791870117 0.0007765889167785645 -0.06242942810058594 0.04498291015625
18.202 0.16880035400390625 0.075286865234375 -0.71148681640625 -0.30029296875 0.00010776519775390625 -0.0012533068656921387 -0.06228065490722656 0.04994964599609375
18.21175 0.1727294921875 0.0689697265625 -0.744873046875 -0.24212646484375 -0.0002079606056213379 0.00014546513557434082 -0.056957244873046875 0.056667327880859375
18.2215 0.17767333984375 0.05960845947265625 -0.771270751953125 -0.1807861328125 0.00022476911544799805 -0.0007924437522888184 -0.051448822021484375 0.06156158447265625
18.23125 0.18085479736328125 0.0533905029296875 -0.794952392578125 -0.11907958984375 0.0010008811950683594 -0.0022401809692382812 -0.048126220703125 0.06428909301757812
18.241 0.1850433349609375 0.046966552734375 -0.809051513671875 -0.05322265625 0.000855863094329834 0.0002124309539794922 -0.04419708251953125 0.07006072998046875
18.25075 0.1855316162109375 0.03870391845703125 -0.819183349609375 0.011871337890625 3.230571746826172e-05 -0.0010592341423034668 -0.03850555419921875 0.07428741455078125
18.2605 0.18947601318359375 0.03125 -0.822479248046875 0.079864501953125 0.0003699064254760742 -0.0003237724304199219 -0.0318145751953125 0.07918930053710938
18.27025 0.19134521484375 0.021240234375 -0.823333740234375 0.148773193359375 0.0006465613842010498 -0.00017729401588439941 -0.024692535400390625 0.08295822143554688
18.28 0.19256591796875 0.013336181640625 -0.818878173828125 0.2188720703125 0.00024569034576416016 -0.0008183121681213379 -0.018711090087890625 0.08569717407226562
18.28975 0.194549560546875 0.004791259765625 -0.808624267578125 0.290740966796875 -5.412101745605469e-05 -0.0010083317756652832 -0.01279449462890625 0.08843612670898438
18.2995 0.19443511962890625 -0.00341033935546875 -0.790496826171875 0.363372802734375 -0.0009663105010986328 -0.00037992000579833984 -0.0041961669921875 0.08770751953125
18.30925 0.194549560546875 -0.0135040283203125 -0.76007080078125 0.43310546875 0.0004955530166625977 -0.0014916658401489258 0.0035552978515625 0.09033203125
18.319 0.1940155029296875 -0.02239227294921875 -0.72454833984375 0.500396728515625 0.00013136863708496094 -0.0005482137203216553 0.011104583740234375 0.09282684326171875
18.32875 0.19113922119140625 -0.0293426513671875 -0.680694580078125 0.561492919921875 -0.00012324750423431396 -0.00015912950038909912 0.019504547119140625 0.0948028564453125
18.3385 0.1905364990234375 -0.0399322509765625 -0.634796142578125 0.61749267578125 -8.940696716308594e-08 0.0005200505256652832 0.028461456298828125 0.09487152099609375
18.34825 0.18949127197265625 -0.049285888671875 -0.584625244140625 0.671142578125 0.001120150089263916 -0.0001996159553527832 0.03473663330078125 0.095245361328125
18.358 0.1884002685546875 -0.05663299560546875 -0.5343017578125 0.71881103515625 0.0004108995199203491 -0.0001605600118637085 0.043670654296875 0.0921478271484375
18.36775 0.18503570556640625 -0.06368255615234375 -0.4755859375 0.765838623046875 0.0011497735977172852 -0.00046515464782714844 0.0500030517578125 0.09018707275390625
18.3775 0.1815032958984375 -0.07190704345703125 -0.41650390625 0.808349609375 0.0006999075412750244 -0.00030809640884399414 0.05759429931640625 0.0894775390625
18.38725 0.1791229248046875 -0.0811004638671875 -0.348876953125 0.8468017578125 0.00018356740474700928 -0.0003927648067474365 0.0641021728515625 0.087799072265625
18.397 0.1732025146484375 -0.0887908935546875 -0.2752685546875 0.87762451171875 0.0005064010620117188 -0.0009392499923706055 0.0705413818359375 0.0832977294921875
18.40675 0.1713104248046875 -0.0955352783203125 -0.19805908203125 0.90277099609375 -0.0007640719413757324 5.614757537841797e-05 0.0791168212890625 0.0782470703125
18.4165 0.16583251953125 -0.10311126708984375 -0.12237548828125 0.916046142578125 9.953975677490234e-06 -0.0014259815216064453 0.08409881591796875 0.07534027099609375
18.42625 0.15970611572265625 -0.1098175048828125 -0.047088623046875 0.920562744140625 -0.0003973245620727539 -0.0006178617477416992 0.09149169921875 0.06993865966796875
18.436 0.15309906005859375 -0.1166229248046875 0.02593994140625 0.92156982421875 0.0003082752227783203 0.0006228089332580566 0.09943389892578125 0.0652618408203125
18.44575 0.1471710205078125 -0.124176025390625 0.095947265625 0.915618896484375 -9.244680404663086e-05 -0.0010358691215515137 0.10219573974609375 0.0570220947265625
18.4555 0.13983154296875 -0.1298065185546875 0.166748046875 0.9078369140625 -8.52048397064209e-05 -0.000721663236618042 0.10662841796875 0.05002593994140625
18.46525 0.13348388671875 -0.13611602783203125 0.237548828125 0.89984130859375 0.0007287859916687012 0.00043207406997680664 0.11219024658203125 0.0414886474609375
18.475 0.12599945068359375 -0.141632080078125 0.30810546875 0.885498046875 0.0003930330276489258 -0.0002056509256362915 0.11698150634765625 0.033294677734375
18.48475 0.1212921142578125 -0.1458740234375 0.38330078125 0.86407470703125 0.0003250390291213989 -0.0002644062042236328 0.1193695068359375 0.024932861328125
18.4945 0.1123199462890625 -0.14984893798828125 0.4580078125 0.83203125 0.0003118067979812622 3.482401371002197e-05 0.12339019775390625 0.01764678955078125
18.50425 0.103851318359375 -0.1555328369140625 0.530517578125 0.7919921875 0.00043508410453796387 -0.0003915727138519287 0.1246337890625 0.0094146728515625
18.514 0.09820556640625 -0.157867431640625 0.593994140625 0.7447509765625 -0.0003542304039001465 -0.00047910213470458984 0.12645721435546875 0.0013580322265625
18.52375 0.088470458984375 -0.160247802734375 0.65203857421875 0.68939208984375 0.001064896583557129 -0.0003622770309448242 0.12580108642578125 -0.006561279296875
18.5335 0.0828399658203125 -0.1645355224609375 0.70013427734375 0.6356201171875 -0.0004114210605621338 -0.0004372596740722656 0.12751007080078125 -0.01534271240234375
18.54325 0.07430267333984375 -0.1681671142578125 0.74365234375 0.5784912109375 0.0008266568183898926 -0.0010151267051696777 0.12376785278320312 -0.02201080322265625
18.553 0.065887451171875 -0.1696319580078125 0.78509521484375 0.52252197265625 -9.60230827331543e-05 -0.0008110404014587402 0.12197113037109375 -0.030780792236328125
18.56275 0.05825042724609375 -0.16880035400390625 0.8245849609375 0.4635009765625 0.0013268589973449707 -0.0008925199508666992 0.1202239990234375 -0.037769317626953125
18.5725 0.05042266845703125 -0.1699066162109375 0.86090087890625 0.40289306640625 0.0007960200309753418 -0.0005167722702026367 0.11712265014648438 -0.046077728271484375
18.58225 0.04150390625 -0.17119598388671875 0.895263671875 0.336181640625 6.452202796936035e-05 -0.00047929584980010986 0.11262130737304688 -0.054004669189453125
18.592 0.032684326171875 -0.17246246337890625 0.92303466796875 0.2633056640625 -0.00036031007766723633 -0.0004092752933502197 0.10918426513671875 -0.059894561767578125
18.60175 0.0254669189453125 -0.1708831787109375 0.9443359375 0.18798828125 0.00024950504302978516 -0.0007395148277282715 0.10376739501953125 -0.0660400390625
18.6115 0.01795196533203125 -0.1692962646484375 0.95452880859375 0.111083984375 0.0002989917993545532 -0.0001645982265472412 0.09884262084960938 -0.072723388671875
18.62125 0.008636474609375 -0.17095947265625 0.95758056640625 0.035369873046875 0.0006066262722015381 -0.0005550980567932129 0.09255218505859375 -0.0792236328125
18.631 0.00201416015625 -0.167144775390625 0.95404052734375 -0.033599853515625 -1.4424324035644531e-05 -0.0011609196662902832 0.08699417114257812 -0.08324050903320312
18.64075 -0.00580596923828125 -0.16793060302734375 0.94677734375 -0.101959228515625 0.0010905265808105469 -1.8656253814697266e-05 0.08148574829101562 -0.087188720703125
18.6505 -0.01221466064453125 -0.164794921875 0.93743896484375 -0.16796875 -0.0009284913539886475 0.0007219016551971436 0.07611465454101562 -0.09125137329101562
