!Created with skrf (http://scikit-rf.org).
# GHz S RI R 50.0 
!freq ReS11 ImS11 ReS21 ImS21 ReS12 ImS12 ReS22 ImS22
17.5 0.00824737548828125 -0.14455413818359375 -0.07871246337890625 0.13924407958984375 -0.00033345818519592285 0.0007646381855010986 0.09821701049804688 0.000934600830078125
17.50975 -0.00075531005859375 -0.14166259765625 -0.05854034423828125 0.1435394287109375 -0.0012200474739074707 0.0009982585906982422 0.10098648071289062 0.00055694580078125
17.5195 -0.009613037109375 -0.13646697998046875 -0.0414581298828125 0.14626312255859375 -0.0012874007225036621 -0.0003299117088317871 0.10373687744140625 0.000308990478515625
17.52925 -0.0173187255859375 -0.13356781005859375 -0.02362823486328125 0.144500732421875 -0.00020375847816467285 0.0007657408714294434 0.10564804077148438 -0.00623321533203125
17.539 -0.024017333984375 -0.1269683837890625 -0.0063018798828125 0.1414947509765625 -0.001220703125 0.0010592937469482422 0.1067352294921875 -0.0091094970703125
17.54875 -0.032257080078125 -0.12481689453125 0.00945281982421875 0.136199951171875 -0.0022516250610351562 0.0009777545928955078 0.10915756225585938 -0.01363372802734375
17.5585 -0.04036712646484375 -0.1201629638671875 0.02362060546875 0.129150390625 -0.0011721253395080566 0.000805199146270752 0.11138153076171875 -0.015972137451171875
17.56825 -0.0468597412109375 -0.11547088623046875 0.03575897216796875 0.122314453125 -0.0010146498680114746 -4.583597183227539e-05 0.11344528198242188 -0.021060943603515625
17.578 -0.0554656982421875 -0.1094512939453125 0.04833221435546875 0.112274169921875 -0.0021599531173706055 0.0005012750625610352 0.113861083984375 -0.02458953857421875
17.58775 -0.05989837646484375 -0.10274505615234375 0.0573577880859375 0.1033172607421875 -0.002106308937072754 0.0006015300750732422 0.11461257934570312 -0.026927947998046875
17.5975 -0.06504058837890625 -0.09722900390625 0.0673980712890625 0.09020233154296875 -0.0011298060417175293 0.0007640719413757324 0.1146697998046875 -0.033565521240234375
17.60725 -0.06964874267578125 -0.092071533203125 0.07444000244140625 0.07776641845703125 -0.0015133023262023926 3.3855438232421875e-05 0.11191940307617188 -0.034259796142578125
17.617 -0.07714080810546875 -0.08428192138671875 0.07891082763671875 0.06433868408203125 -0.0013320446014404297 0.001578986644744873 0.11476898193359375 -0.040355682373046875
17.62675 -0.07952117919921875 -0.07794189453125 0.08139801025390625 0.05129241943359375 -0.0012593269348144531 0.0007639527320861816 0.11442184448242188 -0.04283905029296875
17.6365 -0.0829925537109375 -0.0708465576171875 0.082244873046875 0.03934478759765625 -0.0014733076095581055 0.0008578300476074219 0.11223602294921875 -0.04833984375
17.64625 -0.08769989013671875 -0.06262969970703125 0.08107376098632812 0.0262451171875 -0.0004970431327819824 0.0011028647422790527 0.11023330688476562 -0.05239105224609375
17.656 -0.09035491943359375 -0.05620574951171875 0.07819747924804688 0.016143798828125 -0.0003180503845214844 0.0018247365951538086 0.10708999633789062 -0.05814361572265625
17.66575 -0.09328460693359375 -0.04705810546875 0.07482147216796875 0.006824493408203125 -0.0006443262100219727 0.0012488961219787598 0.10815048217773438 -0.06295394897460938
17.6755 -0.09548187255859375 -0.03890228271484375 0.07026290893554688 -0.00337982177734375 0.0007598400115966797 0.0013295412063598633 0.10282135009765625 -0.06709671020507812
17.68525 -0.0989990234375 -0.0302276611328125 0.06438064575195312 -0.01274871826171875 -0.00045353174209594727 0.0017733573913574219 0.10049819946289062 -0.07158660888671875
17.695 -0.09983062744140625 -0.02220916748046875 0.05902862548828125 -0.020336151123046875 -0.0010627508163452148 0.0011969208717346191 0.097259521484375 -0.07648468017578125
17.70475 -0.10071563720703125 -0.01415252685546875 0.05004692077636719 -0.0284576416015625 -0.0010912418365478516 0.0010924339294433594 0.09428787231445312 -0.07893753051757812
17.7145 -0.10244369506835938 -0.0053863525390625 0.040119171142578125 -0.03560638427734375 -0.000775068998336792 0.0006854236125946045 0.0895538330078125 -0.08353805541992188
17.72425 -0.10140228271484375 0.002521514892578125 0.030302047729492188 -0.03752899169921875 -0.0005303621292114258 0.0015834569931030273 0.08617782592773438 -0.08812332153320312
17.734 -0.1033172607421875 0.01013946533203125 0.019397735595703125 -0.03966522216796875 0.0001800060272216797 0.001173257827758789 0.08095550537109375 -0.09111785888671875
17.74375 -0.10314178466796875 0.01776885986328125 0.007434844970703125 -0.039791107177734375 0.0005128383636474609 0.002155303955078125 0.0771026611328125 -0.0961151123046875
17.7535 -0.10060501098632812 0.024219512939453125 -0.0008869171142578125 -0.03863525390625 -0.0010269880294799805 0.0012874007225036621 0.07271575927734375 -0.0988311767578125
17.76325 -0.10062026977539062 0.032928466796875 -0.009120941162109375 -0.03616142272949219 0.0004927515983581543 0.001137852668762207 0.06676101684570312 -0.09975051879882812
17.773 -0.09737014770507812 0.03961944580078125 -0.02056121826171875 -0.03171539306640625 -0.00033937394618988037 0.00021873414516448975 0.06270980834960938 -0.10360336303710938
17.78275 -0.0945587158203125 0.048160552978515625 -0.027805328369140625 -0.025356292724609375 -0.0002506375312805176 0.0009830594062805176 0.05800628662109375 -0.1039886474609375
17.7925 -0.09267425537109375 0.054462432861328125 -0.03639984130859375 -0.018070220947265625 -0.0008745193481445312 0.001313328742980957 0.051731109619140625 -0.10562515258789062
17.80225 -0.088958740234375 0.0608062744140625 -0.04247093200683594 -0.010833740234375 0.00125885009765625 0.0005502104759216309 0.0483551025390625 -0.10699844360351562
17.812 -0.08301162719726562 0.06783294677734375 -0.04892539978027344 -0.0018138885498046875 0.00015121698379516602 0.0013561844825744629 0.041728973388671875 -0.10729598999023438
17.82175 -0.07991790771484375 0.0759124755859375 -0.05182647705078125 0.010862350463867188 0.0010854005813598633 0.0012809038162231445 0.036853790283203125 -0.10585403442382812
17.8315 -0.07607269287109375 0.08260345458984375 -0.05481147766113281 0.02336883544921875 -0.0001061856746673584 0.0002929568290710449 0.032360076904296875 -0.10792160034179688
17.84125 -0.0728302001953125 0.08757781982421875 -0.055355072021484375 0.035236358642578125 -0.0004431009292602539 0.0015788078308105469 0.02631378173828125 -0.107574462890625
17.851 -0.06662368774414062 0.09632110595703125 -0.05330848693847656 0.04750251770019531 0.0023927688598632812 0.0011762380599975586 0.02191925048828125 -0.10715484619140625
17.86075 -0.062530517578125 0.099517822265625 -0.049163818359375 0.06011962890625 -0.00042879581451416016 0.0010443925857543945 0.014598846435546875 -0.10663223266601562
17.8705 -0.057788848876953125 0.10559463500976562 -0.044189453125 0.07149505615234375 0.0006349086761474609 0.001661062240600586 0.009326934814453125 -0.10381698608398438
17.88025 -0.05233001708984375 0.11221694946289062 -0.03871917724609375 0.08331298828125 0.001522064208984375 0.0014460086822509766 0.004268646240234375 -0.106109619140625
17.89 -0.04726409912109375 0.11619186401367188 -0.028926849365234375 0.09593963623046875 0.0008985996246337891 0.0015766620635986328 -0.00189208984375 -0.10274124145507812
17.89975 -0.04106903076171875 0.120513916015625 -0.0183258056640625 0.1074981689453125 0.0010215044021606445 0.0009503364562988281 -0.007511138916015625 -0.10213088989257812
17.9095 -0.03460693359375 0.1251983642578125 -0.004791259765625 0.11780929565429688 0.0009380578994750977 0.00047647953033447266 -0.01142120361328125 -0.09916305541992188
17.91925 -0.02722930908203125 0.126495361328125 0.00983428955078125 0.12433624267578125 0.0013356208801269531 0.0012664794921875 -0.0167236328125 -0.098724365234375
17.929 -0.021087646484375 0.1317596435546875 0.0265350341796875 0.1319580078125 -0.00018334388732910156 0.0008531808853149414 -0.02146148681640625 -0.0966796875
17.93875 -0.01471710205078125 0.13300323486328125 0.0474090576171875 0.1365203857421875 0.0004456937313079834 0.000520169734954834 -0.0260162353515625 -0.09249496459960938
17.9485 -0.0075225830078125 0.134979248046875 0.06552886962890625 0.1377105712890625 0.0009627342224121094 -0.000870436429977417 -0.02986907958984375 -0.08919143676757812
17.95825 -0.000274658203125 0.13735198974609375 0.085418701171875 0.136810302734375 0.000973045825958252 0.0007307529449462891 -0.033145904541015625 -0.08567047119140625
17.968 0.00579833984375 0.1396484375 0.10773468017578125 0.13231658935546875 -0.0002130270004272461 0.001575171947479248 -0.039764404296875 -0.08422088623046875
17.97775 0.01447296142578125 0.1405792236328125 0.1273345947265625 0.1272125244140625 0.0014177560806274414 0.00035959482192993164 -0.044124603271484375 -0.07779693603515625
17.9875 0.022918701171875 0.142730712890625 0.1492919921875 0.1169586181640625 -0.0003449171781539917 0.00018431246280670166 -0.04520416259765625 -0.07491302490234375
17.99725 0.0299530029296875 0.14240264892578125 0.1689910888671875 0.106231689453125 0.0005240142345428467 -0.000317305326461792 -0.05068206787109375 -0.07151031494140625
18.007 0.0367279052734375 0.1425018310546875 0.1914825439453125 0.091705322265625 -0.0007262229919433594 -0.0004209280014038086 -0.054141998291015625 -0.06578445434570312
18.01675 0.044769287109375 0.1427459716796875 0.21014404296875 0.0721282958984375 7.024407386779785e-05 0.0007368326187133789 -0.05829620361328125 -0.061168670654296875
18.0265 0.051971435546875 0.14263916015625 0.22735595703125 0.04864501953125 -0.00036028027534484863 0.0002009272575378418 -0.06183624267578125 -0.05690765380859375
18.03625 0.0607757568359375 0.143280029296875 0.2415771484375 0.02105712890625 0.0004425048828125 0.0008260011672973633 -0.06426239013671875 -0.052001953125
18.046 0.0681304931640625 0.1426544189453125 0.2502593994140625 -0.0076751708984375 0.0008946657180786133 0.0009317398071289062 -0.06605911254882812 -0.0475006103515625
18.05575 0.07552337646484375 0.139373779296875 0.2559661865234375 -0.0359954833984375 0.0007992386817932129 0.0006383657455444336 -0.06927871704101562 -0.04230499267578125
18.0655 0.0816192626953125 0.13840484619140625 0.2621002197265625 -0.0684356689453125 0.00044479966163635254 0.00026217103004455566 -0.07355117797851562 -0.035854339599609375
18.07525 0.08901214599609375 0.13497161865234375 0.2596435546875 -0.09979248046875 0.00011743977665901184 -3.246217966079712e-05 -0.07291030883789062 -0.031360626220703125
18.085 0.09625244140625 0.13240814208984375 0.2547454833984375 -0.129241943359375 0.000660240650177002 0.0007876157760620117 -0.075775146484375 -0.02466583251953125
18.09475 0.10361480712890625 0.12933349609375 0.247039794921875 -0.162139892578125 0.0002551078796386719 0.0003929734230041504 -0.07305908203125 -0.0200042724609375
18.1045 0.11095428466796875 0.126129150390625 0.2349853515625 -0.19480133056640625 0.0003726184368133545 -0.0001011192798614502 -0.07732009887695312 -0.013214111328125
18.11425 0.11583709716796875 0.12570953369140625 0.21839141845703125 -0.22768402099609375 0.0008592605590820312 0.0003230571746826172 -0.0738372802734375 -0.0072021484375
18.124 0.122161865234375 0.1188812255859375 0.19744873046875 -0.257110595703125 0.00038695335388183594 -0.0003663003444671631 -0.0747528076171875 -5.340576171875e-05
18.13375 0.1298828125 0.11468505859375 0.1720123291015625 -0.284759521484375 -0.00017438828945159912 -0.00017617642879486084 -0.07398605346679688 0.005504608154296875
18.1435 0.13488006591796875 0.1096038818359375 0.1431732177734375 -0.307373046875 -8.665770292282104e-05 0.00017817318439483643 -0.07464981079101562 0.012592315673828125
18.15325 0.14086151123046875 0.1045379638671875 0.10968017578125 -0.328216552734375 0.001258552074432373 -0.0008857846260070801 -0.0741729736328125 0.0177459716796875
18.163 0.148345947265625 0.0989837646484375 0.075103759765625 -0.3459625244140625 0.00038430094718933105 -0.0006538629531860352 -0.07059097290039062 0.025760650634765625
18.17275 0.1519775390625 0.092864990234375 0.0379791259765625 -0.3590545654296875 -0.0009274482727050781 -0.0003719925880432129 -0.06627655029296875 0.0316314697265625
18.1825 0.159271240234375 0.08626556396484375 -0.0006256103515625 -0.368438720703125 0.0003452301025390625 -6.878376007080078e-05 -0.06563949584960938 0.039093017578125
18.19225 0.1622314453125 0.07977294921875 -0.0407562255859375 -0.3727569580078125 0.0006055831909179688 -9.748339653015137e-05 -0.06301116943359375 0.044582366943359375
18.202 0.16839599609375 0.075103759765625 -0.0822601318359375 -0.3720245361328125 0.001811385154724121 -0.000432431697845459 -0.05912017822265625 0.04998779296875
18.21175 0.172698974609375 0.06787109375 -0.124664306640625 -0.367645263671875 0.0005030035972595215 -0.0009263157844543457 -0.054958343505859375 0.0567779541015625
18.2215 0.17754364013671875 0.0604248046875 -0.16461181640625 -0.357696533203125 -0.00038188695907592773 -0.0005727410316467285 -0.051097869873046875 0.06014823913574219
18.23125 0.18082427978515625 0.05272674560546875 -0.204742431640625 -0.342010498046875 -1.6763806343078613e-05 0.00020229071378707886 -0.048198699951171875 0.06479644775390625
18.241 0.182769775390625 0.046142578125 -0.241851806640625 -0.322601318359375 0.0002459883689880371 -0.0013415813446044922 -0.042835235595703125 0.06974029541015625
18.25075 0.1861724853515625 0.03951263427734375 -0.27642822265625 -0.29705810546875 0.0009355545043945312 0.0007153749465942383 -0.037067413330078125 0.07509994506835938
18.2605 0.188995361328125 0.03127288818359375 -0.306243896484375 -0.271514892578125 0.0008935630321502686 4.801154136657715e-05 -0.030429840087890625 0.07824325561523438
18.27025 0.19007110595703125 0.021636962890625 -0.335418701171875 -0.24212646484375 0.0001856982707977295 -0.0007548630237579346 -0.024181365966796875 0.0812530517578125
18.28 0.1912689208984375 0.01325225830078125 -0.36322021484375 -0.20770263671875 0.00038826465606689453 -0.0006208121776580811 -0.01880645751953125 0.08284378051757812
18.28975 0.19406890869140625 0.00415802001953125 -0.38531494140625 -0.172821044921875 -0.0004494190216064453 -0.0005699992179870605 -0.01000213623046875 0.08669662475585938
18.2995 0.19275665283203125 -0.00392913818359375 -0.406463623046875 -0.13433837890625 0.00037384033203125 -0.001159071922302246 -0.003162384033203125 0.087005615234375
18.30925 0.194305419921875 -0.0142669677734375 -0.41937255859375 -0.09259033203125 0.00029921531677246094 -0.0012314319610595703 0.00528717041015625 0.08959197998046875
18.319 0.190887451171875 -0.0218353271484375 -0.4296417236328125 -0.0488739013671875 -0.0002454519271850586 -0.0018090009689331055 0.01123046875 0.0912017822265625
18.32875 0.19197845458984375 -0.029327392578125 -0.4328765869140625 -0.0061798095703125 0.00013196468353271484 0.0005735456943511963 0.019317626953125 0.09175872802734375
18.3385 0.1887054443359375 -0.04003143310546875 -0.4316864013671875 0.0357818603515625 0.0003012716770172119 -0.0007699429988861084 0.029262542724609375 0.092193603515625
18.34825 0.19007110595703125 -0.0485076904296875 -0.4292449951171875 0.0765838623046875 -0.0005860328674316406 -0.0015227794647216797 0.03531646728515625 0.0926513671875
18.358 0.1869659423828125 -0.05517578125 -0.423248291015625 0.1149444580078125 0.000325813889503479 -0.00011651217937469482 0.0432586669921875 0.0909881591796875
18.36775 0.184906005859375 -0.0638275146484375 -0.41278076171875 0.15667724609375 0.0002886652946472168 -0.0014331936836242676 0.04926300048828125 0.09087371826171875
18.3775 0.181182861328125 -0.07100677490234375 -0.4020843505859375 0.194244384765625 0.0004488527774810791 0.000345766544342041 0.05712890625 0.0874481201171875
18.38725 0.17890167236328125 -0.0799102783203125 -0.38177490234375 0.2330322265625 0.0004699528217315674 -0.0006680488586425781 0.06389617919921875 0.08524322509765625
18.397 0.1743621826171875 -0.088409423828125 -0.359283447265625 0.26934814453125 0.0013598203659057617 -0.0003323554992675781 0.0693511962890625 0.0821990966796875
18.40675 0.1701507568359375 -0.0944976806640625 -0.3336181640625 0.3055419921875 0.00046306848526000977 0.00028073787689208984 0.0766448974609375 0.077667236328125
18.4165 0.16454315185546875 -0.10157012939453125 -0.3043212890625 0.335052490234375 0.0005961060523986816 -0.0008016526699066162 0.082427978515625 0.0734405517578125
18.42625 0.16009521484375 -0.10939788818359375 -0.2730712890625 0.3620452880859375 0.00017812848091125488 -0.0007207989692687988 0.09090423583984375 0.068328857421875
18.436 0.15348052978515625 -0.1150970458984375 -0.2406768798828125 0.384185791015625 -0.00014609098434448242 6.92903995513916e-06 0.0991973876953125 0.06317901611328125
18.44575 0.14792633056640625 -0.12288665771484375 -0.2055206298828125 0.4042510986328125 3.917515277862549e-05 -0.0003727525472640991 0.100494384765625 0.0558013916015625
18.4555 0.14023590087890625 -0.12825775146484375 -0.1734771728515625 0.4227294921875 0.0006131529808044434 -0.0002803206443786621 0.10533905029296875 0.0500946044921875
18.46525 0.13428497314453125 -0.1344451904296875 -0.136688232421875 0.4404449462890625 -0.0001836046576499939 0.0001488327980041504 0.11179351806640625 0.0413360595703125
18.475 0.12662506103515625 -0.140594482421875 -0.098541259765625 0.4568328857421875 0.00033721327781677246 0.0002561807632446289 0.11486053466796875 0.03208160400390625
18.48475 0.120086669921875 -0.145294189453125 -0.058197021484375 0.4672393798828125 -0.0003044307231903076 -3.6463141441345215e-05 0.118316650390625 0.0249176025390625
18.4945 0.1122894287109375 -0.1488494873046875 -0.013671875 0.474639892578125 0.0010620355606079102 0.00026917457580566406 0.1208648681640625 0.01685333251953125
18.50425 0.1042022705078125 -0.1552734375 0.02972412109375 0.47686767578125 0.0005715489387512207 -0.0003351569175720215 0.122650146484375 0.0089111328125
18.514 0.098846435546875 -0.157745361328125 0.07489013671875 0.4736328125 0.0006927251815795898 -0.000179290771484375 0.12537384033203125 -9.1552734375e-05
18.52375 0.08956146240234375 -0.16043853759765625 0.117950439453125 0.463775634765625 0.0006701648235321045 -4.747509956359863e-05 0.12491607666015625 -0.00786590576171875
18.5335 0.08365631103515625 -0.16436767578125 0.158447265625 0.451416015625 0.0006849765777587891 -0.0012160539627075195 0.12497711181640625 -0.015087127685546875
18.54325 0.07546234130859375 -0.16640472412109375 0.195587158203125 0.43878173828125 0.00035324692726135254 0.00043573975563049316 0.12332534790039062 -0.023029327392578125
18.553 0.0669097900390625 -0.16963958740234375 0.2320556640625 0.42193603515625 0.0004938244819641113 -0.0010527372360229492 0.12119674682617188 -0.030818939208984375
18.56275 0.05912017822265625 -0.1693115234375 0.268157958984375 0.40399169921875 -0.00031723082065582275 0.00011979043483734131 0.11914443969726562 -0.03804779052734375
18.5725 0.0501708984375 -0.17008209228515625 0.302947998046875 0.38238525390625 0.0005479753017425537 -0.00041037797927856445 0.1152191162109375 -0.0464019775390625
18.58225 0.04322052001953125 -0.17116546630859375 0.337310791015625 0.35858154296875 0.001448988914489746 0.00045555830001831055 0.11174392700195312 -0.0535430908203125
18.592 0.03353118896484375 -0.172393798828125 0.37042236328125 0.329833984375 0.0005095005035400391 -0.0011681914329528809 0.10827255249023438 -0.059368133544921875
18.60175 0.026153564453125 -0.171600341796875 0.400146484375 0.29736328125 0.0007815361022949219 -0.0010404586791992188 0.10076904296875 -0.065582275390625
18.6115 0.01821136474609375 -0.16991424560546875 0.42535400390625 0.26141357421875 -0.00019769370555877686 0.00028862059116363525 0.0981292724609375 -0.0718536376953125
18.62125 0.01030731201171875 -0.16910552978515625 0.447357177734375 0.22491455078125 0.0003024935722351074 0.0004706382751464844 0.09177398681640625 -0.07744216918945312
18.631 0.0017852783203125 -0.16776275634765625 0.463592529296875 0.188232421875 0.0010015368461608887 -0.00019037723541259766 0.08541107177734375 -0.08176040649414062
