!Created with skrf (http://scikit-rf.org).
# GHz S RI R 50.0 
!freq ReS11 ImS11 ReS21 ImS21 ReS12 ImS12 ReS22 ImS22
17.5 0.0089263916015625 -0.14434051513671875 -0.04166412353515625 0.107879638671875 -0.0011931657791137695 0.0004910826683044434 0.098907470703125 3.814697265625e-05
17.50975 -0.00110626220703125 -0.14162445068359375 -0.02315521240234375 0.10985946655273438 -0.002428293228149414 0.00018322467803955078 0.10080337524414062 -0.000637054443359375
17.5195 -0.0086212158203125 -0.13767242431640625 -0.00952911376953125 0.10736083984375 -0.0016002058982849121 0.0005161762237548828 0.10370635986328125 -0.001705169677734375
17.52925 -0.018096923828125 -0.13320159912109375 0.006561279296875 0.10517120361328125 -0.0021489858627319336 0.001488804817199707 0.10643768310546875 -0.005893707275390625
17.539 -0.024078369140625 -0.1277923583984375 0.0195159912109375 0.1015625 -0.0012965202331542969 -0.0008664131164550781 0.10748291015625 -0.0086822509765625
17.54875 -0.0338897705078125 -0.1241912841796875 0.030841827392578125 0.09455108642578125 -0.0009346902370452881 0.00014656782150268555 0.10994338989257812 -0.01203155517578125
17.5585 -0.04190826416015625 -0.1176605224609375 0.0430908203125 0.08463287353515625 -0.0014854073524475098 0.0010088682174682617 0.11078262329101562 -0.016895294189453125
17.56825 -0.04747772216796875 -0.11573028564453125 0.05240631103515625 0.0763092041015625 -0.0010328292846679688 1.436471939086914e-05 0.11275863647460938 -0.020542144775390625
17.578 -0.05489349365234375 -0.1087188720703125 0.061279296875 0.0655517578125 -0.0010183453559875488 5.066394805908203e-05 0.113311767578125 -0.024692535400390625
17.58775 -0.0599822998046875 -0.1037750244140625 0.06774520874023438 0.054401397705078125 -0.0008891820907592773 0.0016510486602783203 0.11389541625976562 -0.028156280517578125
17.5975 -0.06426239013671875 -0.09711456298828125 0.0717620849609375 0.040859222412109375 -0.0017984509468078613 0.0007728934288024902 0.11455917358398438 -0.032161712646484375
17.60725 -0.0699462890625 -0.09207916259765625 0.0760498046875 0.028167724609375 -0.0016648173332214355 0.0007271170616149902 0.11356353759765625 -0.03595733642578125
17.617 -0.07488250732421875 -0.08429718017578125 0.07651901245117188 0.01534271240234375 -0.00038117170333862305 0.0010877251625061035 0.11426544189453125 -0.038818359375
17.62675 -0.08094024658203125 -0.0772552490234375 0.07465362548828125 0.0032806396484375 -0.0009484589099884033 0.0006895959377288818 0.11456680297851562 -0.0430145263671875
17.6365 -0.0838623046875 -0.0691680908203125 0.0721893310546875 -0.007476806640625 -0.0015575885772705078 0.0020084381103515625 0.11203765869140625 -0.04920196533203125
17.64625 -0.08730316162109375 -0.06089019775390625 0.06719970703125 -0.018047332763671875 -0.000754237174987793 0.0014637112617492676 0.11147308349609375 -0.05342864990234375
17.656 -0.09037017822265625 -0.05606842041015625 0.06287765502929688 -0.02819061279296875 -0.0004839897155761719 0.0015001296997070312 0.10750579833984375 -0.05937957763671875
17.66575 -0.09331512451171875 -0.04627227783203125 0.05719566345214844 -0.038585662841796875 -0.0010290741920471191 0.0004965662956237793 0.10535049438476562 -0.06312942504882812
17.6755 -0.096954345703125 -0.03989410400390625 0.04773139953613281 -0.04733467102050781 -0.0009717345237731934 0.0005962848663330078 0.10145950317382812 -0.06797027587890625
17.68525 -0.0987701416015625 -0.0307159423828125 0.03987693786621094 -0.05573272705078125 0.0005679130554199219 0.001052558422088623 0.10052108764648438 -0.07093429565429688
17.695 -0.09961700439453125 -0.02252197265625 0.029048919677734375 -0.06180763244628906 -0.00021480023860931396 0.0002474784851074219 0.09745025634765625 -0.075469970703125
17.70475 -0.10080337524414062 -0.0150909423828125 0.017719268798828125 -0.06581497192382812 -0.00028830766677856445 0.001654982566833496 0.09398269653320312 -0.079193115234375
17.7145 -0.10175323486328125 -0.00577545166015625 0.004871368408203125 -0.06946945190429688 -0.0012014508247375488 0.0005834698677062988 0.08991622924804688 -0.08419418334960938
17.72425 -0.10288238525390625 0.00344085693359375 -0.008632659912109375 -0.0696563720703125 -0.0008180141448974609 0.0017391443252563477 0.08490753173828125 -0.08780288696289062
17.734 -0.1038360595703125 0.00933074951171875 -0.020782470703125 -0.0679168701171875 0.0005042552947998047 0.001956462860107422 0.08127593994140625 -0.09127044677734375
17.74375 -0.1045684814453125 0.01789093017578125 -0.03227996826171875 -0.0655364990234375 -4.971027374267578e-05 0.0011899471282958984 0.07733154296875 -0.095184326171875
17.7535 -0.10027694702148438 0.02419281005859375 -0.04499053955078125 -0.058757781982421875 -3.796815872192383e-05 0.0010938048362731934 0.0728607177734375 -0.09929656982421875
17.76325 -0.09866714477539062 0.0322265625 -0.055507659912109375 -0.053134918212890625 -0.001442253589630127 0.000935971736907959 0.06686019897460938 -0.09991455078125
17.773 -0.09753799438476562 0.03894805908203125 -0.06494140625 -0.046417236328125 0.0013589859008789062 0.0014182329177856445 0.06344985961914062 -0.10227203369140625
17.78275 -0.09525299072265625 0.047210693359375 -0.0760650634765625 -0.038265228271484375 -0.00017142295837402344 0.0011026859283447266 0.057033538818359375 -0.10330963134765625
17.7925 -0.09163284301757812 0.053619384765625 -0.0844879150390625 -0.026355743408203125 2.3692846298217773e-05 0.0008541345596313477 0.052703857421875 -0.10532760620117188
17.80225 -0.08901214599609375 0.060626983642578125 -0.09248733520507812 -0.01558685302734375 -0.0005462765693664551 0.00168609619140625 0.048351287841796875 -0.105621337890625
17.812 -0.08432769775390625 0.0683441162109375 -0.09685516357421875 -0.000980377197265625 9.834766387939453e-06 0.0006377100944519043 0.042964935302734375 -0.106292724609375
17.82175 -0.08007431030273438 0.07593917846679688 -0.10219573974609375 0.014129638671875 0.0004221200942993164 0.001170516014099121 0.03803253173828125 -0.10765838623046875
17.8315 -0.07608413696289062 0.08128738403320312 -0.10519027709960938 0.030704498291015625 0.00030231475830078125 0.0015342235565185547 0.03090667724609375 -0.1075286865234375
17.84125 -0.07180023193359375 0.087493896484375 -0.10442352294921875 0.0466766357421875 0.0008368492126464844 0.001234292984008789 0.0251922607421875 -0.10616302490234375
17.851 -0.06710052490234375 0.09616851806640625 -0.10157394409179688 0.062320709228515625 -0.0003579854965209961 0.0005789697170257568 0.019870758056640625 -0.10696029663085938
17.86075 -0.0609283447265625 0.09968185424804688 -0.09621429443359375 0.078125 0.0007239878177642822 -0.0002263188362121582 0.01458740234375 -0.10560989379882812
17.8705 -0.056667327880859375 0.10547256469726562 -0.0897979736328125 0.094268798828125 0.000406801700592041 0.0008368492126464844 0.0077972412109375 -0.10509490966796875
17.88025 -0.0521087646484375 0.11203384399414062 -0.08098220825195312 0.109832763671875 -0.0002434253692626953 0.001159369945526123 0.002674102783203125 -0.10506439208984375
17.89 -0.045833587646484375 0.11724853515625 -0.0706939697265625 0.12465667724609375 0.0007610619068145752 -0.0003491342067718506 -0.000293731689453125 -0.10246658325195312
17.89975 -0.04169464111328125 0.1196136474609375 -0.05742645263671875 0.1379547119140625 -1.430511474609375e-06 0.0008360147476196289 -0.00753021240234375 -0.10059738159179688
17.9095 -0.03478240966796875 0.12420654296875 -0.0438995361328125 0.1522064208984375 0.0014455318450927734 0.0010313987731933594 -0.01198577880859375 -0.09959030151367188
17.91925 -0.0269775390625 0.12677001953125 -0.0243377685546875 0.1647186279296875 0.000582277774810791 0.0008290410041809082 -0.016193389892578125 -0.09762954711914062
17.929 -0.0210723876953125 0.130950927734375 -0.0036468505859375 0.174163818359375 0.0007210969924926758 0.0009405612945556641 -0.02194976806640625 -0.09645843505859375
17.93875 -0.01497650146484375 0.13460540771484375 0.0197296142578125 0.17986297607421875 0.0010088682174682617 -1.9490718841552734e-05 -0.026851654052734375 -0.09328079223632812
17.9485 -0.00738525390625 0.13440704345703125 0.0396881103515625 0.18515777587890625 0.0013909339904785156 0.0009542703628540039 -0.028926849365234375 -0.08858489990234375
17.95825 -0.00023651123046875 0.13799285888671875 0.0641021728515625 0.18383026123046875 0.00011396408081054688 0.0005883872509002686 -0.034332275390625 -0.08644485473632812
17.968 0.00772857666015625 0.140289306640625 0.089935302734375 0.1816253662109375 6.35981559753418e-05 0.0009563565254211426 -0.0388031005859375 -0.08437728881835938
17.97775 0.01465606689453125 0.140899658203125 0.113677978515625 0.1764678955078125 0.00045239925384521484 0.0008640885353088379 -0.043628692626953125 -0.0789031982421875
17.9875 0.02265167236328125 0.1420745849609375 0.13763427734375 0.1687164306640625 0.0008935034275054932 -2.5093555450439453e-05 -0.046382904052734375 -0.0765228271484375
17.99725 0.030670166015625 0.1428070068359375 0.16339111328125 0.156890869140625 0.001177668571472168 0.00011450052261352539 -0.050567626953125 -0.07134246826171875
18.007 0.03731536865234375 0.14220428466796875 0.18975830078125 0.143768310546875 0.0007390379905700684 0.0009923577308654785 -0.052593231201171875 -0.06536483764648438
18.01675 0.04553985595703125 0.142181396484375 0.2123565673828125 0.1252288818359375 0.0012421011924743652 0.0003681182861328125 -0.058460235595703125 -0.06084442138671875
18.0265 0.052764892578125 0.142608642578125 0.234375 0.10076904296875 0.0016387701034545898 3.337860107421875e-06 -0.06110382080078125 -0.05654144287109375
18.03625 0.060760498046875 0.1443023681640625 0.25225830078125 0.0740966796875 0.0011409521102905273 -8.690357208251953e-05 -0.06346893310546875 -0.05084991455078125
18.046 0.06954193115234375 0.14144134521484375 0.2666015625 0.0434722900390625 0.0007437467575073242 0.0007926225662231445 -0.06581497192382812 -0.047641754150390625
18.05575 0.074493408203125 0.13818359375 0.27508544921875 0.0135650634765625 0.00014895200729370117 0.001727759838104248 -0.0688934326171875 -0.040821075439453125
18.0655 0.08255767822265625 0.139739990234375 0.2826385498046875 -0.0189361572265625 0.0007624626159667969 -8.222460746765137e-05 -0.07318878173828125 -0.036891937255859375
18.07525 0.08965301513671875 0.13642120361328125 0.2870025634765625 -0.051116943359375 0.0014693140983581543 -0.00015419721603393555 -0.07352828979492188 -0.029560089111328125
18.085 0.09667205810546875 0.13367462158203125 0.285614013671875 -0.08599853515625 0.00024719536304473877 -8.758902549743652e-05 -0.074554443359375 -0.02532958984375
18.09475 0.102783203125 0.1309661865234375 0.2804718017578125 -0.1213226318359375 0.0011792182922363281 -0.0007753968238830566 -0.07333755493164062 -0.019588470458984375
18.1045 0.11060333251953125 0.12650299072265625 0.271697998046875 -0.1560516357421875 0.0008339881896972656 0.0017076730728149414 -0.07618331909179688 -0.012157440185546875
18.11425 0.1178131103515625 0.12487030029296875 0.2579803466796875 -0.1906585693359375 0.0008285641670227051 -0.00041601061820983887 -0.0767364501953125 -0.007839202880859375
18.124 0.1219482421875 0.1187744140625 0.238525390625 -0.224609375 0.0008016228675842285 -0.00021320581436157227 -0.074432373046875 -0.0001220703125
18.13375 0.1286773681640625 0.114410400390625 0.2170257568359375 -0.25469970703125 0.0021893978118896484 5.5909156799316406e-05 -0.07522201538085938 0.0049591064453125
18.1435 0.1352691650390625 0.1086883544921875 0.1895599365234375 -0.28338623046875 0.001221776008605957 -0.000213623046875 -0.07447433471679688 0.01345062255859375
18.15325 0.14136505126953125 0.10413360595703125 0.157928466796875 -0.3076629638671875 0.0017042756080627441 -0.00012320280075073242 -0.07233810424804688 0.01930999755859375
18.163 0.1477203369140625 0.0987396240234375 0.124237060546875 -0.3275909423828125 0.0009279251098632812 -0.00011804699897766113 -0.07078170776367188 0.02555084228515625
18.17275 0.15187835693359375 0.092864990234375 0.0897216796875 -0.34527587890625 0.0007945895195007324 0.0001525282859802246 -0.066802978515625 0.0303497314453125
18.1825 0.15785980224609375 0.08547210693359375 0.0507659912109375 -0.3569183349609375 0.000978231430053711 -0.00038570165634155273 -0.06335067749023438 0.039051055908203125
18.19225 0.16214752197265625 0.081390380859375 0.0123291015625 -0.369232177734375 0.0007233619689941406 -0.00145035982131958 -0.06123542785644531 0.04396820068359375
18.202 0.1679840087890625 0.075103759765625 -0.027099609375 -0.37255859375 -0.00015556812286376953 0.0001074373722076416 -0.05957221984863281 0.050045013427734375
18.21175 0.170928955078125 0.0677337646484375 -0.070281982421875 -0.37005615234375 0.0013020038604736328 -0.0006246566772460938 -0.055896759033203125 0.05574798583984375
18.2215 0.1776123046875 0.05855560302734375 -0.1116180419921875 -0.3646697998046875 0.0007023811340332031 0.00030672550201416016 -0.051280975341796875 0.0609588623046875
18.23125 0.1793670654296875 0.05234527587890625 -0.1512298583984375 -0.35443115234375 5.9276819229125977e-05 5.0924718379974365e-05 -0.046970367431640625 0.06522750854492188
18.241 0.18306732177734375 0.046051025390625 -0.189544677734375 -0.336334228515625 0.00012865662574768066 -0.0006116032600402832 -0.04239654541015625 0.07047271728515625
18.25075 0.18628692626953125 0.03814697265625 -0.225738525390625 -0.317901611328125 -0.00010068714618682861 -0.00010423362255096436 -0.036289215087890625 0.07417678833007812
18.2605 0.1875762939453125 0.03061676025390625 -0.25775146484375 -0.293670654296875 -0.00017812848091125488 -0.00041037797927856445 -0.030353546142578125 0.07633590698242188
18.27025 0.18897247314453125 0.021759033203125 -0.290069580078125 -0.26953125 0.001729726791381836 0.0002238750457763672 -0.02398681640625 0.08163070678710938
18.28 0.1923675537109375 0.0139923095703125 -0.31878662109375 -0.239898681640625 -0.00017344951629638672 -0.0015850067138671875 -0.017948150634765625 0.08252334594726562
18.28975 0.19281768798828125 0.00429534912109375 -0.344635009765625 -0.207244873046875 -0.0003719925880432129 -4.552304744720459e-05 -0.010223388671875 0.08664703369140625
18.2995 0.19278717041015625 -0.00420379638671875 -0.367401123046875 -0.172119140625 -0.0004639625549316406 0.0004912614822387695 -0.003276824951171875 0.08624267578125
18.30925 0.19342041015625 -0.01190185546875 -0.38330078125 -0.1329345703125 -0.00021469593048095703 -0.0008900165557861328 0.0040130615234375 0.08934783935546875
18.319 0.1924591064453125 -0.02306365966796875 -0.398651123046875 -0.0912322998046875 0.000778496265411377 -0.0003084838390350342 0.010059356689453125 0.09180068969726562
18.32875 0.1914215087890625 -0.02822113037109375 -0.4059600830078125 -0.053497314453125 0.0015413761138916016 0.00011640787124633789 0.019817352294921875 0.09318161010742188
18.3385 0.18959808349609375 -0.038421630859375 -0.408447265625 -0.0122222900390625 -8.45491886138916e-05 -0.0006066560745239258 0.02852630615234375 0.09270477294921875
18.34825 0.18972015380859375 -0.04784393310546875 -0.409210205078125 0.02740478515625 -0.00011372566223144531 0.0004040449857711792 0.035797119140625 0.0925750732421875
18.358 0.1872100830078125 -0.0562591552734375 -0.4069976806640625 0.065216064453125 -0.00018211454153060913 2.8528273105621338e-05 0.04416656494140625 0.0913543701171875
18.36775 0.18569183349609375 -0.06439208984375 -0.4010467529296875 0.1041412353515625 0.0012064576148986816 -0.000747382640838623 0.0508270263671875 0.0899505615234375
18.3775 0.18152618408203125 -0.07037353515625 -0.392181396484375 0.1416168212890625 -0.0010260343551635742 0.00040012598037719727 0.05728912353515625 0.0876007080078125
18.38725 0.17935943603515625 -0.0799560546875 -0.37823486328125 0.1806640625 -0.0001291036605834961 -0.0008603334426879883 0.06354522705078125 0.08489990234375
18.397 0.1743621826171875 -0.087158203125 -0.359405517578125 0.2176513671875 -0.001006007194519043 -0.00016832351684570312 0.0713653564453125 0.0818023681640625
18.40675 0.1693115234375 -0.093231201171875 -0.3387451171875 0.254119873046875 0.0006843209266662598 -0.00013500452041625977 0.077362060546875 0.07769775390625
18.4165 0.16455841064453125 -0.10208892822265625 -0.313873291015625 0.283599853515625 0.0001863539218902588 -0.0006341338157653809 0.0836639404296875 0.07392120361328125
18.42625 0.1610260009765625 -0.10863494873046875 -0.2849578857421875 0.311126708984375 -9.08970832824707e-06 -0.0002711564302444458 0.09049224853515625 0.06761932373046875
18.436 0.15367889404296875 -0.11402130126953125 -0.25714111328125 0.3361968994140625 0.0004330873489379883 -0.00040040910243988037 0.098388671875 0.0621185302734375
18.44575 0.14656829833984375 -0.12140655517578125 -0.225372314453125 0.3584747314453125 7.206201553344727e-05 0.0009719729423522949 0.10192108154296875 0.0562286376953125
18.4555 0.13986968994140625 -0.127471923828125 -0.1962890625 0.378753662109375 0.0005800127983093262 0.0010048151016235352 0.1060638427734375 0.0490875244140625
18.46525 0.1343231201171875 -0.13379669189453125 -0.1634368896484375 0.3984527587890625 0.00038102269172668457 -0.0005179345607757568 0.11093902587890625 0.0392608642578125
18.475 0.1261444091796875 -0.13938140869140625 -0.12896728515625 0.4141998291015625 0.00024819374084472656 -0.0011362433433532715 0.1143951416015625 0.03253173828125
18.48475 0.12142181396484375 -0.144134521484375 -0.0917510986328125 0.4301300048828125 0.0005528628826141357 -0.0005401074886322021 0.1184539794921875 0.02458953857421875
18.4945 0.11241912841796875 -0.14817047119140625 -0.0510101318359375 0.439544677734375 0.00025890767574310303 -0.00012828409671783447 0.1218719482421875 0.01673126220703125
18.50425 0.1042022705078125 -0.155303955078125 -0.006988525390625 0.446197509765625 0.0002264082431793213 0.00016695261001586914 0.1218109130859375 0.0092010498046875
18.514 0.098602294921875 -0.1573028564453125 0.034698486328125 0.444976806640625 0.00036984682083129883 -0.000932157039642334 0.1229095458984375 0.00081634521484375
18.52375 0.09021759033203125 -0.1595001220703125 0.07537841796875 0.438690185546875 0.0005956888198852539 -0.0005436539649963379 0.1246185302734375 -0.007961273193359375
18.5335 0.0833740234375 -0.163787841796875 0.113739013671875 0.42974853515625 -0.00037157535552978516 0.0005482137203216553 0.12516021728515625 -0.01418304443359375
18.54325 0.07598876953125 -0.1668701171875 0.150726318359375 0.41912841796875 0.00022900104522705078 -0.0005755722522735596 0.12302780151367188 -0.02391815185546875
18.553 0.06740570068359375 -0.1691436767578125 0.185821533203125 0.406219482421875 -0.0002627074718475342 -0.0005590617656707764 0.12060546875 -0.0303955078125
18.56275 0.05947113037109375 -0.1691741943359375 0.219970703125 0.39111328125 0.0003889501094818115 -0.0005835592746734619 0.11914443969726562 -0.037445068359375
18.5725 0.05065155029296875 -0.17137908935546875 0.255950927734375 0.374420166015625 0.0007966160774230957 -0.0011965632438659668 0.1149444580078125 -0.04471588134765625
18.58225 0.0428619384765625 -0.17144012451171875 0.290283203125 0.35308837890625 0.00033479928970336914 0.0006876587867736816 0.1114044189453125 -0.051906585693359375
18.592 0.03571319580078125 -0.17118072509765625 0.3221435546875 0.328216552734375 -0.0002579689025878906 -0.0014494061470031738 0.10665130615234375 -0.05899810791015625
18.60175 0.0263519287109375 -0.1715087890625 0.35272216796875 0.3009033203125 0.0014004707336425781 -0.0010832548141479492 0.10178375244140625 -0.0653533935546875
18.6115 0.01818084716796875 -0.17014312744140625 0.3785400390625 0.26812744140625 -3.2961368560791016e-05 -0.001490473747253418 0.0983734130859375 -0.07242584228515625
18.62125 0.01114654541015625 -0.1708526611328125 0.400604248046875 0.23468017578125 0.0005998313426971436 -6.982684135437012e-05 0.09173583984375 -0.07655715942382812
18.631 0.00171661376953125 -0.1678466796875 0.4185791015625 0.201416015625 0.0008077025413513184 5.8710575103759766e-06 0.085296630859375 -0.08297348022460938
