!Created with skrf (http://scikit-rf.org).
# GHz S RI R 50.0 
!freq ReS11 ImS11 ReS21 ImS21 ReS12 ImS12 ReS22 ImS22
17.5 0.0131072998046875 -0.1390838623046875 -1.9423828125 2.4332275390625 -0.0021157264709472656 0.00017940998077392578 0.09143829345703125 0.00672149658203125
17.50975 0.00399017333984375 -0.1371307373046875 -1.735107421875 2.578857421875 -0.0022302865982055664 0.00014400482177734375 0.0950775146484375 0.00397491455078125
17.5195 -0.0030364990234375 -0.132080078125 -1.5146484375 2.700439453125 -0.0018547773361206055 -0.0003974437713623047 0.09804534912109375 0.00444793701171875
17.52925 -0.01139068603515625 -0.1277008056640625 -1.29150390625 2.8106689453125 -0.0012551546096801758 0.0010173916816711426 0.1010589599609375 0.0009918212890625
17.539 -0.0171051025390625 -0.124969482421875 -1.065185546875 2.888427734375 -0.0017342567443847656 0.0001709461212158203 0.10250091552734375 -0.00208282470703125
17.54875 -0.02660369873046875 -0.12091827392578125 -0.83837890625 2.95166015625 -0.0017827153205871582 0.0009635090827941895 0.1067962646484375 -0.004596710205078125
17.5585 -0.0347442626953125 -0.11658477783203125 -0.608154296875 3.0023193359375 -0.0017789006233215332 0.0009633898735046387 0.10823440551757812 -0.007846832275390625
17.56825 -0.040802001953125 -0.1124420166015625 -0.3829345703125 3.0389404296875 -0.0013688206672668457 0.001791834831237793 0.10931015014648438 -0.012180328369140625
17.578 -0.0476226806640625 -0.10802459716796875 -0.141845703125 3.0623779296875 -0.0014063119888305664 0.0006412267684936523 0.11135482788085938 -0.0155029296875
17.58775 -0.0525665283203125 -0.10436248779296875 0.1036376953125 3.0662841796875 -0.0016341209411621094 0.0013273954391479492 0.11328887939453125 -0.01801300048828125
17.5975 -0.05678558349609375 -0.09647369384765625 0.357421875 3.0445556640625 -0.00015661120414733887 0.0006406605243682861 0.11467361450195312 -0.023624420166015625
17.60725 -0.06349945068359375 -0.0929107666015625 0.6019287109375 2.9920654296875 -0.0011802315711975098 0.0008902549743652344 0.1129302978515625 -0.027923583984375
17.617 -0.06824493408203125 -0.086395263671875 0.8353271484375 2.915771484375 0.00015079975128173828 0.0017933845520019531 0.11574935913085938 -0.03208160400390625
17.62675 -0.07338714599609375 -0.07861328125 1.0556640625 2.8197021484375 -0.0008001923561096191 0.0018414855003356934 0.11632919311523438 -0.0355987548828125
17.6365 -0.0765228271484375 -0.07196044921875 1.258056640625 2.708740234375 -0.0004703998565673828 0.0005329251289367676 0.1157684326171875 -0.04227447509765625
17.64625 -0.08056640625 -0.06295013427734375 1.4354248046875 2.5928955078125 -0.0023490190505981445 0.0014400482177734375 0.11294174194335938 -0.04656219482421875
17.656 -0.08483123779296875 -0.05966949462890625 1.606689453125 2.47509765625 -0.0001353248953819275 4.7326087951660156e-05 0.11106491088867188 -0.0516357421875
17.66575 -0.08545684814453125 -0.05072784423828125 1.77197265625 2.36181640625 -0.0013931989669799805 0.0017206072807312012 0.1102752685546875 -0.0550537109375
17.6755 -0.0901947021484375 -0.04290008544921875 1.9345703125 2.234375 -0.0015619397163391113 0.0009288191795349121 0.107757568359375 -0.0594635009765625
17.68525 -0.09206390380859375 -0.035064697265625 2.10400390625 2.104736328125 -0.001314699649810791 0.0013063549995422363 0.105316162109375 -0.06588363647460938
17.695 -0.094512939453125 -0.02783203125 2.275146484375 1.94921875 1.0907649993896484e-05 0.0017927289009094238 0.10458755493164062 -0.06954574584960938
17.70475 -0.09649276733398438 -0.020290374755859375 2.435791015625 1.762451171875 -0.0006057322025299072 0.0008102953433990479 0.10081100463867188 -0.0742034912109375
17.7145 -0.09720611572265625 -0.0115966796875 2.58251953125 1.555419921875 -0.00118941068649292 0.0004030466079711914 0.09704971313476562 -0.07913970947265625
17.72425 -0.09921646118164062 -0.005016326904296875 2.693359375 1.326904296875 -0.0009792447090148926 0.0012066364288330078 0.0928955078125 -0.08489608764648438
17.734 -0.09762191772460938 0.003223419189453125 2.776123046875 1.0968017578125 0.0007321834564208984 0.001429915428161621 0.0900421142578125 -0.0882110595703125
17.74375 -0.09975433349609375 0.0105133056640625 2.817626953125 0.869384765625 -0.0008552074432373047 0.001626133918762207 0.08368682861328125 -0.09319305419921875
17.7535 -0.09854507446289062 0.01778411865234375 2.852783203125 0.6561279296875 -0.0003934502601623535 0.0006507337093353271 0.08043289184570312 -0.09711074829101562
17.76325 -0.09769439697265625 0.02584075927734375 2.8736572265625 0.459228515625 -0.00043213367462158203 0.0005981326103210449 0.0727691650390625 -0.09891510009765625
17.773 -0.09587478637695312 0.0324859619140625 2.886962890625 0.2694091796875 -0.00045949220657348633 0.0012294650077819824 0.07146453857421875 -0.101104736328125
17.78275 -0.0960845947265625 0.038890838623046875 2.8984375 0.0711669921875 0.0006824731826782227 0.0022393465042114258 0.06613540649414062 -0.10303497314453125
17.7925 -0.09226226806640625 0.047046661376953125 2.9107666015625 -0.1309814453125 -0.0007835328578948975 0.0006706118583679199 0.061679840087890625 -0.10470199584960938
17.80225 -0.08983230590820312 0.052165985107421875 2.912841796875 -0.349365234375 0.0007277727127075195 0.0016832351684570312 0.056102752685546875 -0.10715103149414062
17.812 -0.08622360229492188 0.061328887939453125 2.8941650390625 -0.575439453125 0.0006456375122070312 0.002080202102661133 0.047847747802734375 -0.10966110229492188
17.82175 -0.082550048828125 0.06832504272460938 2.8463134765625 -0.803955078125 0.000977933406829834 0.0008222460746765137 0.046176910400390625 -0.10915756225585938
17.8315 -0.07886505126953125 0.07511520385742188 2.77197265625 -1.0308837890625 -0.0004375576972961426 0.001698136329650879 0.03891754150390625 -0.11056900024414062
17.84125 -0.0749359130859375 0.0816192626953125 2.675048828125 -1.238525390625 0.0006077289581298828 0.0022950172424316406 0.0318145751953125 -0.11037445068359375
17.851 -0.07099533081054688 0.08900070190429688 2.552490234375 -1.4295654296875 0.0008454322814941406 0.0005946159362792969 0.02728271484375 -0.111663818359375
17.86075 -0.06715774536132812 0.09409713745117188 2.434326171875 -1.6007080078125 -8.928775787353516e-05 0.0008173882961273193 0.02141571044921875 -0.11014938354492188
17.8705 -0.062145233154296875 0.10060882568359375 2.3099365234375 -1.7606201171875 0.00031182169914245605 0.00019732117652893066 0.01541900634765625 -0.111114501953125
17.88025 -0.057758331298828125 0.10623550415039062 2.1837158203125 -1.912841796875 0.0006355047225952148 0.0006546378135681152 0.00838470458984375 -0.1092071533203125
17.89 -0.0516815185546875 0.11177825927734375 2.062255859375 -2.0657958984375 -0.00012242794036865234 0.001941084861755371 0.0039825439453125 -0.1099395751953125
17.89975 -0.046436309814453125 0.11657333374023438 1.91259765625 -2.22314453125 -0.00029650330543518066 0.000650554895401001 -0.001125335693359375 -0.10783767700195312
17.9095 -0.041309356689453125 0.12059402465820312 1.757080078125 -2.378662109375 0.0006691217422485352 0.0015045404434204102 -0.007183074951171875 -0.10791778564453125
17.91925 -0.0361480712890625 0.12343978881835938 1.5733642578125 -2.5177001953125 0.0011217594146728516 0.0009315013885498047 -0.01305389404296875 -0.10544967651367188
17.929 -0.028594970703125 0.1287384033203125 1.382080078125 -2.64404296875 0.0006816387176513672 0.0009665489196777344 -0.01802825927734375 -0.103912353515625
17.93875 -0.0231475830078125 0.13256072998046875 1.16796875 -2.74365234375 0.0008771419525146484 0.001148819923400879 -0.0225830078125 -0.10082626342773438
17.9485 -0.01514434814453125 0.13425445556640625 0.9566650390625 -2.812744140625 0.00016707181930541992 0.0012029409408569336 -0.0298309326171875 -0.0981903076171875
17.95825 -0.006988525390625 0.13747406005859375 0.7437744140625 -2.8695068359375 0.0007923245429992676 0.00022476911544799805 -0.03235626220703125 -0.0944671630859375
17.968 -0.0011444091796875 0.14144134521484375 0.53955078125 -2.9134521484375 0.00013077259063720703 0.0012456178665161133 -0.03708648681640625 -0.09116363525390625
17.97775 0.0055999755859375 0.14212799072265625 0.3399658203125 -2.943603515625 -0.00033274292945861816 0.000353008508682251 -0.0431365966796875 -0.0867156982421875
17.9875 0.01476287841796875 0.1446075439453125 0.1298828125 -2.971435546875 0.00062522292137146 0.00015559792518615723 -0.04625701904296875 -0.08371734619140625
17.99725 0.02353668212890625 0.1450958251953125 -0.080078125 -3.0006103515625 0.0005332827568054199 -0.00029331445693969727 -0.050994873046875 -0.07848358154296875
18.007 0.0296478271484375 0.14672088623046875 -0.3065185546875 -3.00830078125 0.0019447803497314453 0.00024950504302978516 -0.05583953857421875 -0.07379150390625
18.01675 0.03899383544921875 0.14739990234375 -0.5390625 -2.995849609375 0.0008001923561096191 0.0003039240837097168 -0.06055450439453125 -0.0709075927734375
18.0265 0.0469512939453125 0.147369384765625 -0.778564453125 -2.963623046875 -7.507205009460449e-05 0.0004311800003051758 -0.064208984375 -0.0650482177734375
18.03625 0.054229736328125 0.14801025390625 -1.0146484375 -2.9013671875 0.0009537935256958008 -0.0002738833427429199 -0.06562042236328125 -0.05937957763671875
18.046 0.06089019775390625 0.14841461181640625 -1.244140625 -2.816650390625 0.0007501840591430664 -6.517767906188965e-05 -0.06967926025390625 -0.053375244140625
18.05575 0.0704803466796875 0.143951416015625 -1.4501953125 -2.71142578125 0.00044295191764831543 0.00024691224098205566 -0.07635498046875 -0.04920196533203125
18.0655 0.07805633544921875 0.144927978515625 -1.646240234375 -2.59814453125 6.96815550327301e-05 -4.9639493227005005e-05 -0.07747650146484375 -0.0423431396484375
18.07525 0.0858306884765625 0.1425323486328125 -1.83642578125 -2.47119140625 -0.0003934502601623535 0.0009816884994506836 -0.079315185546875 -0.03656768798828125
18.085 0.09337615966796875 0.14081573486328125 -2.0224609375 -2.340087890625 0.0015788078308105469 0.0008443593978881836 -0.08074569702148438 -0.030673980712890625
18.09475 0.10132598876953125 0.1363983154296875 -2.198486328125 -2.1953125 0.0007284581661224365 0.0002383589744567871 -0.08022308349609375 -0.025051116943359375
18.1045 0.1080322265625 0.1336669921875 -2.371826171875 -2.036376953125 0.0016612410545349121 -0.0011273026466369629 -0.08286666870117188 -0.01732635498046875
18.11425 0.11624908447265625 0.131927490234375 -2.5380859375 -1.853759765625 0.0022401809692382812 -0.00024187564849853516 -0.082489013671875 -0.012115478515625
18.124 0.122467041015625 0.1260833740234375 -2.68994140625 -1.66064453125 0.0006983280181884766 0.0005273818969726562 -0.0829315185546875 -0.00384521484375
18.13375 0.12982177734375 0.1220245361328125 -2.82275390625 -1.455078125 0.0007538199424743652 -0.0010595321655273438 -0.08161163330078125 0.00202178955078125
18.1435 0.1367950439453125 0.1161041259765625 -2.935302734375 -1.23291015625 0.0006894767284393311 0.00020700693130493164 -0.08285903930664062 0.012294769287109375
18.15325 0.1433258056640625 0.1116485595703125 -3.02880859375 -0.9970703125 0.00024075806140899658 1.0132789611816406e-06 -0.08068466186523438 0.016597747802734375
18.163 0.1489410400390625 0.1062164306640625 -3.102294921875 -0.7642822265625 -0.00011418014764785767 -0.00012475252151489258 -0.07982635498046875 0.024196624755859375
18.17275 0.1568450927734375 0.10009765625 -3.1605224609375 -0.523193359375 0.0015332698822021484 0.00036156177520751953 -0.07608795166015625 0.0312652587890625
18.1825 0.163177490234375 0.0936737060546875 -3.212158203125 -0.283935546875 5.044788122177124e-05 0.00014872848987579346 -0.07474899291992188 0.040767669677734375
18.19225 0.16741943359375 0.0859222412109375 -3.24267578125 -0.028564453125 0.0007839202880859375 -0.00016394257545471191 -0.07046127319335938 0.045269012451171875
18.202 0.1728973388671875 0.079071044921875 -3.25146484375 0.224365234375 0.0003935098648071289 0.00014579296112060547 -0.06792831420898438 0.05316925048828125
18.21175 0.1764068603515625 0.0724945068359375 -3.23046875 0.491455078125 -0.00012445449829101562 -0.0005222558975219727 -0.06414794921875 0.059539794921875
18.2215 0.1824493408203125 0.064971923828125 -3.1846923828125 0.751953125 0.0011352896690368652 -0.0004247426986694336 -0.058685302734375 0.06283187866210938
18.23125 0.18671417236328125 0.0566558837890625 -3.1185302734375 1.0013427734375 0.00028252601623535156 -0.0001385211944580078 -0.055744171142578125 0.06866073608398438
18.241 0.19005584716796875 0.04720306396484375 -3.02734375 1.2420654296875 0.00011175870895385742 0.0006143450736999512 -0.0496826171875 0.07410049438476562
18.25075 0.1927032470703125 0.03865814208984375 -2.9195556640625 1.47119140625 -0.0003037452697753906 -0.001028597354888916 -0.044162750244140625 0.079803466796875
18.2605 0.19402313232421875 0.03273773193359375 -2.7991943359375 1.6881103515625 0.0007974803447723389 -0.0001512765884399414 -0.036952972412109375 0.08275985717773438
18.27025 0.1959381103515625 0.02298736572265625 -2.66943359375 1.90185546875 0.00010100007057189941 -0.0004977881908416748 -0.030681610107421875 0.08775711059570312
18.28 0.19800567626953125 0.012603759765625 -2.52685546875 2.122802734375 0.0005744099617004395 -0.0016195178031921387 -0.023159027099609375 0.09069442749023438
18.28975 0.20034027099609375 0.00484466552734375 -2.3612060546875 2.322021484375 -3.118067979812622e-06 0.00011256709694862366 -0.01537322998046875 0.09571075439453125
18.2995 0.199798583984375 -0.0039520263671875 -2.172607421875 2.5152587890625 -0.00039756298065185547 -0.0011242032051086426 -0.0076751708984375 0.09599685668945312
18.30925 0.1994476318359375 -0.014617919921875 -1.95654296875 2.690673828125 -0.00029838085174560547 -0.00018131732940673828 0.00086212158203125 0.09816741943359375
18.319 0.19850921630859375 -0.02344512939453125 -1.7269287109375 2.8358154296875 0.0002537369728088379 -0.0012876391410827637 0.007770538330078125 0.10051727294921875
18.32875 0.197235107421875 -0.0319671630859375 -1.4915771484375 2.9573974609375 0.00040596723556518555 -0.0006724298000335693 0.01879119873046875 0.099639892578125
18.3385 0.19557952880859375 -0.04300689697265625 -1.25146484375 3.0513916015625 0.00018912553787231445 -0.0010864734649658203 0.02669525146484375 0.10190582275390625
18.34825 0.1938323974609375 -0.0522613525390625 -1.0150146484375 3.1363525390625 0.0011445879936218262 0.00014913082122802734 0.034576416015625 0.1023406982421875
18.358 0.19240570068359375 -0.06098175048828125 -0.7802734375 3.2059326171875 -0.0009268522262573242 -0.00034058094024658203 0.04232025146484375 0.10021209716796875
18.36775 0.189727783203125 -0.06816864013671875 -0.530029296875 3.2584228515625 1.0326504707336426e-05 0.0001987665891647339 0.050811767578125 0.09810638427734375
18.3775 0.18692779541015625 -0.07598876953125 -0.28076171875 3.3028564453125 0.0010464191436767578 -0.0004929304122924805 0.05814361572265625 0.09609222412109375
18.38725 0.1820220947265625 -0.08588409423828125 -0.0091552734375 3.32373046875 0.0014886856079101562 -0.0005785822868347168 0.06519317626953125 0.0932159423828125
18.397 0.1781463623046875 -0.093170166015625 0.263427734375 3.314453125 9.232014417648315e-05 -6.342679262161255e-05 0.07373046875 0.09075927734375
18.40675 0.1715087890625 -0.1020355224609375 0.54638671875 3.280029296875 0.000828862190246582 -0.00014573335647583008 0.082122802734375 0.08673095703125
18.4165 0.16652679443359375 -0.1078643798828125 0.80419921875 3.2060546875 -0.0008473992347717285 -0.0008437037467956543 0.0874481201171875 0.08270263671875
18.42625 0.1608734130859375 -0.11653900146484375 1.05126953125 3.112060546875 0.00035043060779571533 -0.00030909478664398193 0.09690093994140625 0.07488250732421875
18.436 0.1536865234375 -0.1212005615234375 1.272705078125 3.00048828125 -8.347630500793457e-05 -0.0003413558006286621 0.10431671142578125 0.0710296630859375
18.44575 0.14806365966796875 -0.12848663330078125 1.48583984375 2.8857421875 0.0008059442043304443 -0.0005095899105072021 0.10767364501953125 0.06182098388671875
18.4555 0.13945770263671875 -0.1338958740234375 1.6875 2.760986328125 0.0011209845542907715 -0.00019162893295288086 0.11374664306640625 0.0561065673828125
18.46525 0.1326141357421875 -0.14090728759765625 1.889892578125 2.640380859375 0.0005995631217956543 0.00018489360809326172 0.11774444580078125 0.045989990234375
18.475 0.12425994873046875 -0.1443328857421875 2.091552734375 2.499755859375 -1.792609691619873e-05 -0.00044886767864227295 0.12351226806640625 0.03928375244140625
18.48475 0.1189117431640625 -0.1504364013671875 2.288330078125 2.33251953125 -0.00039380788803100586 -0.0010648369789123535 0.12551116943359375 0.0304412841796875
18.4945 0.10889434814453125 -0.15462493896484375 2.47314453125 2.135009765625 0.0007285475730895996 0.00029224157333374023 0.13027191162109375 0.0202789306640625
18.50425 0.101043701171875 -0.1581878662109375 2.64306640625 1.916015625 7.426738739013672e-05 0.0007328391075134277 0.1304931640625 0.0117034912109375
18.514 0.0945281982421875 -0.1623077392578125 2.7744140625 1.6826171875 0.00028324127197265625 -0.0005825161933898926 0.1326446533203125 0.0040740966796875
18.52375 0.08518218994140625 -0.16310882568359375 2.87060546875 1.443603515625 0.0012933015823364258 0.00013136863708496094 0.1346893310546875 -0.00473785400390625
18.5335 0.0790557861328125 -0.1681060791015625 2.9453125 1.2119140625 0.00016288459300994873 -0.0003786236047744751 0.13468170166015625 -0.01544952392578125
18.54325 0.07019805908203125 -0.1696014404296875 3.00048828125 0.98876953125 -0.00035184621810913086 -0.0014271736145019531 0.1320953369140625 -0.0231170654296875
18.553 0.06194305419921875 -0.17120361328125 3.0465087890625 0.7672119140625 0.001052558422088623 -0.0015107989311218262 0.1298980712890625 -0.03009796142578125
18.56275 0.05501556396484375 -0.1709747314453125 3.091064453125 0.5523681640625 0.0004114210605621338 0.0001461803913116455 0.128997802734375 -0.04029083251953125
18.5725 0.04450225830078125 -0.17209625244140625 3.1212158203125 0.3265380859375 0.00033792853355407715 0.00011652708053588867 0.12378692626953125 -0.048614501953125
18.58225 0.037384033203125 -0.170501708984375 3.14306640625 0.0909423828125 0.00020182132720947266 -0.0006461739540100098 0.12052154541015625 -0.056293487548828125
18.592 0.02846527099609375 -0.17218017578125 3.1378173828125 -0.156494140625 0.000825345516204834 -0.0005638003349304199 0.11568450927734375 -0.06288909912109375
18.60175 0.021636962890625 -0.170257568359375 3.11328125 -0.406005859375 0.00044652819633483887 -0.00036704540252685547 0.11004638671875 -0.06984710693359375
18.6115 0.01392364501953125 -0.16949462890625 3.0504150390625 -0.6439208984375 -0.0001469254493713379 -0.0001332014799118042 0.10477447509765625 -0.07806396484375
18.62125 0.00653839111328125 -0.168731689453125 2.9715576171875 -0.866943359375 -0.0005730986595153809 -0.0009316802024841309 0.0973663330078125 -0.08269882202148438
18.631 -0.00046539306640625 -0.16773223876953125 2.876953125 -1.0628662109375 4.51207160949707e-05 -0.0008889138698577881 0.09161376953125 -0.08797454833984375
18.64075 -0.00835418701171875 -0.1643524169921875 2.77587890625 -1.2506103515625 -0.0002589374780654907 -0.00021839141845703125 0.08651351928710938 -0.09277725219726562
18.6505 -0.0151519775390625 -0.16240692138671875 2.67529296875 -1.428955078125 0.00015419721603393555 -0.0007788240909576416 0.07995986938476562 -0.096343994140625
18.66025 -0.02419281005859375 -0.1595611572265625 2.5721435546875 -1.6038818359375 0.0006521940231323242 -0.0008438825607299805 0.07117080688476562 -0.09877395629882812
18.67 -0.02979278564453125 -0.15845489501953125 2.4591064453125 -1.779541015625 0.0010176897048950195 -0.0005336999893188477 0.06609725952148438 -0.10177230834960938
18.67975 -0.03731536865234375 -0.15399932861328125 2.337890625 -1.9588623046875 0.0007801651954650879 -0.001145780086517334 0.058300018310546875 -0.102935791015625
