!Created with skrf (http://scikit-rf.org).
# GHz S RI R 50.0 
!freq ReS11 ImS11 ReS21 ImS21 ReS12 ImS12 ReS22 ImS22
17.5 0.01320648193359375 -0.14063262939453125 -1.52752685546875 1.93212890625 -0.0018960237503051758 -0.0007865428924560547 0.09383773803710938 0.004863739013671875
17.50975 0.0027313232421875 -0.13733673095703125 -1.3607177734375 2.0440673828125 -0.0018567442893981934 0.00022614002227783203 0.0956573486328125 0.003589630126953125
17.5195 -0.00484466552734375 -0.13320159912109375 -1.1824951171875 2.1383056640625 -0.0014873147010803223 0.0005921721458435059 0.09796142578125 0.004344940185546875
17.52925 -0.01276397705078125 -0.129241943359375 -1.00634765625 2.2215576171875 -0.001335442066192627 0.00020700693130493164 0.10333633422851562 -0.00164794921875
17.539 -0.0183563232421875 -0.1251373291015625 -0.825927734375 2.2841796875 -0.0012440681457519531 0.0015780925750732422 0.10369873046875 -0.0037994384765625
17.54875 -0.02770233154296875 -0.1217803955078125 -0.646240234375 2.3321533203125 -0.0017867684364318848 0.0010924935340881348 0.10663223266601562 -0.005939483642578125
17.5585 -0.03585052490234375 -0.11643218994140625 -0.46435546875 2.369384765625 -0.0012146830558776855 0.0007708072662353516 0.1088104248046875 -0.010227203369140625
17.56825 -0.04132843017578125 -0.11273956298828125 -0.2869873046875 2.3980712890625 -0.0022878646850585938 4.76837158203125e-06 0.10986328125 -0.01259613037109375
17.578 -0.0485992431640625 -0.10648345947265625 -0.0970458984375 2.413818359375 -0.0011311173439025879 0.00047856569290161133 0.11234664916992188 -0.017307281494140625
17.58775 -0.0550689697265625 -0.1035308837890625 0.096923828125 2.4136962890625 -0.0012810230255126953 0.0006772875785827637 0.11359786987304688 -0.019443511962890625
17.5975 -0.05936431884765625 -0.09770965576171875 0.2974853515625 2.39111328125 -0.00033932924270629883 0.0010803937911987305 0.1147613525390625 -0.026119232177734375
17.60725 -0.06451416015625 -0.0935516357421875 0.4892578125 2.349365234375 -0.001412034034729004 0.0011001825332641602 0.113800048828125 -0.027988433837890625
17.617 -0.07105255126953125 -0.0852508544921875 0.6702880859375 2.2857666015625 -0.0005734860897064209 0.0007600784301757812 0.1150665283203125 -0.035022735595703125
17.62675 -0.07518768310546875 -0.078765869140625 0.8411865234375 2.2073974609375 -0.0013998150825500488 0.0016793608665466309 0.11573410034179688 -0.038543701171875
17.6365 -0.0785369873046875 -0.071929931640625 0.998779296875 2.118896484375 -0.0009489655494689941 0.0007338523864746094 0.11592864990234375 -0.0422515869140625
17.64625 -0.08263397216796875 -0.06304931640625 1.1370849609375 2.025390625 -0.0016217231750488281 0.0008065700531005859 0.1130828857421875 -0.04718780517578125
17.656 -0.08513641357421875 -0.0583953857421875 1.26806640625 1.931640625 -0.0023757219314575195 0.0016628503799438477 0.11014938354492188 -0.051616668701171875
17.66575 -0.08808135986328125 -0.04882049560546875 1.3956298828125 1.8389892578125 0.00077018141746521 0.0001404285430908203 0.11072158813476562 -0.058414459228515625
17.6755 -0.09233856201171875 -0.0414886474609375 1.523193359375 1.73974609375 -0.0010946989059448242 0.0005601048469543457 0.10704803466796875 -0.062267303466796875
17.68525 -0.0938568115234375 -0.034210205078125 1.65234375 1.6368408203125 0.00021332502365112305 0.0010879039764404297 0.10483169555664062 -0.06755447387695312
17.695 -0.09574127197265625 -0.02704620361328125 1.78564453125 1.51416015625 -0.00010848045349121094 0.0011298656463623047 0.10297775268554688 -0.07088088989257812
17.70475 -0.09641647338867188 -0.01859283447265625 1.91015625 1.369140625 0.0004391670227050781 0.001537919044494629 0.09999847412109375 -0.07589340209960938
17.7145 -0.0992431640625 -0.008930206298828125 2.0213623046875 1.2060546875 -0.0013566017150878906 0.002686023712158203 0.09535980224609375 -0.07970428466796875
17.72425 -0.09873199462890625 -0.002475738525390625 2.106689453125 1.0296630859375 0.0006808042526245117 0.0015333890914916992 0.0916748046875 -0.08269882202148438
17.734 -0.10057449340820312 0.00351715087890625 2.1689453125 0.847412109375 -0.0017426609992980957 0.0007063746452331543 0.08728790283203125 -0.08865737915039062
17.74375 -0.102081298828125 0.013092041015625 2.20068359375 0.67236328125 0.0005000829696655273 0.0014235973358154297 0.0835113525390625 -0.09465789794921875
17.7535 -0.09923553466796875 0.02001953125 2.2218017578125 0.5048828125 -0.000746607780456543 0.0016948580741882324 0.07846450805664062 -0.09744644165039062
17.76325 -0.09888458251953125 0.026851654052734375 2.2384033203125 0.353515625 -0.00019291043281555176 -0.0006413459777832031 0.07292556762695312 -0.09933853149414062
17.773 -0.09827804565429688 0.034633636474609375 2.2474365234375 0.2052001953125 6.502866744995117e-05 0.0007796585559844971 0.06873321533203125 -0.10233688354492188
17.78275 -0.09413909912109375 0.04169464111328125 2.2557373046875 0.0523681640625 -3.6656856536865234e-05 0.0013778209686279297 0.0640716552734375 -0.10272216796875
17.7925 -0.09229660034179688 0.04792022705078125 2.2607421875 -0.103271484375 0.00020763278007507324 0.0006919205188751221 0.058605194091796875 -0.10528182983398438
17.80225 -0.08994674682617188 0.05391693115234375 2.2635498046875 -0.272216796875 -0.00042641162872314453 0.0007755756378173828 0.0536651611328125 -0.1077423095703125
17.812 -0.08547592163085938 0.06299209594726562 2.2430419921875 -0.447021484375 7.942318916320801e-05 0.0007770061492919922 0.047821044921875 -0.10940933227539062
17.82175 -0.08218765258789062 0.070159912109375 2.2100830078125 -0.6204833984375 0.00040650367736816406 0.0017186403274536133 0.04291534423828125 -0.1080322265625
17.8315 -0.07849884033203125 0.07623291015625 2.1510009765625 -0.794921875 0.0005812644958496094 0.0005128979682922363 0.03688812255859375 -0.1089019775390625
17.84125 -0.07486724853515625 0.08161163330078125 2.07861328125 -0.95556640625 0.000859379768371582 0.0007357597351074219 0.0295867919921875 -0.1099700927734375
17.851 -0.06996917724609375 0.08934783935546875 1.9830322265625 -1.101806640625 0.00016641616821289062 0.0013657808303833008 0.02689361572265625 -0.1114654541015625
17.86075 -0.06503677368164062 0.09592437744140625 1.8912353515625 -1.231689453125 0.0015251636505126953 0.0020377635955810547 0.0185089111328125 -0.1091766357421875
17.8705 -0.06111907958984375 0.100189208984375 1.79559326171875 -1.35498046875 0.00104522705078125 0.0016192197799682617 0.0135650634765625 -0.10960006713867188
17.88025 -0.05593109130859375 0.10644912719726562 1.69970703125 -1.4715576171875 0.0007367730140686035 0.0011427998542785645 0.007083892822265625 -0.1087646484375
17.89 -0.05086517333984375 0.11229705810546875 1.602783203125 -1.58819580078125 8.606910705566406e-05 0.0021817684173583984 0.003582000732421875 -0.10756683349609375
17.89975 -0.043239593505859375 0.11660385131835938 1.49041748046875 -1.7080078125 0.0005980134010314941 0.0005940794944763184 -0.004108428955078125 -0.10683822631835938
17.9095 -0.038364410400390625 0.12138748168945312 1.36962890625 -1.8253173828125 0.000993490219116211 0.0006837844848632812 -0.008693695068359375 -0.10555267333984375
17.91925 -0.0323028564453125 0.12503814697265625 1.23455810546875 -1.93145751953125 0.0002728700637817383 0.0015640854835510254 -0.01430511474609375 -0.10408782958984375
17.929 -0.0268707275390625 0.1301422119140625 1.08349609375 -2.027587890625 0.0002346634864807129 -0.0005465149879455566 -0.02056884765625 -0.101409912109375
17.93875 -0.019866943359375 0.1328277587890625 0.9244384765625 -2.103515625 0.0004628002643585205 0.00048035383224487305 -0.023921966552734375 -0.0996856689453125
17.9485 -0.0137786865234375 0.13515472412109375 0.7642822265625 -2.160400390625 0.0011112689971923828 0.0005339980125427246 -0.02915191650390625 -0.09556198120117188
17.95825 -0.00548553466796875 0.137542724609375 0.6051025390625 -2.207763671875 0.0011388063430786133 0.001426100730895996 -0.033599853515625 -0.094146728515625
17.968 5.340576171875e-05 0.13980865478515625 0.450439453125 -2.2420654296875 0.0016522407531738281 0.0018093585968017578 -0.038177490234375 -0.08982086181640625
17.97775 0.00807952880859375 0.1413116455078125 0.2984619140625 -2.2681884765625 0.0009239017963409424 -0.0006416440010070801 -0.04404449462890625 -0.0846710205078125
17.9875 0.0175933837890625 0.14330291748046875 0.1400146484375 -2.2940673828125 0.0011532902717590332 0.0006845593452453613 -0.0457000732421875 -0.0794830322265625
17.99725 0.02426910400390625 0.14424896240234375 -0.0216064453125 -2.31689453125 0.0005682110786437988 0.0010092854499816895 -0.05147552490234375 -0.07733154296875
18.007 0.031768798828125 0.146087646484375 -0.191650390625 -2.32861328125 0.0008710920810699463 -0.00017780065536499023 -0.05521392822265625 -0.07256317138671875
18.01675 0.04119110107421875 0.1457977294921875 -0.3685302734375 -2.324462890625 0.0009499192237854004 0.000491797924041748 -0.0588531494140625 -0.06783294677734375
18.0265 0.04766845703125 0.146484375 -0.5517578125 -2.302490234375 0.001995086669921875 9.322166442871094e-05 -0.0638885498046875 -0.0640716552734375
18.03625 0.0548553466796875 0.1481475830078125 -0.733642578125 -2.2607421875 0.0010974407196044922 8.916854858398438e-05 -0.0677490234375 -0.0581207275390625
18.046 0.0643768310546875 0.1460418701171875 -0.9117431640625 -2.1998291015625 0.00046685338020324707 -0.00010834634304046631 -0.06959915161132812 -0.052639007568359375
18.05575 0.07218170166015625 0.143646240234375 -1.072021484375 -2.1270751953125 0.001347184181213379 0.0009660720825195312 -0.07408905029296875 -0.0472412109375
18.0655 0.0782470703125 0.14383697509765625 -1.223876953125 -2.044677734375 0.0013779997825622559 -0.00035256147384643555 -0.07621002197265625 -0.03955078125
18.07525 0.0871429443359375 0.14157867431640625 -1.3687744140625 -1.953125 0.0009583234786987305 0.0009225010871887207 -0.07649612426757812 -0.03630828857421875
18.085 0.09375 0.139312744140625 -1.5177001953125 -1.8575439453125 0.0002556145191192627 -0.0005289912223815918 -0.07928466796875 -0.029232025146484375
18.09475 0.10062408447265625 0.1357879638671875 -1.659423828125 -1.7557373046875 -0.0004858970642089844 0.0013815760612487793 -0.07986068725585938 -0.023960113525390625
18.1045 0.1098175048828125 0.1320953369140625 -1.795654296875 -1.63916015625 0.001948237419128418 -0.0006182193756103516 -0.08185577392578125 -0.0167388916015625
18.11425 0.11649322509765625 0.12969207763671875 -1.931640625 -1.5023193359375 0.0008942186832427979 -0.0005034506320953369 -0.08170318603515625 -0.0101318359375
18.124 0.1218414306640625 0.1259307861328125 -2.052734375 -1.357666015625 0.0010387897491455078 -0.00042891502380371094 -0.0809478759765625 -0.00388336181640625
18.13375 0.1299285888671875 0.1212921142578125 -2.163330078125 -1.2041015625 0.0006271600723266602 -0.00042498111724853516 -0.07997894287109375 0.003173828125
18.1435 0.13525390625 0.1168975830078125 -2.2574462890625 -1.0341796875 0.0009243488311767578 -0.0021764039993286133 -0.08166885375976562 0.01284027099609375
18.15325 0.1420440673828125 0.1099395751953125 -2.3424072265625 -0.858154296875 0.0006582736968994141 -0.00011020898818969727 -0.0801239013671875 0.01718902587890625
18.163 0.149261474609375 0.1037139892578125 -2.4051513671875 -0.6788330078125 0.001211702823638916 -2.86102294921875e-05 -0.07809829711914062 0.02516937255859375
18.17275 0.1550445556640625 0.09747314453125 -2.45703125 -0.49365234375 -0.0002548396587371826 -0.0004229545593261719 -0.0738067626953125 0.032451629638671875
18.1825 0.161773681640625 0.0913848876953125 -2.5045166015625 -0.3089599609375 0.0017690062522888184 -3.8683414459228516e-05 -0.07205581665039062 0.040149688720703125
18.19225 0.166595458984375 0.0847320556640625 -2.5386962890625 -0.1104736328125 -0.00026223063468933105 0.0004980564117431641 -0.06939697265625 0.0464324951171875
18.202 0.17166900634765625 0.07930755615234375 -2.5555419921875 0.087890625 0.0005181729793548584 -0.00022047758102416992 -0.06647491455078125 0.052494049072265625
18.21175 0.175384521484375 0.071807861328125 -2.548095703125 0.294921875 0.0006717443466186523 0.0003775358200073242 -0.061901092529296875 0.058254241943359375
18.2215 0.18152618408203125 0.06329345703125 -2.52392578125 0.5035400390625 0.0003621131181716919 -4.191696643829346e-05 -0.05745697021484375 0.06391143798828125
18.23125 0.1853485107421875 0.05702972412109375 -2.483642578125 0.701171875 0.00045546889305114746 -0.0008691251277923584 -0.053005218505859375 0.06847000122070312
18.241 0.1890106201171875 0.04831695556640625 -2.422119140625 0.895751953125 0.0012323856353759766 0.0002224445343017578 -0.04732513427734375 0.07355117797851562
18.25075 0.1908721923828125 0.03955078125 -2.346435546875 1.0775146484375 0.0006530284881591797 -0.0005176067352294922 -0.0415496826171875 0.07840728759765625
18.2605 0.19287109375 0.0309295654296875 -2.2601318359375 1.2559814453125 0.0007732510566711426 -0.00016039609909057617 -0.036609649658203125 0.08287429809570312
18.27025 0.1948089599609375 0.0226287841796875 -2.1634521484375 1.43017578125 0.0004658699035644531 -0.0010156035423278809 -0.02887725830078125 0.0868072509765625
18.28 0.1977081298828125 0.01324462890625 -2.0589599609375 1.60595703125 0.0001514628529548645 -0.00019947439432144165 -0.02176666259765625 0.09050369262695312
18.28975 0.19748687744140625 0.004486083984375 -1.93646240234375 1.771240234375 -0.0005952119827270508 -0.0011069774627685547 -0.014617919921875 0.09180068969726562
18.2995 0.1985015869140625 -0.004119873046875 -1.79156494140625 1.93255615234375 0.00038942694664001465 -0.0005054175853729248 -0.007083892822265625 0.09323883056640625
18.30925 0.1976165771484375 -0.014556884765625 -1.625 2.075439453125 0.0007086396217346191 -0.00046885013580322266 0.00241851806640625 0.09670257568359375
18.319 0.19775390625 -0.0236053466796875 -1.4500732421875 2.2021484375 -0.0006704032421112061 -1.8656253814697266e-05 0.00794219970703125 0.09995269775390625
18.32875 0.19525146484375 -0.030853271484375 -1.2679443359375 2.3043212890625 0.000545114278793335 -0.000603020191192627 0.017551422119140625 0.09961318969726562
18.3385 0.19414520263671875 -0.04193115234375 -1.077880859375 2.3887939453125 -0.0005292892456054688 0.0008303821086883545 0.026153564453125 0.10131072998046875
18.34825 0.1935272216796875 -0.05153656005859375 -0.8936767578125 2.4652099609375 0.0016390681266784668 -0.0005049705505371094 0.03360748291015625 0.10050201416015625
18.358 0.19080352783203125 -0.05925750732421875 -0.707275390625 2.5283203125 0.00065574049949646 0.00016355514526367188 0.04266357421875 0.0982666015625
18.36775 0.187774658203125 -0.06702423095703125 -0.5096435546875 2.5811767578125 0.00035065412521362305 -0.0006188154220581055 0.04880523681640625 0.09612274169921875
18.3775 0.18480682373046875 -0.07555389404296875 -0.3125 2.6260986328125 -0.0009583830833435059 -0.0008562207221984863 0.05809783935546875 0.09485626220703125
18.38725 0.18146514892578125 -0.0846710205078125 -0.094970703125 2.6505126953125 0.0007868707180023193 -1.710653305053711e-05 0.06591796875 0.09246826171875
18.397 0.177703857421875 -0.0919342041015625 0.12158203125 2.6533203125 0.0006671547889709473 -0.00032192468643188477 0.0738372802734375 0.088653564453125
18.40675 0.1720733642578125 -0.0990447998046875 0.3486328125 2.6337890625 0.0006082057952880859 -9.465217590332031e-05 0.0805816650390625 0.0833282470703125
18.4165 0.1662445068359375 -0.1066131591796875 0.5565185546875 2.5860595703125 0.0009455084800720215 -0.0009535849094390869 0.08721160888671875 0.07991790771484375
18.42625 0.16191864013671875 -0.114227294921875 0.75830078125 2.5157470703125 0.0009537041187286377 -0.0005477070808410645 0.09360504150390625 0.0744476318359375
18.436 0.15483856201171875 -0.1195526123046875 0.939208984375 2.437744140625 0.0002427995204925537 -0.0006785094738006592 0.10211181640625 0.0677032470703125
18.44575 0.1455230712890625 -0.12662506103515625 1.11376953125 2.3492431640625 0.0010181069374084473 -0.00010907649993896484 0.10625457763671875 0.0604400634765625
18.4555 0.1386871337890625 -0.1326141357421875 1.2783203125 2.2579345703125 -0.0007093846797943115 0.00015720725059509277 0.11118316650390625 0.05432891845703125
18.46525 0.13391876220703125 -0.13913726806640625 1.4476318359375 2.1641845703125 0.000375211238861084 -0.0004514753818511963 0.11602783203125 0.04351043701171875
18.475 0.12479400634765625 -0.1438751220703125 1.61181640625 2.059326171875 -0.0003220289945602417 -0.0001259446144104004 0.12143707275390625 0.03816986083984375
18.48475 0.11931610107421875 -0.1490631103515625 1.7772216796875 1.9290771484375 0.0004082024097442627 0.0003510713577270508 0.1248779296875 0.02872467041015625
18.4945 0.11067962646484375 -0.1535491943359375 1.931396484375 1.7789306640625 0.00047838687896728516 -0.0009700655937194824 0.1298675537109375 0.019317626953125
18.50425 0.1012115478515625 -0.15740966796875 2.074462890625 1.610107421875 0.0011780261993408203 0.0003243684768676758 0.128448486328125 0.01226806640625
18.514 0.09490966796875 -0.1620025634765625 2.18701171875 1.426513671875 -0.0001722276210784912 0.00016127526760101318 0.1318359375 0.00323486328125
18.52375 0.0872344970703125 -0.1626129150390625 2.27392578125 1.2342529296875 0.000402301549911499 -0.0007377266883850098 0.1309814453125 -0.00583648681640625
18.5335 0.0790252685546875 -0.1654205322265625 2.3408203125 1.05078125 -0.00014659762382507324 -0.00046303868293762207 0.13219451904296875 -0.01557159423828125
18.54325 0.07083892822265625 -0.16937255859375 2.3919677734375 0.87353515625 0.0013634562492370605 0.00035828351974487305 0.1308135986328125 -0.023956298828125
18.553 0.06354522705078125 -0.17026519775390625 2.4351806640625 0.6973876953125 0.0005714893341064453 -3.826618194580078e-05 0.1293182373046875 -0.030548095703125
18.56275 0.0549774169921875 -0.1712646484375 2.4779052734375 0.523193359375 0.0010464191436767578 0.0004583597183227539 0.12516021728515625 -0.03841400146484375
18.5725 0.04695892333984375 -0.17079925537109375 2.5113525390625 0.341552734375 -7.144361734390259e-05 0.00019975751638412476 0.12163925170898438 -0.048614501953125
18.58225 0.038848876953125 -0.17046356201171875 2.5321044921875 0.150390625 -0.00019860267639160156 -0.00039896368980407715 0.11778640747070312 -0.055400848388671875
18.592 0.03011322021484375 -0.1721649169921875 2.5380859375 -0.0498046875 0.0004641413688659668 0.00017830729484558105 0.11367034912109375 -0.06201171875
18.60175 0.021240234375 -0.170623779296875 2.523681640625 -0.25 -0.0002143383026123047 -0.0002695024013519287 0.10829925537109375 -0.0674285888671875
18.6115 0.0140838623046875 -0.17047119140625 2.48291015625 -0.4429931640625 -0.00013726204633712769 -4.5746564865112305e-05 0.10411834716796875 -0.075469970703125
18.62125 0.007843017578125 -0.1688385009765625 2.424560546875 -0.6268310546875 -0.000577092170715332 -0.0004666447639465332 0.0979156494140625 -0.08198165893554688
18.631 -0.0018310546875 -0.16717529296875 2.3536376953125 -0.7890625 0.0014914870262145996 -0.0005530118942260742 0.08960723876953125 -0.08634567260742188
18.64075 -0.00705718994140625 -0.1662750244140625 2.278564453125 -0.9466552734375 -0.0005071163177490234 -2.3603439331054688e-05 0.08462142944335938 -0.09160995483398438
18.6505 -0.01407623291015625 -0.16487884521484375 2.20458984375 -1.0931396484375 0.00020611286163330078 -0.0003863871097564697 0.07873153686523438 -0.09488677978515625
18.66025 -0.022979736328125 -0.16002655029296875 2.1226806640625 -1.2364501953125 0.00035640597343444824 -0.0005496740341186523 0.07110595703125 -0.09692764282226562
18.67 -0.02954864501953125 -0.15921783447265625 2.038330078125 -1.3851318359375 8.589029312133789e-05 -0.00039905309677124023 0.064971923828125 -0.09892654418945312
18.67975 -0.03723907470703125 -0.1550140380859375 1.94415283203125 -1.53314208984375 3.793835639953613e-05 -0.0005767941474914551 0.0561981201171875 -0.10270309448242188
