!Created with skrf (http://scikit-rf.org).
# GHz S RI R 50.0 
!freq ReS11 ImS11 ReS21 ImS21 ReS12 ImS12 ReS22 ImS22
17.5 0.00926971435546875 -0.14305877685546875 -0.2913818359375 0.378265380859375 -0.0018549561500549316 0.0004299283027648926 0.09821701049804688 0.00188446044921875
17.50975 -0.00074005126953125 -0.1401824951171875 -0.25445556640625 0.398468017578125 0.000307619571685791 0.0014879107475280762 0.10109710693359375 -0.0008392333984375
17.5195 -0.007843017578125 -0.1363067626953125 -0.21484375 0.4144134521484375 -0.0016039013862609863 0.0011091828346252441 0.10345458984375 -0.000576019287109375
17.52925 -0.01725006103515625 -0.132598876953125 -0.175567626953125 0.42498779296875 -0.0014117956161499023 0.0008191466331481934 0.10544204711914062 -0.005474090576171875
17.539 -0.022247314453125 -0.1270599365234375 -0.13592529296875 0.433074951171875 -0.001338362693786621 0.0012023448944091797 0.10697174072265625 -0.0081634521484375
17.54875 -0.03011322021484375 -0.12490081787109375 -0.09844970703125 0.435943603515625 -0.0018780827522277832 1.3768672943115234e-05 0.1094512939453125 -0.010425567626953125
17.5585 -0.041015625 -0.11861419677734375 -0.0610809326171875 0.4383697509765625 -0.0008593201637268066 0.0009691119194030762 0.11043548583984375 -0.015781402587890625
17.56825 -0.04608917236328125 -0.11541748046875 -0.024993896484375 0.4349212646484375 -0.0016155242919921875 0.0006201267242431641 0.11118316650390625 -0.020191192626953125
17.578 -0.0522918701171875 -0.10956573486328125 0.0106353759765625 0.4315948486328125 -0.002077341079711914 0.0005545616149902344 0.11328506469726562 -0.023426055908203125
17.58775 -0.05989837646484375 -0.1037750244140625 0.0471649169921875 0.42236328125 -0.0001973658800125122 0.0004808008670806885 0.11383819580078125 -0.02538299560546875
17.5975 -0.06337738037109375 -0.09815216064453125 0.0832977294921875 0.4110260009765625 -9.85562801361084e-05 0.0005273818969726562 0.11310577392578125 -0.031711578369140625
17.60725 -0.0694732666015625 -0.09275054931640625 0.114044189453125 0.3953857421875 -0.0008528530597686768 0.0008180439472198486 0.11292648315429688 -0.033878326416015625
17.617 -0.07395172119140625 -0.0843353271484375 0.1446533203125 0.377227783203125 -0.0023566484451293945 0.0013141632080078125 0.114593505859375 -0.04065704345703125
17.62675 -0.07898712158203125 -0.077667236328125 0.169647216796875 0.357025146484375 -0.0012072920799255371 0.0003148317337036133 0.11407470703125 -0.044445037841796875
17.6365 -0.0826416015625 -0.06988525390625 0.19342041015625 0.3349609375 -0.0006366372108459473 0.0006635189056396484 0.1111602783203125 -0.04904937744140625
17.64625 -0.08544158935546875 -0.062347412109375 0.211517333984375 0.31317138671875 -0.00027370452880859375 0.0008277595043182373 0.11029434204101562 -0.052093505859375
17.656 -0.091339111328125 -0.05682373046875 0.2291259765625 0.293487548828125 -0.0006397664546966553 0.0005836188793182373 0.10816192626953125 -0.057857513427734375
17.66575 -0.09066009521484375 -0.046661376953125 0.243255615234375 0.271759033203125 -0.0011845231056213379 0.0012640953063964844 0.10676956176757812 -0.062274932861328125
17.6755 -0.0956573486328125 -0.04019927978515625 0.257659912109375 0.251373291015625 -0.0004672408103942871 0.0012705326080322266 0.10315704345703125 -0.06816482543945312
17.68525 -0.09670257568359375 -0.03130340576171875 0.272369384765625 0.23004150390625 0.000540316104888916 0.0007547736167907715 0.10075759887695312 -0.07126235961914062
17.695 -0.098663330078125 -0.02303314208984375 0.287139892578125 0.205322265625 0.0007004141807556152 0.0011576414108276367 0.097625732421875 -0.07368087768554688
17.70475 -0.09918975830078125 -0.01386260986328125 0.297576904296875 0.181304931640625 0.0001270771026611328 0.001967787742614746 0.09368515014648438 -0.07867431640625
17.7145 -0.10172653198242188 -0.00736236572265625 0.3069915771484375 0.1542510986328125 0.0003427267074584961 0.001631617546081543 0.09080123901367188 -0.08251190185546875
17.72425 -0.101318359375 0.000972747802734375 0.308746337890625 0.1271514892578125 -0.0008512735366821289 0.0014144182205200195 0.0858917236328125 -0.08789825439453125
17.734 -0.102203369140625 0.00934600830078125 0.311370849609375 0.1009521484375 -0.0006814002990722656 0.002999544143676758 0.0834197998046875 -0.09070587158203125
17.74375 -0.10276031494140625 0.01728057861328125 0.309722900390625 0.076751708984375 0.0004458427429199219 0.0007017850875854492 0.07767486572265625 -0.0947265625
17.7535 -0.10045623779296875 0.02446746826171875 0.305084228515625 0.055206298828125 -0.000981152057647705 0.0013026595115661621 0.07453536987304688 -0.09683990478515625
17.76325 -0.09869384765625 0.03227996826171875 0.299072265625 0.03692626953125 3.445148468017578e-05 0.0004663318395614624 0.06674575805664062 -0.09954452514648438
17.773 -0.09572219848632812 0.037578582763671875 0.29522705078125 0.01934814453125 4.0411949157714844e-05 0.0013394355773925781 0.06300735473632812 -0.1025543212890625
17.78275 -0.09572219848632812 0.04631805419921875 0.2895050048828125 0.0039520263671875 0.00167083740234375 0.0009572505950927734 0.059177398681640625 -0.10329055786132812
17.7925 -0.09222412109375 0.053375244140625 0.2851715087890625 -0.012664794921875 0.0003008246421813965 0.0009230971336364746 0.05316925048828125 -0.10541915893554688
17.80225 -0.08940887451171875 0.05989837646484375 0.2802276611328125 -0.028533935546875 0.00018173456192016602 0.0003821849822998047 0.04956817626953125 -0.1053009033203125
17.812 -0.0848846435546875 0.0672607421875 0.274444580078125 -0.044769287109375 0.0006194710731506348 0.0010562539100646973 0.042186737060546875 -0.1063232421875
17.82175 -0.07967376708984375 0.07471847534179688 0.2684326171875 -0.059417724609375 -2.0772218704223633e-05 0.0007625818252563477 0.038532257080078125 -0.10673904418945312
17.8315 -0.07766342163085938 0.08291244506835938 0.2593536376953125 -0.073699951171875 0.0005474686622619629 0.0012868046760559082 0.03221893310546875 -0.10787200927734375
17.84125 -0.07277679443359375 0.0877838134765625 0.24969482421875 -0.0852508544921875 0.001251220703125 0.0013668537139892578 0.0252227783203125 -0.10803985595703125
17.851 -0.06541824340820312 0.094146728515625 0.24001312255859375 -0.0965118408203125 0.00020503997802734375 0.002025127410888672 0.021610260009765625 -0.108917236328125
17.86075 -0.06380081176757812 0.09903335571289062 0.230682373046875 -0.10663604736328125 -0.00018858909606933594 0.0014948248863220215 0.015422821044921875 -0.105743408203125
17.8705 -0.058048248291015625 0.10430526733398438 0.2237091064453125 -0.11223602294921875 0.0006455183029174805 0.0007278323173522949 0.009929656982421875 -0.1053466796875
17.88025 -0.051815032958984375 0.11026382446289062 0.2178802490234375 -0.11971282958984375 0.0004820823669433594 0.0009019970893859863 0.003528594970703125 -0.10497665405273438
17.89 -0.04650115966796875 0.1162567138671875 0.21248626708984375 -0.12580108642578125 -5.2481889724731445e-05 0.0007294714450836182 -0.001018524169921875 -0.10353851318359375
17.89975 -0.04062652587890625 0.11895370483398438 0.208404541015625 -0.13614654541015625 0.0013931989669799805 0.0008771419525146484 -0.0064697265625 -0.10239410400390625
17.9095 -0.03519439697265625 0.124542236328125 0.20290374755859375 -0.14327239990234375 0.0007748007774353027 0.0011506080627441406 -0.011722564697265625 -0.10186004638671875
17.91925 -0.02837371826171875 0.1277008056640625 0.198089599609375 -0.15142059326171875 1.913309097290039e-05 0.0013110041618347168 -0.015522003173828125 -0.099517822265625
17.929 -0.02166748046875 0.1312408447265625 0.1919403076171875 -0.16180419921875 -0.00014314055442810059 0.0003402531147003174 -0.0224761962890625 -0.09694671630859375
17.93875 -0.014251708984375 0.1322784423828125 0.1861419677734375 -0.170806884765625 0.000499337911605835 -0.0005784034729003906 -0.025604248046875 -0.09534835815429688
17.9485 -0.00872039794921875 0.1357269287109375 0.18169403076171875 -0.17850494384765625 0.0016330480575561523 0.0002727508544921875 -0.030483245849609375 -0.09049606323242188
17.95825 -0.00208282470703125 0.13727569580078125 0.177215576171875 -0.18613433837890625 -7.900595664978027e-05 0.00045515596866607666 -0.032375335693359375 -0.08801651000976562
17.968 0.0063323974609375 0.14025115966796875 0.17295074462890625 -0.1970367431640625 0.0002148151397705078 0.0010021328926086426 -0.038417816162109375 -0.08463287353515625
17.97775 0.01361846923828125 0.141815185546875 0.16998291015625 -0.20751953125 0.0017942190170288086 0.0005806684494018555 -0.0435028076171875 -0.08034515380859375
17.9875 0.02227783203125 0.14156341552734375 0.16607666015625 -0.220611572265625 0.0006328225135803223 0.001164078712463379 -0.04632568359375 -0.07703781127929688
17.99725 0.02843475341796875 0.14354705810546875 0.16162109375 -0.23502349853515625 0.0023022890090942383 0.0009096860885620117 -0.049381256103515625 -0.071380615234375
18.007 0.0365142822265625 0.14246368408203125 0.1558685302734375 -0.2531585693359375 0.0007181167602539062 0.0005374550819396973 -0.05377960205078125 -0.06717681884765625
18.01675 0.04457855224609375 0.1441802978515625 0.147430419921875 -0.26739501953125 0.0001284480094909668 0.0006386339664459229 -0.057956695556640625 -0.06317138671875
18.0265 0.0510711669921875 0.1422882080078125 0.1353759765625 -0.28680419921875 0.0008619427680969238 -0.00023126602172851562 -0.062225341796875 -0.05773162841796875
18.03625 0.058837890625 0.1431427001953125 0.121307373046875 -0.306854248046875 0.0003771781921386719 0.001196146011352539 -0.06572723388671875 -0.0527801513671875
18.046 0.0671234130859375 0.14238739013671875 0.1047515869140625 -0.32440185546875 0.0007545948028564453 0.0003579854965209961 -0.06681442260742188 -0.047618865966796875
18.05575 0.07436370849609375 0.13990020751953125 0.08782958984375 -0.3400726318359375 0.001224815845489502 0.0006358623504638672 -0.06949996948242188 -0.042491912841796875
18.0655 0.08176422119140625 0.13906097412109375 0.0662841796875 -0.355560302734375 0.000889897346496582 -0.00010374188423156738 -0.07299423217773438 -0.036762237548828125
18.07525 0.0888519287109375 0.13634490966796875 0.044403076171875 -0.371978759765625 0.0007428526878356934 -0.0002658665180206299 -0.0731658935546875 -0.030384063720703125
18.085 0.09734344482421875 0.13459014892578125 0.0198516845703125 -0.3855743408203125 0.0014955997467041016 0.0010745525360107422 -0.07550430297851562 -0.02529144287109375
18.09475 0.103057861328125 0.13167572021484375 -0.0080718994140625 -0.400665283203125 0.0004488527774810791 0.00026285648345947266 -0.074188232421875 -0.020465850830078125
18.1045 0.10982513427734375 0.12722015380859375 -0.0384674072265625 -0.412841796875 0.0004840642213821411 -0.0001474618911743164 -0.07563018798828125 -0.01421356201171875
18.11425 0.11651611328125 0.12470245361328125 -0.074432373046875 -0.423309326171875 0.0006020665168762207 0.0006996989250183105 -0.07574462890625 -0.009090423583984375
18.124 0.122772216796875 0.1190643310546875 -0.111083984375 -0.42913818359375 0.0010673999786376953 0.0005757808685302734 -0.07566070556640625 0.00012969970703125
18.13375 0.12786102294921875 0.11618804931640625 -0.150115966796875 -0.43157958984375 0.0008941888809204102 8.541345596313477e-05 -0.07552337646484375 0.005279541015625
18.1435 0.135955810546875 0.11138153076171875 -0.189239501953125 -0.4288330078125 0.0012496113777160645 -0.0003121495246887207 -0.0748138427734375 0.013706207275390625
18.15325 0.14134979248046875 0.104736328125 -0.231414794921875 -0.42138671875 0.0010641217231750488 -0.0002560615539550781 -0.07523345947265625 0.020172119140625
18.163 0.14821624755859375 0.09848785400390625 -0.27154541015625 -0.41192626953125 0.00017642974853515625 -0.00039958953857421875 -0.071502685546875 0.025737762451171875
18.17275 0.1523895263671875 0.0945892333984375 -0.313507080078125 -0.39599609375 0.0007416605949401855 -0.0005151033401489258 -0.06800460815429688 0.030757904052734375
18.1825 0.1603851318359375 0.087310791015625 -0.352630615234375 -0.37890625 0.00015070289373397827 6.335228681564331e-05 -0.06528091430664062 0.039546966552734375
18.19225 0.16323089599609375 0.0805206298828125 -0.395660400390625 -0.354705810546875 0.0005539059638977051 -6.964802742004395e-05 -0.06333541870117188 0.04477691650390625
18.202 0.16819000244140625 0.07402801513671875 -0.433258056640625 -0.325958251953125 -0.0005026459693908691 0.0004919469356536865 -0.06167411804199219 0.05097198486328125
18.21175 0.172119140625 0.0670166015625 -0.4715576171875 -0.2921142578125 0.0010224580764770508 -0.0003185272216796875 -0.057483673095703125 0.057155609130859375
18.2215 0.177001953125 0.06026458740234375 -0.504058837890625 -0.25286865234375 0.00015419721603393555 -0.0010832548141479492 -0.0510101318359375 0.06044769287109375
18.23125 0.18109893798828125 0.05419158935546875 -0.53338623046875 -0.211395263671875 0.0013510584831237793 -0.00014960765838623047 -0.047893524169921875 0.06418991088867188
18.241 0.1831817626953125 0.04601287841796875 -0.55810546875 -0.1668701171875 0.001553356647491455 -0.0001335740089416504 -0.042606353759765625 0.07100296020507812
18.25075 0.18625640869140625 0.03826141357421875 -0.576507568359375 -0.11962890625 0.0004988014698028564 -4.598498344421387e-05 -0.03592681884765625 0.07310104370117188
18.2605 0.1881561279296875 0.0308685302734375 -0.59375 -0.069732666015625 7.712841033935547e-05 -0.0006532669067382812 -0.030872344970703125 0.07814407348632812
18.27025 0.18970489501953125 0.02208709716796875 -0.60650634765625 -0.018768310546875 0.00010442733764648438 -0.0021681785583496094 -0.026569366455078125 0.08292007446289062
18.28 0.1927337646484375 0.01236724853515625 -0.616119384765625 0.03326416015625 0.0009424984455108643 -0.0004699826240539551 -0.01842498779296875 0.08407211303710938
18.28975 0.19338226318359375 0.00431060791015625 -0.620086669921875 0.089599609375 -0.000132732093334198 -4.585087299346924e-05 -0.010944366455078125 0.0876312255859375
18.2995 0.19205474853515625 -0.0049285888671875 -0.618194580078125 0.1474609375 0.0007461011409759521 -0.0003059208393096924 -0.003780364990234375 0.08872222900390625
18.30925 0.1932830810546875 -0.01318359375 -0.605712890625 0.206298828125 0.00030922889709472656 -0.0011240243911743164 0.00400543212890625 0.08986663818359375
18.319 0.19256591796875 -0.02309417724609375 -0.590301513671875 0.2608642578125 -0.0002367645502090454 -0.00022520124912261963 0.0116424560546875 0.0931549072265625
18.32875 0.19107818603515625 -0.02863311767578125 -0.56829833984375 0.31134033203125 0.0010371208190917969 -0.0010349154472351074 0.0195770263671875 0.09299087524414062
18.3385 0.19057464599609375 -0.040252685546875 -0.5423583984375 0.364105224609375 -0.00012151896953582764 4.783272743225098e-06 0.02880859375 0.09341812133789062
18.34825 0.18965911865234375 -0.04889678955078125 -0.512451171875 0.410614013671875 -9.416788816452026e-05 0.00016120821237564087 0.03307342529296875 0.09343719482421875
18.358 0.1880950927734375 -0.057098388671875 -0.4818267822265625 0.4559326171875 0.0005622506141662598 -0.0011780858039855957 0.04268646240234375 0.09253692626953125
18.36775 0.18585205078125 -0.0654296875 -0.44329833984375 0.498291015625 0.0008316338062286377 -0.00036776065826416016 0.0499114990234375 0.09070587158203125
18.3775 0.18155670166015625 -0.072296142578125 -0.4080810546875 0.53912353515625 0.000685572624206543 -0.001131296157836914 0.05741119384765625 0.0886688232421875
18.38725 0.17833709716796875 -0.08185577392578125 -0.360076904296875 0.578857421875 0.0016084909439086914 -0.0001551508903503418 0.06371307373046875 0.08704376220703125
18.397 0.1745452880859375 -0.0876617431640625 -0.308837890625 0.61187744140625 0.0007805824279785156 -3.9637088775634766e-05 0.07086181640625 0.0841522216796875
18.40675 0.169677734375 -0.0950775146484375 -0.25347900390625 0.64044189453125 3.49879264831543e-05 -0.0004774928092956543 0.078277587890625 0.0789794921875
18.4165 0.16480255126953125 -0.103057861328125 -0.19873046875 0.66143798828125 -1.0669231414794922e-05 0.00037814676761627197 0.083587646484375 0.074249267578125
18.42625 0.1596527099609375 -0.11014556884765625 -0.14141845703125 0.676361083984375 -0.0004667043685913086 -0.0007285475730895996 0.09066009521484375 0.069183349609375
18.436 0.15348052978515625 -0.11487579345703125 -0.087493896484375 0.685211181640625 -0.0003108382225036621 -0.0008730888366699219 0.0985107421875 0.0636749267578125
18.44575 0.14595794677734375 -0.12364959716796875 -0.033050537109375 0.689544677734375 0.00013700127601623535 -0.00022857636213302612 0.10162353515625 0.056793212890625
18.4555 0.14138031005859375 -0.1285247802734375 0.02069091796875 0.69415283203125 0.0003397911787033081 -2.187490463256836e-05 0.107513427734375 0.05031585693359375
18.46525 0.134674072265625 -0.13539886474609375 0.076019287109375 0.697509765625 0.0007164478302001953 -0.0008278191089630127 0.1114349365234375 0.04039764404296875
18.475 0.1254119873046875 -0.1403656005859375 0.132354736328125 0.69647216796875 0.000866234302520752 0.0002525448799133301 0.1145782470703125 0.03524017333984375
18.48475 0.12104034423828125 -0.1468963623046875 0.19281005859375 0.687408447265625 0.0004165470600128174 0.0003876984119415283 0.11910247802734375 0.02585601806640625
18.4945 0.11270904541015625 -0.14946746826171875 0.252685546875 0.673492431640625 0.0006461441516876221 -9.870529174804688e-05 0.12310791015625 0.01718902587890625
18.50425 0.103973388671875 -0.1545257568359375 0.31463623046875 0.6512451171875 0.0007456541061401367 0.0003590583801269531 0.123565673828125 0.0101470947265625
18.514 0.0973052978515625 -0.158477783203125 0.368896484375 0.62408447265625 0.0007540583610534668 0.00017565488815307617 0.12432861328125 0.00182342529296875
18.52375 0.08860015869140625 -0.1600341796875 0.419708251953125 0.588775634765625 0.00041025876998901367 -0.0006622076034545898 0.12389373779296875 -0.0076904296875
18.5335 0.08306121826171875 -0.16358184814453125 0.4647216796875 0.5528564453125 -0.0010564923286437988 -0.00025534629821777344 0.12656402587890625 -0.01401519775390625
18.54325 0.07360076904296875 -0.16718292236328125 0.50506591796875 0.51544189453125 0.0004677772521972656 0.0003243386745452881 0.1242828369140625 -0.024127960205078125
18.553 0.066741943359375 -0.17043304443359375 0.54376220703125 0.47418212890625 0.0003574192523956299 -0.0007183849811553955 0.12266159057617188 -0.03061676025390625
18.56275 0.05881500244140625 -0.16951751708984375 0.5809326171875 0.4356689453125 0.0005985498428344727 -0.00022208690643310547 0.12017440795898438 -0.037334442138671875
18.5725 0.0506439208984375 -0.170196533203125 0.61773681640625 0.3909912109375 -0.0002918839454650879 -0.0011767148971557617 0.11640167236328125 -0.04610443115234375
18.58225 0.04218292236328125 -0.172271728515625 0.651885986328125 0.343170166015625 0.0004590153694152832 0.0011714696884155273 0.11202239990234375 -0.053379058837890625
18.592 0.03440093994140625 -0.17237091064453125 0.68182373046875 0.289642333984375 1.8298625946044922e-05 -0.0011776089668273926 0.10895538330078125 -0.060791015625
18.60175 0.0263519287109375 -0.1708831787109375 0.70721435546875 0.23297119140625 -8.337199687957764e-05 0.00014960765838623047 0.102386474609375 -0.064910888671875
18.6115 0.01763153076171875 -0.17005157470703125 0.72247314453125 0.17364501953125 -0.0001767277717590332 -0.00018675625324249268 0.09924697875976562 -0.07349777221679688
18.62125 0.0095062255859375 -0.1693267822265625 0.7335205078125 0.115631103515625 0.00014328956604003906 -0.001105189323425293 0.09270477294921875 -0.07925033569335938
18.631 0.00130462646484375 -0.16839599609375 0.73828125 0.0625 0.00011661648750305176 -0.000546872615814209 0.08551406860351562 -0.08344650268554688
18.64075 -0.00600433349609375 -0.16733551025390625 0.741607666015625 0.005462646484375 0.00028455257415771484 0.00028899312019348145 0.08159255981445312 -0.0874176025390625
