!Created with skrf (http://scikit-rf.org).
# GHz S RI R 50.0 
!freq ReS11 ImS11 ReS21 ImS21 ReS12 ImS12 ReS22 ImS22
17.5 0.0109405517578125 -0.14128875732421875 -0.99066162109375 1.1728515625 -0.0014023780822753906 0.00025856494903564453 0.09511947631835938 0.004207611083984375
17.50975 0.0015869140625 -0.1389923095703125 -0.8878173828125 1.2474365234375 -0.0005150735378265381 0.00035831332206726074 0.09731674194335938 0.00128936767578125
17.5195 -0.005767822265625 -0.1342926025390625 -0.77691650390625 1.3055419921875 -0.0015963315963745117 0.0015167593955993652 0.1007080078125 0.00147247314453125
17.52925 -0.0151824951171875 -0.13204193115234375 -0.66680908203125 1.359619140625 -0.0006560981273651123 0.0003281533718109131 0.1044464111328125 -0.003513336181640625
17.539 -0.0208282470703125 -0.126251220703125 -0.5546875 1.4022216796875 -0.0007259249687194824 0.00024622678756713867 0.1045074462890625 -0.0057830810546875
17.54875 -0.02986907958984375 -0.12236785888671875 -0.44189453125 1.43109130859375 -0.0013294816017150879 -0.00018805265426635742 0.10832595825195312 -0.008758544921875
17.5585 -0.03954315185546875 -0.11878204345703125 -0.32940673828125 1.45703125 -0.001341104507446289 0.0009069442749023438 0.10898590087890625 -0.01261138916015625
17.56825 -0.04431915283203125 -0.11425018310546875 -0.21868896484375 1.4759521484375 -0.002169489860534668 0.0016980171203613281 0.11152267456054688 -0.01676177978515625
17.578 -0.050628662109375 -0.106842041015625 -0.09808349609375 1.4832763671875 -0.0010012388229370117 0.001396477222442627 0.11208343505859375 -0.01963043212890625
17.58775 -0.0564727783203125 -0.10375213623046875 0.01995849609375 1.4859619140625 -0.0007677078247070312 0.000733107328414917 0.112762451171875 -0.02291107177734375
17.5975 -0.06246185302734375 -0.09747314453125 0.14288330078125 1.47296142578125 -0.0010815262794494629 0.00044399499893188477 0.11386489868164062 -0.02941131591796875
17.60725 -0.06729888916015625 -0.092498779296875 0.26019287109375 1.4468994140625 -9.500980377197266e-05 0.0008750557899475098 0.1136016845703125 -0.031749725341796875
17.617 -0.0728759765625 -0.0847015380859375 0.3724365234375 1.40863037109375 -0.001066744327545166 0.0010113120079040527 0.11392593383789062 -0.038539886474609375
17.62675 -0.0766754150390625 -0.07857513427734375 0.4776611328125 1.36236572265625 -0.0007942020893096924 0.00041985511779785156 0.11602020263671875 -0.039539337158203125
17.6365 -0.0810394287109375 -0.0705108642578125 0.572021484375 1.3074951171875 -0.0010048747062683105 0.0007084012031555176 0.11287689208984375 -0.04665374755859375
17.64625 -0.0836029052734375 -0.06342315673828125 0.6568603515625 1.2529296875 -0.0004462599754333496 0.0005144178867340088 0.11197662353515625 -0.049587249755859375
17.656 -0.0886993408203125 -0.0564117431640625 0.73663330078125 1.195068359375 8.51750373840332e-05 0.0007388889789581299 0.10902023315429688 -0.055309295654296875
17.66575 -0.0896453857421875 -0.0474700927734375 0.81658935546875 1.141845703125 -0.0018426775932312012 0.001334846019744873 0.10848617553710938 -0.059085845947265625
17.6755 -0.0941162109375 -0.04248809814453125 0.89154052734375 1.081298828125 -0.0007164478302001953 0.002194523811340332 0.103515625 -0.06429290771484375
17.68525 -0.0962066650390625 -0.03292083740234375 0.97039794921875 1.0198974609375 -0.000247076153755188 0.0003036409616470337 0.10283660888671875 -0.06757354736328125
17.695 -0.0972747802734375 -0.02606964111328125 1.0504150390625 0.9466552734375 -7.927417755126953e-05 0.002179741859436035 0.1006317138671875 -0.07297134399414062
17.70475 -0.09760665893554688 -0.015472412109375 1.124267578125 0.86083984375 -0.0010194182395935059 0.0009702444076538086 0.0968170166015625 -0.07666015625
17.7145 -0.10085678100585938 -0.00746917724609375 1.1939697265625 0.7637939453125 0.0007588863372802734 0.001459360122680664 0.09322738647460938 -0.08142852783203125
17.72425 -0.09949493408203125 -0.000293731689453125 1.24554443359375 0.6583251953125 -7.37309455871582e-05 0.001685798168182373 0.08916091918945312 -0.08458709716796875
17.734 -0.10138702392578125 0.007869720458984375 1.2835693359375 0.55462646484375 -0.0007497072219848633 0.0011948347091674805 0.08611297607421875 -0.08972930908203125
17.74375 -0.1009063720703125 0.0137481689453125 1.3026123046875 0.447509765625 -0.0004439353942871094 0.001635909080505371 0.08202362060546875 -0.0945587158203125
17.7535 -0.099700927734375 0.0217742919921875 1.3175048828125 0.351318359375 -0.0023169517517089844 0.00029075145721435547 0.07532119750976562 -0.09764480590820312
17.76325 -0.09790420532226562 0.030040740966796875 1.3267822265625 0.260986328125 0.0004845261573791504 0.0008047223091125488 0.07149124145507812 -0.09770584106445312
17.773 -0.09764862060546875 0.03629302978515625 1.33251953125 0.17584228515625 -0.0004464387893676758 0.0007081031799316406 0.0673675537109375 -0.10161972045898438
17.78275 -0.0947265625 0.04312896728515625 1.33978271484375 0.08685302734375 -7.212162017822266e-06 0.0010967850685119629 0.061614990234375 -0.1023101806640625
17.7925 -0.0922088623046875 0.05042266845703125 1.34619140625 -0.00494384765625 0.00035178661346435547 0.001641988754272461 0.056056976318359375 -0.10559463500976562
17.80225 -0.0885162353515625 0.05682373046875 1.3482666015625 -0.10345458984375 -0.00025141239166259766 0.001932978630065918 0.052127838134765625 -0.106964111328125
17.812 -0.084869384765625 0.06449127197265625 1.33984375 -0.201904296875 -0.0007605552673339844 0.00045043230056762695 0.04486846923828125 -0.10730743408203125
17.82175 -0.081512451171875 0.07221221923828125 1.32122802734375 -0.3048095703125 0.00016355514526367188 0.002002716064453125 0.041271209716796875 -0.10832977294921875
17.8315 -0.07820510864257812 0.07725143432617188 1.292236328125 -0.40496826171875 0.0008240938186645508 0.001295328140258789 0.035182952880859375 -0.10885238647460938
17.84125 -0.0722198486328125 0.0845489501953125 1.25341796875 -0.498779296875 0.0008733272552490234 0.0007036924362182617 0.02732086181640625 -0.10739898681640625
17.851 -0.06856155395507812 0.09216690063476562 1.20263671875 -0.5826416015625 -0.0014879703521728516 0.0007855892181396484 0.022998809814453125 -0.10851287841796875
17.86075 -0.06484603881835938 0.09598922729492188 1.154052734375 -0.659423828125 0.002205967903137207 0.0013262033462524414 0.01747894287109375 -0.10879898071289062
17.8705 -0.058345794677734375 0.10334396362304688 1.10125732421875 -0.732666015625 -6.514787673950195e-05 0.0016903877258300781 0.011859893798828125 -0.1074371337890625
17.88025 -0.05303955078125 0.10929489135742188 1.05181884765625 -0.8016357421875 0.0005053281784057617 0.002227783203125 0.005596160888671875 -0.1063232421875
17.89 -0.048809051513671875 0.11495590209960938 1.0006103515625 -0.87066650390625 0.0021033287048339844 0.0006570816040039062 0.0013427734375 -0.10573196411132812
17.89975 -0.04241943359375 0.11812591552734375 0.940521240234375 -0.94097900390625 -9.226799011230469e-05 0.0010504722595214844 -0.0038604736328125 -0.10518646240234375
17.9095 -0.0382537841796875 0.1217193603515625 0.87744140625 -1.0130615234375 -2.0265579223632812e-06 0.0013120174407958984 -0.0100555419921875 -0.10251235961914062
17.91925 -0.03096771240234375 0.12548065185546875 0.8016357421875 -1.07623291015625 0.0007630586624145508 0.00027883052825927734 -0.01482391357421875 -0.10001373291015625
17.929 -0.023040771484375 0.129638671875 0.725830078125 -1.1358642578125 0.0006368160247802734 0.001360177993774414 -0.01906585693359375 -0.09920501708984375
17.93875 -0.01857757568359375 0.13323974609375 0.636962890625 -1.1859130859375 0.0005304813385009766 0.001108705997467041 -0.02481842041015625 -0.09716415405273438
17.9485 -0.010101318359375 0.1345367431640625 0.55242919921875 -1.22613525390625 0.00017854571342468262 0.00033783912658691406 -0.02939605712890625 -0.09282684326171875
17.95825 -0.004364013671875 0.1384735107421875 0.46588134765625 -1.25897216796875 0.0008586645126342773 0.001156449317932129 -0.03278350830078125 -0.08987045288085938
17.968 0.00225830078125 0.14058685302734375 0.3817138671875 -1.28594970703125 0.0017567873001098633 0.001980423927307129 -0.0403900146484375 -0.08878326416015625
17.97775 0.010223388671875 0.14002227783203125 0.29962158203125 -1.3096923828125 0.0018947124481201172 -0.0006513595581054688 -0.042083740234375 -0.0826416015625
17.9875 0.01949310302734375 0.14263916015625 0.21142578125 -1.3359375 -2.9146671295166016e-05 -0.0009933710098266602 -0.04523468017578125 -0.0790863037109375
17.99725 0.0268402099609375 0.14321136474609375 0.123779296875 -1.35943603515625 0.0014452934265136719 0.0016317367553710938 -0.0512237548828125 -0.07512664794921875
18.007 0.03440093994140625 0.144744873046875 0.02703857421875 -1.37799072265625 0.0008080005645751953 0.001351475715637207 -0.05423736572265625 -0.07064056396484375
18.01675 0.0430908203125 0.14418792724609375 -0.07342529296875 -1.3876953125 0.0017854571342468262 1.2278556823730469e-05 -0.058444976806640625 -0.065155029296875
18.0265 0.04876708984375 0.1464996337890625 -0.1773681640625 -1.389892578125 0.0007375478744506836 -0.00025260448455810547 -0.06215667724609375 -0.06032562255859375
18.03625 0.0576934814453125 0.146270751953125 -0.2822265625 -1.3809814453125 0.0008803606033325195 -0.0007789134979248047 -0.06627655029296875 -0.05594635009765625
18.046 0.06524658203125 0.14453125 -0.38909912109375 -1.36077880859375 0.0009731054306030273 0.0006836652755737305 -0.06811904907226562 -0.050510406494140625
18.05575 0.07161712646484375 0.14148712158203125 -0.48504638671875 -1.3348388671875 0.001300215721130371 0.00012177228927612305 -0.07269287109375 -0.0450286865234375
18.0655 0.0794677734375 0.14179229736328125 -0.57733154296875 -1.29949951171875 0.0009777545928955078 5.739927291870117e-05 -0.0754547119140625 -0.03916168212890625
18.07525 0.0880584716796875 0.13922119140625 -0.67034912109375 -1.26287841796875 0.0005737543106079102 0.0017458200454711914 -0.07598876953125 -0.034076690673828125
18.085 0.09503173828125 0.13741302490234375 -0.7637939453125 -1.22119140625 0.0013627409934997559 -0.0004252195358276367 -0.07854080200195312 -0.027477264404296875
18.09475 0.101226806640625 0.1336822509765625 -0.856201171875 -1.1763916015625 -6.880238652229309e-05 2.2720545530319214e-05 -0.07611465454101562 -0.02281951904296875
18.1045 0.10962677001953125 0.1293487548828125 -0.948974609375 -1.122802734375 0.00040721893310546875 0.0006497502326965332 -0.07912445068359375 -0.0147857666015625
18.11425 0.1160736083984375 0.1273956298828125 -1.04296875 -1.0560302734375 0.001088559627532959 -6.711483001708984e-05 -0.07976150512695312 -0.0103302001953125
18.124 0.12127685546875 0.1229095458984375 -1.12890625 -0.9833984375 0.0012496709823608398 0.0002682209014892578 -0.0789337158203125 -0.00225067138671875
18.13375 0.12989044189453125 0.11832427978515625 -1.21142578125 -0.903564453125 0.0007936954498291016 0.00010085105895996094 -0.07777023315429688 0.00514984130859375
18.1435 0.13555145263671875 0.11219024658203125 -1.285400390625 -0.8128662109375 0.0011540651321411133 -0.00018006563186645508 -0.07964706420898438 0.01180267333984375
18.15325 0.1408233642578125 0.1079864501953125 -1.353271484375 -0.7158203125 0.00032514333724975586 0.0010517239570617676 -0.0786285400390625 0.01727294921875
18.163 0.1486053466796875 0.101837158203125 -1.41259765625 -0.614990234375 0.0004971325397491455 0.00038358569145202637 -0.07497406005859375 0.0238494873046875
18.17275 0.1544647216796875 0.09735107421875 -1.4652099609375 -0.509521484375 0.0010956525802612305 -0.0007930397987365723 -0.07181930541992188 0.032077789306640625
18.1825 0.1594390869140625 0.089141845703125 -1.5135498046875 -0.40032958984375 0.00032150745391845703 -0.00064048171043396 -0.06967544555664062 0.037994384765625
18.19225 0.1647186279296875 0.0833282470703125 -1.5555419921875 -0.28424072265625 0.0018820762634277344 -0.0007635354995727539 -0.06593704223632812 0.04465484619140625
18.202 0.17006683349609375 0.0762939453125 -1.5877685546875 -0.1634521484375 0.000644981861114502 -0.0008710920810699463 -0.064208984375 0.05199432373046875
18.21175 0.174652099609375 0.070159912109375 -1.6068115234375 -0.0352783203125 0.0008148550987243652 -0.0003033876419067383 -0.0596771240234375 0.056682586669921875
18.2215 0.17841339111328125 0.061676025390625 -1.6131591796875 0.096923828125 -0.0006453394889831543 9.5367431640625e-07 -0.05507087707519531 0.06106376647949219
18.23125 0.18338775634765625 0.055419921875 -1.60833740234375 0.22613525390625 0.0003290623426437378 -0.0004588514566421509 -0.05023956298828125 0.066558837890625
18.241 0.18636322021484375 0.04666900634765625 -1.5916748046875 0.35400390625 0.0018182992935180664 -0.0002377629280090332 -0.0460357666015625 0.07054519653320312
18.25075 0.18788909912109375 0.03936004638671875 -1.5657958984375 0.47601318359375 -0.00020767748355865479 -0.00018286705017089844 -0.041004180908203125 0.07754898071289062
18.2605 0.19058990478515625 0.03142547607421875 -1.52874755859375 0.5982666015625 0.0007825493812561035 -5.996227264404297e-05 -0.034145355224609375 0.07999420166015625
18.27025 0.19240570068359375 0.02277374267578125 -1.48748779296875 0.71868896484375 0.00044798851013183594 -0.0006089508533477783 -0.02712249755859375 0.08406448364257812
18.28 0.19500732421875 0.01526641845703125 -1.4368896484375 0.843994140625 0.0010634064674377441 -0.0005720853805541992 -0.01984405517578125 0.08755111694335938
18.28975 0.1957855224609375 0.003936767578125 -1.37689208984375 0.9630126953125 -0.00012978911399841309 0.0005752444267272949 -0.01326751708984375 0.091827392578125
18.2995 0.19722747802734375 -0.00370025634765625 -1.2999267578125 1.0758056640625 0.00031879544258117676 -0.0002400428056716919 -0.00498199462890625 0.090545654296875
18.30925 0.196746826171875 -0.0136566162109375 -1.2095947265625 1.1865234375 -1.609325408935547e-05 0.0008979439735412598 0.00284576416015625 0.0936431884765625
18.319 0.1954193115234375 -0.02234649658203125 -1.10821533203125 1.28369140625 0.0011550188064575195 -0.0004075169563293457 0.009002685546875 0.09484100341796875
18.32875 0.1943206787109375 -0.0296478271484375 -0.9989013671875 1.369873046875 0.0004534125328063965 0.00044545531272888184 0.01874542236328125 0.09642410278320312
18.3385 0.19324493408203125 -0.040618896484375 -0.8880615234375 1.44207763671875 0.00060310959815979 -0.0008830428123474121 0.027130126953125 0.09650421142578125
18.34825 0.191864013671875 -0.04900360107421875 -0.77685546875 1.51007080078125 0.00030888617038726807 -3.4943222999572754e-05 0.034210205078125 0.09709930419921875
18.358 0.189361572265625 -0.05765533447265625 -0.65997314453125 1.56878662109375 0.00041940808296203613 -0.00030396878719329834 0.04421234130859375 0.09470367431640625
18.36775 0.18505859375 -0.06620025634765625 -0.534912109375 1.62054443359375 -0.0002485215663909912 0.0001105964183807373 0.04909515380859375 0.094329833984375
18.3775 0.1840972900390625 -0.07321929931640625 -0.4112548828125 1.66900634765625 5.132704973220825e-05 -0.00022266805171966553 0.0588836669921875 0.0912628173828125
18.38725 0.18077850341796875 -0.08344268798828125 -0.27197265625 1.7041015625 0.0011413097381591797 -0.0006371140480041504 0.0640869140625 0.08890533447265625
18.397 0.1771240234375 -0.0901641845703125 -0.130615234375 1.7257080078125 -0.0009241104125976562 -0.000652313232421875 0.0714569091796875 0.0871124267578125
18.40675 0.17059326171875 -0.09710693359375 0.017578125 1.733642578125 0.0004482269287109375 0.00023949146270751953 0.0803375244140625 0.0806732177734375
18.4165 0.16535186767578125 -0.10518646240234375 0.157958984375 1.72314453125 0.0009841322898864746 -0.001595139503479004 0.084564208984375 0.07680511474609375
18.42625 0.16088104248046875 -0.1112823486328125 0.2940673828125 1.69384765625 4.8667192459106445e-05 -0.0004166215658187866 0.092132568359375 0.0727996826171875
18.436 0.1545562744140625 -0.1188507080078125 0.419921875 1.6583251953125 -0.00030000507831573486 -6.589293479919434e-05 0.0992889404296875 0.0662384033203125
18.44575 0.14702606201171875 -0.1253204345703125 0.5423583984375 1.6168212890625 0.0005736947059631348 -0.000172346830368042 0.10370635986328125 0.0599822998046875
18.4555 0.14013671875 -0.130859375 0.659912109375 1.5733642578125 0.0003148317337036133 -0.0005314946174621582 0.10901641845703125 0.05318450927734375
18.46525 0.13353729248046875 -0.1371307373046875 0.7772216796875 1.527587890625 -6.99758529663086e-05 0.00043761730194091797 0.1146697998046875 0.04332733154296875
18.475 0.12542724609375 -0.1419219970703125 0.8973388671875 1.47314453125 0.0010684728622436523 -0.0004610419273376465 0.1186065673828125 0.03783416748046875
18.48475 0.120361328125 -0.14727020263671875 1.0184326171875 1.4014892578125 -0.00031760334968566895 -1.753866672515869e-05 0.12195587158203125 0.02771759033203125
18.4945 0.11126708984375 -0.15122222900390625 1.1314697265625 1.3135986328125 0.000640183687210083 -0.00039523839950561523 0.1248321533203125 0.01873779296875
18.50425 0.1029205322265625 -0.156463623046875 1.2392578125 1.214111328125 0.0008655786514282227 0.0005564689636230469 0.125701904296875 0.0111846923828125
18.514 0.0963134765625 -0.1599884033203125 1.33203125 1.10498046875 0.0008736252784729004 -0.00011104345321655273 0.128448486328125 0.0030364990234375
18.52375 0.08704376220703125 -0.16016387939453125 1.4058837890625 0.9874267578125 0.0008745789527893066 -0.001314997673034668 0.12757110595703125 -0.00774383544921875
18.5335 0.07997894287109375 -0.16452789306640625 1.4683837890625 0.8709716796875 0.0005221962928771973 -0.0008541643619537354 0.1295928955078125 -0.015655517578125
18.54325 0.072601318359375 -0.167999267578125 1.5184326171875 0.7587890625 -0.0003921389579772949 -0.0006538033485412598 0.12646484375 -0.0233612060546875
18.553 0.0653839111328125 -0.1705322265625 1.5623779296875 0.644775390625 6.532669067382812e-05 -0.00013242661952972412 0.12589263916015625 -0.0302734375
18.56275 0.05634307861328125 -0.16983795166015625 1.6068115234375 0.5311279296875 0.0005253255367279053 -0.00024375319480895996 0.12343978881835938 -0.037120819091796875
18.5725 0.04816436767578125 -0.17165374755859375 1.6455078125 0.4119873046875 0.00032135844230651855 -0.0009090900421142578 0.11959457397460938 -0.047618865966796875
18.58225 0.040771484375 -0.17153167724609375 1.674560546875 0.28619384765625 0.0008137524127960205 -0.00026342272758483887 0.11458587646484375 -0.055675506591796875
18.592 0.03182220458984375 -0.17267608642578125 1.6943359375 0.15252685546875 1.0155141353607178e-05 0.0001953914761543274 0.11053848266601562 -0.0623931884765625
18.60175 0.02520751953125 -0.171356201171875 1.70166015625 0.0166015625 0.000993967056274414 0.00016021728515625 0.1047515869140625 -0.06713104248046875
18.6115 0.01596832275390625 -0.1701812744140625 1.6912841796875 -0.11761474609375 0.0004552602767944336 -0.0005071461200714111 0.10084152221679688 -0.07349777221679688
18.62125 0.00872802734375 -0.1689910888671875 1.6689453125 -0.24658203125 -0.00011417269706726074 -0.0008424222469329834 0.09455490112304688 -0.08089828491210938
18.631 0.0004119873046875 -0.16827392578125 1.635009765625 -0.36114501953125 -0.00023027509450912476 0.00011530518531799316 0.08754348754882812 -0.0837249755859375
18.64075 -0.00672149658203125 -0.16635894775390625 1.59722900390625 -0.4715576171875 0.0007572174072265625 -0.0011834502220153809 0.08259963989257812 -0.08811569213867188
18.6505 -0.0146026611328125 -0.16434478759765625 1.55780029296875 -0.5780029296875 0.0003056377172470093 -0.00022046267986297607 0.0772705078125 -0.09331893920898438
18.66025 -0.02320098876953125 -0.1617889404296875 1.51885986328125 -0.68011474609375 0.0006963014602661133 -0.0006632506847381592 0.06893157958984375 -0.09660720825195312
18.67 -0.028656005859375 -0.1587982177734375 1.47271728515625 -0.78955078125 0.0007102787494659424 -0.0004769861698150635 0.06277847290039062 -0.0968017578125
