!Created with skrf (http://scikit-rf.org).
# GHz S RI R 50.0 
!freq ReS11 ImS11 ReS21 ImS21 ReS12 ImS12 ReS22 ImS22
17.5 0.0104217529296875 -0.14056396484375 -1.03009033203125 1.24407958984375 -0.0012539029121398926 0.0013004541397094727 0.09437179565429688 0.00415802001953125
17.50975 0.00072479248046875 -0.140350341796875 -0.921875 1.31744384765625 -0.00197446346282959 0.00016319751739501953 0.09796905517578125 0.00052642822265625
17.5195 -0.00555419921875 -0.1342010498046875 -0.80487060546875 1.38250732421875 -0.0010057687759399414 0.0007213950157165527 0.10152053833007812 0.0008697509765625
17.52925 -0.01459503173828125 -0.1317901611328125 -0.6884765625 1.43572998046875 -0.0012606978416442871 0.0005010366439819336 0.10361480712890625 -0.002597808837890625
17.539 -0.0204620361328125 -0.1246185302734375 -0.57080078125 1.4813232421875 -0.0013675689697265625 0.0007987022399902344 0.1048126220703125 -0.004913330078125
17.54875 -0.02892303466796875 -0.1221923828125 -0.45111083984375 1.51092529296875 -0.001178145408630371 0.0015255212783813477 0.10727310180664062 -0.008754730224609375
17.5585 -0.0385284423828125 -0.11811065673828125 -0.33380126953125 1.53656005859375 -0.0011730790138244629 0.0008493661880493164 0.11100387573242188 -0.011707305908203125
17.56825 -0.04288482666015625 -0.11324310302734375 -0.21826171875 1.55364990234375 -0.0014324188232421875 -0.00035071372985839844 0.11055374145507812 -0.0168609619140625
17.578 -0.0517425537109375 -0.10791778564453125 -0.09259033203125 1.564453125 -0.0015851259231567383 0.0007295012474060059 0.11220169067382812 -0.01944732666015625
17.58775 -0.05570220947265625 -0.1029052734375 0.03424072265625 1.56207275390625 -0.0009607076644897461 0.0018138885498046875 0.11261367797851562 -0.022693634033203125
17.5975 -0.06035614013671875 -0.09645843505859375 0.1627197265625 1.54876708984375 0.00016187876462936401 -0.00010227411985397339 0.1142730712890625 -0.027866363525390625
17.60725 -0.066650390625 -0.0921630859375 0.2864990234375 1.5225830078125 -0.0020242929458618164 0.0021649599075317383 0.1119384765625 -0.032451629638671875
17.617 -0.07228851318359375 -0.08396148681640625 0.40570068359375 1.48370361328125 -0.0011189579963684082 0.0011948943138122559 0.11450958251953125 -0.03495025634765625
17.62675 -0.07631683349609375 -0.07804107666015625 0.51434326171875 1.4334716796875 -0.0017195940017700195 0.0008355379104614258 0.11491775512695312 -0.04068756103515625
17.6365 -0.08026123046875 -0.070556640625 0.6138916015625 1.375 -0.0018171072006225586 0.001228928565979004 0.1129302978515625 -0.04557037353515625
17.64625 -0.08408355712890625 -0.06337738037109375 0.7044677734375 1.31671142578125 -0.001135408878326416 0.0012454986572265625 0.11112213134765625 -0.05052947998046875
17.656 -0.08681488037109375 -0.05738067626953125 0.7896728515625 1.25579833984375 -0.0013243556022644043 0.00014418363571166992 0.10993576049804688 -0.054851531982421875
17.66575 -0.08927154541015625 -0.047393798828125 0.8704833984375 1.19921875 -0.0013949275016784668 0.0014707446098327637 0.10854339599609375 -0.057872772216796875
17.6755 -0.094024658203125 -0.0414886474609375 0.951171875 1.133544921875 -0.0011892318725585938 0.0003605484962463379 0.10435867309570312 -0.06349563598632812
17.68525 -0.096343994140625 -0.0327606201171875 1.033935546875 1.06787109375 -0.0007545351982116699 0.001505434513092041 0.102691650390625 -0.06747817993164062
17.695 -0.098175048828125 -0.02443695068359375 1.1168212890625 0.9901123046875 -0.0007773637771606445 0.0017116069793701172 0.09981155395507812 -0.07274246215820312
17.70475 -0.0973052978515625 -0.015575408935546875 1.196044921875 0.8968505859375 -0.0003972053527832031 0.0007518529891967773 0.0983123779296875 -0.078033447265625
17.7145 -0.10001754760742188 -0.0091400146484375 1.2669677734375 0.7940673828125 -0.0011811256408691406 0.001696765422821045 0.09257888793945312 -0.08046722412109375
17.72425 -0.0995941162109375 -0.0006561279296875 1.3206787109375 0.68310546875 -7.164478302001953e-05 0.0012305378913879395 0.08968353271484375 -0.0858154296875
17.734 -0.100738525390625 0.00553131103515625 1.35968017578125 0.5701904296875 0.000942528247833252 0.0006078481674194336 0.085601806640625 -0.08957672119140625
17.74375 -0.10162353515625 0.01473236083984375 1.3775634765625 0.46142578125 -0.0002434253692626953 0.0019096136093139648 0.07921600341796875 -0.0938720703125
17.7535 -0.098876953125 0.020839691162109375 1.39385986328125 0.35675048828125 -0.0003000497817993164 0.00010682642459869385 0.07769775390625 -0.0980987548828125
17.76325 -0.0982818603515625 0.031158447265625 1.40545654296875 0.26165771484375 -0.0006309747695922852 0.0014851689338684082 0.06898117065429688 -0.0991973876953125
17.773 -0.09629440307617188 0.036590576171875 1.41180419921875 0.171875 -0.0010061264038085938 0.0002155900001525879 0.0670623779296875 -0.10255050659179688
17.78275 -0.09489059448242188 0.0447998046875 1.41656494140625 0.07598876953125 -0.00025975704193115234 0.001205742359161377 0.060699462890625 -0.1027069091796875
17.7925 -0.09102630615234375 0.04953765869140625 1.42254638671875 -0.0203857421875 -0.0009878277778625488 0.0015557408332824707 0.05718231201171875 -0.10533905029296875
17.80225 -0.08837127685546875 0.0573577880859375 1.423583984375 -0.123291015625 0.00035762786865234375 0.0015867948532104492 0.05248260498046875 -0.10660171508789062
17.812 -0.08599853515625 0.06541061401367188 1.41326904296875 -0.2314453125 0.000588148832321167 0.0002695024013519287 0.04544830322265625 -0.10788345336914062
17.82175 -0.08133316040039062 0.0719146728515625 1.3961181640625 -0.338623046875 0.00032079219818115234 0.0017143487930297852 0.0430145263671875 -0.1075439453125
17.8315 -0.07725906372070312 0.07896804809570312 1.3621826171875 -0.44573974609375 -0.0003731250762939453 0.0009915828704833984 0.0355987548828125 -0.1085357666015625
17.84125 -0.07260894775390625 0.0844879150390625 1.3197021484375 -0.5440673828125 -0.00040340423583984375 0.0007349848747253418 0.02881622314453125 -0.1090545654296875
17.851 -0.06731414794921875 0.0922698974609375 1.262451171875 -0.6331787109375 -0.0002390146255493164 0.0014100074768066406 0.02420806884765625 -0.108184814453125
17.86075 -0.06519317626953125 0.09696197509765625 1.21160888671875 -0.71417236328125 -0.0001468658447265625 0.001602768898010254 0.018344879150390625 -0.10753250122070312
17.8705 -0.05852508544921875 0.10301971435546875 1.15521240234375 -0.789794921875 -9.322166442871094e-05 0.0016217231750488281 0.011234283447265625 -0.1070098876953125
17.88025 -0.053558349609375 0.10791397094726562 1.10162353515625 -0.86395263671875 0.0011412501335144043 0.0002881288528442383 0.004871368408203125 -0.1075286865234375
17.89 -0.049259185791015625 0.11464309692382812 1.0465087890625 -0.9351806640625 0.0003204047679901123 0.00033524632453918457 -0.000507354736328125 -0.10567092895507812
17.89975 -0.042964935302734375 0.1177520751953125 0.98162841796875 -1.01025390625 0.0010325908660888672 0.0013412237167358398 -0.004169464111328125 -0.10500335693359375
17.9095 -0.03734588623046875 0.12231063842773438 0.91168212890625 -1.08685302734375 0.0009672641754150391 0.0015584230422973633 -0.00821685791015625 -0.10268783569335938
17.91925 -0.0307159423828125 0.1258697509765625 0.8331298828125 -1.15380859375 0.001570582389831543 0.001038670539855957 -0.013988494873046875 -0.10132980346679688
17.929 -0.024078369140625 0.1298370361328125 0.7469482421875 -1.2138671875 0.0009074211120605469 0.0014393329620361328 -0.01979827880859375 -0.09973907470703125
17.93875 -0.01818084716796875 0.1325225830078125 0.654052734375 -1.2685546875 7.039308547973633e-05 0.0011480450630187988 -0.024456024169921875 -0.09656143188476562
17.9485 -0.01000213623046875 0.13480377197265625 0.5633544921875 -1.30908203125 0.00058746337890625 0.00016006827354431152 -0.02923583984375 -0.0943145751953125
17.95825 -0.0042877197265625 0.1355743408203125 0.47039794921875 -1.342529296875 0.000756382942199707 0.0012183189392089844 -0.032501220703125 -0.0909271240234375
17.968 0.00188446044921875 0.14019775390625 0.380126953125 -1.36895751953125 0.0011116862297058105 0.0005382299423217773 -0.03792572021484375 -0.0876617431640625
17.97775 0.009796142578125 0.14032745361328125 0.29052734375 -1.39068603515625 0.001065075397491455 0.00016617774963378906 -0.0439300537109375 -0.08217620849609375
17.9875 0.02016448974609375 0.14374542236328125 0.1990966796875 -1.4166259765625 -0.00019490718841552734 0.0007292330265045166 -0.04521942138671875 -0.0797271728515625
17.99725 0.026397705078125 0.1430206298828125 0.102783203125 -1.43896484375 -0.0006833076477050781 7.370114326477051e-05 -0.05094146728515625 -0.07472991943359375
18.007 0.03460693359375 0.14383697509765625 0.00048828125 -1.4560546875 0.0007741451263427734 0.0003827214241027832 -0.05442047119140625 -0.0697174072265625
18.01675 0.04154205322265625 0.145263671875 -0.1044921875 -1.465087890625 0.002010345458984375 0.000811457633972168 -0.05808258056640625 -0.06559371948242188
18.0265 0.0491180419921875 0.1438751220703125 -0.2147216796875 -1.46484375 0.0005598068237304688 -0.0007107853889465332 -0.06243133544921875 -0.06172943115234375
18.03625 0.057342529296875 0.1462249755859375 -0.3267822265625 -1.44921875 0.0018718242645263672 0.0012586116790771484 -0.06635284423828125 -0.05681610107421875
18.046 0.06551361083984375 0.1446990966796875 -0.437255859375 -1.42626953125 0.0002815723419189453 -0.00016616284847259521 -0.06696701049804688 -0.050868988037109375
18.05575 0.07375335693359375 0.1405792236328125 -0.5399169921875 -1.39501953125 0.000699460506439209 0.0003012418746948242 -0.07139968872070312 -0.045078277587890625
18.0655 0.07997894287109375 0.14178466796875 -0.63763427734375 -1.35791015625 0.0001233816146850586 0.0001894235610961914 -0.07462310791015625 -0.0392608642578125
18.07525 0.08773040771484375 0.1400146484375 -0.73486328125 -1.314697265625 0.0013285279273986816 -0.0003351569175720215 -0.07573699951171875 -0.032840728759765625
18.085 0.0952911376953125 0.136810302734375 -0.8328857421875 -1.26953125 0.0014222264289855957 -4.172325134277344e-05 -0.07855987548828125 -0.026058197021484375
18.09475 0.1013641357421875 0.1341094970703125 -0.9300537109375 -1.2178955078125 9.258091449737549e-05 8.791685104370117e-07 -0.0762939453125 -0.021514892578125
18.1045 0.1099700927734375 0.13031005859375 -1.0260009765625 -1.16015625 0.0009728074073791504 -3.272294998168945e-05 -0.08051681518554688 -0.014984130859375
18.11425 0.11598968505859375 0.12822723388671875 -1.121337890625 -1.087158203125 0.0009223222732543945 0.0001500248908996582 -0.078369140625 -0.00907135009765625
18.124 0.1220245361328125 0.1229248046875 -1.211181640625 -1.007080078125 0.0011698007583618164 -0.00020968914031982422 -0.0783538818359375 -0.00201416015625
18.13375 0.12914276123046875 0.11855316162109375 -1.2950439453125 -0.91943359375 0.0022559165954589844 -0.0006681680679321289 -0.078155517578125 0.004573822021484375
18.1435 0.1345062255859375 0.11370849609375 -1.370849609375 -0.8245849609375 0.0018461942672729492 0.0006568431854248047 -0.07832717895507812 0.01148223876953125
18.15325 0.140777587890625 0.107818603515625 -1.439697265625 -0.719482421875 0.0020623207092285156 -0.001112818717956543 -0.07845306396484375 0.018535614013671875
18.163 0.148193359375 0.102325439453125 -1.4976806640625 -0.6129150390625 0.0006924867630004883 -0.001196146011352539 -0.074310302734375 0.02414703369140625
18.17275 0.1539764404296875 0.0961151123046875 -1.5496826171875 -0.5001220703125 0.0006710290908813477 0.0003756880760192871 -0.0728607177734375 0.031406402587890625
18.1825 0.1610870361328125 0.0904693603515625 -1.59576416015625 -0.385986328125 0.0003346651792526245 -0.00044217705726623535 -0.06864166259765625 0.039043426513671875
18.19225 0.16371917724609375 0.08339691162109375 -1.638427734375 -0.26025390625 -2.968311309814453e-05 -0.0013356804847717285 -0.06607818603515625 0.04460906982421875
18.202 0.16980743408203125 0.0782623291015625 -1.66827392578125 -0.13482666015625 0.0012540817260742188 -0.0006620287895202637 -0.06364059448242188 0.05193328857421875
18.21175 0.1749725341796875 0.0707855224609375 -1.6834716796875 0.0015869140625 -0.0001958012580871582 -0.0003705024719238281 -0.05960845947265625 0.057872772216796875
18.2215 0.17882537841796875 0.06278228759765625 -1.6881103515625 0.1407470703125 0.001034080982208252 -0.0011098980903625488 -0.05394172668457031 0.06144905090332031
18.23125 0.1827850341796875 0.05547332763671875 -1.67755126953125 0.274169921875 0.0008082389831542969 -0.0010057687759399414 -0.050968170166015625 0.06568145751953125
18.241 0.18682861328125 0.04742431640625 -1.65570068359375 0.4063720703125 0.000629425048828125 -0.0001563727855682373 -0.04620361328125 0.07266998291015625
18.25075 0.18933868408203125 0.03858184814453125 -1.62530517578125 0.53497314453125 0.0009923577308654785 -0.0009363889694213867 -0.0391845703125 0.07735443115234375
18.2605 0.19205474853515625 0.0306854248046875 -1.5865478515625 0.660400390625 -0.0003215968608856201 0.00014574825763702393 -0.033290863037109375 0.08003997802734375
18.27025 0.19293212890625 0.02198028564453125 -1.5394287109375 0.78656005859375 -0.00016996264457702637 0.0004949569702148438 -0.027088165283203125 0.08429718017578125
18.28 0.19476318359375 0.0133819580078125 -1.48162841796875 0.91278076171875 0.0010870099067687988 -4.029273986816406e-05 -0.0221405029296875 0.086822509765625
18.28975 0.1974639892578125 0.00354766845703125 -1.41748046875 1.03497314453125 -0.0006996989250183105 0.0008900165557861328 -0.0134124755859375 0.09104156494140625
18.2995 0.19606781005859375 -0.00447845458984375 -1.336181640625 1.1553955078125 0.0013946890830993652 -0.000666201114654541 -0.0058441162109375 0.0903778076171875
18.30925 0.1977996826171875 -0.014373779296875 -1.2369384765625 1.2647705078125 -2.1159648895263672e-05 -0.0006416440010070801 0.0021820068359375 0.0932769775390625
18.319 0.1952362060546875 -0.02339935302734375 -1.129150390625 1.36700439453125 0.0011724233627319336 -0.0010190010070800781 0.00925445556640625 0.09549713134765625
18.32875 0.19303131103515625 -0.0299835205078125 -1.015869140625 1.453857421875 0.00027126073837280273 -0.00035227835178375244 0.01891326904296875 0.09720993041992188
18.3385 0.19305419921875 -0.04235076904296875 -0.895263671875 1.5260009765625 -0.00017708539962768555 -0.001802980899810791 0.027500152587890625 0.09788894653320312
18.34825 0.1916351318359375 -0.0504913330078125 -0.7757568359375 1.59344482421875 -0.00012388825416564941 -0.0007006525993347168 0.03554534912109375 0.09777069091796875
18.358 0.18979644775390625 -0.05849456787109375 -0.65509033203125 1.65191650390625 -0.00033730268478393555 -0.0012308955192565918 0.0425872802734375 0.09572601318359375
18.36775 0.186492919921875 -0.06685638427734375 -0.5244140625 1.70416259765625 0.0003229081630706787 -0.0003470778465270996 0.05136871337890625 0.09386444091796875
18.3775 0.18389129638671875 -0.07517242431640625 -0.3946533203125 1.74822998046875 0.0012159943580627441 -0.0012352466583251953 0.05709075927734375 0.0920867919921875
18.38725 0.17978668212890625 -0.0833740234375 -0.24847412109375 1.783935546875 -8.893013000488281e-05 -0.0005647242069244385 0.06472015380859375 0.08983612060546875
18.397 0.1757049560546875 -0.09039306640625 -0.1005859375 1.801513671875 9.262561798095703e-05 -0.0013865232467651367 0.07232666015625 0.085968017578125
18.40675 0.170928955078125 -0.097442626953125 0.0543212890625 1.8067626953125 0.0004049539566040039 -0.000549018383026123 0.0803375244140625 0.081573486328125
18.4165 0.1660308837890625 -0.10544586181640625 0.199951171875 1.7906494140625 -0.000692218542098999 0.0008711814880371094 0.08583831787109375 0.07767486572265625
18.42625 0.15990447998046875 -0.11206817626953125 0.341064453125 1.759033203125 1.4662742614746094e-05 -0.0005103051662445068 0.09163665771484375 0.07224273681640625
18.436 0.15314483642578125 -0.1187591552734375 0.471923828125 1.7197265625 0.0011023283004760742 8.159875869750977e-05 0.0997467041015625 0.06524658203125
18.44575 0.147674560546875 -0.1237335205078125 0.59716796875 1.67529296875 0.00041669607162475586 9.515881538391113e-05 0.1032867431640625 0.05870819091796875
18.4555 0.14133453369140625 -0.129913330078125 0.7171630859375 1.6234130859375 -0.00015395879745483398 0.0005247294902801514 0.1099700927734375 0.052642822265625
18.46525 0.1335601806640625 -0.1376495361328125 0.839599609375 1.5736083984375 0.0002543628215789795 -0.0007741451263427734 0.114501953125 0.042633056640625
18.475 0.12583160400390625 -0.14206695556640625 0.962158203125 1.513916015625 0.00011837482452392578 -0.000699460506439209 0.11916351318359375 0.0365753173828125
18.48475 0.119537353515625 -0.1482391357421875 1.084716796875 1.4359130859375 -0.00026804208755493164 -0.0003300011157989502 0.121612548828125 0.02690887451171875
18.4945 0.11119842529296875 -0.15164947509765625 1.2032470703125 1.3450927734375 0.0006732940673828125 0.0005258917808532715 0.12494659423828125 0.0179290771484375
18.50425 0.1025390625 -0.157379150390625 1.312744140625 1.238037109375 0.00030800700187683105 -0.00020623207092285156 0.12628173828125 0.010467529296875
18.514 0.0960235595703125 -0.1593017578125 1.40478515625 1.122802734375 0.0007801055908203125 -0.00023680925369262695 0.1290435791015625 0.001953125
18.52375 0.0877838134765625 -0.161834716796875 1.480224609375 0.9989013671875 -0.00034505128860473633 0.0011946558952331543 0.1274871826171875 -0.0062713623046875
18.5335 0.0806427001953125 -0.165435791015625 1.5411376953125 0.8760986328125 -0.00010813027620315552 -7.58543610572815e-05 0.128936767578125 -0.01471710205078125
18.54325 0.07309722900390625 -0.16796875 1.59130859375 0.7581787109375 0.00027401745319366455 -0.00012196600437164307 0.127685546875 -0.02350616455078125
18.553 0.06404876708984375 -0.17116546630859375 1.6370849609375 0.6380615234375 0.0016443729400634766 -0.00018858909606933594 0.124969482421875 -0.03015899658203125
18.56275 0.056488037109375 -0.1696014404296875 1.67919921875 0.521240234375 0.00067099928855896 -0.00023823976516723633 0.12401962280273438 -0.03874969482421875
18.5725 0.04819488525390625 -0.1703033447265625 1.7171630859375 0.3978271484375 0.0006151795387268066 -0.000625312328338623 0.11956024169921875 -0.04683685302734375
18.58225 0.039794921875 -0.17124176025390625 1.744873046875 0.266845703125 0.0007071495056152344 5.2362680435180664e-05 0.115509033203125 -0.0554656982421875
18.592 0.0321807861328125 -0.17127227783203125 1.76348876953125 0.12677001953125 0.0007429718971252441 -0.0008067786693572998 0.11059188842773438 -0.0621185302734375
18.60175 0.02398681640625 -0.1710357666015625 1.7684326171875 -0.0146484375 0.0006462335586547852 0.0008749961853027344 0.10595703125 -0.0677490234375
18.6115 0.0159759521484375 -0.1698760986328125 1.7548828125 -0.15203857421875 0.0006971359252929688 -0.0007123649120330811 0.10201644897460938 -0.07416534423828125
18.62125 0.00811767578125 -0.16817474365234375 1.72637939453125 -0.2855224609375 0.000463634729385376 -0.0005482733249664307 0.09493255615234375 -0.08095932006835938
18.631 0.00012969970703125 -0.16719818115234375 1.68951416015625 -0.4024658203125 0.00024099647998809814 0.00013352930545806885 0.08894729614257812 -0.08475112915039062
18.64075 -0.0066070556640625 -0.166656494140625 1.6485595703125 -0.51556396484375 0.0005480647087097168 -0.0008197426795959473 0.08252716064453125 -0.08927154541015625
18.6505 -0.01323699951171875 -0.16529083251953125 1.60528564453125 -0.62591552734375 0.00039571523666381836 -0.0002534836530685425 0.07762527465820312 -0.09358596801757812
18.66025 -0.02298736572265625 -0.16161346435546875 1.56109619140625 -0.734619140625 0.0010506510734558105 -0.0007922649383544922 0.06980133056640625 -0.09484481811523438
18.67 -0.02864837646484375 -0.15960693359375 1.51416015625 -0.8431396484375 3.865361213684082e-05 -0.0008561313152313232 0.06451797485351562 -0.09772872924804688
