!Created with skrf (http://scikit-rf.org).
# GHz S RI R 50.0 
!freq ReS11 ImS11 ReS21 ImS21 ReS12 ImS12 ReS22 ImS22
17.5 0.0091400146484375 -0.143157958984375 -0.78759765625 0.941650390625 -0.001394033432006836 0.0009079575538635254 0.09586715698242188 0.003078460693359375
17.50975 0.0009307861328125 -0.13899993896484375 -0.7044677734375 1.00042724609375 -0.0004950165748596191 0.0011593103408813477 0.09764480590820312 0.002567291259765625
17.5195 -0.006103515625 -0.13430023193359375 -0.61480712890625 1.04595947265625 -0.001080155372619629 0.0010849833488464355 0.10301971435546875 -0.000591278076171875
17.52925 -0.015411376953125 -0.131591796875 -0.5240478515625 1.08721923828125 -0.0011312365531921387 0.00027698278427124023 0.10467529296875 -0.004093170166015625
17.539 -0.0228424072265625 -0.126617431640625 -0.4345703125 1.118408203125 -0.001634359359741211 0.0012674331665039062 0.1054840087890625 -0.00543975830078125
17.54875 -0.02918243408203125 -0.1216888427734375 -0.34222412109375 1.14068603515625 -0.0013190507888793945 0.0011501908302307129 0.10726547241210938 -0.010326385498046875
17.5585 -0.03973388671875 -0.11745452880859375 -0.25115966796875 1.159423828125 -0.002061128616333008 0.0008151531219482422 0.11059188842773438 -0.012912750244140625
17.56825 -0.04344940185546875 -0.11492919921875 -0.16375732421875 1.1719970703125 -0.0011009573936462402 0.0014542341232299805 0.1107940673828125 -0.01665496826171875
17.578 -0.05135345458984375 -0.10764312744140625 -0.06878662109375 1.176025390625 -0.000806272029876709 1.3142824172973633e-05 0.11274337768554688 -0.021572113037109375
17.58775 -0.0576171875 -0.1038818359375 0.0255126953125 1.17572021484375 -0.0013008713722229004 0.0011158585548400879 0.113372802734375 -0.0229949951171875
17.5975 -0.06287384033203125 -0.09723663330078125 0.1243896484375 1.16204833984375 0.00016808509826660156 0.0011158585548400879 0.11359024047851562 -0.02918243408203125
17.60725 -0.0674285888671875 -0.09168243408203125 0.216796875 1.1400146484375 -0.0002950429916381836 -0.00011868774890899658 0.11286544799804688 -0.033107757568359375
17.617 -0.07324981689453125 -0.08492279052734375 0.30462646484375 1.1080322265625 -3.096461296081543e-05 0.0007290542125701904 0.1131744384765625 -0.03688812255859375
17.62675 -0.078369140625 -0.0779266357421875 0.38702392578125 1.0682373046875 0.0005376338958740234 0.0014395713806152344 0.11512374877929688 -0.041629791259765625
17.6365 -0.0811004638671875 -0.0713958740234375 0.4620361328125 1.026123046875 -0.0014342069625854492 0.00048291683197021484 0.114013671875 -0.046722412109375
17.64625 -0.08477783203125 -0.06201934814453125 0.52557373046875 0.97991943359375 -0.0002724677324295044 0.00012035667896270752 0.11139297485351562 -0.0503082275390625
17.656 -0.088470458984375 -0.0564422607421875 0.5885009765625 0.9326171875 -0.0003573298454284668 0.0005095005035400391 0.10799789428710938 -0.05454254150390625
17.66575 -0.09032440185546875 -0.04694366455078125 0.64947509765625 0.8902587890625 -0.0006237030029296875 0.00010541081428527832 0.10858917236328125 -0.059291839599609375
17.6755 -0.09407806396484375 -0.0402984619140625 0.70648193359375 0.8402099609375 -0.00016298890113830566 0.0008929967880249023 0.1038360595703125 -0.06535720825195312
17.68525 -0.09531402587890625 -0.033477783203125 0.76715087890625 0.7904052734375 -0.00040346384048461914 0.0012691617012023926 0.10205078125 -0.06853866577148438
17.695 -0.09836578369140625 -0.0247039794921875 0.82806396484375 0.732177734375 -0.0012611746788024902 0.000979781150817871 0.10035324096679688 -0.07188796997070312
17.70475 -0.09828948974609375 -0.015903472900390625 0.88446044921875 0.66375732421875 -0.0007825493812561035 0.0017246007919311523 0.09582138061523438 -0.0769195556640625
17.7145 -0.10010910034179688 -0.008365631103515625 0.9364013671875 0.58734130859375 -0.0007494688034057617 0.0019199848175048828 0.09123611450195312 -0.08391571044921875
17.72425 -0.10064697265625 -0.000385284423828125 0.97271728515625 0.50421142578125 -0.0007346868515014648 0.0005977153778076172 0.08782577514648438 -0.08675765991210938
17.734 -0.10133743286132812 0.00823211669921875 1.00030517578125 0.42340087890625 -0.000974118709564209 0.001782536506652832 0.0842742919921875 -0.089508056640625
17.74375 -0.10237884521484375 0.0142822265625 1.011474609375 0.3409423828125 -0.00030153989791870117 -0.00031304359436035156 0.0799713134765625 -0.0946502685546875
17.7535 -0.0994110107421875 0.021778106689453125 1.021240234375 0.2666015625 -0.00024449825286865234 0.001069486141204834 0.07541275024414062 -0.09850311279296875
17.76325 -0.09789276123046875 0.02948760986328125 1.0281982421875 0.19873046875 0.0009812116622924805 0.0017590522766113281 0.06943511962890625 -0.09955215454101562
17.773 -0.09690475463867188 0.038005828857421875 1.0313720703125 0.13092041015625 0.00044292211532592773 0.0011563301086425781 0.06592559814453125 -0.10411834716796875
17.78275 -0.09537887573242188 0.044498443603515625 1.034423828125 0.0623779296875 7.991492748260498e-05 0.000232696533203125 0.059665679931640625 -0.10444259643554688
17.7925 -0.09243011474609375 0.050693511962890625 1.0364990234375 -0.007568359375 0.0003236532211303711 0.000646442174911499 0.05580902099609375 -0.10598373413085938
17.80225 -0.08841705322265625 0.056232452392578125 1.0374755859375 -0.08050537109375 -0.0011103153228759766 0.001482248306274414 0.051914215087890625 -0.10643386840820312
17.812 -0.08547592163085938 0.06439208984375 1.0294189453125 -0.15777587890625 -0.0003743171691894531 0.0013103485107421875 0.045658111572265625 -0.106658935546875
17.82175 -0.0801849365234375 0.07320404052734375 1.01605224609375 -0.23345947265625 0.0005548596382141113 0.0008648037910461426 0.041103363037109375 -0.10735321044921875
17.8315 -0.07733917236328125 0.080413818359375 0.9910888671875 -0.30810546875 0.0002561211585998535 0.000797569751739502 0.03426361083984375 -0.10894393920898438
17.84125 -0.0733489990234375 0.08519744873046875 0.962890625 -0.3795166015625 0.0006155967712402344 0.0004354715347290039 0.0267181396484375 -0.10845947265625
17.851 -0.06719207763671875 0.09322738647460938 0.92462158203125 -0.44146728515625 0.0003345608711242676 0.001545250415802002 0.023433685302734375 -0.10944366455078125
17.86075 -0.0641937255859375 0.09739303588867188 0.8848876953125 -0.497711181640625 -0.0005931258201599121 0.0015001893043518066 0.017658233642578125 -0.1080474853515625
17.8705 -0.058322906494140625 0.102783203125 0.847625732421875 -0.5506591796875 -7.903575897216797e-05 0.0021620988845825195 0.012226104736328125 -0.1064910888671875
17.88025 -0.05318450927734375 0.10949325561523438 0.80963134765625 -0.602508544921875 -0.00011152029037475586 0.0009269416332244873 0.00614166259765625 -0.10725784301757812
17.89 -0.048583984375 0.11542129516601562 0.7716064453125 -0.653839111328125 0.0007436275482177734 0.0007467269897460938 -0.000591278076171875 -0.104278564453125
17.89975 -0.04170989990234375 0.11859512329101562 0.727020263671875 -0.70648193359375 0.000499725341796875 0.002024412155151367 -0.004924774169921875 -0.10358428955078125
17.9095 -0.0362548828125 0.122467041015625 0.6822509765625 -0.75946044921875 0.000356823205947876 0.00030869245529174805 -0.0105133056640625 -0.10367965698242188
17.91925 -0.03003692626953125 0.12554168701171875 0.626617431640625 -0.808319091796875 -0.0005536973476409912 0.00028061866760253906 -0.01446533203125 -0.10043716430664062
17.929 -0.0220794677734375 0.1292266845703125 0.5712890625 -0.8531494140625 0.0014653205871582031 0.0019373893737792969 -0.02080535888671875 -0.09894561767578125
17.93875 -0.01630401611328125 0.1342620849609375 0.508758544921875 -0.891082763671875 0.0014941692352294922 0.0011070966720581055 -0.02623748779296875 -0.09745407104492188
17.9485 -0.008514404296875 0.134735107421875 0.4461669921875 -0.919891357421875 0.0011211633682250977 0.0008920431137084961 -0.029949188232421875 -0.09188461303710938
17.95825 -0.00279998779296875 0.1380157470703125 0.38348388671875 -0.947509765625 0.0012447834014892578 -9.626150131225586e-05 -0.032138824462890625 -0.09014511108398438
17.968 0.00391387939453125 0.13896942138671875 0.32196044921875 -0.970855712890625 0.00020933151245117188 0.0010632872581481934 -0.03993988037109375 -0.087158203125
17.97775 0.0126190185546875 0.14093780517578125 0.26141357421875 -0.9912109375 0.00044661760330200195 0.0005447864532470703 -0.04277801513671875 -0.08203125
17.9875 0.0205841064453125 0.14147186279296875 0.19781494140625 -1.012451171875 0.0007523000240325928 0.00020310282707214355 -0.04521942138671875 -0.0783843994140625
17.99725 0.02774810791015625 0.1440887451171875 0.13494873046875 -1.0321044921875 0.0025386810302734375 0.0010023117065429688 -0.05039215087890625 -0.0739593505859375
18.007 0.03353118896484375 0.14336395263671875 0.06488037109375 -1.0511474609375 0.001591801643371582 0.0009056329727172852 -0.0542755126953125 -0.068267822265625
18.01675 0.04290771484375 0.14321136474609375 -0.008544921875 -1.065185546875 0.0009446144104003906 8.213520050048828e-05 -0.05846405029296875 -0.066009521484375
18.0265 0.050048828125 0.144805908203125 -0.0860595703125 -1.07080078125 0.0016402006149291992 -0.00047576427459716797 -0.06192779541015625 -0.0590972900390625
18.03625 0.059326171875 0.1453857421875 -0.164306640625 -1.0675048828125 0.00013577938079833984 0.0017486810684204102 -0.06523895263671875 -0.05503082275390625
18.046 0.06622314453125 0.14444732666015625 -0.244873046875 -1.06048583984375 0.00019797682762145996 0.0006454288959503174 -0.06646728515625 -0.04813385009765625
18.05575 0.07459259033203125 0.14014434814453125 -0.31787109375 -1.0450439453125 0.0012001395225524902 0.0007218122482299805 -0.07072830200195312 -0.04480743408203125
18.0655 0.08060455322265625 0.14124298095703125 -0.3917236328125 -1.02740478515625 0.0012958645820617676 -0.00016772747039794922 -0.07389450073242188 -0.0380401611328125
18.07525 0.0876312255859375 0.136932373046875 -0.46209716796875 -1.00439453125 0.0007590651512145996 0.0006379485130310059 -0.074859619140625 -0.032375335693359375
18.085 0.09581756591796875 0.136688232421875 -0.53790283203125 -0.9791259765625 0.0007227659225463867 0.0004546642303466797 -0.07775115966796875 -0.02762603759765625
18.09475 0.1024169921875 0.1336669921875 -0.61163330078125 -0.95123291015625 0.0009267330169677734 0.0006006360054016113 -0.07672119140625 -0.0209503173828125
18.1045 0.1087493896484375 0.12823486328125 -0.686767578125 -0.9180908203125 0.00014227628707885742 0.000763624906539917 -0.0782928466796875 -0.0136566162109375
18.11425 0.11687469482421875 0.1268310546875 -0.76165771484375 -0.8731689453125 0.0008828639984130859 0.0002855062484741211 -0.07678604125976562 -0.01044464111328125
18.124 0.12176513671875 0.1215057373046875 -0.8350830078125 -0.8221435546875 0.0004305839538574219 -0.0002429485321044922 -0.077484130859375 -0.00106048583984375
18.13375 0.12880706787109375 0.11788177490234375 -0.90460205078125 -0.765869140625 0.00014445185661315918 0.0006539225578308105 -0.07659149169921875 0.00299072265625
18.1435 0.1342315673828125 0.1125030517578125 -0.96820068359375 -0.7030029296875 0.0003319084644317627 0.0005098581314086914 -0.07862091064453125 0.011745452880859375
18.15325 0.1416473388671875 0.1080780029296875 -1.0296630859375 -0.63055419921875 0.0011559724807739258 0.00027054548263549805 -0.07686996459960938 0.017177581787109375
18.163 0.1481475830078125 0.1009368896484375 -1.0819091796875 -0.5567626953125 0.00028058886528015137 0.00027740001678466797 -0.07361984252929688 0.02558135986328125
18.17275 0.1534881591796875 0.0968017578125 -1.131103515625 -0.47564697265625 0.0011498332023620605 4.214048385620117e-05 -0.070159912109375 0.0311431884765625
18.1825 0.160430908203125 0.087799072265625 -1.17919921875 -0.393798828125 -0.00021660327911376953 -0.0008327960968017578 -0.06819534301757812 0.04065704345703125
18.19225 0.16385650634765625 0.08266448974609375 -1.2198486328125 -0.30340576171875 0.0011162161827087402 0.00020384788513183594 -0.06556320190429688 0.04462432861328125
18.202 0.1700286865234375 0.076812744140625 -1.2530517578125 -0.2110595703125 -0.00012689828872680664 -0.0009369254112243652 -0.06369781494140625 0.05178070068359375
18.21175 0.173431396484375 0.069000244140625 -1.2781982421875 -0.107666015625 0.0008176565170288086 0.0009795427322387695 -0.05731201171875 0.05754852294921875
18.2215 0.17867279052734375 0.06137847900390625 -1.29034423828125 -0.0020751953125 0.0005824565887451172 -0.0005635619163513184 -0.053539276123046875 0.06188392639160156
18.23125 0.1828460693359375 0.05512237548828125 -1.29443359375 0.10089111328125 0.0005370974540710449 -0.0003426969051361084 -0.0484466552734375 0.06546783447265625
18.241 0.1853790283203125 0.04729461669921875 -1.29046630859375 0.20391845703125 0.0012885332107543945 -0.0011267662048339844 -0.0453033447265625 0.071502685546875
18.25075 0.18829345703125 0.03842926025390625 -1.27545166015625 0.3043212890625 0.0005664229393005371 7.867813110351562e-06 -0.039249420166015625 0.07486724853515625
18.2605 0.1898345947265625 0.03162384033203125 -1.258056640625 0.40625 0.0007543563842773438 0.00014260411262512207 -0.032413482666015625 0.07857513427734375
18.27025 0.1916961669921875 0.022613525390625 -1.2310791015625 0.50787353515625 0.0014775991439819336 4.13060188293457e-05 -0.024570465087890625 0.08376693725585938
18.28 0.19348907470703125 0.01367950439453125 -1.19683837890625 0.61090087890625 0.00047904253005981445 -0.001423180103302002 -0.019367218017578125 0.08576583862304688
18.28975 0.19673919677734375 0.00400543212890625 -1.1551513671875 0.70928955078125 0.0010830163955688477 -0.0001627206802368164 -0.01178741455078125 0.09052658081054688
18.2995 0.1956787109375 -0.00445556640625 -1.0989990234375 0.8087158203125 -7.599592208862305e-06 -0.0004788637161254883 -0.004253387451171875 0.09006881713867188
18.30925 0.1958465576171875 -0.0142059326171875 -1.0330810546875 0.9034423828125 0.0007872581481933594 -0.0003503561019897461 0.00389862060546875 0.09259796142578125
18.319 0.19370269775390625 -0.02292633056640625 -0.95513916015625 0.987579345703125 0.00046497583389282227 -0.00021977722644805908 0.0098876953125 0.0951080322265625
18.32875 0.193115234375 -0.0295867919921875 -0.8740234375 1.0653076171875 0.0010155439376831055 0.00015795230865478516 0.019222259521484375 0.09486007690429688
18.3385 0.1915435791015625 -0.04033660888671875 -0.78521728515625 1.13018798828125 0.00039693713188171387 -0.00014232099056243896 0.02685546875 0.09654617309570312
18.34825 0.19145965576171875 -0.04940032958984375 -0.69683837890625 1.19244384765625 2.7686357498168945e-05 -0.0006099045276641846 0.0340423583984375 0.0964813232421875
18.358 0.1887359619140625 -0.0580291748046875 -0.604736328125 1.24444580078125 -0.0002308487892150879 -0.00011849403381347656 0.04303741455078125 0.09438323974609375
18.36775 0.18608856201171875 -0.06591796875 -0.505859375 1.29522705078125 -0.00011068582534790039 -0.0005354583263397217 0.0500030517578125 0.09243011474609375
18.3775 0.183685302734375 -0.072845458984375 -0.40631103515625 1.34210205078125 -5.361437797546387e-05 -0.0008730292320251465 0.05728912353515625 0.089111328125
18.38725 0.1798248291015625 -0.08237457275390625 -0.296142578125 1.37841796875 0.0009630918502807617 -0.00017118453979492188 0.0645751953125 0.0875701904296875
18.397 0.176605224609375 -0.089599609375 -0.180419921875 1.4027099609375 0.0005182027816772461 -0.0009053945541381836 0.0722808837890625 0.085540771484375
18.40675 0.171722412109375 -0.0968170166015625 -0.0594482421875 1.417236328125 5.733966827392578e-05 0.0009313821792602539 0.07928466796875 0.0804595947265625
18.4165 0.165679931640625 -0.10555267333984375 0.0567626953125 1.412353515625 0.001186370849609375 7.95125961303711e-05 0.08480072021484375 0.07593536376953125
18.42625 0.160003662109375 -0.11109161376953125 0.1702880859375 1.3980712890625 -1.1086463928222656e-05 -0.0005597472190856934 0.09194183349609375 0.07199859619140625
18.436 0.15372467041015625 -0.1172027587890625 0.27557373046875 1.37542724609375 -3.8489699363708496e-05 -0.0004194527864456177 0.101348876953125 0.064849853515625
18.44575 0.147308349609375 -0.12514495849609375 0.377197265625 1.34661865234375 0.0005937814712524414 0.00039446353912353516 0.10303497314453125 0.05825042724609375
18.4555 0.139984130859375 -0.12982940673828125 0.47479248046875 1.3148193359375 0.00030171871185302734 -0.0005756020545959473 0.10846710205078125 0.05120086669921875
18.46525 0.13372039794921875 -0.1363067626953125 0.5771484375 1.28271484375 -0.0005649924278259277 -0.0008032917976379395 0.11356353759765625 0.0432281494140625
18.475 0.1257476806640625 -0.14111328125 0.67877197265625 1.24468994140625 0.00023595988750457764 -0.00012474507093429565 0.116973876953125 0.0349273681640625
18.48475 0.1204681396484375 -0.14685821533203125 0.78082275390625 1.19049072265625 -0.0003874152898788452 0.0003689676523208618 0.12133026123046875 0.0270233154296875
18.4945 0.111236572265625 -0.15069580078125 0.8785400390625 1.1251220703125 0.00014400482177734375 0.0017708539962768555 0.123046875 0.0175323486328125
18.50425 0.10333251953125 -0.1567230224609375 0.97216796875 1.048095703125 -0.0001558065414428711 -0.0004906654357910156 0.1248779296875 0.0096893310546875
18.514 0.0960693359375 -0.160736083984375 1.0533447265625 0.96044921875 0.001547694206237793 0.0002573728561401367 0.1273193359375 0.00128173828125
18.52375 0.0869140625 -0.16098785400390625 1.12158203125 0.8680419921875 0.0004690587520599365 -0.0007789134979248047 0.126800537109375 -0.00616455078125
18.5335 0.0800933837890625 -0.1659088134765625 1.17657470703125 0.7738037109375 0.0007928311824798584 -0.0002779066562652588 0.1282958984375 -0.01607513427734375
18.54325 0.0725860595703125 -0.1680908203125 1.2247314453125 0.68267822265625 0.0008295774459838867 0.0006395578384399414 0.12647247314453125 -0.02410125732421875
18.553 0.06462860107421875 -0.1701507568359375 1.26702880859375 0.58990478515625 0.0016047358512878418 -0.0009313225746154785 0.12479019165039062 -0.0311279296875
18.56275 0.0570831298828125 -0.1702728271484375 1.30865478515625 0.49847412109375 -0.000519871711730957 -0.0009632110595703125 0.12264251708984375 -0.038715362548828125
18.5725 0.04863739013671875 -0.17023468017578125 1.3477783203125 0.40216064453125 -9.971112012863159e-05 0.00022652745246887207 0.11776351928710938 -0.04639434814453125
18.58225 0.0408782958984375 -0.1720123291015625 1.375732421875 0.29901123046875 0.0009278059005737305 -0.0004093348979949951 0.11439895629882812 -0.055294036865234375
18.592 0.0320892333984375 -0.17150115966796875 1.3992919921875 0.1878662109375 -0.00030416250228881836 0.0005160868167877197 0.1106414794921875 -0.060100555419921875
18.60175 0.023529052734375 -0.170745849609375 1.4111328125 0.0755615234375 0.0003407001495361328 -0.001004338264465332 0.10384368896484375 -0.06695556640625
18.6115 0.01659393310546875 -0.16893768310546875 1.40789794921875 -0.03643798828125 0.0010796189308166504 -0.0008982419967651367 0.1008758544921875 -0.07419967651367188
18.62125 0.0081787109375 -0.16928863525390625 1.39483642578125 -0.14422607421875 0.00038483738899230957 -2.0578503608703613e-05 0.09373092651367188 -0.080078125
18.631 0.00090789794921875 -0.168853759765625 1.37152099609375 -0.24102783203125 -0.0001958906650543213 -0.00026117265224456787 0.08686447143554688 -0.08432388305664062
18.64075 -0.00670623779296875 -0.16646575927734375 1.34417724609375 -0.33673095703125 -0.0011458396911621094 -0.0009750127792358398 0.08154678344726562 -0.08782958984375
18.6505 -0.0131072998046875 -0.1647186279296875 1.31915283203125 -0.426513671875 0.0003899186849594116 -6.447732448577881e-05 0.076202392578125 -0.09183120727539062
18.66025 -0.02315521240234375 -0.1618194580078125 1.2900390625 -0.51654052734375 9.375810623168945e-05 -0.0006479024887084961 0.07021713256835938 -0.09452438354492188
