!Created with skrf (http://scikit-rf.org).
# GHz S RI R 50.0 
!freq ReS11 ImS11 ReS21 ImS21 ReS12 ImS12 ReS22 ImS22
17.5 0.00855255126953125 -0.14478302001953125 -0.050090789794921875 0.1130523681640625 -0.0019729137420654297 -0.00014901161193847656 0.09645462036132812 0.00023651123046875
17.50975 -0.00154876708984375 -0.14058685302734375 -0.0352935791015625 0.115020751953125 -0.0006772279739379883 0.0015512704849243164 0.100433349609375 -9.1552734375e-05
17.5195 -0.00885772705078125 -0.13626861572265625 -0.0190887451171875 0.11519622802734375 -0.0019903182983398438 0.00019788742065429688 0.1047515869140625 -0.0004425048828125
17.52925 -0.0177459716796875 -0.1331787109375 -0.002285003662109375 0.11226272583007812 -0.0015377998352050781 0.0018944144248962402 0.10700225830078125 -0.006740570068359375
17.539 -0.0238189697265625 -0.1284332275390625 0.0109710693359375 0.108367919921875 -0.0017342567443847656 -0.00011134147644042969 0.10710906982421875 -0.00724029541015625
17.54875 -0.03143310546875 -0.12406158447265625 0.02335357666015625 0.10103988647460938 -0.0006306171417236328 0.0009984970092773438 0.10931777954101562 -0.01226043701171875
17.5585 -0.042205810546875 -0.11951446533203125 0.0351104736328125 0.09389495849609375 -0.0016688108444213867 0.0005787014961242676 0.11101913452148438 -0.015865325927734375
17.56825 -0.0473480224609375 -0.11450958251953125 0.04521942138671875 0.08403778076171875 -0.0002567172050476074 0.0009516477584838867 0.11181640625 -0.020748138427734375
17.578 -0.0547637939453125 -0.1083831787109375 0.0543975830078125 0.07572174072265625 -0.0009403824806213379 0.001333773136138916 0.114288330078125 -0.024169921875
17.58775 -0.060150146484375 -0.1031951904296875 0.06290435791015625 0.063995361328125 -0.0006441175937652588 0.0005400478839874268 0.11313629150390625 -0.026805877685546875
17.5975 -0.06451416015625 -0.098968505859375 0.06845855712890625 0.051723480224609375 -0.00162506103515625 0.0010755658149719238 0.11341094970703125 -0.030731201171875
17.60725 -0.07125091552734375 -0.092498779296875 0.071990966796875 0.038936614990234375 -0.0007615387439727783 0.00044783949851989746 0.1121826171875 -0.0367889404296875
17.617 -0.07561492919921875 -0.08440399169921875 0.07324600219726562 0.0276947021484375 -0.0007547736167907715 0.0007708370685577393 0.11431884765625 -0.040355682373046875
17.62675 -0.0802764892578125 -0.07712554931640625 0.07399749755859375 0.014835357666015625 -0.0017142891883850098 0.0007280707359313965 0.11334228515625 -0.044460296630859375
17.6365 -0.0837860107421875 -0.0698089599609375 0.0720977783203125 0.00226593017578125 -0.0004774332046508789 0.00037235021591186523 0.11296844482421875 -0.048553466796875
17.64625 -0.08722686767578125 -0.0631256103515625 0.0672149658203125 -0.00799560546875 -0.0003146529197692871 0.0002475231885910034 0.10901641845703125 -0.054386138916015625
17.656 -0.09172821044921875 -0.054718017578125 0.06343460083007812 -0.017398834228515625 -0.0006836056709289551 0.0011234283447265625 0.10688018798828125 -0.059017181396484375
17.66575 -0.0929412841796875 -0.04596710205078125 0.05803680419921875 -0.026464462280273438 -0.0013055205345153809 0.0009393692016601562 0.10640335083007812 -0.06166839599609375
17.6755 -0.0968017578125 -0.03934478759765625 0.05079841613769531 -0.03519630432128906 -0.0011398792266845703 0.002530336380004883 0.10339736938476562 -0.06814193725585938
17.68525 -0.0984344482421875 -0.0313720703125 0.04268836975097656 -0.04203033447265625 -0.0005908012390136719 0.0011944174766540527 0.100433349609375 -0.07238388061523438
17.695 -0.0997772216796875 -0.02223968505859375 0.03389167785644531 -0.04973411560058594 -0.0008603930473327637 0.00036653876304626465 0.09883499145507812 -0.07625198364257812
17.70475 -0.09980010986328125 -0.01367950439453125 0.022228240966796875 -0.05372047424316406 -0.00033724308013916016 0.002214789390563965 0.09424591064453125 -0.0795440673828125
17.7145 -0.10202789306640625 -0.00554656982421875 0.011219024658203125 -0.05980873107910156 -0.0003274679183959961 0.0007752776145935059 0.09056854248046875 -0.082916259765625
17.72425 -0.10247039794921875 0.00281524658203125 -0.00080108642578125 -0.059814453125 0.00017783045768737793 0.0005755424499511719 0.08493423461914062 -0.08836746215820312
17.734 -0.1009674072265625 0.009033203125 -0.01331329345703125 -0.05905914306640625 0.0006330013275146484 0.0013737678527832031 0.08054351806640625 -0.09293365478515625
17.74375 -0.1039276123046875 0.0157623291015625 -0.0258026123046875 -0.0547027587890625 -0.0005660057067871094 0.0007264018058776855 0.07595062255859375 -0.09586334228515625
17.7535 -0.10059356689453125 0.024692535400390625 -0.035755157470703125 -0.053180694580078125 0.0010497570037841797 0.0009189844131469727 0.0722198486328125 -0.0984954833984375
17.76325 -0.09934616088867188 0.032642364501953125 -0.045200347900390625 -0.04654693603515625 -2.5391578674316406e-05 0.001164078712463379 0.06658172607421875 -0.099151611328125
17.773 -0.0985870361328125 0.039546966552734375 -0.0559844970703125 -0.04070281982421875 0.0003846883773803711 0.0018260478973388672 0.06324005126953125 -0.10265350341796875
17.78275 -0.09621047973632812 0.048244476318359375 -0.06414794921875 -0.03142547607421875 0.00011914968490600586 0.0013923048973083496 0.057537078857421875 -0.10321426391601562
17.7925 -0.09221649169921875 0.053829193115234375 -0.07238388061523438 -0.021427154541015625 -0.00045037269592285156 0.001346886157989502 0.0520172119140625 -0.1054229736328125
17.80225 -0.08842849731445312 0.059589385986328125 -0.0811767578125 -0.009807586669921875 -4.348158836364746e-05 0.0007163584232330322 0.0473175048828125 -0.10678863525390625
17.812 -0.0852203369140625 0.06877517700195312 -0.08742904663085938 0.002910614013671875 0.00013196468353271484 0.0016776323318481445 0.04145050048828125 -0.107635498046875
17.82175 -0.08073043823242188 0.07550811767578125 -0.09127044677734375 0.01483154296875 -0.00034695863723754883 0.0018200874328613281 0.03839111328125 -0.10791778564453125
17.8315 -0.07633590698242188 0.0819244384765625 -0.09344100952148438 0.031951904296875 -0.0003260374069213867 0.0003836601972579956 0.03115081787109375 -0.10863494873046875
17.84125 -0.0733795166015625 0.08791351318359375 -0.09146881103515625 0.047210693359375 -0.00028395652770996094 0.0003898441791534424 0.02533721923828125 -0.1063079833984375
17.851 -0.066314697265625 0.09539413452148438 -0.08779144287109375 0.061702728271484375 0.00018781423568725586 0.000726550817489624 0.020599365234375 -0.1080474853515625
17.86075 -0.0633392333984375 0.10042953491210938 -0.08391952514648438 0.07699203491210938 0.0007436871528625488 0.0012307167053222656 0.01264190673828125 -0.10651779174804688
17.8705 -0.0569915771484375 0.1065216064453125 -0.07847213745117188 0.09102249145507812 0.0003682374954223633 0.0010892748832702637 0.00894927978515625 -0.105377197265625
17.88025 -0.050506591796875 0.11230087280273438 -0.06880950927734375 0.10635757446289062 -0.0008216500282287598 0.0017457008361816406 0.0017547607421875 -0.10415267944335938
17.89 -0.046657562255859375 0.11582183837890625 -0.060710906982421875 0.12035369873046875 0.000714421272277832 0.0004067420959472656 -0.001312255859375 -0.10339736938476562
17.89975 -0.03960418701171875 0.121246337890625 -0.04622650146484375 0.13405609130859375 0.0006592869758605957 0.000950157642364502 -0.007293701171875 -0.1018524169921875
17.9095 -0.034576416015625 0.1251678466796875 -0.03220367431640625 0.1475372314453125 0.00010952353477478027 0.0005294382572174072 -0.012058258056640625 -0.099822998046875
17.91925 -0.02745819091796875 0.1265411376953125 -0.01373291015625 0.15671539306640625 0.00017437338829040527 0.00043314695358276367 -0.01629638671875 -0.09789657592773438
17.929 -0.02197265625 0.131195068359375 0.0069122314453125 0.166412353515625 0.0011570453643798828 -0.00043702125549316406 -0.02382659912109375 -0.096588134765625
17.93875 -0.014739990234375 0.1336212158203125 0.02750396728515625 0.1712646484375 0.0009031891822814941 0.0009487271308898926 -0.026702880859375 -0.09404754638671875
17.9485 -0.00652313232421875 0.13561248779296875 0.048004150390625 0.17401123046875 -0.00020563602447509766 0.0005245208740234375 -0.031280517578125 -0.08929061889648438
17.95825 -0.00064849853515625 0.13720703125 0.07294464111328125 0.17354583740234375 0.0007501840591430664 -0.001060783863067627 -0.034557342529296875 -0.086334228515625
17.968 0.006927490234375 0.14041900634765625 0.095184326171875 0.17071533203125 -0.0002864748239517212 0.0003949105739593506 -0.0382537841796875 -0.08299636840820312
17.97775 0.01416778564453125 0.1405792236328125 0.1202545166015625 0.165679931640625 0.0004380941390991211 0.0001367032527923584 -0.04370880126953125 -0.0789642333984375
17.9875 0.02227783203125 0.14183807373046875 0.1439666748046875 0.1572723388671875 0.0004967749118804932 0.00042742490768432617 -0.04552459716796875 -0.0751953125
17.99725 0.03089141845703125 0.14194488525390625 0.16839599609375 0.1462860107421875 0.0020219087600708008 0.001165628433227539 -0.049671173095703125 -0.07075881958007812
18.007 0.03765106201171875 0.14263153076171875 0.19091796875 0.13018798828125 0.0011501312255859375 0.0009884834289550781 -0.053241729736328125 -0.06660842895507812
18.01675 0.04450225830078125 0.14327239990234375 0.2148590087890625 0.1107330322265625 0.0009818673133850098 0.0005552172660827637 -0.057888031005859375 -0.060894012451171875
18.0265 0.0536956787109375 0.143280029296875 0.2349853515625 0.08837890625 0.0005583763122558594 0.00027751922607421875 -0.06160736083984375 -0.0564727783203125
18.03625 0.0592498779296875 0.1429901123046875 0.252166748046875 0.061981201171875 0.00110626220703125 0.0005757808685302734 -0.06484222412109375 -0.0498504638671875
18.046 0.06862640380859375 0.14298248291015625 0.2659149169921875 0.0314788818359375 0.0007278025150299072 0.0001652240753173828 -0.06649398803710938 -0.045337677001953125
18.05575 0.07515716552734375 0.13922882080078125 0.27459716796875 0.0013275146484375 0.00044023990631103516 0.0006499290466308594 -0.0691986083984375 -0.04105377197265625
18.0655 0.08280181884765625 0.138336181640625 0.28057861328125 -0.032012939453125 0.0004433542490005493 -3.407895565032959e-05 -0.07406997680664062 -0.035930633544921875
18.07525 0.0890960693359375 0.13640594482421875 0.28192138671875 -0.0639495849609375 0.00024609267711639404 6.230175495147705e-05 -0.07352066040039062 -0.02979278564453125
18.085 0.09676361083984375 0.13440704345703125 0.2811126708984375 -0.098876953125 0.001273512840270996 -3.9517879486083984e-05 -0.07492828369140625 -0.024593353271484375
18.09475 0.10402679443359375 0.1295928955078125 0.2748870849609375 -0.1312103271484375 0.0007624328136444092 1.9490718841552734e-05 -0.07329940795898438 -0.018695831298828125
18.1045 0.11100006103515625 0.12496185302734375 0.2669677734375 -0.1688385009765625 0.0012656450271606445 -0.0006088614463806152 -0.0745849609375 -0.01425933837890625
18.11425 0.11733245849609375 0.12421417236328125 0.2504425048828125 -0.2026519775390625 0.0005798637866973877 -0.00047144293785095215 -0.07421112060546875 -0.007110595703125
18.124 0.1216888427734375 0.119873046875 0.2310028076171875 -0.234588623046875 0.0016477108001708984 0.0005514621734619141 -0.07324981689453125 0.0003814697265625
18.13375 0.1295166015625 0.1154632568359375 0.2073211669921875 -0.2653656005859375 0.001209259033203125 -0.001111447811126709 -0.07492446899414062 0.0044403076171875
18.1435 0.13515472412109375 0.1100311279296875 0.179718017578125 -0.292144775390625 0.0009357929229736328 0.0005969405174255371 -0.07435226440429688 0.013763427734375
18.15325 0.14058685302734375 0.10358428955078125 0.1472625732421875 -0.3153228759765625 0.0010243654251098633 -0.0012312531471252441 -0.07361984252929688 0.019283294677734375
18.163 0.14833831787109375 0.09770965576171875 0.1148834228515625 -0.3360595703125 0.000577390193939209 -0.0007016956806182861 -0.07038497924804688 0.0268402099609375
18.17275 0.15221405029296875 0.0926513671875 0.0774688720703125 -0.3497772216796875 0.0021997690200805664 -0.000905156135559082 -0.06705474853515625 0.031604766845703125
18.1825 0.1571044921875 0.08650970458984375 0.040863037109375 -0.3629302978515625 0.0009219348430633545 -0.00032645463943481445 -0.06549072265625 0.039226531982421875
18.19225 0.16204071044921875 0.0786285400390625 0.0009918212890625 -0.37139892578125 0.0007359683513641357 -0.0006694495677947998 -0.060688018798828125 0.04550933837890625
18.202 0.1682891845703125 0.07457733154296875 -0.0395965576171875 -0.374786376953125 0.0009157955646514893 -0.0007528960704803467 -0.05914878845214844 0.04965782165527344
18.21175 0.171539306640625 0.0668792724609375 -0.082794189453125 -0.37335205078125 -4.696846008300781e-05 -0.00153350830078125 -0.054294586181640625 0.056789398193359375
18.2215 0.176849365234375 0.06072998046875 -0.1232757568359375 -0.3655242919921875 0.0012109875679016113 -0.0016620755195617676 -0.049808502197265625 0.06165504455566406
18.23125 0.18129730224609375 0.054107666015625 -0.165130615234375 -0.3536376953125 -0.0005724430084228516 -0.0011996626853942871 -0.046695709228515625 0.06500244140625
18.241 0.18253326416015625 0.04630279541015625 -0.202972412109375 -0.33721923828125 0.001327812671661377 -0.00024878978729248047 -0.04206085205078125 0.0694122314453125
18.25075 0.18569183349609375 0.037200927734375 -0.239471435546875 -0.316162109375 -0.0003369450569152832 -0.0011537671089172363 -0.036449432373046875 0.07376861572265625
18.2605 0.18837738037109375 0.030670166015625 -0.271636962890625 -0.29180908203125 4.953145980834961e-05 -0.001651167869567871 -0.030364990234375 0.07650375366210938
18.27025 0.187530517578125 0.0212860107421875 -0.30145263671875 -0.265106201171875 0.001184999942779541 -0.0010179877281188965 -0.023792266845703125 0.08144378662109375
18.28 0.1923675537109375 0.0131072998046875 -0.330291748046875 -0.233673095703125 -0.0005248785018920898 0.00018486380577087402 -0.017913818359375 0.08348464965820312
18.28975 0.193756103515625 0.00377655029296875 -0.3572998046875 -0.20269775390625 -0.00020416080951690674 0.00032851099967956543 -0.0111083984375 0.08626174926757812
18.2995 0.19280242919921875 -0.0024871826171875 -0.3779296875 -0.1644287109375 -0.00018393993377685547 -0.0006075501441955566 -0.003936767578125 0.0858612060546875
18.30925 0.1920013427734375 -0.013153076171875 -0.3955078125 -0.1248779296875 0.0018538236618041992 -0.0007671117782592773 0.00431060791015625 0.08905029296875
18.319 0.19211578369140625 -0.02215576171875 -0.406829833984375 -0.0847320556640625 0.0004769563674926758 -0.0019806623458862305 0.010295867919921875 0.09232711791992188
18.32875 0.19116973876953125 -0.02867889404296875 -0.4133148193359375 -0.042816162109375 0.00018499046564102173 -0.0001418665051460266 0.0206756591796875 0.09257125854492188
18.3385 0.19139862060546875 -0.0392913818359375 -0.4172515869140625 -0.0019378662109375 -3.0517578125e-05 -0.000603020191192627 0.028865814208984375 0.092742919921875
18.34825 0.18967437744140625 -0.04746246337890625 -0.417327880859375 0.0365447998046875 4.859268665313721e-05 -0.00032258033752441406 0.0349884033203125 0.09333038330078125
18.358 0.1880340576171875 -0.0554351806640625 -0.413299560546875 0.0761260986328125 0.0006117522716522217 -0.0003642141819000244 0.04357147216796875 0.09093475341796875
18.36775 0.18373870849609375 -0.06426239013671875 -0.406646728515625 0.1157684326171875 0.0010318160057067871 -0.00024259090423583984 0.05054473876953125 0.08911895751953125
18.3775 0.1818695068359375 -0.07138824462890625 -0.396881103515625 0.1544342041015625 -0.000742495059967041 -6.493926048278809e-05 0.056427001953125 0.087554931640625
18.38725 0.17859649658203125 -0.0802764892578125 -0.3829345703125 0.1924896240234375 0.0005601346492767334 -0.0007835328578948975 0.0640869140625 0.0863494873046875
18.397 0.173828125 -0.0876922607421875 -0.363037109375 0.230133056640625 0.0008459687232971191 -0.0002905130386352539 0.070770263671875 0.0816497802734375
18.40675 0.1700592041015625 -0.095001220703125 -0.34075927734375 0.2650146484375 0.0004684031009674072 -0.0001093149185180664 0.0782470703125 0.078094482421875
18.4165 0.16504669189453125 -0.10295867919921875 -0.3142852783203125 0.298370361328125 0.0005407631397247314 -0.0009263157844543457 0.0846710205078125 0.0729522705078125
18.42625 0.15947723388671875 -0.108856201171875 -0.2848968505859375 0.3246612548828125 0.0013663768768310547 0.0003516674041748047 0.0901336669921875 0.06806182861328125
18.436 0.1533203125 -0.1147308349609375 -0.2554473876953125 0.3493499755859375 0.0002219676971435547 0.00046265125274658203 0.098175048828125 0.06064605712890625
18.44575 0.14678955078125 -0.12296295166015625 -0.2236785888671875 0.3699188232421875 0.00054168701171875 -0.0010120272636413574 0.10064697265625 0.05539703369140625
18.4555 0.1400299072265625 -0.1269683837890625 -0.1917266845703125 0.3895416259765625 0.00010991096496582031 -0.00042344629764556885 0.1062774658203125 0.04914093017578125
18.46525 0.1345672607421875 -0.134368896484375 -0.159942626953125 0.4083251953125 0.0004355013370513916 -0.0007998943328857422 0.11083984375 0.03992462158203125
18.475 0.12574005126953125 -0.1380157470703125 -0.12335205078125 0.4257354736328125 0.00042492151260375977 -0.0012708306312561035 0.11501312255859375 0.03318023681640625
18.48475 0.121337890625 -0.1458587646484375 -0.0858001708984375 0.4400634765625 0.0013347268104553223 4.988908767700195e-05 0.11705780029296875 0.02445220947265625
18.4945 0.11307525634765625 -0.149444580078125 -0.0445556640625 0.44976806640625 0.00013184547424316406 -0.00181657075881958 0.1227874755859375 0.0162200927734375
18.50425 0.104888916015625 -0.1542205810546875 -0.001922607421875 0.455596923828125 -0.0002480149269104004 0.00032064318656921387 0.121612548828125 0.009307861328125
18.514 0.0982513427734375 -0.1566314697265625 0.041473388671875 0.45355224609375 0.00042998790740966797 -0.0003985166549682617 0.12430572509765625 0.0003204345703125
18.52375 0.08882904052734375 -0.15915679931640625 0.083709716796875 0.4478759765625 0.0013120174407958984 0.00044035911560058594 0.1256866455078125 -0.007049560546875
18.5335 0.083770751953125 -0.1629791259765625 0.123565673828125 0.43853759765625 0.00011625885963439941 -0.0008396804332733154 0.12423324584960938 -0.0150604248046875
18.54325 0.07483673095703125 -0.16553497314453125 0.159912109375 0.42681884765625 -0.0007560551166534424 0.0003261864185333252 0.12181472778320312 -0.02362060546875
18.553 0.06635284423828125 -0.16992950439453125 0.195648193359375 0.411773681640625 0.0008306503295898438 -0.0005070865154266357 0.12075424194335938 -0.03038787841796875
18.56275 0.05957794189453125 -0.16957855224609375 0.228912353515625 0.396942138671875 -5.930662155151367e-05 -0.0008101761341094971 0.11885833740234375 -0.0368499755859375
18.5725 0.0503692626953125 -0.17113494873046875 0.263916015625 0.378387451171875 0.0008720159530639648 -0.0002771317958831787 0.11536026000976562 -0.044963836669921875
18.58225 0.043243408203125 -0.17140960693359375 0.2994384765625 0.3560791015625 -0.0003540217876434326 -0.00020501017570495605 0.1115875244140625 -0.053829193115234375
18.592 0.0338897705078125 -0.1718597412109375 0.33349609375 0.330810546875 0.00040155649185180664 -0.00012287497520446777 0.10602569580078125 -0.06107330322265625
18.60175 0.0262908935546875 -0.1717071533203125 0.3636474609375 0.30145263671875 -0.00013750791549682617 -0.0005159974098205566 0.1012725830078125 -0.06552886962890625
18.6115 0.01929473876953125 -0.1702117919921875 0.389373779296875 0.268585205078125 0.0003163367509841919 -0.0004458427429199219 0.09639358520507812 -0.07369613647460938
18.62125 0.01070404052734375 -0.16973114013671875 0.41156005859375 0.235076904296875 -0.001152336597442627 -7.343292236328125e-05 0.091552734375 -0.07775497436523438
18.631 0.0022125244140625 -0.16851043701171875 0.42901611328125 0.20062255859375 0.0003660619258880615 0.0003100931644439697 0.08508682250976562 -0.08220291137695312
