!Created with skrf (http://scikit-rf.org).
# GHz S RI R 50.0 
!freq ReS11 ImS11 ReS21 ImS21 ReS12 ImS12 ReS22 ImS22
17.5 0.0095367431640625 -0.14312744140625 -0.508270263671875 0.63421630859375 -0.0016201138496398926 0.0019031167030334473 0.099456787109375 0.002666473388671875
17.50975 0.000762939453125 -0.140411376953125 -0.449951171875 0.67095947265625 -0.0016671419143676758 0.0009167194366455078 0.0989837646484375 0.00122833251953125
17.5195 -0.00701141357421875 -0.1353607177734375 -0.388153076171875 0.6990966796875 -0.0016286373138427734 0.00029522180557250977 0.10292816162109375 -0.000278472900390625
17.52925 -0.01569366455078125 -0.1322784423828125 -0.326568603515625 0.724273681640625 -0.0006753504276275635 0.000928729772567749 0.10481643676757812 -0.00537109375
17.539 -0.0221405029296875 -0.1263427734375 -0.26373291015625 0.74163818359375 -0.0024874210357666016 -6.580352783203125e-05 0.107452392578125 -0.00814056396484375
17.54875 -0.030181884765625 -0.1228485107421875 -0.202178955078125 0.7528076171875 -0.0006087422370910645 0.001260221004486084 0.1083526611328125 -0.01033782958984375
17.5585 -0.041107177734375 -0.11883544921875 -0.140838623046875 0.763275146484375 -0.0009750723838806152 0.0009940266609191895 0.10976028442382812 -0.01390838623046875
17.56825 -0.04557037353515625 -0.11334991455078125 -0.08172607421875 0.76605224609375 -0.0007976293563842773 -0.00037026405334472656 0.11206436157226562 -0.017330169677734375
17.578 -0.05344390869140625 -0.1080169677734375 -0.01885986328125 0.765350341796875 -0.0002815723419189453 0.0003224611282348633 0.112060546875 -0.02324676513671875
17.58775 -0.05872344970703125 -0.10387420654296875 0.043487548828125 0.758331298828125 -0.0011659860610961914 0.0013944506645202637 0.1145172119140625 -0.02581787109375
17.5975 -0.0626068115234375 -0.09740447998046875 0.106201171875 0.747222900390625 -0.0012039542198181152 0.0013498663902282715 0.11505508422851562 -0.029834747314453125
17.60725 -0.0682373046875 -0.091278076171875 0.165679931640625 0.7275390625 -0.0007169246673583984 0.0010393261909484863 0.1142730712890625 -0.034671783447265625
17.617 -0.07334136962890625 -0.0839385986328125 0.221466064453125 0.703765869140625 -0.0003914088010787964 0.00011618435382843018 0.1148834228515625 -0.038524627685546875
17.62675 -0.0781402587890625 -0.0775604248046875 0.271026611328125 0.67376708984375 -0.0006656050682067871 0.0012217164039611816 0.114654541015625 -0.041095733642578125
17.6365 -0.0826263427734375 -0.0704498291015625 0.3175048828125 0.64019775390625 -0.0001533031463623047 0.001232743263244629 0.11351776123046875 -0.04718017578125
17.64625 -0.08599853515625 -0.06317901611328125 0.3577880859375 0.60882568359375 -0.0001977086067199707 0.0013041496276855469 0.10991287231445312 -0.051387786865234375
17.656 -0.08943939208984375 -0.0559234619140625 0.394439697265625 0.57562255859375 -0.0001684427261352539 0.0013812780380249023 0.10928726196289062 -0.0565643310546875
17.66575 -0.0913543701171875 -0.04726409912109375 0.43023681640625 0.546112060546875 -0.0005431175231933594 0.0011786818504333496 0.10850906372070312 -0.060894012451171875
17.6755 -0.09515380859375 -0.04048919677734375 0.464141845703125 0.511199951171875 0.0001246631145477295 0.0003864467144012451 0.1033782958984375 -0.06560516357421875
17.68525 -0.09622955322265625 -0.03099822998046875 0.498565673828125 0.4766845703125 0.00018978118896484375 0.0013415217399597168 0.10170745849609375 -0.07030487060546875
17.695 -0.0981903076171875 -0.024200439453125 0.531494140625 0.438323974609375 -0.0006119608879089355 0.0002945065498352051 0.09876632690429688 -0.07422637939453125
17.70475 -0.09889984130859375 -0.01483154296875 0.5633544921875 0.3927001953125 0.00011348724365234375 0.0012256503105163574 0.09668350219726562 -0.07767486572265625
17.7145 -0.10097503662109375 -0.00713348388671875 0.59063720703125 0.34332275390625 -0.0008829832077026367 0.002001643180847168 0.09039688110351562 -0.08205795288085938
17.72425 -0.10090255737304688 0.001678466796875 0.60858154296875 0.290863037109375 -0.0003534555435180664 0.0021338462829589844 0.08744049072265625 -0.08711624145507812
17.734 -0.10175323486328125 0.0086669921875 0.620361328125 0.23931884765625 -0.00039690732955932617 0.0005494952201843262 0.08331298828125 -0.09111785888671875
17.74375 -0.10223388671875 0.01541900634765625 0.62359619140625 0.18896484375 -0.00046312808990478516 0.0013451576232910156 0.07863616943359375 -0.09587860107421875
17.7535 -0.10101699829101562 0.022586822509765625 0.6258544921875 0.14520263671875 0.0005920529365539551 1.7970800399780273e-05 0.074462890625 -0.09853744506835938
17.76325 -0.09847259521484375 0.03150177001953125 0.626251220703125 0.102752685546875 -0.00017213821411132812 0.0010203719139099121 0.06818389892578125 -0.09967422485351562
17.773 -0.095703125 0.038188934326171875 0.625640869140625 0.065093994140625 1.8090009689331055e-05 -0.0005794167518615723 0.06518936157226562 -0.10232162475585938
17.78275 -0.09514236450195312 0.045391082763671875 0.6231689453125 0.02484130859375 -0.0008063316345214844 0.0010314583778381348 0.059444427490234375 -0.10333633422851562
17.7925 -0.09222412109375 0.051334381103515625 0.62200927734375 -0.014892578125 0.000744938850402832 0.0014429092407226562 0.053951263427734375 -0.10614776611328125
17.80225 -0.08914566040039062 0.0601654052734375 0.6180419921875 -0.056671142578125 0.00020682811737060547 0.001850128173828125 0.050724029541015625 -0.10708999633789062
17.812 -0.08423233032226562 0.06669998168945312 0.61260986328125 -0.0989990234375 0.0009145736694335938 0.001488804817199707 0.044376373291015625 -0.10805130004882812
17.82175 -0.08056259155273438 0.07442092895507812 0.600860595703125 -0.141510009765625 -0.0006306469440460205 0.0001741945743560791 0.037616729736328125 -0.10757827758789062
17.8315 -0.07806777954101562 0.08160781860351562 0.584747314453125 -0.182861328125 0.0015425682067871094 0.0009652376174926758 0.03199005126953125 -0.10820388793945312
17.84125 -0.072418212890625 0.08702850341796875 0.56646728515625 -0.2200927734375 0.00031387805938720703 0.0013860464096069336 0.02614593505859375 -0.10819244384765625
17.851 -0.067291259765625 0.09333038330078125 0.54315185546875 -0.254486083984375 9.846687316894531e-05 0.0012292861938476562 0.0214996337890625 -0.10876083374023438
17.86075 -0.06377792358398438 0.09783172607421875 0.521820068359375 -0.285369873046875 0.0004303455352783203 0.0016498565673828125 0.016448974609375 -0.10716629028320312
17.8705 -0.058624267578125 0.10422515869140625 0.49993896484375 -0.312225341796875 0.0002573728561401367 0.0012938976287841797 0.010021209716796875 -0.10628890991210938
17.88025 -0.052989959716796875 0.11023712158203125 0.4792938232421875 -0.33917236328125 0.00014574825763702393 -0.00042062997817993164 0.00339508056640625 -0.10521697998046875
17.89 -0.046558380126953125 0.115386962890625 0.458160400390625 -0.36767578125 0.0005840063095092773 0.00031372904777526855 0.0002288818359375 -0.10438919067382812
17.89975 -0.041431427001953125 0.11915206909179688 0.4360504150390625 -0.3935546875 -0.0004296302795410156 0.0013352632522583008 -0.00574493408203125 -0.10313796997070312
17.9095 -0.0360107421875 0.12371826171875 0.413330078125 -0.42315673828125 0.0004152059555053711 0.001378774642944336 -0.012363433837890625 -0.10198593139648438
17.91925 -0.02854156494140625 0.12691497802734375 0.38519287109375 -0.4480743408203125 0.0006974935531616211 0.0020226240158081055 -0.015689849853515625 -0.09958648681640625
17.929 -0.0234527587890625 0.1294097900390625 0.356658935546875 -0.474853515625 -3.4570693969726562e-06 0.0013473033905029297 -0.02216339111328125 -0.0984954833984375
17.93875 -0.0151824951171875 0.13205718994140625 0.3254241943359375 -0.4945526123046875 0.0008342862129211426 -0.0001266002655029297 -0.02593231201171875 -0.09522247314453125
17.9485 -0.009124755859375 0.13492584228515625 0.29425048828125 -0.51361083984375 0.00020492076873779297 0.0025480985641479492 -0.03052520751953125 -0.09079360961914062
17.95825 -0.00330352783203125 0.138214111328125 0.2645263671875 -0.52703857421875 0.0008242130279541016 0.0014661550521850586 -0.032741546630859375 -0.0877227783203125
17.968 0.0054779052734375 0.13938140869140625 0.234588623046875 -0.5438232421875 -0.0012044310569763184 0.0003209710121154785 -0.03867340087890625 -0.08708953857421875
17.97775 0.013275146484375 0.13915252685546875 0.206634521484375 -0.557861328125 0.00186920166015625 0.0007371902465820312 -0.0426025390625 -0.08108901977539062
17.9875 0.0209503173828125 0.14202880859375 0.175567626953125 -0.57574462890625 0.001688241958618164 0.0011637210845947266 -0.04593658447265625 -0.0766143798828125
17.99725 0.02780914306640625 0.14334869384765625 0.1436767578125 -0.59197998046875 0.0011081099510192871 0.0003495216369628906 -0.05069732666015625 -0.073150634765625
18.007 0.03578948974609375 0.143798828125 0.109893798828125 -0.6082763671875 0.0008510947227478027 0.0003249645233154297 -0.05481719970703125 -0.06810760498046875
18.01675 0.0436859130859375 0.1427154541015625 0.0718994140625 -0.6229248046875 0.0010610222816467285 -0.0005258917808532715 -0.057277679443359375 -0.06396102905273438
18.0265 0.0503387451171875 0.14337158203125 0.02972412109375 -0.634765625 0.0016558170318603516 0.0007069110870361328 -0.06284332275390625 -0.0582427978515625
18.03625 0.0594024658203125 0.14453125 -0.01202392578125 -0.64404296875 0.0003771185874938965 0.00028955936431884766 -0.06388092041015625 -0.05315399169921875
18.046 0.06610870361328125 0.14340972900390625 -0.05621337890625 -0.649200439453125 0.00023484230041503906 0.0016686320304870605 -0.06601715087890625 -0.0475311279296875
18.05575 0.07367706298828125 0.140960693359375 -0.099853515625 -0.652069091796875 0.0009951591491699219 -4.70280647277832e-05 -0.06976318359375 -0.043743133544921875
18.0655 0.0813751220703125 0.13961029052734375 -0.142547607421875 -0.651702880859375 0.0006586909294128418 -0.0002880692481994629 -0.0732421875 -0.03807830810546875
18.07525 0.08841705322265625 0.1369476318359375 -0.187408447265625 -0.650726318359375 0.0005194246768951416 -0.00029015541076660156 -0.07527542114257812 -0.0305938720703125
18.085 0.09540557861328125 0.13527679443359375 -0.23419189453125 -0.647308349609375 0.0010794401168823242 0.0005099177360534668 -0.0766448974609375 -0.02696990966796875
18.09475 0.1025543212890625 0.13250732421875 -0.281982421875 -0.643096923828125 0.0015673637390136719 -0.0007843971252441406 -0.07468414306640625 -0.021236419677734375
18.1045 0.110382080078125 0.12754058837890625 -0.33154296875 -0.633544921875 0.00044664740562438965 0.0004216134548187256 -0.07664108276367188 -0.01444244384765625
18.11425 0.1170196533203125 0.12677764892578125 -0.38531494140625 -0.61920166015625 0.00024014711380004883 -0.0011306405067443848 -0.075714111328125 -0.007781982421875
18.124 0.1216583251953125 0.1213531494140625 -0.4388427734375 -0.6005859375 0.0008802413940429688 -0.0009881258010864258 -0.07666015625 -0.0012969970703125
18.13375 0.1287384033203125 0.11650848388671875 -0.4913330078125 -0.5751953125 0.0010533332824707031 -0.00030499696731567383 -0.07599639892578125 0.004863739013671875
18.1435 0.13500213623046875 0.111663818359375 -0.53973388671875 -0.54351806640625 0.0011766552925109863 -0.0010924935340881348 -0.07546234130859375 0.013294219970703125
18.15325 0.14183807373046875 0.1056671142578125 -0.589111328125 -0.5074462890625 0.0012223124504089355 2.5033950805664062e-05 -0.07551956176757812 0.01812744140625
18.163 0.1473846435546875 0.0994110107421875 -0.63623046875 -0.46832275390625 0.0016630291938781738 -0.00020897388458251953 -0.072723388671875 0.02564239501953125
18.17275 0.1531982421875 0.0948486328125 -0.67987060546875 -0.4246826171875 0.00018271058797836304 -1.1056661605834961e-05 -0.06941604614257812 0.031612396240234375
18.1825 0.1591949462890625 0.087890625 -0.72222900390625 -0.376953125 0.00020056962966918945 0.0005224645137786865 -0.06647491455078125 0.03948211669921875
18.19225 0.16332244873046875 0.08223724365234375 -0.76409912109375 -0.3253173828125 -3.5919249057769775e-05 -0.00015900284051895142 -0.0643768310546875 0.04412078857421875
18.202 0.1693878173828125 0.07614898681640625 -0.8011474609375 -0.2685546875 0.0011873245239257812 0.0011870861053466797 -0.06267547607421875 0.050140380859375
18.21175 0.17333984375 0.0688018798828125 -0.8304443359375 -0.2015380859375 0.0006383061408996582 -0.00045228004455566406 -0.0570526123046875 0.057147979736328125
18.2215 0.17871856689453125 0.06131744384765625 -0.85546875 -0.1358642578125 8.210539817810059e-05 0.0007968544960021973 -0.05248451232910156 0.06121635437011719
18.23125 0.18201446533203125 0.053985595703125 -0.8740234375 -0.065155029296875 0.0006486773490905762 -0.0013458728790283203 -0.049602508544921875 0.064361572265625
18.241 0.18482208251953125 0.04607391357421875 -0.8839111328125 0.006805419921875 0.00027108192443847656 -0.0005448758602142334 -0.043121337890625 0.0695037841796875
18.25075 0.1873931884765625 0.03768157958984375 -0.887451171875 0.07794189453125 -0.00017940998077392578 -0.00029152631759643555 -0.038055419921875 0.07468795776367188
18.2605 0.1878509521484375 0.031341552734375 -0.886749267578125 0.15008544921875 0.0012655258178710938 -0.0009356141090393066 -0.03151702880859375 0.0776214599609375
18.27025 0.1912689208984375 0.022064208984375 -0.88214111328125 0.22216796875 0.0003555417060852051 -0.0009657144546508789 -0.02562713623046875 0.0836029052734375
18.28 0.192657470703125 0.013153076171875 -0.87139892578125 0.298980712890625 -0.0008018612861633301 -0.0006746053695678711 -0.019695281982421875 0.0851898193359375
18.28975 0.19419097900390625 0.0034942626953125 -0.852264404296875 0.3729248046875 0.0016381144523620605 -0.0008985996246337891 -0.01128387451171875 0.088134765625
18.2995 0.19480133056640625 -0.0031890869140625 -0.825836181640625 0.447113037109375 0.00025127828121185303 -1.239776611328125e-05 -0.004322052001953125 0.08927154541015625
18.30925 0.193359375 -0.01373291015625 -0.78985595703125 0.5213623046875 0.000908195972442627 -0.00015282630920410156 0.0035247802734375 0.09047698974609375
18.319 0.19229888916015625 -0.02263641357421875 -0.74658203125 0.5908203125 0.000186920166015625 0.0002043396234512329 0.010288238525390625 0.09479522705078125
18.32875 0.19134521484375 -0.0290679931640625 -0.697784423828125 0.651824951171875 -0.0005078911781311035 -0.000515282154083252 0.020557403564453125 0.09297943115234375
18.3385 0.190277099609375 -0.0399322509765625 -0.64208984375 0.70867919921875 0.0015187859535217285 -0.00020116567611694336 0.0276641845703125 0.09526443481445312
18.34825 0.19042205810546875 -0.0485076904296875 -0.586029052734375 0.763153076171875 0.0005421340465545654 0.00032782554626464844 0.03446197509765625 0.0951690673828125
18.358 0.1886749267578125 -0.0562286376953125 -0.527984619140625 0.810333251953125 0.00019434094429016113 -0.0005472302436828613 0.043792724609375 0.09297943115234375
18.36775 0.18503570556640625 -0.06529998779296875 -0.4632568359375 0.85589599609375 5.389750003814697e-05 0.0002005547285079956 0.05084991455078125 0.0909271240234375
18.3775 0.1814117431640625 -0.0721893310546875 -0.397979736328125 0.8975830078125 0.0003472268581390381 -0.0005559921264648438 0.057098388671875 0.08881378173828125
18.38725 0.17969512939453125 -0.0813751220703125 -0.322296142578125 0.934417724609375 -6.22868537902832e-05 -0.00013474375009536743 0.06435394287109375 0.0871124267578125
18.397 0.1761474609375 -0.088897705078125 -0.2423095703125 0.96295166015625 0.0006173849105834961 0.0007251501083374023 0.0707855224609375 0.084075927734375
18.40675 0.1706085205078125 -0.0960540771484375 -0.15936279296875 0.984619140625 0.0006918907165527344 -0.0003324747085571289 0.0794830322265625 0.0795745849609375
18.4165 0.164794921875 -0.1028900146484375 -0.076324462890625 0.993377685546875 0.0004300624132156372 -0.00026875734329223633 0.084686279296875 0.074951171875
18.42625 0.1602020263671875 -0.11057281494140625 0.005645751953125 0.994110107421875 0.0004546940326690674 -0.0001945197582244873 0.09134674072265625 0.06890106201171875
18.436 0.15258026123046875 -0.1162109375 0.08270263671875 0.9869384765625 0.000482410192489624 -0.0005048811435699463 0.0988922119140625 0.06401824951171875
18.44575 0.14740753173828125 -0.12377166748046875 0.159423828125 0.9788818359375 0.00022530555725097656 -0.0012696385383605957 0.1026458740234375 0.0573272705078125
18.4555 0.14138031005859375 -0.12870025634765625 0.23193359375 0.96527099609375 6.727874279022217e-05 0.00019855797290802002 0.107330322265625 0.05167388916015625
18.46525 0.13417816162109375 -0.1357269287109375 0.3067626953125 0.9530029296875 0.00045031309127807617 0.0008097290992736816 0.11180877685546875 0.04035186767578125
18.475 0.12593841552734375 -0.14003753662109375 0.3819580078125 0.93438720703125 0.0008640885353088379 0.00029754638671875 0.11590576171875 0.03546142578125
18.48475 0.1209259033203125 -0.14640045166015625 0.46051025390625 0.906494140625 -3.081560134887695e-05 -0.0007397830486297607 0.1192626953125 0.0269775390625
18.4945 0.11127471923828125 -0.1502532958984375 0.53814697265625 0.8668212890625 0.0002523660659790039 0.00027573108673095703 0.12300872802734375 0.0171356201171875
18.50425 0.1036376953125 -0.155120849609375 0.6107177734375 0.819091796875 0.0001049041748046875 0.0005283951759338379 0.1234283447265625 0.009613037109375
18.514 0.0976104736328125 -0.158843994140625 0.6776123046875 0.766357421875 -0.0003911256790161133 0.00020107626914978027 0.12622833251953125 0.00127410888671875
18.52375 0.08777618408203125 -0.15946197509765625 0.735595703125 0.7042236328125 0.0004286766052246094 -0.0006573498249053955 0.12494277954101562 -0.00681304931640625
18.5335 0.08184051513671875 -0.163421630859375 0.78411865234375 0.64215087890625 -0.00012236833572387695 -0.0009530186653137207 0.1262054443359375 -0.01520538330078125
18.54325 0.0739593505859375 -0.1663665771484375 0.82781982421875 0.5823974609375 -0.00013265013694763184 -0.000383526086807251 0.12476730346679688 -0.023395538330078125
18.553 0.06591033935546875 -0.16928863525390625 0.86700439453125 0.51690673828125 0.0005593597888946533 -0.0009747147560119629 0.12206268310546875 -0.030529022216796875
18.56275 0.05702972412109375 -0.168853759765625 0.90692138671875 0.4542236328125 0.0008337199687957764 2.9921531677246094e-05 0.1204986572265625 -0.0379180908203125
18.5725 0.04950714111328125 -0.17092132568359375 0.941650390625 0.38616943359375 0.0012784004211425781 -0.0007122159004211426 0.11666488647460938 -0.04712677001953125
18.58225 0.04071044921875 -0.1717529296875 0.97357177734375 0.31353759765625 0.00019466876983642578 -0.0006839632987976074 0.11406707763671875 -0.053424835205078125
18.592 0.0331878662109375 -0.1722412109375 1.00006103515625 0.235595703125 0.0007486939430236816 -5.9157609939575195e-05 0.1084747314453125 -0.059940338134765625
18.60175 0.025848388671875 -0.171051025390625 1.02001953125 0.1536865234375 0.0007078051567077637 -0.0004787445068359375 0.1042327880859375 -0.0659027099609375
18.6115 0.017669677734375 -0.17053985595703125 1.0245361328125 0.07147216796875 -7.037818431854248e-05 -0.0004121065139770508 0.09860610961914062 -0.07367706298828125
18.62125 0.00916290283203125 -0.16983795166015625 1.025390625 -0.00836181640625 -5.614757537841797e-05 -0.0013151764869689941 0.09301376342773438 -0.07841110229492188
18.631 0.0013580322265625 -0.16790008544921875 1.01922607421875 -0.0806884765625 9.606033563613892e-05 5.204230546951294e-05 0.087738037109375 -0.0831451416015625
18.64075 -0.00582122802734375 -0.16748046875 1.00592041015625 -0.153076171875 0.0006410479545593262 -0.00019502639770507812 0.08227920532226562 -0.08794403076171875
18.6505 -0.0136566162109375 -0.16512298583984375 0.9931640625 -0.223846435546875 0.0003059208393096924 -0.0006265938282012939 0.07505416870117188 -0.09169387817382812
