!Created with skrf (http://scikit-rf.org).
# GHz S RI R 50.0 
!freq ReS11 ImS11 ReS21 ImS21 ReS12 ImS12 ReS22 ImS22
17.5 0.01177978515625 -0.14080047607421875 -1.4166259765625 1.66717529296875 -0.0019224882125854492 0.00034368038177490234 0.093414306640625 0.004940032958984375
17.50975 0.0026702880859375 -0.13826751708984375 -1.27392578125 1.77337646484375 -0.0014705061912536621 0.0009196996688842773 0.0964202880859375 0.00310516357421875
17.5195 -0.00426483154296875 -0.13360595703125 -1.1201171875 1.8629150390625 -0.0022410154342651367 0.0011619329452514648 0.1005859375 0.00194549560546875
17.52925 -0.01323699951171875 -0.12939453125 -0.96484375 1.94140625 -0.0017385482788085938 0.001110374927520752 0.10204315185546875 -0.000640869140625
17.539 -0.0193939208984375 -0.12530517578125 -0.8095703125 2.00341796875 -0.0026466846466064453 0.00047516822814941406 0.1035614013671875 -0.00513458251953125
17.54875 -0.02812957763671875 -0.12342071533203125 -0.6470947265625 2.0482177734375 -0.002158641815185547 0.0010800361633300781 0.10600662231445312 -0.0069122314453125
17.5585 -0.0366668701171875 -0.11791229248046875 -0.48828125 2.089111328125 -0.0006503462791442871 0.0006743967533111572 0.11005020141601562 -0.0125732421875
17.56825 -0.04190826416015625 -0.1141204833984375 -0.3311767578125 2.115966796875 -0.00010919570922851562 0.0010675787925720215 0.10969924926757812 -0.01373291015625
17.578 -0.04911041259765625 -0.10822296142578125 -0.1639404296875 2.137451171875 -0.00184553861618042 0.0010933279991149902 0.11175918579101562 -0.017547607421875
17.58775 -0.05538177490234375 -0.10289764404296875 0.0093994140625 2.1387939453125 -0.00013238191604614258 0.0006950497627258301 0.11292648315429688 -0.022800445556640625
17.5975 -0.06005096435546875 -0.097198486328125 0.1861572265625 2.127685546875 -0.0018023848533630371 0.001248478889465332 0.1146087646484375 -0.02626800537109375
17.60725 -0.0656890869140625 -0.0931396484375 0.357177734375 2.096435546875 -0.0015496611595153809 0.0008388757705688477 0.11323928833007812 -0.02922821044921875
17.617 -0.0709381103515625 -0.08431243896484375 0.5208740234375 2.0455322265625 -0.0011286735534667969 0.0018410682678222656 0.11507797241210938 -0.035045623779296875
17.62675 -0.07526397705078125 -0.078521728515625 0.67333984375 1.982177734375 -0.0011156201362609863 0.00047093629837036133 0.11522293090820312 -0.037502288818359375
17.6365 -0.0782012939453125 -0.0712738037109375 0.8154296875 1.906982421875 -0.00151824951171875 0.0006278753280639648 0.1145477294921875 -0.0445556640625
17.64625 -0.08213043212890625 -0.06313323974609375 0.939208984375 1.82861328125 -0.0005787014961242676 0.0011870861053466797 0.11157989501953125 -0.047962188720703125
17.656 -0.08660125732421875 -0.05643463134765625 1.0611572265625 1.75341796875 -0.001605689525604248 0.0014836788177490234 0.1085052490234375 -0.05326080322265625
17.66575 -0.08882904052734375 -0.0481719970703125 1.177978515625 1.675537109375 -0.00047403573989868164 0.0013923048973083496 0.11057662963867188 -0.057483673095703125
17.6755 -0.09261322021484375 -0.0419921875 1.291015625 1.5904541015625 -0.001391291618347168 0.00013881921768188477 0.10644149780273438 -0.06371688842773438
17.68525 -0.095703125 -0.03449249267578125 1.41162109375 1.505126953125 -0.00010070204734802246 0.0006347298622131348 0.10329818725585938 -0.0675506591796875
17.695 -0.09484100341796875 -0.025119781494140625 1.53125 1.3994140625 -0.0003269314765930176 0.0016086697578430176 0.10128021240234375 -0.0720977783203125
17.70475 -0.09692764282226562 -0.017108917236328125 1.6435546875 1.273681640625 -0.00032913684844970703 0.002045154571533203 0.09685897827148438 -0.07491302490234375
17.7145 -0.099456787109375 -0.00962066650390625 1.7484130859375 1.1343994140625 -0.0014728307723999023 0.0019898414611816406 0.093994140625 -0.08010482788085938
17.72425 -0.09905242919921875 -0.001132965087890625 1.8289794921875 0.9801025390625 -0.0008144378662109375 0.0007452666759490967 0.09027099609375 -0.08401870727539062
17.734 -0.09975814819335938 0.00463104248046875 1.8883056640625 0.8226318359375 -8.14199447631836e-05 0.0006649196147918701 0.08640289306640625 -0.08900070190429688
17.74375 -0.10003662109375 0.01177978515625 1.921875 0.667236328125 -0.0006827116012573242 0.0019593238830566406 0.082000732421875 -0.0930328369140625
17.7535 -0.09923553466796875 0.02024078369140625 1.947998046875 0.5235595703125 -6.324052810668945e-05 0.0011909008026123047 0.07841873168945312 -0.09865951538085938
17.76325 -0.0983428955078125 0.0274200439453125 1.9681396484375 0.3895263671875 0.0002573728561401367 0.0020869970321655273 0.07194900512695312 -0.0977783203125
17.773 -0.09645843505859375 0.035083770751953125 1.98095703125 0.2611083984375 0.00030922889709472656 0.0008332133293151855 0.06828689575195312 -0.10034561157226562
17.78275 -0.09376907348632812 0.043178558349609375 1.9910888671875 0.126220703125 -0.00030028820037841797 0.0008629858493804932 0.062469482421875 -0.10232162475585938
17.7925 -0.09227752685546875 0.048595428466796875 2.004150390625 -0.0120849609375 0.00098419189453125 0.002171039581298828 0.058864593505859375 -0.10636520385742188
17.80225 -0.08813858032226562 0.055950164794921875 2.00927734375 -0.160400390625 -0.00012230873107910156 0.001013636589050293 0.053623199462890625 -0.10692214965820312
17.812 -0.08521270751953125 0.06258010864257812 2.001953125 -0.3143310546875 -0.0012020468711853027 0.00048476457595825195 0.0467529296875 -0.10759353637695312
17.82175 -0.08245086669921875 0.07021331787109375 1.97381591796875 -0.470947265625 0.00023877620697021484 0.0007687211036682129 0.0428314208984375 -0.1080322265625
17.8315 -0.07940292358398438 0.07667160034179688 1.93194580078125 -0.6241455078125 6.401538848876953e-05 0.0006214678287506104 0.036952972412109375 -0.1092529296875
17.84125 -0.07413482666015625 0.083648681640625 1.87353515625 -0.7672119140625 0.0008585453033447266 0.0014469623565673828 0.03069305419921875 -0.11043548583984375
17.851 -0.0688018798828125 0.09085845947265625 1.79315185546875 -0.90069580078125 0.0002995133399963379 0.0002814829349517822 0.026462554931640625 -0.10934829711914062
17.86075 -0.0651092529296875 0.09455490112304688 1.72021484375 -1.0186767578125 0.000865936279296875 0.0019366741180419922 0.019336700439453125 -0.10796356201171875
17.8705 -0.061004638671875 0.10024642944335938 1.64019775390625 -1.13067626953125 -8.016079664230347e-05 2.060830593109131e-05 0.0135650634765625 -0.11036300659179688
17.88025 -0.054988861083984375 0.10765457153320312 1.5594482421875 -1.2349853515625 -0.00010859966278076172 0.0015732049942016602 0.00714111328125 -0.10984420776367188
17.89 -0.04961395263671875 0.11301803588867188 1.48004150390625 -1.3426513671875 0.00038164854049682617 0.0007680058479309082 0.001781463623046875 -0.10806655883789062
17.89975 -0.04387664794921875 0.11632919311523438 1.386474609375 -1.4534912109375 0.0011156201362609863 0.0006897449493408203 -0.003021240234375 -0.1059722900390625
17.9095 -0.03867340087890625 0.12293243408203125 1.2850341796875 -1.56146240234375 0.00032591819763183594 0.0008090734481811523 -0.008098602294921875 -0.10454940795898438
17.91925 -0.0327606201171875 0.1251068115234375 1.16845703125 -1.6610107421875 0.00022393465042114258 0.00037729740142822266 -0.013889312744140625 -0.10295486450195312
17.929 -0.0263824462890625 0.1294708251953125 1.04443359375 -1.7525634765625 0.000179290771484375 -0.0013284683227539062 -0.020660400390625 -0.10112762451171875
17.93875 -0.0198211669921875 0.13227081298828125 0.90557861328125 -1.8245849609375 0.00012695789337158203 0.001331329345703125 -0.02478790283203125 -0.09849929809570312
17.9485 -0.01181793212890625 0.13515472412109375 0.76715087890625 -1.882568359375 0.001399993896484375 0.0020903348922729492 -0.0291290283203125 -0.09462738037109375
17.95825 -0.00551605224609375 0.1375579833984375 0.6292724609375 -1.93206787109375 0.0014340877532958984 0.00017786026000976562 -0.031040191650390625 -0.09247207641601562
17.968 0.0013275146484375 0.141021728515625 0.4952392578125 -1.97015380859375 -0.0002519190311431885 0.0009382963180541992 -0.0373687744140625 -0.09002685546875
17.97775 0.00908660888671875 0.13999176025390625 0.3616943359375 -1.99755859375 -0.0001640915870666504 0.0016390085220336914 -0.04357147216796875 -0.0838775634765625
17.9875 0.017791748046875 0.14275360107421875 0.2225341796875 -2.0296630859375 0.00027507543563842773 0.0007401108741760254 -0.04651641845703125 -0.08165740966796875
17.99725 0.02483367919921875 0.14360809326171875 0.08154296875 -2.0572509765625 0.0018587112426757812 0.0006529092788696289 -0.05141448974609375 -0.0774078369140625
18.007 0.033477783203125 0.14510345458984375 -0.067626953125 -2.07568359375 0.00032830238342285156 0.0007128119468688965 -0.05440521240234375 -0.072662353515625
18.01675 0.04015350341796875 0.14475250244140625 -0.2265625 -2.08056640625 0.0017126798629760742 0.0006830692291259766 -0.05902099609375 -0.06797027587890625
18.0265 0.0482025146484375 0.14581298828125 -0.3876953125 -2.07421875 0.000621795654296875 0.0008178949356079102 -0.062652587890625 -0.063201904296875
18.03625 0.0562286376953125 0.1470184326171875 -0.55029296875 -2.043212890625 0.0005882978439331055 0.0009887218475341797 -0.06665802001953125 -0.0587615966796875
18.046 0.06276702880859375 0.14524078369140625 -0.7110595703125 -2.00244140625 0.00015750527381896973 0.0008085668087005615 -0.06848526000976562 -0.050975799560546875
18.05575 0.0710906982421875 0.14298248291015625 -0.85546875 -1.9444580078125 0.0009172558784484863 0.0007924437522888184 -0.0728607177734375 -0.047031402587890625
18.0655 0.07845306396484375 0.1434326171875 -0.9945068359375 -1.8804931640625 0.0013151764869689941 5.614757537841797e-05 -0.07561492919921875 -0.040416717529296875
18.07525 0.08580780029296875 0.14031982421875 -1.1304931640625 -1.808837890625 0.001228630542755127 0.00019723176956176758 -0.07800674438476562 -0.034442901611328125
18.085 0.09381103515625 0.13784027099609375 -1.2691650390625 -1.7325439453125 0.00022710859775543213 0.0001275390386581421 -0.08060836791992188 -0.029636383056640625
18.09475 0.1014251708984375 0.1344757080078125 -1.4010009765625 -1.6456298828125 0.0004200786352157593 -0.0003513544797897339 -0.07922744750976562 -0.022663116455078125
18.1045 0.11038970947265625 0.13167572021484375 -1.5302734375 -1.55029296875 0.001059889793395996 0.0016252994537353516 -0.08075332641601562 -0.016384124755859375
18.11425 0.1159210205078125 0.12924957275390625 -1.65673828125 -1.4365234375 0.0012545585632324219 0.0007063150405883789 -0.08082962036132812 -0.01165008544921875
18.124 0.121612548828125 0.12457275390625 -1.774169921875 -1.31298828125 0.000982522964477539 -0.00025343894958496094 -0.079010009765625 -0.0020904541015625
18.13375 0.1292877197265625 0.1200103759765625 -1.8814697265625 -1.181640625 0.0010251402854919434 0.00027316808700561523 -0.0789031982421875 0.0029754638671875
18.1435 0.134613037109375 0.1138763427734375 -1.975830078125 -1.0361328125 0.0003950446844100952 -0.00024062395095825195 -0.07986831665039062 0.011226654052734375
18.15325 0.14251708984375 0.1094207763671875 -2.0604248046875 -0.8812255859375 0.0010213851928710938 -0.0011077523231506348 -0.08004379272460938 0.016757965087890625
18.163 0.14984130859375 0.103363037109375 -2.128662109375 -0.724853515625 0.00031828880310058594 0.00027871131896972656 -0.07790756225585938 0.024730682373046875
18.17275 0.154571533203125 0.098480224609375 -2.1864013671875 -0.5609130859375 0.0004893839359283447 4.89652156829834e-05 -0.07363128662109375 0.0314483642578125
18.1825 0.1612701416015625 0.0911712646484375 -2.23974609375 -0.39697265625 0.0005208849906921387 0.0010589361190795898 -0.071746826171875 0.039737701416015625
18.19225 0.1655120849609375 0.0842132568359375 -2.2843017578125 -0.2216796875 0.0001557469367980957 -0.0009905695915222168 -0.0688629150390625 0.046726226806640625
18.202 0.17147064208984375 0.0777130126953125 -2.3087158203125 -0.0438232421875 -0.00029775500297546387 -0.0005666911602020264 -0.0667724609375 0.052082061767578125
18.21175 0.176055908203125 0.072052001953125 -2.316650390625 0.144775390625 -0.0010379552841186523 -0.0003587007522583008 -0.06189727783203125 0.059268951416015625
18.2215 0.1805419921875 0.06319427490234375 -2.30517578125 0.3355712890625 1.919269561767578e-05 0.0006919801235198975 -0.055744171142578125 0.06443405151367188
18.23125 0.18582916259765625 0.055999755859375 -2.2763671875 0.51708984375 6.748735904693604e-05 -0.0002563595771789551 -0.054203033447265625 0.06724166870117188
18.241 0.18843841552734375 0.0479278564453125 -2.228271484375 0.696044921875 0.00042700767517089844 -0.000431939959526062 -0.047748565673828125 0.07167434692382812
18.25075 0.18979644775390625 0.03897857666015625 -2.170654296875 0.86669921875 -0.0006067156791687012 -0.0009130239486694336 -0.041839599609375 0.07720184326171875
18.2605 0.1917572021484375 0.032012939453125 -2.10302734375 1.0316162109375 -8.013099431991577e-05 0.00010239705443382263 -0.0355377197265625 0.08140182495117188
18.27025 0.19432830810546875 0.02303314208984375 -2.0245361328125 1.19580078125 0.00041969120502471924 -0.00013622641563415527 -0.0296783447265625 0.08713531494140625
18.28 0.19628143310546875 0.01325225830078125 -1.93695068359375 1.36016845703125 -0.00035941600799560547 -0.000887453556060791 -0.021511077880859375 0.08840560913085938
18.28975 0.19834136962890625 0.00458526611328125 -1.83624267578125 1.51763916015625 0.000564873218536377 -4.363059997558594e-05 -0.01473236083984375 0.09312057495117188
18.2995 0.197296142578125 -0.00414276123046875 -1.71221923828125 1.6695556640625 0.0007401108741760254 0.00012981891632080078 -0.006839752197265625 0.09251022338867188
18.30925 0.1982269287109375 -0.01422119140625 -1.5687255859375 1.8115234375 -0.00021219253540039062 -0.0006576180458068848 0.00235748291015625 0.09503936767578125
18.319 0.1966400146484375 -0.02349090576171875 -1.4144287109375 1.934814453125 -0.00027701258659362793 -0.00048291683197021484 0.009098052978515625 0.09949493408203125
18.32875 0.19525146484375 -0.030517578125 -1.253662109375 2.036376953125 3.46451997756958e-05 0.00014353543519973755 0.017791748046875 0.098236083984375
18.3385 0.1940460205078125 -0.0418701171875 -1.0849609375 2.1226806640625 0.0009265542030334473 7.849931716918945e-05 0.026767730712890625 0.09886932373046875
18.34825 0.192291259765625 -0.05071258544921875 -0.919677734375 2.2022705078125 -0.00025391578674316406 0.00027120113372802734 0.0348052978515625 0.10021209716796875
18.358 0.18976593017578125 -0.05855560302734375 -0.753662109375 2.267333984375 0.0010029077529907227 -0.0007236003875732422 0.043548583984375 0.09703826904296875
18.36775 0.18775177001953125 -0.06662750244140625 -0.5755615234375 2.3277587890625 -0.0004919767379760742 0.0003879666328430176 0.05146026611328125 0.09555816650390625
18.3775 0.1840667724609375 -0.07451629638671875 -0.396728515625 2.374267578125 -0.00010666251182556152 -0.0005747079849243164 0.0580902099609375 0.09403228759765625
18.38725 0.180084228515625 -0.08349609375 -0.19970703125 2.407958984375 0.0008460283279418945 -0.0002865791320800781 0.06534576416015625 0.09168243408203125
18.397 0.176483154296875 -0.091400146484375 -0.0009765625 2.4189453125 0.0006549358367919922 -0.0008468031883239746 0.0729827880859375 0.0882415771484375
18.40675 0.171783447265625 -0.0987091064453125 0.205322265625 2.413330078125 0.00036829710006713867 -0.0006307363510131836 0.0812530517578125 0.0818939208984375
18.4165 0.16582489013671875 -0.1056671142578125 0.399169921875 2.3773193359375 -0.0003198087215423584 -0.0004248619079589844 0.086517333984375 0.07984161376953125
18.42625 0.1603851318359375 -0.11324310302734375 0.5849609375 2.3265380859375 -0.00021116435527801514 -0.0002768486738204956 0.0936126708984375 0.07376861572265625
18.436 0.15404510498046875 -0.12006378173828125 0.752685546875 2.259521484375 0.0006947517395019531 -0.0004076361656188965 0.1016845703125 0.06774139404296875
18.44575 0.14560699462890625 -0.12628936767578125 0.9169921875 2.189453125 -0.00013786554336547852 -0.0004234910011291504 0.1042022705078125 0.0604095458984375
18.4555 0.14061737060546875 -0.13120269775390625 1.0732421875 2.1129150390625 -2.059340476989746e-05 -0.0006210505962371826 0.1098785400390625 0.05437469482421875
18.46525 0.13470458984375 -0.13889312744140625 1.231689453125 2.036376953125 -0.0003846883773803711 -0.0006949305534362793 0.11409759521484375 0.044189453125
18.475 0.1255645751953125 -0.1434783935546875 1.3865966796875 1.9459228515625 -0.0005165934562683105 -5.21242618560791e-05 0.1202239990234375 0.0372467041015625
18.48475 0.11855316162109375 -0.147674560546875 1.544189453125 1.83544921875 0.0013912320137023926 5.40614128112793e-05 0.12347412109375 0.0293426513671875
18.4945 0.1100006103515625 -0.15210723876953125 1.6912841796875 1.7027587890625 0.00022682547569274902 0.00017783045768737793 0.1269073486328125 0.01879119873046875
18.50425 0.1025238037109375 -0.1567535400390625 1.826904296875 1.554443359375 -0.00041472911834716797 -0.0006742477416992188 0.1277008056640625 0.0118560791015625
18.514 0.09613037109375 -0.1598968505859375 1.942626953125 1.389892578125 0.000744938850402832 -0.0011260509490966797 0.1298065185546875 0.0033111572265625
18.52375 0.08733367919921875 -0.16253662109375 2.029296875 1.2213134765625 0.0006631612777709961 -0.0007639229297637939 0.13010406494140625 -0.00661468505859375
18.5335 0.08010101318359375 -0.166107177734375 2.1002197265625 1.0546875 0.0001249760389328003 -0.00027617812156677246 0.1313934326171875 -0.01509857177734375
18.54325 0.0698089599609375 -0.16896820068359375 2.1541748046875 0.8944091796875 0.001357734203338623 0.00021708011627197266 0.12999725341796875 -0.023712158203125
18.553 0.06314849853515625 -0.17024993896484375 2.201904296875 0.73291015625 0.0013734698295593262 -0.0004245638847351074 0.12760162353515625 -0.0305633544921875
18.56275 0.0554046630859375 -0.17072296142578125 2.24609375 0.5745849609375 0.0006985068321228027 6.240606307983398e-05 0.1256256103515625 -0.037200927734375
18.5725 0.0473785400390625 -0.171478271484375 2.2847900390625 0.4091796875 0.00011298060417175293 -0.0005015432834625244 0.12101364135742188 -0.047313690185546875
18.58225 0.0391998291015625 -0.17163848876953125 2.3170166015625 0.2373046875 -0.00011280179023742676 -0.0004819035530090332 0.11754989624023438 -0.05489349365234375
18.592 0.030487060546875 -0.17181396484375 2.3284912109375 0.0518798828125 -0.0005939602851867676 -0.0010889172554016113 0.1125335693359375 -0.06298446655273438
18.60175 0.0220184326171875 -0.1705474853515625 2.326171875 -0.13134765625 0.0006846189498901367 -0.00026100873947143555 0.1086578369140625 -0.0685577392578125
18.6115 0.01526641845703125 -0.1685333251953125 2.2955322265625 -0.3148193359375 -6.586313247680664e-05 -0.0010716915130615234 0.10266876220703125 -0.07568359375
18.62125 0.0066986083984375 -0.168548583984375 2.2493896484375 -0.483642578125 0.0016176104545593262 -0.0014028549194335938 0.09638214111328125 -0.08098220825195312
18.631 -0.0003814697265625 -0.167633056640625 2.1929931640625 -0.6353759765625 2.9921531677246094e-05 -0.0005351901054382324 0.09110260009765625 -0.08542633056640625
18.64075 -0.00748443603515625 -0.16622161865234375 2.1279296875 -0.7823486328125 4.354119300842285e-05 0.00010612607002258301 0.08571243286132812 -0.09052658081054688
18.6505 -0.01436614990234375 -0.163604736328125 2.0650634765625 -0.9222412109375 -0.0003699064254760742 -0.0007634162902832031 0.0784454345703125 -0.09494781494140625
18.66025 -0.02440643310546875 -0.160919189453125 1.997802734375 -1.0584716796875 0.0008062124252319336 1.6808509826660156e-05 0.07062911987304688 -0.09659576416015625
18.67 -0.0287017822265625 -0.15920257568359375 1.9229736328125 -1.19464111328125 -0.0001983344554901123 -0.00047919154167175293 0.06648635864257812 -0.0993194580078125
