!Created with skrf (http://scikit-rf.org).
# GHz S RI R 50.0 
!freq ReS11 ImS11 ReS21 ImS21 ReS12 ImS12 ReS22 ImS22
17.5 0.00904083251953125 -0.14498138427734375 -0.1116485595703125 0.16970062255859375 -0.0011882781982421875 0.0007632970809936523 0.09751510620117188 0.00138092041015625
17.50975 -0.00154876708984375 -0.14101409912109375 -0.09037017822265625 0.1763916015625 -0.0026428699493408203 0.0005247592926025391 0.10063552856445312 0.0001068115234375
17.5195 -0.0077667236328125 -0.13854217529296875 -0.0713043212890625 0.1798248291015625 -0.0016538500785827637 0.0015056729316711426 0.10505294799804688 -0.001708984375
17.52925 -0.01697540283203125 -0.13410186767578125 -0.048828125 0.1829376220703125 -0.0021605491638183594 0.0015119314193725586 0.10617828369140625 -0.006748199462890625
17.539 -0.0235137939453125 -0.128448486328125 -0.0291900634765625 0.1811370849609375 -0.000775754451751709 0.0002505779266357422 0.1072998046875 -0.0084991455078125
17.54875 -0.032379150390625 -0.1244659423828125 -0.01114654541015625 0.1769256591796875 -0.0011746883392333984 4.017353057861328e-05 0.1085052490234375 -0.012638092041015625
17.5585 -0.0414581298828125 -0.11946868896484375 0.004058837890625 0.1706695556640625 -0.0006212294101715088 0.0007150769233703613 0.1120452880859375 -0.015430450439453125
17.56825 -0.0476226806640625 -0.11446380615234375 0.0198822021484375 0.1664276123046875 -0.001758277416229248 0.000310361385345459 0.1121978759765625 -0.02071380615234375
17.578 -0.0540008544921875 -0.10865020751953125 0.0376434326171875 0.1578216552734375 -0.0004144012928009033 0.00043983757495880127 0.114105224609375 -0.02342987060546875
17.58775 -0.06118011474609375 -0.10419464111328125 0.05101776123046875 0.1478424072265625 -0.0008543431758880615 0.0009275376796722412 0.1135101318359375 -0.025287628173828125
17.5975 -0.0645599365234375 -0.097564697265625 0.06470489501953125 0.13428497314453125 -0.0007233023643493652 0.001097559928894043 0.11415481567382812 -0.03212738037109375
17.60725 -0.0706329345703125 -0.09346771240234375 0.07470703125 0.122222900390625 -0.0014371871948242188 0.0019925832748413086 0.11348342895507812 -0.035320281982421875
17.617 -0.07529449462890625 -0.08361053466796875 0.084197998046875 0.10956573486328125 -0.0014609694480895996 0.001229405403137207 0.11486434936523438 -0.0395355224609375
17.62675 -0.080535888671875 -0.07794952392578125 0.08913421630859375 0.0958709716796875 -0.000691831111907959 0.0012044310569763184 0.11382293701171875 -0.043781280517578125
17.6365 -0.0845184326171875 -0.070220947265625 0.0922088623046875 0.0828704833984375 -0.00019419193267822266 0.0006389617919921875 0.11275482177734375 -0.0489654541015625
17.64625 -0.086883544921875 -0.06293487548828125 0.09577178955078125 0.0702667236328125 -0.0001627206802368164 0.001358330249786377 0.11060333251953125 -0.05368804931640625
17.656 -0.09066009521484375 -0.0566864013671875 0.0957794189453125 0.05858612060546875 -0.0010602474212646484 0.0005243420600891113 0.10748291015625 -0.058872222900390625
17.66575 -0.09320068359375 -0.0458526611328125 0.09551239013671875 0.046051025390625 -0.0017299056053161621 0.001667022705078125 0.1072845458984375 -0.0636138916015625
17.6755 -0.09566497802734375 -0.0386810302734375 0.0938873291015625 0.03432464599609375 -0.001164078712463379 0.0009433627128601074 0.10242462158203125 -0.06724166870117188
17.68525 -0.09839630126953125 -0.0303497314453125 0.09069061279296875 0.025543212890625 3.4421682357788086e-05 0.0006244182586669922 0.10030364990234375 -0.07155227661132812
17.695 -0.09992218017578125 -0.02203369140625 0.08752822875976562 0.0137176513671875 -0.0008189678192138672 0.001480400562286377 0.09908294677734375 -0.07520675659179688
17.70475 -0.10027694702148438 -0.014102935791015625 0.08259963989257812 0.004665374755859375 -0.00015342235565185547 0.0022585391998291016 0.094085693359375 -0.0804290771484375
17.7145 -0.10184478759765625 -0.005870819091796875 0.07471466064453125 -0.0043792724609375 -0.0005269646644592285 0.0010677576065063477 0.088470458984375 -0.08388519287109375
17.72425 -0.10213470458984375 0.000827789306640625 0.068450927734375 -0.010890960693359375 -0.0003750622272491455 0.0009447336196899414 0.08473968505859375 -0.08824539184570312
17.734 -0.10338592529296875 0.00921630859375 0.05884552001953125 -0.015628814697265625 0.00016069412231445312 0.0017893314361572266 0.08142852783203125 -0.090301513671875
17.74375 -0.103607177734375 0.0175628662109375 0.05027008056640625 -0.01840972900390625 -0.0005538463592529297 0.002247333526611328 0.077301025390625 -0.09526824951171875
17.7535 -0.10102462768554688 0.024322509765625 0.04174041748046875 -0.020063400268554688 -0.0008504986763000488 0.00025957822799682617 0.0735321044921875 -0.09927749633789062
17.76325 -0.099884033203125 0.032032012939453125 0.03284645080566406 -0.01866912841796875 -0.0007159113883972168 -0.000517725944519043 0.06800460815429688 -0.099822998046875
17.773 -0.098663330078125 0.040252685546875 0.024843215942382812 -0.0181732177734375 -0.0011157393455505371 0.0014724135398864746 0.06403732299804688 -0.10309600830078125
17.78275 -0.09471511840820312 0.045379638671875 0.01710796356201172 -0.016881942749023438 -0.0002754628658294678 0.000594794750213623 0.057888031005859375 -0.10541152954101562
17.7925 -0.09155654907226562 0.0536651611328125 0.01123666763305664 -0.012844085693359375 -0.0006304383277893066 0.0010450482368469238 0.05365753173828125 -0.10520172119140625
17.80225 -0.08876800537109375 0.06044769287109375 0.0035719871520996094 -0.006844520568847656 -0.0006131231784820557 0.0007282495498657227 0.048480987548828125 -0.10534286499023438
17.812 -0.0850677490234375 0.06871414184570312 -0.0008361339569091797 -0.0031473636627197266 -0.00061798095703125 0.000825732946395874 0.042118072509765625 -0.10710525512695312
17.82175 -0.08044052124023438 0.0761260986328125 -0.0055277347564697266 0.006337642669677734 0.00021380186080932617 0.0008428096771240234 0.037448883056640625 -0.10695266723632812
17.8315 -0.076080322265625 0.08190155029296875 -0.008751869201660156 0.013489246368408203 0.0005287826061248779 -0.00011739134788513184 0.03232574462890625 -0.10794448852539062
17.84125 -0.07123565673828125 0.08815765380859375 -0.011007308959960938 0.0223236083984375 -0.0006453990936279297 0.0011061429977416992 0.02508544921875 -0.1054840087890625
17.851 -0.06581878662109375 0.09514617919921875 -0.00783538818359375 0.03033447265625 0.0005730986595153809 0.0013698935508728027 0.019596099853515625 -0.10761260986328125
17.86075 -0.06374359130859375 0.09873199462890625 -0.0073413848876953125 0.04111671447753906 0.0007244348526000977 0.0008181333541870117 0.01352691650390625 -0.10557174682617188
17.8705 -0.057979583740234375 0.10668563842773438 -0.0024318695068359375 0.05027198791503906 0.0002174973487854004 0.0017508268356323242 0.008113861083984375 -0.10453414916992188
17.88025 -0.051586151123046875 0.11055755615234375 0.0029449462890625 0.05822181701660156 0.0006656646728515625 0.00021260976791381836 0.0033721923828125 -0.10431671142578125
17.89 -0.047271728515625 0.11730194091796875 0.0092315673828125 0.06842422485351562 0.0006145238876342773 0.002784132957458496 -0.001262664794921875 -0.10322952270507812
17.89975 -0.039569854736328125 0.11996841430664062 0.016910552978515625 0.07621383666992188 0.0006976723670959473 0.0008131861686706543 -0.007701873779296875 -0.10235595703125
17.9095 -0.03527069091796875 0.12554931640625 0.02893829345703125 0.08368682861328125 6.160140037536621e-05 0.0004566609859466553 -0.011730194091796875 -0.10069656372070312
17.91925 -0.0273895263671875 0.12636566162109375 0.04129791259765625 0.08960723876953125 0.001303553581237793 0.0007337331771850586 -0.016857147216796875 -0.09779739379882812
17.929 -0.0202178955078125 0.1313629150390625 0.0562591552734375 0.0919036865234375 0.0003504753112792969 0.001295924186706543 -0.02074432373046875 -0.0963134765625
17.93875 -0.01485443115234375 0.133544921875 0.07204437255859375 0.09458160400390625 -0.0001035928726196289 0.0010342001914978027 -0.026203155517578125 -0.09396743774414062
17.9485 -0.00768280029296875 0.13452911376953125 0.08721160888671875 0.09412384033203125 0.0025620460510253906 0.0006124973297119141 -0.030208587646484375 -0.08841705322265625
17.95825 -0.000885009765625 0.13806915283203125 0.10515594482421875 0.090789794921875 0.0006340742111206055 0.0007277131080627441 -0.033237457275390625 -0.0874481201171875
17.968 0.00638580322265625 0.14005279541015625 0.121856689453125 0.08676910400390625 0.00022077560424804688 0.0010225176811218262 -0.039493560791015625 -0.08411407470703125
17.97775 0.01502227783203125 0.140228271484375 0.13964080810546875 0.08032989501953125 0.0003261566162109375 0.0010963678359985352 -0.042285919189453125 -0.0788421630859375
17.9875 0.021270751953125 0.14208984375 0.15618133544921875 0.0701751708984375 0.0004971623420715332 0.0009132027626037598 -0.04505157470703125 -0.07459640502929688
17.99725 0.030426025390625 0.1427154541015625 0.17388153076171875 0.05773162841796875 0.0004513263702392578 0.0011938810348510742 -0.050952911376953125 -0.07001495361328125
18.007 0.0355987548828125 0.1420440673828125 0.1914825439453125 0.04058074951171875 0.0014545917510986328 0.0009703636169433594 -0.052928924560546875 -0.06769561767578125
18.01675 0.04595184326171875 0.1430816650390625 0.20713043212890625 0.02056884765625 -4.336237907409668e-05 0.00047019124031066895 -0.059772491455078125 -0.06186676025390625
18.0265 0.0519561767578125 0.1422271728515625 0.2201995849609375 -0.0016326904296875 0.0010840892791748047 0.0008904933929443359 -0.06101226806640625 -0.05756378173828125
18.03625 0.0596466064453125 0.1441802978515625 0.2278594970703125 -0.0277099609375 0.0008187294006347656 0.0013010501861572266 -0.06439208984375 -0.052276611328125
18.046 0.06812286376953125 0.14157867431640625 0.23513031005859375 -0.0553131103515625 0.0019292831420898438 0.00018870830535888672 -0.06570816040039062 -0.04601287841796875
18.05575 0.07523345947265625 0.13867950439453125 0.23729705810546875 -0.08263397216796875 0.0009025037288665771 -0.0003809928894042969 -0.0694732666015625 -0.04274749755859375
18.0655 0.08260345458984375 0.13901519775390625 0.2372589111328125 -0.1123809814453125 0.00036466121673583984 0.00034740567207336426 -0.0721588134765625 -0.037841796875
18.07525 0.088958740234375 0.13556671142578125 0.2321624755859375 -0.14145660400390625 0.0005678832530975342 0.00018680095672607422 -0.0731658935546875 -0.03148651123046875
18.085 0.09749603271484375 0.13455963134765625 0.22605133056640625 -0.1707611083984375 0.001705765724182129 -0.00030106306076049805 -0.07669830322265625 -0.02474212646484375
18.09475 0.10306549072265625 0.129913330078125 0.2149505615234375 -0.2020111083984375 0.0019054412841796875 -0.0007834434509277344 -0.07398223876953125 -0.020870208740234375
18.1045 0.1099700927734375 0.12685394287109375 0.19824981689453125 -0.2303619384765625 0.001450657844543457 4.351139068603516e-06 -0.07561492919921875 -0.011959075927734375
18.11425 0.117584228515625 0.12427520751953125 0.178558349609375 -0.2607879638671875 0.0013301968574523926 0.0005816221237182617 -0.07505416870117188 -0.00732421875
18.124 0.1226043701171875 0.1200103759765625 0.1541748046875 -0.28662109375 0.0006580352783203125 0.0005463361740112305 -0.07526397705078125 -0.00023651123046875
18.13375 0.1295013427734375 0.1153564453125 0.1279144287109375 -0.3104705810546875 -5.3241848945617676e-05 0.00032095611095428467 -0.07379150390625 0.0046234130859375
18.1435 0.134735107421875 0.10967254638671875 0.0966949462890625 -0.3310699462890625 0.0007802248001098633 0.000601351261138916 -0.07425689697265625 0.013034820556640625
18.15325 0.14090728759765625 0.104034423828125 0.0609588623046875 -0.347869873046875 -0.00023555755615234375 -0.00010704994201660156 -0.07400131225585938 0.0181732177734375
18.163 0.14728546142578125 0.0980682373046875 0.0252532958984375 -0.3610992431640625 0.0011736154556274414 -0.0005428791046142578 -0.07094955444335938 0.025295257568359375
18.17275 0.15267181396484375 0.0928802490234375 -0.01202392578125 -0.3697509765625 0.0003581047058105469 -0.0007222592830657959 -0.06719207763671875 0.032062530517578125
18.1825 0.159088134765625 0.08635711669921875 -0.050537109375 -0.3748931884765625 0.00022965669631958008 -0.0004940330982208252 -0.06514358520507812 0.03881072998046875
18.19225 0.16239166259765625 0.07994842529296875 -0.0917205810546875 -0.376953125 -4.32431697845459e-05 -0.00032298266887664795 -0.062244415283203125 0.04491233825683594
18.202 0.1688232421875 0.07532501220703125 -0.133514404296875 -0.371673583984375 0.001328110694885254 -0.0008463263511657715 -0.06144905090332031 0.050624847412109375
18.21175 0.1720428466796875 0.0662078857421875 -0.17547607421875 -0.36346435546875 0.000536799430847168 -0.00043278932571411133 -0.0555877685546875 0.0570526123046875
18.2215 0.1768035888671875 0.05924224853515625 -0.21575927734375 -0.34588623046875 0.0005362629890441895 -0.0011385679244995117 -0.05143165588378906 0.06084251403808594
18.23125 0.18033599853515625 0.05196380615234375 -0.25482177734375 -0.3277587890625 0.0008935928344726562 0.00026541948318481445 -0.048015594482421875 0.06363296508789062
18.241 0.18410491943359375 0.04427337646484375 -0.28985595703125 -0.303436279296875 -0.0005254745483398438 -0.0013751387596130371 -0.04317474365234375 0.0691680908203125
18.25075 0.18618011474609375 0.03861236572265625 -0.320465087890625 -0.275909423828125 0.00011134147644042969 -0.001307368278503418 -0.03731536865234375 0.0742950439453125
18.2605 0.18778228759765625 0.03170013427734375 -0.3511962890625 -0.245758056640625 -1.0371208190917969e-05 -0.001395583152770996 -0.0309600830078125 0.07703781127929688
18.27025 0.18828582763671875 0.0214691162109375 -0.378143310546875 -0.2139892578125 0.0011647939682006836 0.0005698800086975098 -0.023456573486328125 0.08167266845703125
18.28 0.19182586669921875 0.0137176513671875 -0.40423583984375 -0.176513671875 0.0006688833236694336 -0.0005741417407989502 -0.01767730712890625 0.083709716796875
18.28975 0.193359375 0.00412750244140625 -0.4244384765625 -0.139434814453125 0.00030362606048583984 0.0005962550640106201 -0.0106658935546875 0.08642578125
18.2995 0.19268798828125 -0.003173828125 -0.440155029296875 -0.097076416015625 0.0007765591144561768 -0.0008313357830047607 -0.004016876220703125 0.08753585815429688
18.30925 0.1925506591796875 -0.0131988525390625 -0.45013427734375 -0.052642822265625 0.0009480714797973633 -0.001154184341430664 0.0044097900390625 0.09015655517578125
18.319 0.1924591064453125 -0.02156829833984375 -0.45745849609375 -0.007415771484375 0.0006027817726135254 -0.0006749331951141357 0.01102447509765625 0.09186935424804688
18.32875 0.1915130615234375 -0.02880096435546875 -0.4578704833984375 0.0362091064453125 9.757280349731445e-05 -0.0007058084011077881 0.01981353759765625 0.09169769287109375
18.3385 0.19031524658203125 -0.0402069091796875 -0.452606201171875 0.08050537109375 0.0007297992706298828 -0.0005282461643218994 0.02834320068359375 0.09182357788085938
18.34825 0.1896820068359375 -0.0483245849609375 -0.44659423828125 0.12310791015625 0.0007930994033813477 -0.0006726682186126709 0.03436279296875 0.0933380126953125
18.358 0.18766021728515625 -0.0557708740234375 -0.4381256103515625 0.16363525390625 0.0006710290908813477 -0.0017287731170654297 0.04354095458984375 0.0896453857421875
18.36775 0.18389129638671875 -0.06395721435546875 -0.4231109619140625 0.20513916015625 -0.0008138120174407959 0.00019466876983642578 0.0498504638671875 0.0893096923828125
18.3775 0.18243408203125 -0.07160186767578125 -0.4066009521484375 0.24566650390625 0.000859677791595459 -0.001056671142578125 0.05774688720703125 0.08660888671875
18.38725 0.1777496337890625 -0.08068084716796875 -0.3842010498046875 0.2850189208984375 -0.00045228004455566406 -0.001865983009338379 0.06429290771484375 0.08602142333984375
18.397 0.174072265625 -0.08807373046875 -0.35791015625 0.320098876953125 0.0002377033233642578 -0.0013246536254882812 0.0711212158203125 0.0830230712890625
18.40675 0.1708984375 -0.0955047607421875 -0.328826904296875 0.355255126953125 -0.0005146265029907227 -0.0008319616317749023 0.079010009765625 0.077545166015625
18.4165 0.1653900146484375 -0.1024627685546875 -0.29425048828125 0.384368896484375 0.0011973381042480469 -0.0016775131225585938 0.08329010009765625 0.073150634765625
18.42625 0.1593017578125 -0.1092681884765625 -0.25775146484375 0.409088134765625 -0.00039412081241607666 0.0003272145986557007 0.091094970703125 0.06862640380859375
18.436 0.1536865234375 -0.11544036865234375 -0.2222747802734375 0.429412841796875 -0.0003147721290588379 -0.0013918876647949219 0.09803009033203125 0.06220245361328125
18.44575 0.1467132568359375 -0.12311553955078125 -0.18597412109375 0.449737548828125 0.0004550814628601074 0.0008432865142822266 0.10044097900390625 0.0556488037109375
18.4555 0.14022064208984375 -0.12744140625 -0.1492919921875 0.4660491943359375 -0.0001963973045349121 -0.0013384222984313965 0.10590362548828125 0.05010223388671875
18.46525 0.1350860595703125 -0.13481903076171875 -0.1102447509765625 0.481048583984375 -0.00010554492473602295 -0.0002974867820739746 0.11104583740234375 0.03958892822265625
18.475 0.12627410888671875 -0.1400146484375 -0.06903076171875 0.49365234375 0.0009247064590454102 0.00021773576736450195 0.1144866943359375 0.033447265625
18.48475 0.12060546875 -0.14475250244140625 -0.02508544921875 0.505859375 4.157423973083496e-05 -0.00010854005813598633 0.11775970458984375 0.02556610107421875
18.4945 0.11273193359375 -0.14971160888671875 0.020294189453125 0.508453369140625 0.0009424686431884766 0.0001399517059326172 0.12160491943359375 0.0166473388671875
18.50425 0.105712890625 -0.1541900634765625 0.06842041015625 0.50848388671875 0.0006744265556335449 0.00015550851821899414 0.122161865234375 0.008056640625
18.514 0.0988616943359375 -0.158447265625 0.11578369140625 0.500732421875 -0.0009726881980895996 0.0004172325134277344 0.12586212158203125 0.00201416015625
18.52375 0.090484619140625 -0.16053009033203125 0.15911865234375 0.487030029296875 0.00042241811752319336 -0.00019106268882751465 0.123016357421875 -0.0069427490234375
18.5335 0.08248138427734375 -0.1632232666015625 0.2001953125 0.471710205078125 0.0007963478565216064 -3.781914710998535e-05 0.12590789794921875 -0.01638031005859375
18.54325 0.0741729736328125 -0.16778564453125 0.239044189453125 0.45355224609375 0.00017601251602172852 -0.001338362693786621 0.12424087524414062 -0.023250579833984375
18.553 0.0670623779296875 -0.16901397705078125 0.274688720703125 0.432952880859375 0.000821232795715332 -0.00045242905616760254 0.12133026123046875 -0.0315399169921875
18.56275 0.05907440185546875 -0.16864776611328125 0.311798095703125 0.412506103515625 0.00040158629417419434 -0.0008335709571838379 0.118377685546875 -0.036773681640625
18.5725 0.0503387451171875 -0.1703643798828125 0.347747802734375 0.38922119140625 1.3187527656555176e-06 -8.274242281913757e-05 0.11557388305664062 -0.0450439453125
18.58225 0.0431060791015625 -0.170867919921875 0.3828125 0.362060546875 -0.0004990696907043457 -0.0006079673767089844 0.11194229125976562 -0.05382537841796875
18.592 0.034515380859375 -0.17223358154296875 0.415557861328125 0.32965087890625 -4.336237907409668e-06 -0.0004290640354156494 0.1070556640625 -0.059703826904296875
18.60175 0.0260162353515625 -0.171173095703125 0.44439697265625 0.29290771484375 0.0005853772163391113 -0.0009496808052062988 0.10196685791015625 -0.06640625
18.6115 0.01688385009765625 -0.169586181640625 0.4697265625 0.253021240234375 0.00023014843463897705 0.00020191073417663574 0.09758758544921875 -0.0718841552734375
18.62125 0.01024627685546875 -0.1699066162109375 0.491119384765625 0.21295166015625 0.000364154577255249 -0.00038820505142211914 0.09186935424804688 -0.0781402587890625
18.631 0.00215911865234375 -0.16837310791015625 0.506195068359375 0.176361083984375 0.00026023387908935547 -0.00011624395847320557 0.08606719970703125 -0.08262252807617188
