!Created with skrf (http://scikit-rf.org).
# GHz S RI R 50.0 
!freq ReS11 ImS11 ReS21 ImS21 ReS12 ImS12 ReS22 ImS22
17.5 0.00846099853515625 -0.14382171630859375 -0.1486968994140625 0.2186279296875 -0.0015336275100708008 -0.0005930662155151367 0.09828567504882812 0.00133514404296875
17.50975 -0.00115203857421875 -0.141265869140625 -0.1244659423828125 0.22881317138671875 -0.0016955733299255371 0.0004952549934387207 0.09920501708984375 -0.000762939453125
17.5195 -0.0082550048828125 -0.13800048828125 -0.0993499755859375 0.234466552734375 -0.0013163089752197266 0.0008312463760375977 0.10359573364257812 -0.0012054443359375
17.52925 -0.01790618896484375 -0.1334381103515625 -0.07408905029296875 0.23802947998046875 -0.0017821788787841797 0.00125199556350708 0.106292724609375 -0.00624847412109375
17.539 -0.02337646484375 -0.127349853515625 -0.0503387451171875 0.2377166748046875 -0.0017791986465454102 0.0014145374298095703 0.1061553955078125 -0.0095367431640625
17.54875 -0.0330810546875 -0.124237060546875 -0.02584075927734375 0.2352142333984375 -0.0016718506813049316 0.0010406970977783203 0.11098098754882812 -0.011669158935546875
17.5585 -0.04126739501953125 -0.11920928955078125 -0.00418853759765625 0.23188018798828125 -0.0014363527297973633 0.0005404353141784668 0.11149978637695312 -0.014995574951171875
17.56825 -0.04759979248046875 -0.115386962890625 0.0150604248046875 0.22695159912109375 -0.0006056427955627441 -0.00012096762657165527 0.1127777099609375 -0.01982879638671875
17.578 -0.05402374267578125 -0.1091461181640625 0.03633880615234375 0.21855926513671875 -0.002218961715698242 0.0018440485000610352 0.11345291137695312 -0.023921966552734375
17.58775 -0.05974578857421875 -0.10559844970703125 0.0563507080078125 0.210235595703125 -0.00032508373260498047 0.0009902715682983398 0.114044189453125 -0.02632904052734375
17.5975 -0.0637969970703125 -0.097320556640625 0.0724639892578125 0.196136474609375 -0.001838088035583496 2.6941299438476562e-05 0.11455535888671875 -0.031246185302734375
17.60725 -0.07053375244140625 -0.0927581787109375 0.08740234375 0.1829376220703125 -0.000770866870880127 0.0010083317756652832 0.11279296875 -0.036785125732421875
17.617 -0.0758514404296875 -0.084259033203125 0.10009765625 0.16851806640625 -0.0009911060333251953 0.0008320808410644531 0.11527252197265625 -0.03961181640625
17.62675 -0.0793304443359375 -0.07765960693359375 0.1112823486328125 0.1513824462890625 -0.0008845031261444092 0.0008208751678466797 0.11400222778320312 -0.044925689697265625
17.6365 -0.08404541015625 -0.070068359375 0.118377685546875 0.137939453125 -0.0011879205703735352 0.0015134811401367188 0.11175537109375 -0.04894256591796875
17.64625 -0.08702850341796875 -0.06330108642578125 0.126068115234375 0.12268829345703125 -0.000984787940979004 0.0010823607444763184 0.1103363037109375 -0.053737640380859375
17.656 -0.09088897705078125 -0.05702972412109375 0.1289825439453125 0.10848236083984375 -0.0014690160751342773 0.0020412206649780273 0.10689544677734375 -0.059356689453125
17.66575 -0.09365081787109375 -0.04524993896484375 0.1314697265625 0.09374237060546875 -0.0004958510398864746 0.0008586347103118896 0.10685348510742188 -0.0622711181640625
17.6755 -0.096099853515625 -0.03989410400390625 0.1335601806640625 0.0804290771484375 -0.0015125274658203125 5.441904067993164e-05 0.10274887084960938 -0.066986083984375
17.68525 -0.0971832275390625 -0.031585693359375 0.1342010498046875 0.067779541015625 3.0875205993652344e-05 0.0009940266609191895 0.10196304321289062 -0.07099533081054688
17.695 -0.0984344482421875 -0.0234832763671875 0.1350555419921875 0.054290771484375 -0.0004050731658935547 0.0014107227325439453 0.09767913818359375 -0.07545089721679688
17.70475 -0.10005569458007812 -0.0142974853515625 0.13336944580078125 0.04251861572265625 -0.0002097785472869873 0.000806272029876709 0.0936126708984375 -0.07916259765625
17.7145 -0.10166549682617188 -0.00664520263671875 0.128570556640625 0.02758026123046875 0.0006954669952392578 0.001548171043395996 0.09060287475585938 -0.08328628540039062
17.72425 -0.10204696655273438 0.001811981201171875 0.1236724853515625 0.0168609619140625 2.8088688850402832e-05 0.00034034252166748047 0.08510208129882812 -0.0863800048828125
17.734 -0.1033172607421875 0.0094146728515625 0.11641693115234375 0.007965087890625 0.0002008676528930664 0.001206040382385254 0.08225250244140625 -0.09091949462890625
17.74375 -0.10308837890625 0.01654052734375 0.10890960693359375 -0.001068115234375 -0.0001983046531677246 0.0009307265281677246 0.0786590576171875 -0.09606170654296875
17.7535 -0.10018157958984375 0.02440643310546875 0.10054397583007812 -0.00608062744140625 0.0001042485237121582 0.001024484634399414 0.07374191284179688 -0.09819412231445312
17.76325 -0.09968185424804688 0.032344818115234375 0.09429931640625 -0.012180328369140625 -0.00036838650703430176 0.0008333921432495117 0.06798934936523438 -0.10056304931640625
17.773 -0.09809494018554688 0.039241790771484375 0.08621978759765625 -0.0141448974609375 -0.0009652078151702881 0.00047641992568969727 0.06327438354492188 -0.10302734375
17.78275 -0.09566116333007812 0.046230316162109375 0.07689666748046875 -0.016262054443359375 -0.00047892332077026367 0.0018508434295654297 0.057735443115234375 -0.1045074462890625
17.7925 -0.09124755859375 0.05410003662109375 0.07111358642578125 -0.01734161376953125 0.0011129379272460938 0.0014852285385131836 0.052738189697265625 -0.10548782348632812
17.80225 -0.08884048461914062 0.06011199951171875 0.0664215087890625 -0.017086029052734375 0.0008960962295532227 0.0013337135314941406 0.048656463623046875 -0.10723495483398438
17.812 -0.08483505249023438 0.06723403930664062 0.059787750244140625 -0.015325546264648438 0.0007491111755371094 0.0012621879577636719 0.04193115234375 -0.10691070556640625
17.82175 -0.08016204833984375 0.0755157470703125 0.05389404296875 -0.013179779052734375 0.000322878360748291 0.00019678473472595215 0.038303375244140625 -0.108306884765625
17.8315 -0.07788467407226562 0.08107757568359375 0.050594329833984375 -0.008647918701171875 0.0006177425384521484 0.0011759400367736816 0.031856536865234375 -0.10640716552734375
17.84125 -0.072235107421875 0.08684539794921875 0.047573089599609375 -0.0036468505859375 -2.568960189819336e-05 0.0008841753005981445 0.0252838134765625 -0.10813140869140625
17.851 -0.06676483154296875 0.09421157836914062 0.04396629333496094 -0.0012760162353515625 0.00046181678771972656 0.001294851303100586 0.02121734619140625 -0.1076202392578125
17.86075 -0.062744140625 0.09938430786132812 0.04314994812011719 0.005340576171875 0.00015604496002197266 0.0010326504707336426 0.014202117919921875 -0.105255126953125
17.8705 -0.056102752685546875 0.10628509521484375 0.04525947570800781 0.010564804077148438 0.00110626220703125 0.0007796883583068848 0.009265899658203125 -0.10493850708007812
17.88025 -0.051357269287109375 0.11226654052734375 0.04740142822265625 0.015415191650390625 -0.00046539306640625 0.002503514289855957 0.003265380859375 -0.10413742065429688
17.89 -0.04663848876953125 0.117584228515625 0.051029205322265625 0.021732330322265625 0.001481175422668457 0.0011756420135498047 -0.001209259033203125 -0.10232162475585938
17.89975 -0.04015350341796875 0.121673583984375 0.057910919189453125 0.027553558349609375 0.0003231167793273926 0.0014035701751708984 -0.007671356201171875 -0.10256195068359375
17.9095 -0.03389739990234375 0.1241302490234375 0.06319808959960938 0.0294952392578125 0.0004082322120666504 0.000998854637145996 -0.013980865478515625 -0.101043701171875
17.91925 -0.02875518798828125 0.127166748046875 0.07313156127929688 0.03231048583984375 0.0013012886047363281 -0.00036960840225219727 -0.01705169677734375 -0.09860992431640625
17.929 -0.0198974609375 0.13116455078125 0.0831451416015625 0.03399658203125 0.0007679462432861328 0.0010137557983398438 -0.02191162109375 -0.0975189208984375
17.93875 -0.014251708984375 0.13336944580078125 0.0944976806640625 0.0340423583984375 0.0003914088010787964 6.400048732757568e-05 -0.026714324951171875 -0.09421539306640625
17.9485 -0.008148193359375 0.13614654541015625 0.1043243408203125 0.0306549072265625 0.0011049509048461914 -0.0004972219467163086 -0.0305023193359375 -0.08970260620117188
17.95825 -0.00127410888671875 0.13846588134765625 0.1164398193359375 0.0277557373046875 0.00028771162033081055 0.0007108449935913086 -0.0321502685546875 -0.08804702758789062
17.968 0.00725555419921875 0.14040374755859375 0.129638671875 0.02339935302734375 0.00021654367446899414 0.0010645389556884766 -0.03952789306640625 -0.08349227905273438
17.97775 0.0145111083984375 0.14060211181640625 0.14267730712890625 0.01619720458984375 0.0007859468460083008 0.0009984970092773438 -0.04407501220703125 -0.07908248901367188
17.9875 0.02256011962890625 0.14234161376953125 0.1543731689453125 0.00623321533203125 0.0010443329811096191 -0.0007099509239196777 -0.045452117919921875 -0.0749969482421875
17.99725 0.0294647216796875 0.14334869384765625 0.16712188720703125 -0.0064239501953125 -0.0002675056457519531 -0.0001694709062576294 -0.04961395263671875 -0.07025909423828125
18.007 0.036773681640625 0.14252471923828125 0.17844390869140625 -0.0240020751953125 0.0009031295776367188 0.0007231235504150391 -0.055145263671875 -0.06805419921875
18.01675 0.04448699951171875 0.1437530517578125 0.1876068115234375 -0.04189300537109375 0.0007793009281158447 -0.0007838904857635498 -0.05902099609375 -0.061626434326171875
18.0265 0.052276611328125 0.1426849365234375 0.1968536376953125 -0.0637664794921875 9.250640869140625e-05 0.001542210578918457 -0.06201934814453125 -0.05823516845703125
18.03625 0.0594635009765625 0.14373779296875 0.2011871337890625 -0.088531494140625 0.0014412403106689453 0.0012054443359375 -0.06390380859375 -0.05129241943359375
18.046 0.0679168701171875 0.14226531982421875 0.20293426513671875 -0.11273956298828125 0.0013935565948486328 -3.814697265625e-06 -0.0657501220703125 -0.046520233154296875
18.05575 0.0738525390625 0.13916778564453125 0.20093536376953125 -0.13848114013671875 0.001808762550354004 0.000911712646484375 -0.07164382934570312 -0.0403900146484375
18.0655 0.08094024658203125 0.1389007568359375 0.19657135009765625 -0.16290283203125 0.0012311935424804688 0.0013508796691894531 -0.07304000854492188 -0.0355224609375
18.07525 0.0886383056640625 0.13642120361328125 0.18787384033203125 -0.1894683837890625 0.0002957582473754883 0.00011840462684631348 -0.0737152099609375 -0.03078460693359375
18.085 0.09735107421875 0.13333892822265625 0.177459716796875 -0.2163238525390625 0.0010766386985778809 0.0006338953971862793 -0.07625579833984375 -0.024761199951171875
18.09475 0.10259246826171875 0.13179779052734375 0.16088104248046875 -0.2421722412109375 0.001087188720703125 0.0009527206420898438 -0.073211669921875 -0.02031707763671875
18.1045 0.110931396484375 0.12530517578125 0.1441192626953125 -0.267852783203125 0.0009808540344238281 0.0011394023895263672 -0.07559967041015625 -0.012027740478515625
18.11425 0.117340087890625 0.12364959716796875 0.1206817626953125 -0.2913360595703125 0.0008982419967651367 0.0005905032157897949 -0.07625579833984375 -0.007999420166015625
18.124 0.1213836669921875 0.11865234375 0.09423828125 -0.3153076171875 0.0008636713027954102 -4.1484832763671875e-05 -0.0746612548828125 -8.392333984375e-05
18.13375 0.128662109375 0.1152801513671875 0.0646514892578125 -0.3331451416015625 0.0013380646705627441 -0.00020188093185424805 -0.07449722290039062 0.00394439697265625
18.1435 0.1349945068359375 0.110015869140625 0.03082275390625 -0.348114013671875 -0.0006396770477294922 -0.0009447932243347168 -0.0753173828125 0.01338958740234375
18.15325 0.1409454345703125 0.10373687744140625 -0.004302978515625 -0.361328125 0.0007108747959136963 -4.0650367736816406e-05 -0.07389068603515625 0.01909637451171875
18.163 0.14768218994140625 0.097991943359375 -0.0410919189453125 -0.3678741455078125 0.00125199556350708 -0.0005246400833129883 -0.07085800170898438 0.0254058837890625
18.17275 0.15283203125 0.0949249267578125 -0.0788421630859375 -0.3712310791015625 0.0014464855194091797 -0.00022023916244506836 -0.06808853149414062 0.031177520751953125
18.1825 0.1595458984375 0.08681488037109375 -0.11883544921875 -0.37237548828125 0.001121222972869873 -0.0005730986595153809 -0.06540298461914062 0.03946685791015625
18.19225 0.1634979248046875 0.08092498779296875 -0.159271240234375 -0.36712646484375 0.0006154775619506836 0.0006071329116821289 -0.06234931945800781 0.04491233825683594
18.202 0.16748046875 0.0751800537109375 -0.1993408203125 -0.357818603515625 0.0005771815776824951 -0.00025013089179992676 -0.059932708740234375 0.05115699768066406
18.21175 0.1725006103515625 0.067413330078125 -0.2388916015625 -0.342529296875 0.00022554397583007812 0.000609278678894043 -0.05510711669921875 0.057132720947265625
18.2215 0.176483154296875 0.06026458740234375 -0.278167724609375 -0.3231201171875 -0.0006282329559326172 -0.0004094243049621582 -0.05069541931152344 0.060169219970703125
18.23125 0.18060302734375 0.05318450927734375 -0.31378173828125 -0.297088623046875 0.0010088682174682617 3.409385681152344e-05 -0.048046112060546875 0.06484222412109375
18.241 0.183441162109375 0.0467529296875 -0.34698486328125 -0.269805908203125 0.0006746351718902588 -0.00030168890953063965 -0.043437957763671875 0.06983184814453125
18.25075 0.186126708984375 0.038604736328125 -0.37518310546875 -0.238372802734375 0.00038833916187286377 -0.00037363171577453613 -0.0374908447265625 0.07400894165039062
18.2605 0.18796539306640625 0.03244781494140625 -0.402191162109375 -0.203826904296875 0.0012664794921875 -0.0005805492401123047 -0.03064727783203125 0.07736587524414062
18.27025 0.189697265625 0.021881103515625 -0.4261474609375 -0.16680908203125 -0.00028973817825317383 -0.0012349486351013184 -0.02512359619140625 0.08111572265625
18.28 0.19060516357421875 0.0135955810546875 -0.44580078125 -0.125335693359375 0.0007219314575195312 0.0002759099006652832 -0.017864227294921875 0.08327484130859375
18.28975 0.19455718994140625 0.0042724609375 -0.4639892578125 -0.083984375 0.0009220242500305176 0.0003052949905395508 -0.010570526123046875 0.08731842041015625
18.2995 0.1934967041015625 -0.0035858154296875 -0.474029541015625 -0.04058837890625 0.0007564425468444824 -0.0009056925773620605 -0.002696990966796875 0.0873870849609375
18.30925 0.1925201416015625 -0.013092041015625 -0.4818115234375 0.008392333984375 -0.00030350685119628906 -0.0008934736251831055 0.0047454833984375 0.09008026123046875
18.319 0.19162750244140625 -0.0216217041015625 -0.4820556640625 0.0557403564453125 -0.0002338886260986328 -0.000614851713180542 0.01129913330078125 0.09255218505859375
18.32875 0.19121551513671875 -0.0291900634765625 -0.47705078125 0.100799560546875 -0.0008254051208496094 -0.0007854700088500977 0.0196075439453125 0.09096527099609375
18.3385 0.19023895263671875 -0.0393524169921875 -0.469024658203125 0.14410400390625 0.0007682442665100098 -0.0007374286651611328 0.02825927734375 0.09326171875
18.34825 0.18827056884765625 -0.048675537109375 -0.4573211669921875 0.1859283447265625 0.0007877051830291748 -3.215670585632324e-05 0.0352020263671875 0.0944976806640625
18.358 0.18581390380859375 -0.0554046630859375 -0.442962646484375 0.2288055419921875 0.00031751394271850586 0.00023952126502990723 0.04383087158203125 0.0920257568359375
18.36775 0.1836090087890625 -0.0647125244140625 -0.4229583740234375 0.270172119140625 0.0004824399948120117 -0.0012979507446289062 0.05010986328125 0.09021759033203125
18.3775 0.18221282958984375 -0.07115936279296875 -0.4017486572265625 0.30877685546875 -7.670745253562927e-05 9.987875819206238e-05 0.057220458984375 0.0877838134765625
18.38725 0.178741455078125 -0.08005523681640625 -0.374267578125 0.347503662109375 0.0009488463401794434 0.0003592967987060547 0.06412506103515625 0.08516693115234375
18.397 0.175567626953125 -0.0876617431640625 -0.342681884765625 0.384674072265625 -0.00025984644889831543 7.808208465576172e-06 0.0713043212890625 0.082550048828125
18.40675 0.170257568359375 -0.0944976806640625 -0.30633544921875 0.418304443359375 -0.0005955696105957031 -0.0008859634399414062 0.078094482421875 0.0771484375
18.4165 0.16492462158203125 -0.10228729248046875 -0.269256591796875 0.4434051513671875 0.0006392002105712891 -0.0001926720142364502 0.083221435546875 0.07395172119140625
18.42625 0.16025543212890625 -0.1085357666015625 -0.2287139892578125 0.4653778076171875 -0.00025340914726257324 -0.00019994378089904785 0.09064483642578125 0.06949615478515625
18.436 0.15299224853515625 -0.11525726318359375 -0.1891937255859375 0.484710693359375 0.00020526349544525146 -0.0003636181354522705 0.097991943359375 0.06336212158203125
18.44575 0.14717864990234375 -0.1230621337890625 -0.1487579345703125 0.498870849609375 -3.0100345611572266e-05 -0.000891953706741333 0.1004486083984375 0.0556488037109375
18.4555 0.14022064208984375 -0.1279449462890625 -0.1082763671875 0.51214599609375 0.0007266998291015625 -0.002297520637512207 0.10597991943359375 0.0491180419921875
18.46525 0.13518524169921875 -0.13425445556640625 -0.066375732421875 0.524993896484375 -0.00014898180961608887 -0.00047591328620910645 0.10986328125 0.0410308837890625
18.475 0.1275634765625 -0.1391754150390625 -0.021575927734375 0.537017822265625 0.0005398392677307129 -0.0003050565719604492 0.11611175537109375 0.03433990478515625
18.48475 0.12066650390625 -0.14496612548828125 0.02490234375 0.540435791015625 -0.00017565488815307617 -0.0007052719593048096 0.11872100830078125 0.0264129638671875
18.4945 0.11244964599609375 -0.1488800048828125 0.074493408203125 0.541015625 7.770955562591553e-05 -0.0003900378942489624 0.12174224853515625 0.0168914794921875
18.50425 0.1043853759765625 -0.15460205078125 0.124755859375 0.53460693359375 0.0006977319717407227 0.00016230344772338867 0.121917724609375 0.0095367431640625
18.514 0.09808349609375 -0.1592254638671875 0.1741943359375 0.52325439453125 0.0004941225051879883 -0.000429004430770874 0.1259002685546875 0.0005645751953125
18.52375 0.08982086181640625 -0.16078948974609375 0.219207763671875 0.50469970703125 1.817941665649414e-06 -0.0006364583969116211 0.12357711791992188 -0.00820159912109375
18.5335 0.08196258544921875 -0.16519927978515625 0.260162353515625 0.48443603515625 0.0002645552158355713 -0.0005426108837127686 0.1254425048828125 -0.0154571533203125
18.54325 0.0744781494140625 -0.16655731201171875 0.298431396484375 0.461822509765625 0.0003858804702758789 -0.0002486109733581543 0.12306976318359375 -0.022686004638671875
18.553 0.067047119140625 -0.16919708251953125 0.335906982421875 0.438720703125 0.0005986392498016357 0.0002383589744567871 0.121490478515625 -0.03049468994140625
18.56275 0.0587921142578125 -0.16834259033203125 0.372650146484375 0.41302490234375 1.2308359146118164e-05 0.0003833770751953125 0.11981582641601562 -0.0376434326171875
18.5725 0.0506439208984375 -0.1708831787109375 0.406036376953125 0.385162353515625 0.0003618001937866211 0.00013059377670288086 0.1153564453125 -0.045696258544921875
18.58225 0.04364013671875 -0.17198944091796875 0.442047119140625 0.352264404296875 3.904104232788086e-06 -0.0005841255187988281 0.1125335693359375 -0.05329132080078125
18.592 0.03469085693359375 -0.171661376953125 0.473541259765625 0.3143310546875 0.000482022762298584 -0.0016970634460449219 0.10800933837890625 -0.05995941162109375
18.60175 0.0269622802734375 -0.170989990234375 0.50201416015625 0.27569580078125 0.0002549886703491211 -0.0010324716567993164 0.1029510498046875 -0.0648193359375
18.6115 0.0180511474609375 -0.1701202392578125 0.525299072265625 0.23095703125 0.0005152225494384766 -0.0004335343837738037 0.09780120849609375 -0.07316970825195312
18.62125 0.010406494140625 -0.16979217529296875 0.540618896484375 0.186798095703125 0.0006689727306365967 -0.0007711350917816162 0.09119033813476562 -0.07857131958007812
18.631 0.0018310546875 -0.16728973388671875 0.5556640625 0.146636962890625 0.0006853044033050537 0.0002714395523071289 0.08511734008789062 -0.08302688598632812
