!Created with skrf (http://scikit-rf.org).
# GHz S RI R 50.0 
!freq ReS11 ImS11 ReS21 ImS21 ReS12 ImS12 ReS22 ImS22
17.5 0.0088043212890625 -0.1432037353515625 -0.2321319580078125 0.31793212890625 -0.0015736222267150879 0.0008705854415893555 0.09844970703125 0.0008392333984375
17.50975 -0.00057220458984375 -0.14093780517578125 -0.19940185546875 0.334136962890625 -0.0019685029983520508 0.0011299848556518555 0.09980010986328125 0.00121307373046875
17.5195 -0.00811004638671875 -0.13639068603515625 -0.165069580078125 0.3443450927734375 -0.0007961094379425049 0.0009527206420898438 0.10349273681640625 -0.001468658447265625
17.52925 -0.0173797607421875 -0.13330841064453125 -0.13092041015625 0.353668212890625 -0.0009652972221374512 0.0001945197582244873 0.10533523559570312 -0.0052032470703125
17.539 -0.0227508544921875 -0.1265869140625 -0.098480224609375 0.358642578125 -0.0014160871505737305 0.0004373788833618164 0.10623931884765625 -0.00930023193359375
17.54875 -0.031402587890625 -0.12389373779296875 -0.0670928955078125 0.3578338623046875 -0.001311182975769043 0.0003108382225036621 0.10782241821289062 -0.01180267333984375
17.5585 -0.04091644287109375 -0.11883544921875 -0.035552978515625 0.3575897216796875 -0.00017611682415008545 0.0004064589738845825 0.1118621826171875 -0.016635894775390625
17.56825 -0.047027587890625 -0.11449432373046875 -0.0054779052734375 0.3546295166015625 -0.0008018612861633301 0.001319587230682373 0.1126251220703125 -0.019367218017578125
17.578 -0.05338287353515625 -0.1067962646484375 0.0241546630859375 0.3477020263671875 -0.0014339089393615723 0.0006094574928283691 0.11297607421875 -0.0240936279296875
17.58775 -0.059722900390625 -0.10370635986328125 0.0550384521484375 0.33795166015625 -0.0009406805038452148 0.002354860305786133 0.11311721801757812 -0.02562713623046875
17.5975 -0.063201904296875 -0.0971832275390625 0.0836029052734375 0.3271942138671875 -0.0009719133377075195 0.0017451047897338867 0.11519241333007812 -0.03055572509765625
17.60725 -0.0697479248046875 -0.09243011474609375 0.108001708984375 0.3116455078125 -0.0020720958709716797 0.0010223388671875 0.11450576782226562 -0.03488922119140625
17.617 -0.07500457763671875 -0.084381103515625 0.1309661865234375 0.293792724609375 -0.0005396008491516113 0.0003713667392730713 0.1139068603515625 -0.039211273193359375
17.62675 -0.0796356201171875 -0.07653045654296875 0.151092529296875 0.276031494140625 -0.0010294318199157715 0.0009710788726806641 0.11458206176757812 -0.04217529296875
17.6365 -0.0825653076171875 -0.0701904296875 0.166748046875 0.2545166015625 0.00022616982460021973 -0.0004622042179107666 0.11341094970703125 -0.04864501953125
17.64625 -0.087982177734375 -0.06195831298828125 0.1804656982421875 0.236907958984375 0.0003178119659423828 0.0007604360580444336 0.1109161376953125 -0.0526123046875
17.656 -0.09014129638671875 -0.05529022216796875 0.1925201416015625 0.2181854248046875 0.0002498626708984375 0.00027236342430114746 0.10808563232421875 -0.057628631591796875
17.66575 -0.09243011474609375 -0.04616546630859375 0.20281982421875 0.20001220703125 -0.0007901191711425781 0.0017837285995483398 0.1063995361328125 -0.062286376953125
17.6755 -0.09571075439453125 -0.03948211669921875 0.213714599609375 0.1809539794921875 -0.0007933974266052246 0.001086115837097168 0.10242843627929688 -0.06667327880859375
17.68525 -0.0978240966796875 -0.03176116943359375 0.2217864990234375 0.163360595703125 -0.0015577077865600586 0.0010287165641784668 0.10091018676757812 -0.07111358642578125
17.695 -0.09909820556640625 -0.02292633056640625 0.2299652099609375 0.1443328857421875 -0.0006423294544219971 0.0005847811698913574 0.09985733032226562 -0.07477569580078125
17.70475 -0.1009063720703125 -0.01398468017578125 0.2353668212890625 0.1231536865234375 -0.0002815723419189453 0.002396821975708008 0.09483718872070312 -0.07840728759765625
17.7145 -0.10121917724609375 -0.006526947021484375 0.2390289306640625 0.100982666015625 -0.0007023811340332031 0.0009142756462097168 0.089935302734375 -0.0826873779296875
17.72425 -0.10141754150390625 0.00125885009765625 0.2395782470703125 0.0795135498046875 -0.001542210578918457 0.0021001100540161133 0.0861968994140625 -0.08758926391601562
17.734 -0.1028900146484375 0.008636474609375 0.23638916015625 0.060699462890625 5.990266799926758e-05 0.0007862448692321777 0.082611083984375 -0.09030914306640625
17.74375 -0.10243988037109375 0.01755523681640625 0.23065185546875 0.040985107421875 -0.0009887218475341797 0.0007471442222595215 0.07807159423828125 -0.09568023681640625
17.7535 -0.10010528564453125 0.024662017822265625 0.22667694091796875 0.02745819091796875 0.0012500286102294922 0.0009713172912597656 0.07346343994140625 -0.09687423706054688
17.76325 -0.09936141967773438 0.0321807861328125 0.2181854248046875 0.0145416259765625 -0.00013452768325805664 0.001818537712097168 0.06768417358398438 -0.09905624389648438
17.773 -0.09743118286132812 0.039215087890625 0.21297454833984375 0.0029296875 0.00011500716209411621 0.000696331262588501 0.062530517578125 -0.10352706909179688
17.78275 -0.09447860717773438 0.046054840087890625 0.2064361572265625 -0.00762939453125 -0.00013113021850585938 0.0010995268821716309 0.05841064453125 -0.10492706298828125
17.7925 -0.09159469604492188 0.05316925048828125 0.20145416259765625 -0.01793670654296875 -0.0002790689468383789 0.0010721683502197266 0.052585601806640625 -0.1057891845703125
17.80225 -0.087799072265625 0.060108184814453125 0.19365692138671875 -0.0288238525390625 7.730722427368164e-05 0.001331031322479248 0.050334930419921875 -0.10726547241210938
17.812 -0.08501815795898438 0.0670623779296875 0.18877410888671875 -0.037261962890625 0.0005608201026916504 0.0004994869232177734 0.04244232177734375 -0.10612869262695312
17.82175 -0.0792694091796875 0.07482528686523438 0.18308258056640625 -0.0466156005859375 0.0003110170364379883 0.0013030767440795898 0.038875579833984375 -0.10593414306640625
17.8315 -0.07622528076171875 0.08182525634765625 0.17507171630859375 -0.05126953125 0.000586092472076416 0.0004576444625854492 0.033321380615234375 -0.10823440551757812
17.84125 -0.0730438232421875 0.0863800048828125 0.1687774658203125 -0.056671142578125 0.00021767616271972656 0.000634312629699707 0.0267181396484375 -0.10681915283203125
17.851 -0.06632614135742188 0.09566116333007812 0.1610107421875 -0.0606231689453125 0.0001907646656036377 0.00042751431465148926 0.0220489501953125 -0.10777664184570312
17.86075 -0.06401824951171875 0.0995635986328125 0.15601348876953125 -0.06524658203125 0.0007749199867248535 0.00021690130233764648 0.0137786865234375 -0.1064300537109375
17.8705 -0.056705474853515625 0.10484695434570312 0.15021514892578125 -0.0671234130859375 0.0002894401550292969 0.00028586387634277344 0.00972747802734375 -0.10510635375976562
17.88025 -0.05239105224609375 0.1105804443359375 0.14945220947265625 -0.06932830810546875 -0.000775456428527832 0.0018700361251831055 0.003917694091796875 -0.10596847534179688
17.89 -0.04638671875 0.11768341064453125 0.14673614501953125 -0.0724639892578125 0.000499427318572998 0.0010840892791748047 -0.0016326904296875 -0.10329055786132812
17.89975 -0.041088104248046875 0.12117767333984375 0.14496612548828125 -0.07462310791015625 0.0012743473052978516 0.0008935928344726562 -0.006927490234375 -0.10210800170898438
17.9095 -0.03502655029296875 0.124359130859375 0.1444244384765625 -0.077117919921875 0.0005461573600769043 0.001089930534362793 -0.012477874755859375 -0.100677490234375
17.91925 -0.02771759033203125 0.1268310546875 0.14519500732421875 -0.081787109375 0.0007638931274414062 0.000789344310760498 -0.01605224609375 -0.09973907470703125
17.929 -0.02117919921875 0.1316070556640625 0.1458282470703125 -0.085540771484375 0.0008485317230224609 0.0018455982208251953 -0.02184295654296875 -0.09777069091796875
17.93875 -0.0146484375 0.13288116455078125 0.145965576171875 -0.08998870849609375 -2.1249055862426758e-05 -0.00023017823696136475 -0.02469635009765625 -0.094085693359375
17.9485 -0.0080413818359375 0.1356201171875 0.14846038818359375 -0.09665679931640625 0.0003971308469772339 -0.0004481077194213867 -0.030597686767578125 -0.09008026123046875
17.95825 -0.00138092041015625 0.137451171875 0.15003204345703125 -0.10324859619140625 0.0010148286819458008 0.0002830028533935547 -0.033100128173828125 -0.08673858642578125
17.968 0.00574493408203125 0.140167236328125 0.15276336669921875 -0.11046600341796875 0.0013205409049987793 0.00042694807052612305 -0.03867340087890625 -0.08539581298828125
17.97775 0.01328277587890625 0.14104461669921875 0.15650177001953125 -0.11830902099609375 0.0002688765525817871 0.0005108416080474854 -0.0432281494140625 -0.07935714721679688
17.9875 0.0216217041015625 0.142791748046875 0.15826416015625 -0.1302642822265625 0.0007553398609161377 0.0001302957534790039 -0.0450592041015625 -0.07595062255859375
17.99725 0.02845001220703125 0.143157958984375 0.15944671630859375 -0.14540863037109375 0.0008938908576965332 0.000561058521270752 -0.05010223388671875 -0.07124710083007812
18.007 0.03621673583984375 0.1439208984375 0.1611480712890625 -0.16053009033203125 0.0006430745124816895 0.0009281039237976074 -0.053558349609375 -0.06789016723632812
18.01675 0.04244232177734375 0.143798828125 0.15967559814453125 -0.17791748046875 0.0011397004127502441 0.0007095932960510254 -0.05864715576171875 -0.062068939208984375
18.0265 0.0518035888671875 0.14276123046875 0.156951904296875 -0.1974945068359375 0.00021320581436157227 0.0005071163177490234 -0.060943603515625 -0.05811309814453125
18.03625 0.0594024658203125 0.144287109375 0.149017333984375 -0.2168426513671875 0.0002664327621459961 0.0010647773742675781 -0.0651397705078125 -0.05225372314453125
18.046 0.06705474853515625 0.1415863037109375 0.13898468017578125 -0.2376556396484375 0.0008664429187774658 -0.00016734004020690918 -0.06772994995117188 -0.046352386474609375
18.05575 0.07581329345703125 0.1398162841796875 0.1277313232421875 -0.2581939697265625 0.0012052655220031738 0.00044214725494384766 -0.06975936889648438 -0.041873931884765625
18.0655 0.08081817626953125 0.13797760009765625 0.1157989501953125 -0.276885986328125 0.0006030797958374023 0.00040715932846069336 -0.07295608520507812 -0.0364990234375
18.07525 0.08954620361328125 0.13753509521484375 0.098876953125 -0.2974853515625 0.0010055303573608398 0.00017911195755004883 -0.0735321044921875 -0.030609130859375
18.085 0.09682464599609375 0.1349029541015625 0.0802764892578125 -0.3172454833984375 0.0004572272300720215 0.0006616711616516113 -0.07564926147460938 -0.02617645263671875
18.09475 0.10201263427734375 0.13079833984375 0.056732177734375 -0.336212158203125 0.0014264583587646484 -0.0008045434951782227 -0.07457733154296875 -0.019527435302734375
18.1045 0.1105194091796875 0.12630462646484375 0.0305328369140625 -0.3526153564453125 0.0013207197189331055 0.0006558895111083984 -0.07597732543945312 -0.01265716552734375
18.11425 0.11537933349609375 0.12488555908203125 -0.000457763671875 -0.367645263671875 -0.00012184679508209229 -0.0003468841314315796 -0.07721710205078125 -0.008708953857421875
18.124 0.12176513671875 0.1198272705078125 -0.033111572265625 -0.381195068359375 0.0007408857345581055 0.00012320280075073242 -0.07578277587890625 -0.00104522705078125
18.13375 0.12827301025390625 0.1142425537109375 -0.0664825439453125 -0.3895721435546875 0.00012812018394470215 0.0005824863910675049 -0.07393646240234375 0.0053558349609375
18.1435 0.135772705078125 0.1096954345703125 -0.10394287109375 -0.3938140869140625 0.00019246339797973633 -0.0012784004211425781 -0.07515335083007812 0.0131378173828125
18.15325 0.141204833984375 0.10463714599609375 -0.142822265625 -0.393829345703125 0.00047659873962402344 -0.0010423660278320312 -0.07366943359375 0.01691436767578125
18.163 0.14760589599609375 0.0987091064453125 -0.181365966796875 -0.38861083984375 0.0015013813972473145 -0.001739203929901123 -0.07164382934570312 0.024456024169921875
18.17275 0.1535797119140625 0.0941314697265625 -0.22125244140625 -0.381927490234375 0.0006063282489776611 -0.0002746880054473877 -0.06714248657226562 0.03064727783203125
18.1825 0.15901947021484375 0.08722686767578125 -0.25946044921875 -0.3721923828125 9.325891733169556e-05 -7.92182981967926e-05 -0.067138671875 0.040126800537109375
18.19225 0.162689208984375 0.08135223388671875 -0.302154541015625 -0.35546875 1.0907649993896484e-05 0.00036257505416870117 -0.06235694885253906 0.04344940185546875
18.202 0.16977691650390625 0.0752410888671875 -0.34027099609375 -0.3369140625 0.0010462403297424316 3.266334533691406e-05 -0.06027030944824219 0.05109596252441406
18.21175 0.172149658203125 0.0689239501953125 -0.38055419921875 -0.3094482421875 -0.0003987252712249756 -9.080767631530762e-05 -0.056163787841796875 0.056243896484375
18.2215 0.1789703369140625 0.06008148193359375 -0.41424560546875 -0.276580810546875 0.000469893217086792 0.00028824806213378906 -0.049671173095703125 0.060764312744140625
18.23125 0.1814727783203125 0.05368804931640625 -0.445892333984375 -0.242034912109375 -8.162856101989746e-05 -0.0005916059017181396 -0.048458099365234375 0.06386566162109375
18.241 0.18306732177734375 0.04665374755859375 -0.472412109375 -0.20379638671875 -2.8133392333984375e-05 -0.0015078186988830566 -0.042919158935546875 0.07041549682617188
18.25075 0.18663787841796875 0.03870391845703125 -0.49688720703125 -0.16314697265625 0.0006967782974243164 -0.0013306140899658203 -0.03665924072265625 0.0755157470703125
18.2605 0.1877593994140625 0.02970123291015625 -0.516693115234375 -0.119781494140625 0.00028902292251586914 -0.0007781386375427246 -0.03023529052734375 0.07755661010742188
18.27025 0.18927764892578125 0.02142333984375 -0.533294677734375 -0.074249267578125 0.00032258033752441406 -0.00042942166328430176 -0.0235137939453125 0.08199691772460938
18.28 0.19147491455078125 0.0131683349609375 -0.546661376953125 -0.026123046875 0.0011451244354248047 -8.821487426757812e-05 -0.01976776123046875 0.08406448364257812
18.28975 0.19388580322265625 0.00433349609375 -0.55462646484375 0.023712158203125 0.0011002421379089355 9.85264778137207e-05 -0.0108642578125 0.0881195068359375
18.2995 0.1941375732421875 -0.00363922119140625 -0.557861328125 0.075225830078125 -0.0004896819591522217 0.00012215971946716309 -0.003658294677734375 0.08758926391601562
18.30925 0.1938323974609375 -0.0128936767578125 -0.5538330078125 0.12908935546875 0.0004354715347290039 -0.0008254647254943848 0.004119873046875 0.090087890625
18.319 0.19185638427734375 -0.02304840087890625 -0.54388427734375 0.1805419921875 -3.676861524581909e-05 0.00014819949865341187 0.00963592529296875 0.09274673461914062
18.32875 0.19187164306640625 -0.0287933349609375 -0.5286865234375 0.230377197265625 6.526708602905273e-05 0.0005782246589660645 0.018795013427734375 0.09136199951171875
18.3385 0.19075775146484375 -0.039306640625 -0.508819580078125 0.277374267578125 -0.0007080137729644775 0.00054970383644104 0.02707672119140625 0.09573745727539062
18.34825 0.189788818359375 -0.04907989501953125 -0.4867706298828125 0.322998046875 -0.00012415647506713867 -0.0009636282920837402 0.03353118896484375 0.09344482421875
18.358 0.18597412109375 -0.05597686767578125 -0.4634857177734375 0.36627197265625 0.0005293488502502441 -0.0013647675514221191 0.04225921630859375 0.0920867919921875
18.36775 0.18567657470703125 -0.06404876708984375 -0.43292236328125 0.4095611572265625 -0.00016832351684570312 -0.0008966326713562012 0.04953765869140625 0.0893707275390625
18.3775 0.18242645263671875 -0.07262420654296875 -0.400482177734375 0.44781494140625 0.00048539042472839355 -0.0004967749118804932 0.05641937255859375 0.08780670166015625
18.38725 0.17838287353515625 -0.0803070068359375 -0.361572265625 0.48699951171875 0.0005512833595275879 -0.00021639466285705566 0.0644378662109375 0.086151123046875
18.397 0.1747894287109375 -0.087982177734375 -0.3187255859375 0.51995849609375 -0.0003546476364135742 -0.0007435083389282227 0.071746826171875 0.083221435546875
18.40675 0.16943359375 -0.0946044921875 -0.27239990234375 0.55242919921875 0.00033602118492126465 -0.0004724860191345215 0.078765869140625 0.077301025390625
18.4165 0.16425323486328125 -0.10242462158203125 -0.2225341796875 0.574462890625 0.0004398226737976074 -0.00020506978034973145 0.08300018310546875 0.0735626220703125
18.42625 0.15877532958984375 -0.10921478271484375 -0.172393798828125 0.5906982421875 -0.00035691261291503906 -0.0004443526268005371 0.0912628173828125 0.0663299560546875
18.436 0.153106689453125 -0.11656951904296875 -0.1240234375 0.60369873046875 -0.00038039684295654297 -0.0011594295501708984 0.0978546142578125 0.06267547607421875
18.44575 0.14603424072265625 -0.1229705810546875 -0.074859619140625 0.613372802734375 0.0019420385360717773 0.0005340576171875 0.10162353515625 0.0576019287109375
18.4555 0.1403350830078125 -0.12891387939453125 -0.027374267578125 0.619384765625 -0.0006067454814910889 0.0001799464225769043 0.10697174072265625 0.0494232177734375
18.46525 0.1352996826171875 -0.13460540771484375 0.024078369140625 0.6260986328125 0.0007077455520629883 -0.0009210109710693359 0.11000823974609375 0.0410003662109375
18.475 0.125762939453125 -0.1390533447265625 0.074066162109375 0.62994384765625 0.00012543797492980957 0.00025741755962371826 0.11498260498046875 0.0342254638671875
18.48475 0.12139129638671875 -0.14595794677734375 0.128326416015625 0.62689208984375 0.0003275275230407715 -0.0015010237693786621 0.1181793212890625 0.0258331298828125
18.4945 0.1130828857421875 -0.14824676513671875 0.18505859375 0.6165771484375 0.0007363557815551758 -0.00012430548667907715 0.12177276611328125 0.01638031005859375
18.50425 0.103851318359375 -0.154815673828125 0.2410888671875 0.6021728515625 0.0006363391876220703 -0.0007216334342956543 0.1226959228515625 0.0093536376953125
18.514 0.09765625 -0.1579132080078125 0.2938232421875 0.58001708984375 0.00042179226875305176 -0.0002135932445526123 0.12450408935546875 0.00173187255859375
18.52375 0.08957672119140625 -0.1591033935546875 0.342132568359375 0.5516357421875 -0.0011946558952331543 0.00021320581436157227 0.12384414672851562 -0.006206512451171875
18.5335 0.08235931396484375 -0.16408538818359375 0.3843994140625 0.522003173828125 6.586313247680664e-05 0.00045290589332580566 0.12450408935546875 -0.015872955322265625
18.54325 0.074859619140625 -0.16725921630859375 0.424468994140625 0.4915771484375 0.0005644559860229492 -0.0002881288528442383 0.12408065795898438 -0.022899627685546875
18.553 0.06665802001953125 -0.16942596435546875 0.461578369140625 0.457000732421875 0.0007944703102111816 -0.0009933710098266602 0.12171554565429688 -0.029865264892578125
18.56275 0.05896759033203125 -0.168853759765625 0.498565673828125 0.4241943359375 7.857382297515869e-05 0.00017201900482177734 0.12037277221679688 -0.037220001220703125
18.5725 0.05077362060546875 -0.17055511474609375 0.534393310546875 0.385711669921875 0.00012689828872680664 -0.0003409832715988159 0.11549758911132812 -0.04441070556640625
18.58225 0.04201507568359375 -0.17078399658203125 0.567535400390625 0.343505859375 0.0005199611186981201 -0.0003593862056732178 0.1119384765625 -0.054141998291015625
18.592 0.03398895263671875 -0.17291259765625 0.598846435546875 0.29705810546875 0.0006815493106842041 -4.357099533081055e-05 0.10882186889648438 -0.0602569580078125
18.60175 0.0257415771484375 -0.1717376708984375 0.62457275390625 0.2462158203125 -0.0002943277359008789 0.0001582801342010498 0.10338592529296875 -0.06421661376953125
18.6115 0.01801300048828125 -0.16942596435546875 0.644073486328125 0.19384765625 -0.0004882216453552246 -0.0010633468627929688 0.09784698486328125 -0.07282638549804688
18.62125 0.0095672607421875 -0.17006683349609375 0.6571044921875 0.141448974609375 0.0006178617477416992 -0.0006397664546966553 0.09225082397460938 -0.07769775390625
18.631 0.00235748291015625 -0.1677703857421875 0.6654052734375 0.092071533203125 0.0004405379295349121 -0.0015233755111694336 0.08548736572265625 -0.08275604248046875
