!Created with skrf (http://scikit-rf.org).
# GHz S RI R 50.0 
!freq ReS11 ImS11 ReS21 ImS21 ReS12 ImS12 ReS22 ImS22
17.5 0.01068115234375 -0.14134979248046875 -1.17529296875 1.41448974609375 -0.0014815330505371094 0.0007154345512390137 0.09420394897460938 0.004467010498046875
17.50975 0.00238037109375 -0.1384429931640625 -1.05255126953125 1.5008544921875 -0.000698387622833252 5.125999450683594e-05 0.09765243530273438 0.003101348876953125
17.5195 -0.00614166259765625 -0.13376617431640625 -0.922607421875 1.57318115234375 -0.0016647577285766602 0.0002428889274597168 0.10109329223632812 0.001155853271484375
17.52925 -0.0142059326171875 -0.13128662109375 -0.78857421875 1.638427734375 -0.0007185637950897217 0.0006751418113708496 0.10492706298828125 -0.00254058837890625
17.539 -0.0209808349609375 -0.1266937255859375 -0.65673828125 1.6868896484375 -0.0007773041725158691 3.904104232788086e-05 0.10498046875 -0.0055694580078125
17.54875 -0.02831268310546875 -0.123443603515625 -0.5206298828125 1.72320556640625 -0.0014466047286987305 0.0002446174621582031 0.10709762573242188 -0.00795745849609375
17.5585 -0.0384368896484375 -0.117950439453125 -0.3851318359375 1.75390625 -0.002167820930480957 0.0004361867904663086 0.10937881469726562 -0.010986328125
17.56825 -0.04438018798828125 -0.1136932373046875 -0.25360107421875 1.77618408203125 -0.0006480216979980469 0.0013850927352905273 0.11066436767578125 -0.014995574951171875
17.578 -0.0499114990234375 -0.10747528076171875 -0.10980224609375 1.7900390625 -0.001393735408782959 0.0006775856018066406 0.11222076416015625 -0.01983642578125
17.58775 -0.0558929443359375 -0.1041412353515625 0.0321044921875 1.7921142578125 -0.0009455382823944092 0.0007334351539611816 0.11255264282226562 -0.022396087646484375
17.5975 -0.060455322265625 -0.096343994140625 0.1817626953125 1.77642822265625 -0.001416921615600586 0.0003719329833984375 0.11384201049804688 -0.0271148681640625
17.60725 -0.06592559814453125 -0.09230804443359375 0.3245849609375 1.748779296875 -0.0012531876564025879 0.00044864416122436523 0.11291122436523438 -0.03112030029296875
17.617 -0.0720367431640625 -0.08486175537109375 0.4586181640625 1.701416015625 -0.001574873924255371 0.0010697245597839355 0.11525726318359375 -0.0346832275390625
17.62675 -0.07701873779296875 -0.077606201171875 0.5870361328125 1.6455078125 -0.001148521900177002 0.0012325048446655273 0.11508560180664062 -0.0397491455078125
17.6365 -0.079193115234375 -0.07183837890625 0.702880859375 1.58154296875 -0.0007619857788085938 0.0009119510650634766 0.11516571044921875 -0.0455474853515625
17.64625 -0.08339691162109375 -0.06298065185546875 0.80615234375 1.51318359375 -0.00029067695140838623 0.0001472681760787964 0.11236953735351562 -0.04974365234375
17.656 -0.08740997314453125 -0.057098388671875 0.9036865234375 1.447021484375 -0.0009360313415527344 0.001498579978942871 0.1096038818359375 -0.054210662841796875
17.66575 -0.08994293212890625 -0.04926300048828125 0.998779296875 1.3798828125 -0.0004793107509613037 0.0009630322456359863 0.10791778564453125 -0.058040618896484375
17.6755 -0.09261322021484375 -0.0414276123046875 1.0941162109375 1.3076171875 -0.0009973645210266113 0.001476585865020752 0.10380172729492188 -0.06386184692382812
17.68525 -0.09366607666015625 -0.03321075439453125 1.18994140625 1.2332763671875 -0.0005068778991699219 0.0010657906532287598 0.10244369506835938 -0.06911468505859375
17.695 -0.096282958984375 -0.0262298583984375 1.2894287109375 1.1429443359375 -0.0015259981155395508 0.0012188553810119629 0.10045242309570312 -0.0717926025390625
17.70475 -0.09748458862304688 -0.016689300537109375 1.379638671875 1.0396728515625 -0.0007425546646118164 0.0012638568878173828 0.09743118286132812 -0.07671356201171875
17.7145 -0.09925079345703125 -0.00933837890625 1.463134765625 0.921875 -0.0013821721076965332 0.0014708638191223145 0.09389877319335938 -0.079681396484375
17.72425 -0.10021591186523438 -0.000820159912109375 1.5269775390625 0.79150390625 0.00021004676818847656 0.0016965866088867188 0.09025955200195312 -0.08538055419921875
17.734 -0.10097122192382812 0.005680084228515625 1.5733642578125 0.660888671875 -0.0011979341506958008 0.0009767413139343262 0.08527755737304688 -0.0887298583984375
17.74375 -0.10123443603515625 0.0138397216796875 1.59912109375 0.5322265625 -0.0013164281845092773 0.0006716251373291016 0.0818023681640625 -0.0950775146484375
17.7535 -0.09832382202148438 0.020519256591796875 1.61444091796875 0.41314697265625 -0.0010439157485961914 0.0014243721961975098 0.07593536376953125 -0.09838485717773438
17.76325 -0.09774017333984375 0.028533935546875 1.6302490234375 0.3017578125 -0.00023984909057617188 0.0011834502220153809 0.07122421264648438 -0.09976577758789062
17.773 -0.09663772583007812 0.03443145751953125 1.63861083984375 0.196533203125 0.00010347366333007812 0.0019829273223876953 0.06744384765625 -0.10168075561523438
17.78275 -0.0948944091796875 0.0430145263671875 1.64544677734375 0.0858154296875 -0.0001850128173828125 0.0007009804248809814 0.061634063720703125 -0.10345840454101562
17.7925 -0.09224319458007812 0.049716949462890625 1.6524658203125 -0.02899169921875 -0.00036209821701049805 0.0018075108528137207 0.057964324951171875 -0.1054840087890625
17.80225 -0.0897369384765625 0.055774688720703125 1.6571044921875 -0.15203857421875 0.0008261203765869141 0.001186966896057129 0.05318450927734375 -0.10646438598632812
17.812 -0.08506393432617188 0.06456375122070312 1.64581298828125 -0.27606201171875 -0.0006832480430603027 0.0011233091354370117 0.046794891357421875 -0.10779953002929688
17.82175 -0.081329345703125 0.07119369506835938 1.62445068359375 -0.4014892578125 -0.0005432665348052979 0.0003832876682281494 0.042377471923828125 -0.10707855224609375
17.8315 -0.077972412109375 0.07730484008789062 1.58294677734375 -0.5279541015625 -0.000526726245880127 0.001095116138458252 0.03345489501953125 -0.11040115356445312
17.84125 -0.07263946533203125 0.08414459228515625 1.5347900390625 -0.645751953125 0.0005044937133789062 0.001046895980834961 0.02916717529296875 -0.10890960693359375
17.851 -0.06726837158203125 0.09127044677734375 1.4700927734375 -0.75091552734375 0.00041621923446655273 0.0015162825584411621 0.024646759033203125 -0.11099624633789062
17.86075 -0.06521224975585938 0.09638595581054688 1.4075927734375 -0.845703125 7.367134094238281e-05 0.0007524788379669189 0.0182342529296875 -0.10858917236328125
17.8705 -0.060577392578125 0.10216903686523438 1.34124755859375 -0.9364013671875 0.000580906867980957 0.000888824462890625 0.01251983642578125 -0.10800552368164062
17.88025 -0.05510711669921875 0.10855484008789062 1.27490234375 -1.022216796875 0.00024271011352539062 0.0008862614631652832 0.005733489990234375 -0.1092071533203125
17.89 -0.049709320068359375 0.11416244506835938 1.2113037109375 -1.10699462890625 0.00047338008880615234 0.0008566975593566895 0.003253936767578125 -0.10612869262695312
17.89975 -0.042949676513671875 0.11752700805664062 1.1331787109375 -1.196533203125 -0.00011646747589111328 0.0011936426162719727 -0.00533294677734375 -0.10488128662109375
17.9095 -0.038562774658203125 0.12135696411132812 1.04962158203125 -1.28485107421875 0.0009459257125854492 0.001990079879760742 -0.0104522705078125 -0.10375213623046875
17.91925 -0.0312957763671875 0.12502288818359375 0.95404052734375 -1.36181640625 -0.001263737678527832 -8.386373519897461e-05 -0.014049530029296875 -0.10150146484375
17.929 -0.0248260498046875 0.1291351318359375 0.8536376953125 -1.435546875 -0.0014358758926391602 -0.00030815601348876953 -0.02046966552734375 -0.09999847412109375
17.93875 -0.0197296142578125 0.1315460205078125 0.740234375 -1.493408203125 0.00014868378639221191 0.0004844069480895996 -0.02519989013671875 -0.09712982177734375
17.9485 -0.0122528076171875 0.13391876220703125 0.6300048828125 -1.5396728515625 -0.00042316317558288574 -0.0001932084560394287 -0.030246734619140625 -0.09393310546875
17.95825 -0.004974365234375 0.13701629638671875 0.519287109375 -1.5777587890625 -0.0002694129943847656 0.0013011693954467773 -0.032283782958984375 -0.09209442138671875
17.968 0.00225830078125 0.13944244384765625 0.4136962890625 -1.61181640625 0.0005131959915161133 0.0013779997825622559 -0.03826141357421875 -0.0887908935546875
17.97775 0.00946807861328125 0.141326904296875 0.30584716796875 -1.6376953125 0.0013613104820251465 9.059906005859375e-06 -0.041595458984375 -0.0829315185546875
17.9875 0.01873016357421875 0.14250946044921875 0.1939697265625 -1.6646728515625 0.0009199678897857666 -0.0005524754524230957 -0.04549407958984375 -0.07917022705078125
17.99725 0.026336669921875 0.14376068115234375 0.08026123046875 -1.6873779296875 0.001381516456604004 0.00020390748977661133 -0.05142974853515625 -0.07537841796875
18.007 0.0322723388671875 0.1444549560546875 -0.0433349609375 -1.704833984375 3.0308961868286133e-05 0.0008504688739776611 -0.0546417236328125 -0.07138824462890625
18.01675 0.0412750244140625 0.14501190185546875 -0.169189453125 -1.70782470703125 0.0009479820728302002 -0.0004400908946990967 -0.05883026123046875 -0.06716156005859375
18.0265 0.0491485595703125 0.1446380615234375 -0.2998046875 -1.703369140625 0.0009133815765380859 0.0005909204483032227 -0.0644683837890625 -0.0625457763671875
18.03625 0.056396484375 0.146331787109375 -0.431396484375 -1.681640625 0.0024709701538085938 0.00045800209045410156 -0.06598663330078125 -0.0558013916015625
18.046 0.06439208984375 0.145355224609375 -0.5623779296875 -1.6484375 0.0015468597412109375 4.38690185546875e-05 -0.069671630859375 -0.050540924072265625
18.05575 0.0728759765625 0.14276123046875 -0.681884765625 -1.60791015625 0.0012602806091308594 0.0009177923202514648 -0.0728912353515625 -0.045642852783203125
18.0655 0.07907867431640625 0.143035888671875 -0.79541015625 -1.555419921875 0.0008309781551361084 2.9474496841430664e-05 -0.07568359375 -0.040393829345703125
18.07525 0.08643341064453125 0.13889312744140625 -0.9068603515625 -1.5028076171875 0.0008046627044677734 0.00036650896072387695 -0.0766143798828125 -0.035297393798828125
18.085 0.09500885009765625 0.13787078857421875 -1.0179443359375 -1.4410400390625 0.0013698935508728027 0.0004912614822387695 -0.0785675048828125 -0.02776336669921875
18.09475 0.10152435302734375 0.13339996337890625 -1.1285400390625 -1.375732421875 0.00021126866340637207 0.00027498602867126465 -0.07823562622070312 -0.022289276123046875
18.1045 0.110565185546875 0.13123321533203125 -1.2386474609375 -1.3033447265625 0.0010160207748413086 0.0003083348274230957 -0.07988357543945312 -0.014156341552734375
18.11425 0.116668701171875 0.1283416748046875 -1.345458984375 -1.2127685546875 0.0011644363403320312 -0.0007201433181762695 -0.0796661376953125 -0.01096343994140625
18.124 0.122039794921875 0.1240692138671875 -1.446044921875 -1.11376953125 0.000584721565246582 -0.00024336576461791992 -0.0798797607421875 -0.002044677734375
18.13375 0.12866973876953125 0.1196136474609375 -1.5380859375 -1.00927734375 0.0011603236198425293 -0.00021141767501831055 -0.07973480224609375 0.003406524658203125
18.1435 0.13413238525390625 0.114044189453125 -1.619873046875 -0.8907470703125 0.0014170408248901367 -0.0005131363868713379 -0.07985305786132812 0.01141357421875
18.15325 0.140655517578125 0.1085662841796875 -1.69189453125 -0.765380859375 0.0016775727272033691 -0.00014907121658325195 -0.08036041259765625 0.017101287841796875
18.163 0.149505615234375 0.102081298828125 -1.754150390625 -0.6397705078125 0.0011950135231018066 -0.0007492303848266602 -0.0751495361328125 0.024871826171875
18.17275 0.1540069580078125 0.0966033935546875 -1.80615234375 -0.5059814453125 0.0007525384426116943 -0.0008648037910461426 -0.07179641723632812 0.030971527099609375
18.1825 0.1615142822265625 0.090179443359375 -1.855712890625 -0.371337890625 0.0010225176811218262 -0.0013715028762817383 -0.06929779052734375 0.038654327392578125
18.19225 0.1658172607421875 0.0837554931640625 -1.8958740234375 -0.225830078125 0.0009462237358093262 -0.0010659098625183105 -0.06789398193359375 0.044708251953125
18.202 0.17154693603515625 0.0782318115234375 -1.9195556640625 -0.079833984375 0.00018858909606933594 1.0721385478973389e-05 -0.06512069702148438 0.052303314208984375
18.21175 0.1748504638671875 0.0699920654296875 -1.9324951171875 0.078369140625 -7.82012939453125e-05 0.0005934238433837891 -0.05893707275390625 0.05809783935546875
18.2215 0.18062591552734375 0.06307220458984375 -1.92724609375 0.23516845703125 -0.00016564130783081055 -0.0014541149139404297 -0.05566596984863281 0.06111907958984375
18.23125 0.182952880859375 0.0551300048828125 -1.9085693359375 0.38922119140625 -0.00022304058074951172 -0.0003059208393096924 -0.0511322021484375 0.066802978515625
18.241 0.1879425048828125 0.047393798828125 -1.877197265625 0.541259765625 0.0014919042587280273 -0.0002560615539550781 -0.0466461181640625 0.0722503662109375
18.25075 0.18947601318359375 0.03928375244140625 -1.83294677734375 0.6839599609375 -0.0007448792457580566 -0.0005736947059631348 -0.04119873046875 0.07657241821289062
18.2605 0.19164276123046875 0.03202056884765625 -1.78082275390625 0.825927734375 -0.0004642009735107422 -0.00012043118476867676 -0.03493499755859375 0.08130645751953125
18.27025 0.1924591064453125 0.02234649658203125 -1.72174072265625 0.96533203125 0.00017273426055908203 -0.0010100603103637695 -0.0272979736328125 0.08485794067382812
18.28 0.1950225830078125 0.01419830322265625 -1.6524658203125 1.10784912109375 -6.736814975738525e-05 -0.0002069026231765747 -0.02075958251953125 0.0872955322265625
18.28975 0.19770050048828125 0.00373077392578125 -1.57098388671875 1.2410888671875 0.0017052292823791504 -0.0012797713279724121 -0.012332916259765625 0.09029769897460938
18.2995 0.1971893310546875 -0.00371551513671875 -1.470703125 1.37310791015625 0.0007777214050292969 -5.9157609939575195e-05 -0.00409698486328125 0.09210586547851562
18.30925 0.1977386474609375 -0.0140838623046875 -1.3536376953125 1.494140625 0.0013778209686279297 0.00025784969329833984 0.0012664794921875 0.09466552734375
18.319 0.195648193359375 -0.02337646484375 -1.22528076171875 1.60260009765625 -0.0010735392570495605 3.6776065826416016e-05 0.008998870849609375 0.09730911254882812
18.32875 0.195281982421875 -0.0305633544921875 -1.0911865234375 1.69439697265625 0.0013469457626342773 -0.00014215707778930664 0.019618988037109375 0.0972442626953125
18.3385 0.1928253173828125 -0.0414276123046875 -0.95159912109375 1.77032470703125 0.0007711648941040039 0.00031691789627075195 0.02661895751953125 0.09814834594726562
18.34825 0.19149017333984375 -0.0493011474609375 -0.814453125 1.841064453125 0.00011241436004638672 -0.000599980354309082 0.033966064453125 0.097930908203125
18.358 0.1898956298828125 -0.05794525146484375 -0.6749267578125 1.90179443359375 0.000291287899017334 -0.0007809698581695557 0.04297637939453125 0.0963897705078125
18.36775 0.1866912841796875 -0.06804656982421875 -0.525634765625 1.95587158203125 -0.00041049718856811523 -0.000733494758605957 0.04962158203125 0.0949554443359375
18.3775 0.18431854248046875 -0.07378387451171875 -0.374755859375 2.0013427734375 0.00039273500442504883 -0.00026023387908935547 0.057220458984375 0.09377288818359375
18.38725 0.17922210693359375 -0.08414459228515625 -0.2095947265625 2.031982421875 0.0001226663589477539 -0.0007675588130950928 0.06463623046875 0.08974456787109375
18.397 0.1760711669921875 -0.091552734375 -0.0400390625 2.04736328125 -0.0003975033760070801 -0.00026154518127441406 0.071868896484375 0.086822509765625
18.40675 0.1707916259765625 -0.0970611572265625 0.134765625 2.045166015625 0.00038301944732666016 -0.0005742311477661133 0.0812225341796875 0.081298828125
18.4165 0.166351318359375 -0.1055145263671875 0.2999267578125 2.0211181640625 -3.539770841598511e-05 0.00014538317918777466 0.0871734619140625 0.07891845703125
18.42625 0.16097259521484375 -0.11316680908203125 0.456298828125 1.9783935546875 0.00039224326610565186 7.975101470947266e-05 0.0941314697265625 0.072479248046875
18.436 0.1526641845703125 -0.118438720703125 0.603759765625 1.927490234375 -0.0006989240646362305 0.0007132589817047119 0.10021209716796875 0.06670379638671875
18.44575 0.14759063720703125 -0.12540435791015625 0.7430419921875 1.8714599609375 -0.00012630224227905273 -0.0003712177276611328 0.1044158935546875 0.05881500244140625
18.4555 0.1389923095703125 -0.13117218017578125 0.878173828125 1.8095703125 0.0014147758483886719 -0.00045353174209594727 0.1096343994140625 0.0531768798828125
18.46525 0.133544921875 -0.13922119140625 1.01318359375 1.747314453125 -0.00017940998077392578 -0.0004050135612487793 0.1161346435546875 0.0438995361328125
18.475 0.125732421875 -0.14261627197265625 1.1468505859375 1.6734619140625 0.00022554397583007812 -0.0020815134048461914 0.12062835693359375 0.03661346435546875
18.48475 0.11928558349609375 -0.14768218994140625 1.284912109375 1.5836181640625 0.0015399456024169922 -3.933906555175781e-06 0.12331390380859375 0.027374267578125
18.4945 0.1098785400390625 -0.1512603759765625 1.4114990234375 1.4716796875 -5.862116813659668e-05 -0.0006920695304870605 0.12641143798828125 0.01953125
18.50425 0.1025238037109375 -0.157012939453125 1.531494140625 1.348388671875 0.00087738037109375 -0.0003178119659423828 0.12677001953125 0.0110321044921875
18.514 0.096527099609375 -0.1604156494140625 1.629638671875 1.212890625 0.0005384683609008789 8.565187454223633e-05 0.12890625 0.001617431640625
18.52375 0.0871124267578125 -0.16124725341796875 1.7093505859375 1.070068359375 -0.00041034817695617676 -0.00026607513427734375 0.12903594970703125 -0.0058746337890625
18.5335 0.079864501953125 -0.1653289794921875 1.7730712890625 0.92822265625 -0.0007801055908203125 -0.0004118680953979492 0.1305084228515625 -0.0137481689453125
18.54325 0.0708160400390625 -0.1686248779296875 1.825439453125 0.7939453125 -0.0005320608615875244 -0.00022679567337036133 0.12899017333984375 -0.02320098876953125
18.553 0.063690185546875 -0.16988372802734375 1.868896484375 0.655517578125 8.325278759002686e-05 -0.0002546459436416626 0.1277618408203125 -0.03104400634765625
18.56275 0.0567474365234375 -0.16985321044921875 1.9119873046875 0.523681640625 0.00021360814571380615 2.9012560844421387e-05 0.12482833862304688 -0.03830718994140625
18.5725 0.04718017578125 -0.171722412109375 1.94580078125 0.3818359375 8.594989776611328e-05 -0.0008807182312011719 0.11986541748046875 -0.045989990234375
18.58225 0.04012298583984375 -0.17192840576171875 1.97216796875 0.2332763671875 -0.0006076693534851074 -0.0006601810455322266 0.11731719970703125 -0.0552978515625
18.592 0.03058624267578125 -0.1720123291015625 1.9866943359375 0.076171875 -0.00013107061386108398 -0.0006917417049407959 0.11041641235351562 -0.060619354248046875
18.60175 0.0230865478515625 -0.170684814453125 1.988525390625 -0.0821533203125 -0.0001468956470489502 -0.0002506375312805176 0.10616302490234375 -0.066650390625
18.6115 0.01502227783203125 -0.16965484619140625 1.96392822265625 -0.2373046875 0.0005202889442443848 -0.00021255016326904297 0.10085296630859375 -0.07541656494140625
18.62125 0.00807952880859375 -0.1691436767578125 1.93072509765625 -0.3843994140625 0.0009578466415405273 -0.000995039939880371 0.09497833251953125 -0.08027267456054688
18.631 0.00038909912109375 -0.16716766357421875 1.88336181640625 -0.5157470703125 -0.0004958510398864746 -0.0006214380264282227 0.08974075317382812 -0.08498382568359375
18.64075 -0.00830078125 -0.16602325439453125 1.83148193359375 -0.64129638671875 -0.0003587007522583008 -0.0006018579006195068 0.082275390625 -0.0898284912109375
18.6505 -0.01430511474609375 -0.16352081298828125 1.77911376953125 -0.761474609375 3.8564205169677734e-05 -0.0002442300319671631 0.07701492309570312 -0.09394073486328125
18.66025 -0.02342987060546875 -0.16088104248046875 1.7257080078125 -0.88262939453125 0.00013837963342666626 -5.65648078918457e-05 0.06879043579101562 -0.09631729125976562
18.67 -0.02796173095703125 -0.1585693359375 1.6669921875 -1.00177001953125 -0.0008800327777862549 0.0004068613052368164 0.06396102905273438 -0.09864044189453125
