!Created with skrf (http://scikit-rf.org).
# GHz S RI R 50.0 
!freq ReS11 ImS11 ReS21 ImS21 ReS12 ImS12 ReS22 ImS22
17.5 0.00939178466796875 -0.1413116455078125 -0.95294189453125 1.078125 -0.0009766221046447754 0.0006630420684814453 0.09589767456054688 0.00377655029296875
17.50975 0.00179290771484375 -0.138275146484375 -0.85479736328125 1.14849853515625 -0.0011649727821350098 0.00028198957443237305 0.098114013671875 0.00177001953125
17.5195 -0.00628662109375 -0.1334991455078125 -0.754150390625 1.20831298828125 -0.002087116241455078 0.0012503862380981445 0.10095977783203125 0.001651763916015625
17.52925 -0.0146942138671875 -0.13095855712890625 -0.650634765625 1.258544921875 -0.002238154411315918 0.0009149312973022461 0.10329437255859375 -0.004199981689453125
17.539 -0.0212860107421875 -0.12640380859375 -0.5496826171875 1.2996826171875 -0.0005663037300109863 0.00015550851821899414 0.10591888427734375 -0.00675201416015625
17.54875 -0.03003692626953125 -0.1231231689453125 -0.44293212890625 1.32958984375 -0.0010475516319274902 0.0011265277862548828 0.1078338623046875 -0.007415771484375
17.5585 -0.0391845703125 -0.118560791015625 -0.338134765625 1.3565673828125 -0.0021691322326660156 0.00196993350982666 0.11085128784179688 -0.01371002197265625
17.56825 -0.04410552978515625 -0.11405181884765625 -0.23504638671875 1.376220703125 -0.0008561611175537109 0.0005659759044647217 0.11106109619140625 -0.016498565673828125
17.578 -0.05086517333984375 -0.1071624755859375 -0.12554931640625 1.38641357421875 -0.0005535483360290527 0.0003591477870941162 0.1125640869140625 -0.02020263671875
17.58775 -0.05760955810546875 -0.10300445556640625 -0.0126953125 1.38958740234375 -0.0010094046592712402 0.0012096762657165527 0.11321258544921875 -0.0249176025390625
17.5975 -0.06208038330078125 -0.09740447998046875 0.1033935546875 1.3800048828125 -0.0011786818504333496 0.00039142370223999023 0.11431121826171875 -0.02835845947265625
17.60725 -0.06691741943359375 -0.09151458740234375 0.21368408203125 1.35650634765625 -0.0011367201805114746 0.00011944770812988281 0.11292266845703125 -0.03284454345703125
17.617 -0.07230377197265625 -0.08396148681640625 0.31854248046875 1.325439453125 -0.0005912482738494873 0.0008123219013214111 0.11499404907226562 -0.03633880615234375
17.62675 -0.077301025390625 -0.07718658447265625 0.416259765625 1.2830810546875 -0.0021551847457885742 0.0011152029037475586 0.11511611938476562 -0.040752410888671875
17.6365 -0.08062744140625 -0.0697479248046875 0.50830078125 1.2352294921875 -0.0006392598152160645 0.0009259581565856934 0.11379241943359375 -0.044952392578125
17.64625 -0.084686279296875 -0.062744140625 0.5859375 1.18328857421875 -8.785724639892578e-05 0.0007342398166656494 0.11156463623046875 -0.050357818603515625
17.656 -0.08885955810546875 -0.0573272705078125 0.6646728515625 1.13336181640625 -0.0010672211647033691 0.0006507635116577148 0.10929107666015625 -0.055088043212890625
17.66575 -0.08997344970703125 -0.04726409912109375 0.73565673828125 1.08343505859375 -0.0016347765922546387 0.00031560659408569336 0.10817337036132812 -0.05867767333984375
17.6755 -0.0930938720703125 -0.04071044921875 0.80828857421875 1.02947998046875 -0.00022584199905395508 0.0017456412315368652 0.10480499267578125 -0.0658416748046875
17.68525 -0.0951995849609375 -0.03295135498046875 0.8828125 0.9716796875 -0.0006194114685058594 0.0015527009963989258 0.1016845703125 -0.06810379028320312
17.695 -0.096954345703125 -0.02495574951171875 0.9600830078125 0.9071044921875 -0.0010821819305419922 0.0015864968299865723 0.10036087036132812 -0.07246017456054688
17.70475 -0.09820175170898438 -0.01569366455078125 1.03057861328125 0.827880859375 -0.001165628433227539 0.001617729663848877 0.09729385375976562 -0.07731246948242188
17.7145 -0.10010147094726562 -0.008152008056640625 1.094482421875 0.73797607421875 9.173154830932617e-05 0.0009267330169677734 0.0912933349609375 -0.08150863647460938
17.72425 -0.09978866577148438 -0.00066375732421875 1.1446533203125 0.6427001953125 -0.00040046870708465576 0.00040405988693237305 0.08878707885742188 -0.084930419921875
17.734 -0.10128402709960938 0.006771087646484375 1.18408203125 0.543701171875 1.7508864402770996e-05 0.00020945072174072266 0.08489990234375 -0.09011459350585938
17.74375 -0.10121917724609375 0.01491546630859375 1.2032470703125 0.4473876953125 -0.00037550926208496094 0.00045180320739746094 0.079925537109375 -0.09393310546875
17.7535 -0.09946441650390625 0.02185821533203125 1.21905517578125 0.35791015625 -0.0005141496658325195 0.0018243193626403809 0.0745697021484375 -0.09752273559570312
17.76325 -0.09838104248046875 0.02933502197265625 1.230224609375 0.275146484375 0.00034376978874206543 -4.0844082832336426e-05 0.0702362060546875 -0.09871292114257812
17.773 -0.09638214111328125 0.036701202392578125 1.23828125 0.19537353515625 2.9265880584716797e-05 0.0015770792961120605 0.06656265258789062 -0.10172653198242188
17.78275 -0.09450149536132812 0.044628143310546875 1.24468994140625 0.11260986328125 0.0004341602325439453 0.0021926164627075195 0.061222076416015625 -0.10374832153320312
17.7925 -0.09215927124023438 0.0495452880859375 1.2530517578125 0.0279541015625 0.0008401870727539062 0.0015882253646850586 0.057010650634765625 -0.10483551025390625
17.80225 -0.08803558349609375 0.05776214599609375 1.25909423828125 -0.06036376953125 -0.00029027462005615234 0.0008743107318878174 0.053287506103515625 -0.1064453125
17.812 -0.08446502685546875 0.0646209716796875 1.25390625 -0.1566162109375 0.00028321146965026855 0.00036960840225219727 0.04583740234375 -0.10817718505859375
17.82175 -0.0810394287109375 0.07207107543945312 1.238525390625 -0.25146484375 0.0009288191795349121 0.00039631128311157227 0.04113006591796875 -0.10761260986328125
17.8315 -0.0772857666015625 0.079315185546875 1.2142333984375 -0.34539794921875 0.0003088712692260742 0.0008825063705444336 0.035175323486328125 -0.10857391357421875
17.84125 -0.073486328125 0.0853424072265625 1.1790771484375 -0.4317626953125 -0.0010856389999389648 0.0016170740127563477 0.0284271240234375 -0.10845947265625
17.851 -0.06861114501953125 0.09241867065429688 1.1353759765625 -0.5118408203125 0.0002516508102416992 0.0021207332611083984 0.022674560546875 -0.1081390380859375
17.86075 -0.06387710571289062 0.09679031372070312 1.092529296875 -0.58392333984375 5.918741226196289e-05 0.0015802979469299316 0.0179443359375 -0.10867691040039062
17.8705 -0.060222625732421875 0.10213470458984375 1.046875 -0.65185546875 -0.0005307197570800781 0.0017347335815429688 0.0107269287109375 -0.10695648193359375
17.88025 -0.051090240478515625 0.10866928100585938 1.00286865234375 -0.71905517578125 0.0008352994918823242 0.0012680292129516602 0.005168914794921875 -0.1063690185546875
17.89 -0.04885101318359375 0.114227294921875 0.956298828125 -0.784332275390625 0.0003758668899536133 0.0016336441040039062 0.000881195068359375 -0.10436630249023438
17.89975 -0.04174041748046875 0.119171142578125 0.90380859375 -0.851318359375 0.0005279779434204102 0.0008019804954528809 -0.004550933837890625 -0.10514068603515625
17.9095 -0.038890838623046875 0.12311935424804688 0.8463134765625 -0.91790771484375 0.0005285739898681641 0.0019336938858032227 -0.00962066650390625 -0.10322952270507812
17.91925 -0.03021240234375 0.12551116943359375 0.781036376953125 -0.9805908203125 -0.0003011077642440796 0.0002576857805252075 -0.014583587646484375 -0.10211563110351562
17.929 -0.023773193359375 0.1298980712890625 0.71044921875 -1.0396728515625 6.67572021484375e-05 0.001537919044494629 -0.02108001708984375 -0.0994110107421875
17.93875 -0.01740264892578125 0.13329315185546875 0.63055419921875 -1.08837890625 0.0008984804153442383 0.0013889074325561523 -0.02394866943359375 -0.09579849243164062
17.9485 -0.0095367431640625 0.13536834716796875 0.55224609375 -1.12591552734375 0.0002689659595489502 -0.0005895793437957764 -0.029796600341796875 -0.09299850463867188
17.95825 -0.004547119140625 0.137786865234375 0.4744873046875 -1.16070556640625 0.0007506012916564941 0.0006082653999328613 -0.0322418212890625 -0.09132003784179688
17.968 0.00257110595703125 0.1398468017578125 0.398193359375 -1.19061279296875 0.001695394515991211 0.00041496753692626953 -0.03914642333984375 -0.085845947265625
17.97775 0.0112762451171875 0.14017486572265625 0.32232666015625 -1.2158203125 0.0005051493644714355 -3.388524055480957e-05 -0.04331207275390625 -0.08191680908203125
17.9875 0.01963043212890625 0.14189910888671875 0.24139404296875 -1.242919921875 0.0012906789779663086 0.0006684064865112305 -0.045989990234375 -0.07891082763671875
17.99725 0.0274658203125 0.14238739013671875 0.15985107421875 -1.26861572265625 0.0003762245178222656 0.0012314915657043457 -0.05034637451171875 -0.07367706298828125
18.007 0.03498077392578125 0.1449432373046875 0.07275390625 -1.28912353515625 -0.00014734268188476562 0.0006144046783447266 -0.0556640625 -0.07007598876953125
18.01675 0.0418701171875 0.1438140869140625 -0.02044677734375 -1.30157470703125 0.0015903115272521973 0.000299990177154541 -0.058155059814453125 -0.06516647338867188
18.0265 0.049468994140625 0.144622802734375 -0.11865234375 -1.3082275390625 0.0006895065307617188 0.00018388032913208008 -0.0629425048828125 -0.05999755859375
18.03625 0.05584716796875 0.1460113525390625 -0.2178955078125 -1.302734375 0.0008550882339477539 0.0006285905838012695 -0.06681060791015625 -0.05553436279296875
18.046 0.06545257568359375 0.14418792724609375 -0.31683349609375 -1.288818359375 0.0009946227073669434 -0.001159071922302246 -0.06804656982421875 -0.048419952392578125
18.05575 0.07221221923828125 0.1407012939453125 -0.40960693359375 -1.270263671875 0.00039386749267578125 0.0006068944931030273 -0.07127761840820312 -0.0446929931640625
18.0655 0.0792694091796875 0.141143798828125 -0.49798583984375 -1.24169921875 0.0006687045097351074 -1.4603137969970703e-06 -0.07432174682617188 -0.03968048095703125
18.07525 0.0883026123046875 0.138214111328125 -0.5865478515625 -1.21002197265625 0.0019336342811584473 -0.0007991790771484375 -0.07521438598632812 -0.03406524658203125
18.085 0.09641265869140625 0.1365509033203125 -0.677001953125 -1.17718505859375 0.0005717277526855469 -0.0010859966278076172 -0.07806015014648438 -0.027202606201171875
18.09475 0.1017303466796875 0.13289642333984375 -0.76873779296875 -1.13909912109375 0.0006049275398254395 0.00048595666885375977 -0.07590484619140625 -0.02272796630859375
18.1045 0.10959625244140625 0.12950897216796875 -0.85552978515625 -1.091552734375 0.0024787187576293945 0.0005830526351928711 -0.07932662963867188 -0.01268768310546875
18.11425 0.11557769775390625 0.12715911865234375 -0.9468994140625 -1.03387451171875 0.0005245804786682129 -0.0013153553009033203 -0.07831954956054688 -0.010814666748046875
18.124 0.1216583251953125 0.1218719482421875 -1.0325927734375 -0.9681396484375 0.0002212226390838623 -0.0002151578664779663 -0.07720184326171875 -0.0020751953125
18.13375 0.12938690185546875 0.11779022216796875 -1.1131591796875 -0.8953857421875 0.00010675191879272461 -0.0016530752182006836 -0.07772064208984375 0.00384521484375
18.1435 0.13466644287109375 0.1132965087890625 -1.18798828125 -0.8125 -0.000389784574508667 -0.0001367032527923584 -0.07851409912109375 0.01171112060546875
18.15325 0.1409759521484375 0.1077117919921875 -1.2545166015625 -0.72320556640625 0.0013266801834106445 -0.00015223026275634766 -0.07764053344726562 0.017719268798828125
18.163 0.1482391357421875 0.1024169921875 -1.315185546875 -0.630126953125 0.0008240044116973877 -0.0003135800361633301 -0.07522964477539062 0.025989532470703125
18.17275 0.1544647216796875 0.0955963134765625 -1.36944580078125 -0.531005859375 0.0007373392581939697 -0.0006959140300750732 -0.0699615478515625 0.030399322509765625
18.1825 0.15948486328125 0.0888214111328125 -1.419921875 -0.43048095703125 0.00037300586700439453 1.6301870346069336e-05 -0.06826019287109375 0.0380706787109375
18.19225 0.1641082763671875 0.08269500732421875 -1.46630859375 -0.32171630859375 0.0008496642112731934 0.00028645992279052734 -0.0649566650390625 0.04479217529296875
18.202 0.16961669921875 0.07605743408203125 -1.49859619140625 -0.2080078125 0.0011331439018249512 -0.00032073259353637695 -0.06490325927734375 0.051311492919921875
18.21175 0.1743927001953125 0.068634033203125 -1.523681640625 -0.0843505859375 1.611560583114624e-05 -0.000109061598777771 -0.058750152587890625 0.05715179443359375
18.2215 0.1793060302734375 0.0610504150390625 -1.5357666015625 0.03924560546875 -0.0003676861524581909 0.00011897087097167969 -0.05490875244140625 0.060871124267578125
18.23125 0.18402862548828125 0.05426025390625 -1.5369873046875 0.16265869140625 0.0010170340538024902 -0.0001583099365234375 -0.051361083984375 0.06622695922851562
18.241 0.1864471435546875 0.04709625244140625 -1.524169921875 0.2861328125 0.0006582736968994141 -0.0002504587173461914 -0.044780731201171875 0.07234954833984375
18.25075 0.1882476806640625 0.04045867919921875 -1.50244140625 0.40435791015625 0.0007984340190887451 -0.00020590424537658691 -0.039348602294921875 0.07756423950195312
18.2605 0.191558837890625 0.030914306640625 -1.471923828125 0.521484375 0.00013779103755950928 -7.573515176773071e-05 -0.03455352783203125 0.08048629760742188
18.27025 0.1928863525390625 0.02207183837890625 -1.439453125 0.636962890625 0.0014674067497253418 -7.236003875732422e-05 -0.0269317626953125 0.08361053466796875
18.28 0.19515228271484375 0.01385498046875 -1.39501953125 0.758056640625 0.0006267726421356201 -0.0008828341960906982 -0.02109527587890625 0.0861358642578125
18.28975 0.196136474609375 0.0051116943359375 -1.33880615234375 0.87237548828125 -7.584691047668457e-06 -0.0003339797258377075 -0.013645172119140625 0.0912933349609375
18.2995 0.196502685546875 -0.00353240966796875 -1.27020263671875 0.98583984375 -0.0005943775177001953 -0.0012494325637817383 -0.0049896240234375 0.08986663818359375
18.30925 0.1965484619140625 -0.0130615234375 -1.186767578125 1.0931396484375 -0.00015470385551452637 0.00025266408920288086 0.00213623046875 0.09261322021484375
18.319 0.194671630859375 -0.0226287841796875 -1.092529296875 1.1907958984375 0.0005346536636352539 -0.0017072558403015137 0.009098052978515625 0.09532928466796875
18.32875 0.19368743896484375 -0.02899169921875 -0.9937744140625 1.27703857421875 -0.0005844831466674805 -0.0008352398872375488 0.01984405517578125 0.09569168090820312
18.3385 0.19112396240234375 -0.04056549072265625 -0.8861083984375 1.3489990234375 -0.00048810243606567383 -0.0005598664283752441 0.0278778076171875 0.0970458984375
18.34825 0.1916046142578125 -0.04964447021484375 -0.7833251953125 1.41815185546875 -0.00023572146892547607 0.0002932697534561157 0.03359222412109375 0.09709930419921875
18.358 0.1888580322265625 -0.0577239990234375 -0.67523193359375 1.4771728515625 -0.00011579692363739014 -0.00033433735370635986 0.0428466796875 0.09508514404296875
18.36775 0.1867218017578125 -0.06640625 -0.55670166015625 1.5322265625 0.0009167790412902832 -0.000987410545349121 0.04998016357421875 0.09307861328125
18.3775 0.18361663818359375 -0.07525634765625 -0.44000244140625 1.58148193359375 0.0008895993232727051 0.0006266236305236816 0.05637359619140625 0.0904998779296875
18.38725 0.17919158935546875 -0.0830078125 -0.30914306640625 1.62152099609375 0.0005464255809783936 7.31348991394043e-05 0.06524658203125 0.08953094482421875
18.397 0.17608642578125 -0.0885467529296875 -0.1739501953125 1.6427001953125 0.00015228986740112305 -0.0007593631744384766 0.0717620849609375 0.0869903564453125
18.40675 0.1703948974609375 -0.0975799560546875 -0.031494140625 1.6533203125 -4.2557716369628906e-05 -0.0002224743366241455 0.079193115234375 0.081024169921875
18.4165 0.1657257080078125 -0.10480499267578125 0.1036376953125 1.64739990234375 -0.0001454278826713562 3.559887409210205e-05 0.0851287841796875 0.0768585205078125
18.42625 0.16015625 -0.1114349365234375 0.23486328125 1.625732421875 0.00047278404235839844 -0.0001548081636428833 0.091461181640625 0.0721282958984375
18.436 0.15331268310546875 -0.1179656982421875 0.3572998046875 1.5958251953125 -6.058812141418457e-05 -0.00028277933597564697 0.100311279296875 0.0658111572265625
18.44575 0.1470794677734375 -0.12555694580078125 0.474853515625 1.5606689453125 0.0003272593021392822 0.00020334124565124512 0.10334014892578125 0.0579833984375
18.4555 0.14056396484375 -0.13019561767578125 0.5880126953125 1.51904296875 9.178370237350464e-05 -0.00013785064220428467 0.108367919921875 0.05234527587890625
18.46525 0.134796142578125 -0.13653564453125 0.7022705078125 1.4793701171875 -0.00035916268825531006 0.00028984248638153076 0.11373138427734375 0.04169464111328125
18.475 0.1258392333984375 -0.14238739013671875 0.818603515625 1.42919921875 0.0005412101745605469 -0.0006056129932403564 0.11943817138671875 0.03588104248046875
18.48475 0.119720458984375 -0.14675140380859375 0.9361572265625 1.36669921875 -5.647540092468262e-05 -0.00040081143379211426 0.121795654296875 0.02657318115234375
18.4945 0.11074066162109375 -0.1508941650390625 1.0482177734375 1.2862548828125 0.0006380677223205566 -0.00037384033203125 0.12603759765625 0.01909637451171875
18.50425 0.1035614013671875 -0.157318115234375 1.154541015625 1.1943359375 0.00024580955505371094 0.00017267465591430664 0.126251220703125 0.0113677978515625
18.514 0.0955963134765625 -0.159881591796875 1.246337890625 1.091552734375 -0.0008344650268554688 0.0004767775535583496 0.12786865234375 0.0020294189453125
18.52375 0.08594512939453125 -0.16172027587890625 1.32080078125 0.979736328125 0.00033992528915405273 0.0001666247844696045 0.1277313232421875 -0.006500244140625
18.5335 0.080963134765625 -0.16524505615234375 1.3824462890625 0.8719482421875 0.0011661052703857422 0.0003947615623474121 0.1291351318359375 -0.01360321044921875
18.54325 0.0728759765625 -0.168548583984375 1.4339599609375 0.7637939453125 0.000853121280670166 -0.0004691183567047119 0.12755584716796875 -0.02425384521484375
18.553 0.0647430419921875 -0.17034149169921875 1.4815673828125 0.654296875 -3.395974636077881e-05 -0.00025281310081481934 0.1256866455078125 -0.030303955078125
18.56275 0.05609893798828125 -0.16959381103515625 1.524658203125 0.5474853515625 0.0002383589744567871 -0.00036007165908813477 0.12346267700195312 -0.03896331787109375
18.5725 0.04894256591796875 -0.1712646484375 1.564697265625 0.4342041015625 0.00030037760734558105 -0.0007545948028564453 0.11977005004882812 -0.046382904052734375
18.58225 0.04095458984375 -0.1711273193359375 1.59930419921875 0.31451416015625 5.424022674560547e-05 -0.0009978413581848145 0.11393356323242188 -0.056011199951171875
18.592 0.0321044921875 -0.1724700927734375 1.62152099609375 0.18841552734375 0.0012576580047607422 -0.00017064809799194336 0.11072540283203125 -0.060802459716796875
18.60175 0.0235595703125 -0.1710662841796875 1.6312255859375 0.0567626953125 0.00033855438232421875 0.00028008222579956055 0.104827880859375 -0.0676116943359375
18.6115 0.01570892333984375 -0.169647216796875 1.62384033203125 -0.07183837890625 -0.0007291734218597412 0.00027364492416381836 0.10133743286132812 -0.0745849609375
18.62125 0.007537841796875 -0.1693572998046875 1.60491943359375 -0.1953125 1.656264066696167e-05 0.00013031065464019775 0.09448623657226562 -0.07984542846679688
18.631 0.00077056884765625 -0.16638946533203125 1.57757568359375 -0.3057861328125 -0.0009717941284179688 -0.0017050504684448242 0.08791351318359375 -0.08387374877929688
18.64075 -0.0074920654296875 -0.16668701171875 1.54248046875 -0.4136962890625 0.0004378855228424072 0.00015053153038024902 0.0827484130859375 -0.08844375610351562
18.6505 -0.01470947265625 -0.164337158203125 1.509033203125 -0.51776123046875 0.0011232495307922363 -0.000763237476348877 0.07672882080078125 -0.09328842163085938
18.66025 -0.0220947265625 -0.16161346435546875 1.47265625 -0.62078857421875 0.00026738643646240234 -0.0008186399936676025 0.06976318359375 -0.09386825561523438
18.67 -0.02954864501953125 -0.1593017578125 1.4322509765625 -0.7254638671875 0.000518798828125 -0.0018496513366699219 0.06272506713867188 -0.09689712524414062
