!Created with skrf (http://scikit-rf.org).
# GHz S RI R 50.0 
!freq ReS11 ImS11 ReS21 ImS21 ReS12 ImS12 ReS22 ImS22
17.5 0.01434326171875 -0.13817596435546875 -2.258056640625 2.63330078125 -0.0012632012367248535 2.4378299713134766e-05 0.090545654296875 0.00620269775390625
17.50975 0.0044097900390625 -0.1366424560546875 -2.0311279296875 2.8016357421875 -0.0025560855865478516 -0.00019025802612304688 0.094482421875 0.005847930908203125
17.5195 -0.0023040771484375 -0.13140106201171875 -1.7926025390625 2.9462890625 -0.0011166930198669434 0.0018172264099121094 0.09734725952148438 0.0038299560546875
17.52925 -0.0104522705078125 -0.12798309326171875 -1.5499267578125 3.07568359375 -0.0013713240623474121 0.000745236873626709 0.10154342651367188 0.00153350830078125
17.539 -0.018310546875 -0.1236572265625 -1.30224609375 3.175537109375 -0.0022814273834228516 0.0006849765777587891 0.10169219970703125 -0.00223541259765625
17.54875 -0.025177001953125 -0.12024688720703125 -1.0518798828125 3.255126953125 -0.0006250143051147461 0.0012584924697875977 0.10583877563476562 -0.00383758544921875
17.5585 -0.035003662109375 -0.117279052734375 -0.80029296875 3.322509765625 -0.0011985301971435547 0.0005922913551330566 0.10747528076171875 -0.007236480712890625
17.56825 -0.0385284423828125 -0.1124725341796875 -0.554931640625 3.3756103515625 -0.00212860107421875 0.000880122184753418 0.108978271484375 -0.01141357421875
17.578 -0.046539306640625 -0.10575103759765625 -0.28515625 3.4146728515625 -0.0011501908302307129 -0.0001989603042602539 0.11153030395507812 -0.014530181884765625
17.58775 -0.05156707763671875 -0.1018524169921875 -0.0111083984375 3.427001953125 -0.0015891194343566895 0.00078582763671875 0.11235427856445312 -0.018154144287109375
17.5975 -0.05574798583984375 -0.097503662109375 0.2735595703125 3.4132080078125 -0.0010318160057067871 0.0008171200752258301 0.1136322021484375 -0.02252197265625
17.60725 -0.06159210205078125 -0.09372711181640625 0.5469970703125 3.3682861328125 -0.00013321638107299805 0.000948101282119751 0.11407852172851562 -0.026172637939453125
17.617 -0.067901611328125 -0.08502197265625 0.813232421875 3.294921875 -0.0012211799621582031 0.0005224943161010742 0.11443328857421875 -0.03076934814453125
17.62675 -0.07292938232421875 -0.07900238037109375 1.063232421875 3.198974609375 -0.0017987489700317383 0.0012494921684265137 0.11513519287109375 -0.034839630126953125
17.6365 -0.0764007568359375 -0.072509765625 1.29248046875 3.0810546875 -0.0007137060165405273 0.0015635490417480469 0.11513519287109375 -0.04150390625
17.64625 -0.07867431640625 -0.06424713134765625 1.49609375 2.95849609375 -0.0019544363021850586 0.0016258955001831055 0.11339569091796875 -0.044528961181640625
17.656 -0.0843505859375 -0.0598602294921875 1.6943359375 2.835693359375 -0.0006573200225830078 0.0018747448921203613 0.11055755615234375 -0.049442291259765625
17.66575 -0.08557891845703125 -0.0503387451171875 1.8857421875 2.7177734375 -0.0006963014602661133 0.0014675259590148926 0.11128616333007812 -0.055164337158203125
17.6755 -0.08919525146484375 -0.0434722900390625 2.07373046875 2.582763671875 -0.0016658306121826172 0.0005466341972351074 0.10643768310546875 -0.060802459716796875
17.68525 -0.09227752685546875 -0.0353240966796875 2.2705078125 2.4453125 -0.0012922286987304688 -1.9073486328125e-06 0.10535430908203125 -0.06520462036132812
17.695 -0.0940399169921875 -0.02812957763671875 2.466796875 2.279052734375 0.000440061092376709 0.00020048022270202637 0.10330581665039062 -0.06916427612304688
17.70475 -0.09460067749023438 -0.019176483154296875 2.6591796875 2.08349609375 0.0005831122398376465 0.001089334487915039 0.1010284423828125 -0.07416152954101562
17.7145 -0.09740066528320312 -0.01157379150390625 2.835205078125 1.85693359375 -0.00024694204330444336 0.001744389533996582 0.09622955322265625 -0.0782470703125
17.72425 -0.09747695922851562 -0.00536346435546875 2.970947265625 1.608154296875 0.0003497600555419922 0.0012263059616088867 0.09292984008789062 -0.08359909057617188
17.734 -0.09906005859375 0.00299835205078125 3.074951171875 1.349853515625 -0.0004817843437194824 0.0014098882675170898 0.09159469604492188 -0.08860015869140625
17.74375 -0.1006622314453125 0.00952911376953125 3.130859375 1.0947265625 -0.0011113882064819336 0.0005487203598022461 0.08412933349609375 -0.09099578857421875
17.7535 -0.09744644165039062 0.017368316650390625 3.17822265625 0.855224609375 -0.0005182921886444092 0.0007894933223724365 0.0820159912109375 -0.09618377685546875
17.76325 -0.09604644775390625 0.0260009765625 3.2127685546875 0.6337890625 0.00016868114471435547 0.0005466341972351074 0.07599639892578125 -0.09830474853515625
17.773 -0.09610366821289062 0.0322418212890625 3.23681640625 0.421142578125 0.0004963278770446777 0.0011050105094909668 0.07260513305664062 -0.10137557983398438
17.78275 -0.0932159423828125 0.039035797119140625 3.260498046875 0.200927734375 -0.0011487603187561035 0.0010738372802734375 0.06766510009765625 -0.10176467895507812
17.7925 -0.091644287109375 0.045642852783203125 3.2840576171875 -0.0274658203125 0.00010192394256591797 0.0012736916542053223 0.062183380126953125 -0.10591506958007812
17.80225 -0.0891265869140625 0.053630828857421875 3.2960205078125 -0.2734375 -0.00023436546325683594 0.0010131597518920898 0.056732177734375 -0.10712814331054688
17.812 -0.08599472045898438 0.06072998046875 3.2845458984375 -0.53125 0.0014132261276245117 0.0008205175399780273 0.050579071044921875 -0.10952377319335938
17.82175 -0.08258056640625 0.06815338134765625 3.2452392578125 -0.789306640625 0.00102919340133667 0.0008745789527893066 0.0475921630859375 -0.10823822021484375
17.8315 -0.07964324951171875 0.07407379150390625 3.169189453125 -1.0504150390625 -0.0002995729446411133 -4.559755325317383e-05 0.039714813232421875 -0.11025238037109375
17.84125 -0.07616424560546875 0.07997894287109375 3.073486328125 -1.292236328125 0.001143336296081543 0.0007659196853637695 0.03354644775390625 -0.11029815673828125
17.851 -0.07049942016601562 0.08805465698242188 2.940185546875 -1.5137939453125 0.0007379055023193359 0.0003142356872558594 0.028522491455078125 -0.11223983764648438
17.86075 -0.067413330078125 0.09387969970703125 2.8153076171875 -1.7132568359375 0.0010302066802978516 0.0009770393371582031 0.02280426025390625 -0.11062240600585938
17.8705 -0.06338882446289062 0.09952926635742188 2.6815185546875 -1.9019775390625 0.0005209445953369141 0.0019470453262329102 0.016490936279296875 -0.11020660400390625
17.88025 -0.058391571044921875 0.10492706298828125 2.5457763671875 -2.07861328125 -0.0002879500389099121 0.0010865330696105957 0.010570526123046875 -0.1114044189453125
17.89 -0.053035736083984375 0.11049652099609375 2.40966796875 -2.25830078125 0.0005436539649963379 0.0006974935531616211 0.004913330078125 -0.10996246337890625
17.89975 -0.04605865478515625 0.1153564453125 2.249755859375 -2.4410400390625 0.00016319751739501953 0.0015505552291870117 -0.0012664794921875 -0.10847091674804688
17.9095 -0.04251861572265625 0.12031936645507812 2.075927734375 -2.6229248046875 0.0006766915321350098 0.001044631004333496 -0.005657196044921875 -0.10796356201171875
17.91925 -0.035472869873046875 0.12386703491210938 1.874267578125 -2.7862548828125 -0.00011706352233886719 0.0014128684997558594 -0.011577606201171875 -0.105560302734375
17.929 -0.029266357421875 0.128143310546875 1.658447265625 -2.938232421875 0.0006160140037536621 -3.528594970703125e-05 -0.0186767578125 -0.10541534423828125
17.93875 -0.0230255126953125 0.131378173828125 1.423095703125 -3.0615234375 0.0022193193435668945 -5.9604644775390625e-05 -0.020992279052734375 -0.10184478759765625
17.9485 -0.01628875732421875 0.134613037109375 1.1827392578125 -3.153564453125 0.000683903694152832 0.0017437934875488281 -0.02928924560546875 -0.09881591796875
17.95825 -0.00836944580078125 0.13675689697265625 0.9459228515625 -3.2239990234375 0.0015925765037536621 -0.0008015036582946777 -0.0306854248046875 -0.0956878662109375
17.968 -0.00275421142578125 0.1406402587890625 0.71435546875 -3.2823486328125 0.00038492679595947266 0.0011591911315917969 -0.037200927734375 -0.0934295654296875
17.97775 0.0057373046875 0.14141845703125 0.486572265625 -3.3245849609375 0.0011451244354248047 0.00011581182479858398 -0.043548583984375 -0.08667755126953125
17.9875 0.01377105712890625 0.1443634033203125 0.248291015625 -3.368408203125 0.0010843276977539062 0.000987410545349121 -0.04648590087890625 -0.08547210693359375
17.99725 0.02199554443359375 0.14534759521484375 0.0107421875 -3.4072265625 0.0019544363021850586 0.0008767843246459961 -0.0508575439453125 -0.07968902587890625
18.007 0.0291290283203125 0.14532470703125 -0.2474365234375 -3.426513671875 0.0007615089416503906 0.002362847328186035 -0.0560455322265625 -0.07602691650390625
18.01675 0.03787994384765625 0.14785003662109375 -0.51220703125 -3.417236328125 0.0011597275733947754 0.0005791783332824707 -0.05942535400390625 -0.0710906982421875
18.0265 0.0444183349609375 0.14785003662109375 -0.78857421875 -3.390869140625 0.0014852285385131836 -6.99162483215332e-05 -0.064666748046875 -0.06710052490234375
18.03625 0.053558349609375 0.1484222412109375 -1.0625 -3.32373046875 0.0007176399230957031 0.00025790929794311523 -0.0674285888671875 -0.0592803955078125
18.046 0.0623016357421875 0.1468353271484375 -1.32763671875 -3.232666015625 0.0013937950134277344 0.00013786554336547852 -0.07027435302734375 -0.05584716796875
18.05575 0.06995391845703125 0.1446533203125 -1.568115234375 -3.124755859375 0.0009902119636535645 0.0009032487869262695 -0.07498931884765625 -0.0498809814453125
18.0655 0.0771331787109375 0.14661407470703125 -1.7939453125 -2.995849609375 0.001094222068786621 4.357099533081055e-05 -0.07851791381835938 -0.045886993408203125
18.07525 0.0849151611328125 0.1423492431640625 -2.01220703125 -2.861572265625 0.00023800134658813477 -0.0007798373699188232 -0.0800933837890625 -0.037311553955078125
18.085 0.0927886962890625 0.1408843994140625 -2.226318359375 -2.71044921875 0.0013150572776794434 0.0002563595771789551 -0.08263015747070312 -0.031429290771484375
18.09475 0.09967803955078125 0.13784027099609375 -2.434326171875 -2.55419921875 -8.623301982879639e-05 9.012594819068909e-05 -0.0796051025390625 -0.0257110595703125
18.1045 0.10897064208984375 0.135467529296875 -2.638916015625 -2.3779296875 0.0005749166011810303 -0.0003280043601989746 -0.0841522216796875 -0.01763916015625
18.11425 0.1152496337890625 0.13295745849609375 -2.833740234375 -2.17529296875 0.0006785392761230469 -0.0002765655517578125 -0.08453750610351562 -0.01239013671875
18.124 0.1215972900390625 0.1277008056640625 -3.00927734375 -1.95703125 0.0008983612060546875 5.424022674560547e-05 -0.08441162109375 -0.0052642822265625
18.13375 0.129669189453125 0.1233978271484375 -3.168212890625 -1.724609375 0.0007780790328979492 -7.918477058410645e-05 -0.08344268798828125 0.000926971435546875
18.1435 0.1349945068359375 0.1180877685546875 -3.30078125 -1.470947265625 0.00036785006523132324 -0.0007637441158294678 -0.08405685424804688 0.01092529296875
18.15325 0.1420135498046875 0.113067626953125 -3.412353515625 -1.20703125 0.0007342994213104248 -0.0008302927017211914 -0.08344650268554688 0.016574859619140625
18.163 0.15032958984375 0.1073760986328125 -3.502197265625 -0.944091796875 0.0005216002464294434 0.0007295012474060059 -0.08235549926757812 0.024562835693359375
18.17275 0.156463623046875 0.1011962890625 -3.57177734375 -0.671142578125 0.0006514787673950195 -0.0010377168655395508 -0.07825088500976562 0.030704498291015625
18.1825 0.163055419921875 0.0928497314453125 -3.63134765625 -0.397705078125 0.0013813376426696777 5.3822994232177734e-05 -0.07450103759765625 0.040252685546875
18.19225 0.16741943359375 0.087982177734375 -3.67041015625 -0.110107421875 0.0005353689193725586 0.0007332563400268555 -0.072509765625 0.047489166259765625
18.202 0.1749114990234375 0.0811004638671875 -3.6854248046875 0.17626953125 0.0005673766136169434 -8.994340896606445e-05 -0.07073211669921875 0.052753448486328125
18.21175 0.1778411865234375 0.073455810546875 -3.670166015625 0.4833984375 3.331899642944336e-05 -0.0006355047225952148 -0.06519317626953125 0.0588836669921875
18.2215 0.1841888427734375 0.06504058837890625 -3.62353515625 0.7818603515625 0.0008910298347473145 0.00025850534439086914 -0.06041717529296875 0.06312179565429688
18.23125 0.1875762939453125 0.05820465087890625 -3.5513916015625 1.0655517578125 0.00047093629837036133 0.0005068182945251465 -0.055889129638671875 0.06824111938476562
18.241 0.189544677734375 0.049530029296875 -3.4537353515625 1.341552734375 0.0004037916660308838 -0.0005431771278381348 -0.051517486572265625 0.07584381103515625
18.25075 0.1925048828125 0.03974151611328125 -3.3385009765625 1.603271484375 0.0001869797706604004 -0.0011777877807617188 -0.044384002685546875 0.07937240600585938
18.2605 0.196197509765625 0.03304290771484375 -3.2080078125 1.8519287109375 0.0009891390800476074 -0.00010967254638671875 -0.0386199951171875 0.0847625732421875
18.27025 0.1973724365234375 0.02335357666015625 -3.067138671875 2.0972900390625 0.0013446807861328125 -0.0007206201553344727 -0.030384063720703125 0.08982467651367188
18.28 0.19875335693359375 0.0140838623046875 -2.904296875 2.343017578125 3.170967102050781e-05 -0.0009655356407165527 -0.02455902099609375 0.09243011474609375
18.28975 0.20117950439453125 0.004913330078125 -2.72314453125 2.5767822265625 0.0004157721996307373 -0.0008384287357330322 -0.016933441162109375 0.0962982177734375
18.2995 0.2007904052734375 -0.00421905517578125 -2.5089111328125 2.799072265625 0.0013723969459533691 -0.0009405612945556641 -0.008846282958984375 0.0955047607421875
18.30925 0.1999969482421875 -0.0146484375 -2.264892578125 2.998779296875 0.0009075403213500977 -0.0004623532295227051 0.00030517578125 0.09877777099609375
18.319 0.1985626220703125 -0.02459716796875 -2.00927734375 3.1690673828125 0.0002950429916381836 -0.0007595419883728027 0.0076904296875 0.10309982299804688
18.32875 0.19873046875 -0.03116607666015625 -1.7437744140625 3.307373046875 0.0002193450927734375 -0.0003338456153869629 0.0159149169921875 0.1010589599609375
18.3385 0.19625091552734375 -0.0436553955078125 -1.4735107421875 3.416259765625 0.0004987120628356934 -0.0017233490943908691 0.02716064453125 0.1043853759765625
18.34825 0.19522857666015625 -0.05196380615234375 -1.2100830078125 3.516357421875 0.0003037303686141968 -0.00014893710613250732 0.03324127197265625 0.10279083251953125
18.358 0.19293975830078125 -0.06047821044921875 -0.945068359375 3.6011962890625 -0.0002502650022506714 7.522106170654297e-05 0.04270172119140625 0.10031890869140625
18.36775 0.1898040771484375 -0.069122314453125 -0.66650390625 3.6669921875 0.0009696483612060547 0.0006092190742492676 0.05089569091796875 0.09942626953125
18.3775 0.18721771240234375 -0.07660675048828125 -0.3848876953125 3.7244873046875 0.0003978908061981201 -0.0005531013011932373 0.0588226318359375 0.09813690185546875
18.38725 0.18235015869140625 -0.08652496337890625 -0.080322265625 3.7529296875 0.00031404197216033936 -0.0004091709852218628 0.0659332275390625 0.09459686279296875
18.397 0.1774749755859375 -0.094818115234375 0.23193359375 3.7470703125 0.0002706944942474365 -0.00046244263648986816 0.074066162109375 0.09173583984375
18.40675 0.1725006103515625 -0.101898193359375 0.54736328125 3.7080078125 0.0002797245979309082 -3.737211227416992e-05 0.0815887451171875 0.0868682861328125
18.4165 0.16767120361328125 -0.10756683349609375 0.84326171875 3.635498046875 0.0005063414573669434 -0.0006798505783081055 0.08808135986328125 0.082611083984375
18.42625 0.162353515625 -0.11536407470703125 1.123046875 3.530517578125 -0.00027930736541748047 -0.0007338523864746094 0.09619140625 0.076568603515625
18.436 0.1541748046875 -0.12184906005859375 1.376220703125 3.40966796875 0.0008977055549621582 0.0002243518829345703 0.103973388671875 0.07115936279296875
18.44575 0.14757537841796875 -0.12856292724609375 1.615478515625 3.28173828125 3.9346516132354736e-05 0.00017492473125457764 0.10834503173828125 0.063323974609375
18.4555 0.13941192626953125 -0.134918212890625 1.845947265625 3.146240234375 -5.364418029785156e-05 -0.0010527968406677246 0.11402130126953125 0.05596160888671875
18.46525 0.13358306884765625 -0.1407470703125 2.075927734375 3.0107421875 0.0009098947048187256 -0.000560075044631958 0.119842529296875 0.04717254638671875
18.475 0.1251373291015625 -0.14598846435546875 2.305419921875 2.85986328125 0.0004832148551940918 -4.4539570808410645e-05 0.12274932861328125 0.0400848388671875
18.48475 0.1186981201171875 -0.15120697021484375 2.53125 2.671630859375 0.0003297775983810425 -0.00019834935665130615 0.12755584716796875 0.03107452392578125
18.4945 0.10936737060546875 -0.1556396484375 2.74462890625 2.453857421875 -0.00039952993392944336 -0.00021713972091674805 0.1310882568359375 0.0207366943359375
18.50425 0.1005859375 -0.15948486328125 2.94091796875 2.21435546875 5.894899368286133e-05 -0.0006105899810791016 0.131103515625 0.013397216796875
18.514 0.0942535400390625 -0.1635284423828125 3.095703125 1.953125 -0.0004982948303222656 -0.00023514032363891602 0.1339263916015625 0.0040283203125
18.52375 0.0848846435546875 -0.16339111328125 3.20849609375 1.6826171875 0.00036835670471191406 -0.0010575056076049805 0.1343994140625 -0.00577545166015625
18.5335 0.077880859375 -0.16735076904296875 3.296142578125 1.42138671875 0.0003145933151245117 -0.000873863697052002 0.1354522705078125 -0.01462554931640625
18.54325 0.0698699951171875 -0.1702423095703125 3.3603515625 1.171142578125 0.0003372877836227417 6.23166561126709e-05 0.1338348388671875 -0.0237274169921875
18.553 0.0620574951171875 -0.17153167724609375 3.411865234375 0.922607421875 0.0006097555160522461 -0.0001437366008758545 0.13092803955078125 -0.03034210205078125
18.56275 0.05364227294921875 -0.1710357666015625 3.466552734375 0.679931640625 0.00014573335647583008 -0.0004962384700775146 0.1290283203125 -0.03942108154296875
18.5725 0.0453338623046875 -0.172119140625 3.5032958984375 0.4283447265625 -0.00028508901596069336 -0.0001771301031112671 0.12532806396484375 -0.04799652099609375
18.58225 0.03835296630859375 -0.1715545654296875 3.53125 0.1650390625 0.0007800757884979248 5.409121513366699e-05 0.12137603759765625 -0.057971954345703125
18.592 0.0289764404296875 -0.1719818115234375 3.5313720703125 -0.1141357421875 0.0005151033401489258 4.5865774154663086e-05 0.11584854125976562 -0.06349563598632812
18.60175 0.0201263427734375 -0.170806884765625 3.5029296875 -0.393798828125 -0.00028264522552490234 -0.0004329085350036621 0.11049652099609375 -0.069549560546875
18.6115 0.01331329345703125 -0.16980743408203125 3.4417724609375 -0.663818359375 0.0014559030532836914 4.6133995056152344e-05 0.10755538940429688 -0.07903671264648438
18.62125 0.00635528564453125 -0.16762542724609375 3.353759765625 -0.91650390625 -0.00022777915000915527 -0.00021499395370483398 0.09885025024414062 -0.08362960815429688
18.631 -0.00353240966796875 -0.167877197265625 3.252685546875 -1.1378173828125 0.0006704628467559814 -0.0008956491947174072 0.09215927124023438 -0.08915328979492188
18.64075 -0.01047515869140625 -0.1655120849609375 3.1405029296875 -1.3526611328125 0.00023794174194335938 -0.0010443925857543945 0.08613204956054688 -0.0920562744140625
18.6505 -0.01538848876953125 -0.16381072998046875 3.0318603515625 -1.5538330078125 -0.000633537769317627 -0.0008698701858520508 0.08060455322265625 -0.09712600708007812
18.66025 -0.02523040771484375 -0.16004180908203125 2.9163818359375 -1.75146484375 0.0003423243761062622 -0.00024046003818511963 0.07183456420898438 -0.09956741333007812
18.67 -0.03023529052734375 -0.15663909912109375 2.7950439453125 -1.950439453125 -0.00020179152488708496 -1.8656253814697266e-05 0.06608200073242188 -0.10228347778320312
18.67975 -0.03789520263671875 -0.155120849609375 2.66064453125 -2.1512451171875 -1.5616416931152344e-05 -0.0012640953063964844 0.05841064453125 -0.10517501831054688
