!Created with skrf (http://scikit-rf.org).
# GHz S RI R 50.0 
!freq ReS11 ImS11 ReS21 ImS21 ReS12 ImS12 ReS22 ImS22
17.5 0.00860595703125 -0.1439208984375 -0.0546722412109375 0.11871719360351562 -0.0006801187992095947 0.0003286302089691162 0.09838104248046875 0.000148773193359375
17.50975 -0.00075531005859375 -0.1417083740234375 -0.038135528564453125 0.12039947509765625 -0.0021212100982666016 -0.0002924203872680664 0.10092926025390625 -0.000431060791015625
17.5195 -0.0082855224609375 -0.13666534423828125 -0.02135467529296875 0.11966323852539062 -0.0008404254913330078 0.0014952421188354492 0.1039886474609375 -0.00229644775390625
17.52925 -0.01845550537109375 -0.13384246826171875 -0.006168365478515625 0.1183929443359375 -0.0013717412948608398 0.0019431114196777344 0.10535812377929688 -0.006542205810546875
17.539 -0.0235443115234375 -0.12774658203125 0.00909423828125 0.11376953125 -0.0015071630477905273 0.0018610954284667969 0.10833740234375 -0.00885772705078125
17.54875 -0.03296661376953125 -0.12403106689453125 0.02198028564453125 0.10736846923828125 -0.00022649765014648438 0.0009627342224121094 0.10870742797851562 -0.01280975341796875
17.5585 -0.04215240478515625 -0.11899566650390625 0.0337066650390625 0.10205841064453125 -0.0004566311836242676 0.0010399818420410156 0.11150741577148438 -0.015506744384765625
17.56825 -0.0484771728515625 -0.11492156982421875 0.04535675048828125 0.09215545654296875 -0.001069486141204834 0.000713348388671875 0.112701416015625 -0.01908111572265625
17.578 -0.0532379150390625 -0.1083831787109375 0.05445098876953125 0.08293914794921875 -0.0010194182395935059 0.0006156563758850098 0.11232757568359375 -0.024761199951171875
17.58775 -0.06026458740234375 -0.10372161865234375 0.06276702880859375 0.07094573974609375 -0.0013093948364257812 0.00046366453170776367 0.11274337768554688 -0.026523590087890625
17.5975 -0.0651702880859375 -0.09902191162109375 0.06927490234375 0.059661865234375 0.0002015233039855957 0.0009420514106750488 0.11548995971679688 -0.03261566162109375
17.60725 -0.07118988037109375 -0.0924224853515625 0.07422256469726562 0.0463409423828125 -0.0014829039573669434 0.0014408230781555176 0.11299896240234375 -0.036846160888671875
17.617 -0.07470703125 -0.083984375 0.07542037963867188 0.03363800048828125 -0.0013228654861450195 0.0008308291435241699 0.11354827880859375 -0.0396728515625
17.62675 -0.08147430419921875 -0.07621002197265625 0.07540512084960938 0.02118682861328125 -0.0018199682235717773 0.0004937648773193359 0.11365890502929688 -0.04388427734375
17.6365 -0.085174560546875 -0.0710601806640625 0.0738983154296875 0.00926971435546875 -0.001415252685546875 0.0005459785461425781 0.11322021484375 -0.049285888671875
17.64625 -0.08740234375 -0.0612030029296875 0.07120132446289062 -0.0027618408203125 -0.0005318522453308105 -0.00045058131217956543 0.1121063232421875 -0.0536651611328125
17.656 -0.09096527099609375 -0.05509185791015625 0.06671142578125 -0.012004852294921875 -0.00018143653869628906 0.0021953582763671875 0.1080780029296875 -0.058086395263671875
17.66575 -0.092620849609375 -0.04691314697265625 0.061687469482421875 -0.020481109619140625 -0.0005380511283874512 0.0007621943950653076 0.106903076171875 -0.06261825561523438
17.6755 -0.09710693359375 -0.03971099853515625 0.05403900146484375 -0.030145645141601562 -0.0020716190338134766 0.0004488229751586914 0.10262680053710938 -0.06772232055664062
17.68525 -0.09854888916015625 -0.0309906005859375 0.04653167724609375 -0.03713798522949219 -0.0009372234344482422 0.0011185407638549805 0.10074615478515625 -0.0722503662109375
17.695 -0.0992279052734375 -0.021976470947265625 0.038646697998046875 -0.04439353942871094 -0.0008496940135955811 0.0007258355617523193 0.09728240966796875 -0.07484817504882812
17.70475 -0.10079574584960938 -0.0145721435546875 0.029439926147460938 -0.04973411560058594 -9.363889694213867e-05 0.001519918441772461 0.09468460083007812 -0.07894515991210938
17.7145 -0.10266494750976562 -0.006923675537109375 0.016019821166992188 -0.054004669189453125 0.00016319751739501953 0.001177370548248291 0.09052658081054688 -0.0849456787109375
17.72425 -0.10216522216796875 0.00293731689453125 0.0054111480712890625 -0.05636787414550781 -0.00040137767791748047 -0.00012499094009399414 0.08527374267578125 -0.08813095092773438
17.734 -0.1034393310546875 0.0089263916015625 -0.0072174072265625 -0.05533599853515625 -0.0003667473793029785 0.0005524158477783203 0.0818328857421875 -0.0918731689453125
17.74375 -0.10321044921875 0.01732635498046875 -0.0191497802734375 -0.05423736572265625 0.0009750127792358398 0.0008608102798461914 0.07666015625 -0.096527099609375
17.7535 -0.10094451904296875 0.02451324462890625 -0.02973175048828125 -0.04974365234375 9.28044319152832e-05 0.0018769502639770508 0.07176589965820312 -0.0984039306640625
17.76325 -0.09867095947265625 0.03400421142578125 -0.04016876220703125 -0.045276641845703125 0.0003711581230163574 0.0010964274406433105 0.06744384765625 -0.10043716430664062
17.773 -0.09739303588867188 0.03961181640625 -0.0485687255859375 -0.039546966552734375 -0.00046700239181518555 0.0003923475742340088 0.06362533569335938 -0.10262680053710938
17.78275 -0.0946044921875 0.047168731689453125 -0.057292938232421875 -0.029796600341796875 -0.0006833076477050781 0.0010330677032470703 0.057491302490234375 -0.10484695434570312
17.7925 -0.09219741821289062 0.053447723388671875 -0.06618881225585938 -0.0229644775390625 0.0009237527847290039 0.0011452436447143555 0.0532073974609375 -0.10524368286132812
17.80225 -0.0886077880859375 0.060977935791015625 -0.07334518432617188 -0.011539459228515625 0.0010602474212646484 0.0017639398574829102 0.048702239990234375 -0.10701370239257812
17.812 -0.084991455078125 0.06747055053710938 -0.0809326171875 0.00030517578125 0.0005056858062744141 0.0016764402389526367 0.04216766357421875 -0.10809326171875
17.82175 -0.07923507690429688 0.07554244995117188 -0.08385467529296875 0.014720916748046875 0.0012017488479614258 0.001030564308166504 0.038379669189453125 -0.10617446899414062
17.8315 -0.0760955810546875 0.08163070678710938 -0.08559799194335938 0.03018951416015625 0.0007497072219848633 0.001311659812927246 0.030277252197265625 -0.1078643798828125
17.84125 -0.0727081298828125 0.08679962158203125 -0.08644866943359375 0.043487548828125 0.0006380081176757812 0.0014045238494873047 0.02481842041015625 -0.1076507568359375
17.851 -0.06557464599609375 0.09528732299804688 -0.082916259765625 0.05902862548828125 3.6329030990600586e-05 0.0007384121417999268 0.021015167236328125 -0.10685348510742188
17.86075 -0.0618896484375 0.10020828247070312 -0.07809829711914062 0.07236099243164062 -0.000544130802154541 0.0011686086654663086 0.014530181884765625 -0.10620498657226562
17.8705 -0.057468414306640625 0.10460662841796875 -0.07161712646484375 0.08694076538085938 0.00042891502380371094 0.0025006532669067383 0.009960174560546875 -0.10494613647460938
17.88025 -0.051280975341796875 0.11095428466796875 -0.06419754028320312 0.10074615478515625 -0.00030934810638427734 0.0012020468711853027 0.002597808837890625 -0.1051025390625
17.89 -0.047637939453125 0.1170806884765625 -0.05496978759765625 0.11644744873046875 0.0002167820930480957 0.0011872649192810059 -0.0021514892578125 -0.1027984619140625
17.89975 -0.039226531982421875 0.12060165405273438 -0.04198455810546875 0.126983642578125 0.000865638256072998 0.0002434253692626953 -0.00726318359375 -0.10250091552734375
17.9095 -0.03539276123046875 0.1244049072265625 -0.0267333984375 0.14083099365234375 0.0004477500915527344 0.0017545223236083984 -0.013568878173828125 -0.10066604614257812
17.91925 -0.0261993408203125 0.126861572265625 -0.010650634765625 0.15103912353515625 -4.4226646423339844e-05 0.0019979476928710938 -0.017375946044921875 -0.09757232666015625
17.929 -0.02099609375 0.1322479248046875 0.0081634521484375 0.159454345703125 0.001987934112548828 0.0004987716674804688 -0.0225982666015625 -0.09622955322265625
17.93875 -0.01349639892578125 0.13388824462890625 0.03084564208984375 0.16394805908203125 0.0007025003433227539 0.0015243291854858398 -0.02618408203125 -0.09367752075195312
17.9485 -0.0078582763671875 0.1361236572265625 0.05279541015625 0.1677703857421875 0.001461029052734375 0.0006525516510009766 -0.030941009521484375 -0.08909225463867188
17.95825 -8.392333984375e-05 0.13817596435546875 0.07570648193359375 0.16750335693359375 0.0016369819641113281 0.0009635686874389648 -0.033855438232421875 -0.0869598388671875
17.968 0.006317138671875 0.13970947265625 0.0972442626953125 0.1631317138671875 0.001082301139831543 0.0016815662384033203 -0.039608001708984375 -0.08411407470703125
17.97775 0.013946533203125 0.14086151123046875 0.1215362548828125 0.1593170166015625 0.0002721548080444336 0.0008236169815063477 -0.04349517822265625 -0.07958984375
17.9875 0.02166748046875 0.14192962646484375 0.1442718505859375 0.1503753662109375 0.000556647777557373 0.0009273886680603027 -0.04532623291015625 -0.07691574096679688
17.99725 0.0304412841796875 0.14282989501953125 0.167205810546875 0.138763427734375 0.0013996362686157227 0.00037926435470581055 -0.050006866455078125 -0.07137680053710938
18.007 0.03792572021484375 0.142547607421875 0.1916351318359375 0.1252593994140625 0.0017474889755249023 0.0012053251266479492 -0.05245208740234375 -0.06554031372070312
18.01675 0.04518890380859375 0.14376068115234375 0.2130126953125 0.1049041748046875 -6.19739294052124e-05 -8.67694616317749e-05 -0.0578765869140625 -0.061908721923828125
18.0265 0.0530853271484375 0.1427459716796875 0.233001708984375 0.080596923828125 -0.00037288665771484375 -0.00010147690773010254 -0.0620880126953125 -0.0581207275390625
18.03625 0.059967041015625 0.1433563232421875 0.24896240234375 0.05413818359375 0.00015145540237426758 0.0006849169731140137 -0.06348419189453125 -0.051177978515625
18.046 0.06734466552734375 0.14145660400390625 0.2618560791015625 0.0251312255859375 0.0013442039489746094 0.00014960765838623047 -0.065887451171875 -0.046932220458984375
18.05575 0.07640838623046875 0.13863372802734375 0.2711639404296875 -0.005523681640625 0.00023949146270751953 0.0005837082862854004 -0.06891632080078125 -0.04174041748046875
18.0655 0.0822296142578125 0.1370697021484375 0.2762908935546875 -0.0370025634765625 0.0008911192417144775 -0.00042107701301574707 -0.07221603393554688 -0.036285400390625
18.07525 0.08994293212890625 0.13628387451171875 0.2770538330078125 -0.0688629150390625 0.0004191398620605469 0.001777052879333496 -0.07363128662109375 -0.0308990478515625
18.085 0.0960540771484375 0.1336212158203125 0.2760467529296875 -0.103729248046875 0.0012354254722595215 5.3822994232177734e-05 -0.07611465454101562 -0.024623870849609375
18.09475 0.10294342041015625 0.12999725341796875 0.2696533203125 -0.1385650634765625 0.0004887878894805908 -0.00014892220497131348 -0.0746307373046875 -0.02060699462890625
18.1045 0.11034393310546875 0.12641143798828125 0.2586669921875 -0.1712646484375 -0.00011221319437026978 -1.0475516319274902e-05 -0.07611083984375 -0.012493133544921875
18.11425 0.11757659912109375 0.1241912841796875 0.24454498291015625 -0.2055206298828125 0.0006581544876098633 -0.00017175078392028809 -0.07435226440429688 -0.008052825927734375
18.124 0.1225738525390625 0.118743896484375 0.225006103515625 -0.238067626953125 0.0011153221130371094 -0.0004482269287109375 -0.074615478515625 -0.00064849853515625
18.13375 0.12847137451171875 0.115478515625 0.200225830078125 -0.2674713134765625 0.001445472240447998 -0.0005785226821899414 -0.07404327392578125 0.00466156005859375
18.1435 0.13430023193359375 0.110870361328125 0.17266845703125 -0.2935028076171875 0.001139223575592041 -0.0005747079849243164 -0.0747528076171875 0.013996124267578125
18.15325 0.14183807373046875 0.1035614013671875 0.1410675048828125 -0.31494140625 0.0009832382202148438 6.973743438720703e-06 -0.07328033447265625 0.018596649169921875
18.163 0.14769744873046875 0.09844970703125 0.107177734375 -0.3365325927734375 0.001258254051208496 -0.0007192492485046387 -0.07174301147460938 0.0255279541015625
18.17275 0.1529541015625 0.0936279296875 0.0708465576171875 -0.350494384765625 -6.965547800064087e-05 -4.022568464279175e-05 -0.06732177734375 0.03113555908203125
18.1825 0.1579742431640625 0.08588409423828125 0.0323486328125 -0.36419677734375 0.0003656148910522461 -0.001004934310913086 -0.06455612182617188 0.039379119873046875
18.19225 0.1631317138671875 0.078826904296875 -0.0072784423828125 -0.3719940185546875 0.00024890899658203125 -4.9948692321777344e-05 -0.0625762939453125 0.044025421142578125
18.202 0.16768646240234375 0.07440948486328125 -0.0488433837890625 -0.3734893798828125 0.0004897117614746094 -0.0018070340156555176 -0.0601654052734375 0.0504913330078125
18.21175 0.171905517578125 0.0669097900390625 -0.09075927734375 -0.37030029296875 0.0007981061935424805 -0.0007498860359191895 -0.054042816162109375 0.0562286376953125
18.2215 0.1769866943359375 0.0594482421875 -0.13140869140625 -0.3627166748046875 0.00046509504318237305 -0.0010423064231872559 -0.05012702941894531 0.05963325500488281
18.23125 0.18058013916015625 0.05429840087890625 -0.17156982421875 -0.349945068359375 0.0009394586086273193 -0.00041174888610839844 -0.046092987060546875 0.06509017944335938
18.241 0.1832122802734375 0.0458984375 -0.21038818359375 -0.33251953125 0.00040459632873535156 -0.001463472843170166 -0.042388916015625 0.069305419921875
18.25075 0.18630218505859375 0.03826904296875 -0.2447509765625 -0.312225341796875 -0.00014477968215942383 -0.0005171597003936768 -0.0366668701171875 0.074462890625
18.2605 0.18804931640625 0.0308380126953125 -0.27825927734375 -0.285919189453125 0.0007884204387664795 -0.0007705390453338623 -0.0304107666015625 0.07744216918945312
18.27025 0.189178466796875 0.02204132080078125 -0.3079833984375 -0.260040283203125 0.0008844435214996338 -0.0006354153156280518 -0.02367401123046875 0.08173751831054688
18.28 0.19122314453125 0.0127716064453125 -0.3360595703125 -0.228790283203125 -0.00015911459922790527 -0.0007412731647491455 -0.017765045166015625 0.08258819580078125
18.28975 0.19326019287109375 0.00458526611328125 -0.36114501953125 -0.1954345703125 0.0013186931610107422 0.00013202428817749023 -0.009429931640625 0.08714675903320312
18.2995 0.192718505859375 -0.0035858154296875 -0.381591796875 -0.159210205078125 -0.0002829432487487793 -0.0013242363929748535 -0.001583099365234375 0.08698654174804688
18.30925 0.1937103271484375 -0.0127410888671875 -0.39935302734375 -0.11834716796875 0.0013750791549682617 -0.00023674964904785156 0.0050201416015625 0.08849334716796875
18.319 0.19181060791015625 -0.02278900146484375 -0.4114227294921875 -0.0778961181640625 0.0006780326366424561 0.00029456615447998047 0.00980377197265625 0.09277725219726562
18.32875 0.19037628173828125 -0.02878570556640625 -0.4175567626953125 -0.03521728515625 1.4231540262699127e-05 -5.201436579227448e-07 0.021434783935546875 0.09084320068359375
18.3385 0.1898345947265625 -0.03997802734375 -0.4187469482421875 0.005584716796875 4.100799560546875e-05 -0.0013483166694641113 0.028774261474609375 0.0924224853515625
18.34825 0.18894195556640625 -0.04837799072265625 -0.4171600341796875 0.0443878173828125 -0.0011245012283325195 -0.0006746649742126465 0.034423828125 0.09384918212890625
18.358 0.18651580810546875 -0.05593109130859375 -0.4144287109375 0.0831146240234375 -0.0007201433181762695 -0.00028955936431884766 0.0424957275390625 0.09204864501953125
18.36775 0.1856689453125 -0.06464385986328125 -0.40631103515625 0.1236114501953125 -7.081031799316406e-05 -0.001537919044494629 0.0494232177734375 0.08827972412109375
18.3775 0.18111419677734375 -0.07143402099609375 -0.3985443115234375 0.1608428955078125 -0.00025688111782073975 0.00017248094081878662 0.05710601806640625 0.08673095703125
18.38725 0.17887115478515625 -0.0800018310546875 -0.3822174072265625 0.1991729736328125 0.0013315677642822266 -0.0003070235252380371 0.064239501953125 0.08535003662109375
18.397 0.1766815185546875 -0.087127685546875 -0.361846923828125 0.238616943359375 0.0013959407806396484 9.059906005859375e-06 0.0709228515625 0.08221435546875
18.40675 0.1707305908203125 -0.093963623046875 -0.33905029296875 0.273193359375 -0.00027054548263549805 -0.0006055235862731934 0.0785064697265625 0.0762176513671875
18.4165 0.16504669189453125 -0.10205078125 -0.3118896484375 0.303680419921875 -1.563131809234619e-05 0.00033433735370635986 0.0837554931640625 0.07358551025390625
18.42625 0.1592864990234375 -0.1090850830078125 -0.2813262939453125 0.3307952880859375 -0.0005618929862976074 -0.0005971193313598633 0.09004974365234375 0.067657470703125
18.436 0.153411865234375 -0.11537933349609375 -0.2511749267578125 0.3547821044921875 0.00039640069007873535 0.0001800060272216797 0.09708404541015625 0.06180572509765625
18.44575 0.14733123779296875 -0.12175750732421875 -0.2220001220703125 0.3754730224609375 -0.0004038214683532715 -0.000810086727142334 0.10100555419921875 0.0557403564453125
18.4555 0.14037322998046875 -0.12918853759765625 -0.18780517578125 0.3958587646484375 9.95248556137085e-05 -9.121373295783997e-05 0.10602569580078125 0.0482940673828125
18.46525 0.13423919677734375 -0.13401031494140625 -0.1548614501953125 0.413909912109375 0.0007129907608032227 6.541609764099121e-05 0.1110992431640625 0.0397186279296875
18.475 0.12593841552734375 -0.1392059326171875 -0.119873046875 0.4310150146484375 -0.0004514455795288086 0.0003269612789154053 0.1155242919921875 0.03427886962890625
18.48475 0.12212371826171875 -0.14516448974609375 -0.079681396484375 0.44378662109375 0.00014850497245788574 -1.9200146198272705e-05 0.1190032958984375 0.02675628662109375
18.4945 0.11246490478515625 -0.148651123046875 -0.0383758544921875 0.454345703125 -8.958578109741211e-05 -0.0010471940040588379 0.12194061279296875 0.01638031005859375
18.50425 0.1046142578125 -0.1539154052734375 0.00604248046875 0.457977294921875 -0.0005858540534973145 0.0005137920379638672 0.121490478515625 0.008819580078125
18.514 0.0982513427734375 -0.1581573486328125 0.0477294921875 0.456787109375 -0.0008709430694580078 -0.00018084049224853516 0.12375640869140625 0.00031280517578125
18.52375 0.0892791748046875 -0.1592864990234375 0.0906982421875 0.44976806640625 0.001861274242401123 -0.0003826618194580078 0.12439727783203125 -0.007892608642578125
18.5335 0.0829010009765625 -0.16237640380859375 0.129608154296875 0.4388427734375 0.0002454817295074463 0.00016672909259796143 0.1260223388671875 -0.01500701904296875
18.54325 0.07422637939453125 -0.16696929931640625 0.16754150390625 0.426788330078125 0.0009367465972900391 -0.0009553134441375732 0.12279129028320312 -0.02417755126953125
18.553 0.0669403076171875 -0.1698150634765625 0.20166015625 0.4129638671875 0.0007295608520507812 -0.00036153197288513184 0.12060928344726562 -0.030120849609375
18.56275 0.06008148193359375 -0.169464111328125 0.237518310546875 0.39691162109375 0.00042885541915893555 0.0004579126834869385 0.11857223510742188 -0.037754058837890625
18.5725 0.05097198486328125 -0.17081451416015625 0.272247314453125 0.378265380859375 -0.0007228255271911621 0.0004900991916656494 0.11573410034179688 -0.045902252197265625
18.58225 0.043548583984375 -0.171234130859375 0.306640625 0.357574462890625 0.0010635852813720703 -0.00014412403106689453 0.1120452880859375 -0.05425262451171875
18.592 0.03299713134765625 -0.17250823974609375 0.339935302734375 0.329437255859375 -0.00039964914321899414 -0.00024944543838500977 0.10818862915039062 -0.059970855712890625
18.60175 0.0260467529296875 -0.1714935302734375 0.3704833984375 0.29931640625 0.0002548694610595703 -0.0010833740234375 0.100494384765625 -0.0651092529296875
18.6115 0.01850128173828125 -0.16939544677734375 0.396820068359375 0.266876220703125 0.0007647871971130371 -0.001293480396270752 0.09859848022460938 -0.07324600219726562
18.62125 0.01084136962890625 -0.16930389404296875 0.417816162109375 0.232452392578125 -0.00015938282012939453 -0.0008141696453094482 0.0918426513671875 -0.07733535766601562
