!Created with skrf (http://scikit-rf.org).
# GHz S RI R 50.0 
!freq ReS11 ImS11 ReS21 ImS21 ReS12 ImS12 ReS22 ImS22
17.5 0.00807952880859375 -0.143951416015625 -0.2007598876953125 0.2693328857421875 -0.0018314123153686523 0.0005347132682800293 0.09770584106445312 0.002162933349609375
17.50975 -0.0018157958984375 -0.14131927490234375 -0.17242431640625 0.2820587158203125 -0.0003279447555541992 0.001354813575744629 0.09955596923828125 0.0002288818359375
17.5195 -0.008056640625 -0.1369781494140625 -0.1421356201171875 0.2923431396484375 -0.0020818710327148438 0.0002378225326538086 0.10335922241210938 -0.00164794921875
17.52925 -0.0166168212890625 -0.1327362060546875 -0.112396240234375 0.298004150390625 -0.0019061565399169922 0.00039380788803100586 0.10507965087890625 -0.005584716796875
17.539 -0.0242156982421875 -0.127838134765625 -0.08447265625 0.30145263671875 -0.0021266937255859375 0.0005707740783691406 0.10562896728515625 -0.00899505615234375
17.54875 -0.03023529052734375 -0.12325286865234375 -0.05755615234375 0.301025390625 -0.0013805031776428223 0.000792384147644043 0.10957717895507812 -0.01265716552734375
17.5585 -0.04178619384765625 -0.1193389892578125 -0.028076171875 0.2989654541015625 -0.0022509098052978516 -4.494190216064453e-05 0.11128997802734375 -0.016445159912109375
17.56825 -0.046722412109375 -0.11432647705078125 -0.0034942626953125 0.29705810546875 -0.0024203062057495117 0.0009588003158569336 0.11100387573242188 -0.0202178955078125
17.578 -0.05330657958984375 -0.109405517578125 0.021209716796875 0.2902679443359375 -0.001760244369506836 0.0011463761329650879 0.11388015747070312 -0.023387908935546875
17.58775 -0.0597991943359375 -0.10431671142578125 0.04595947265625 0.2814788818359375 -0.0015682578086853027 0.00030422210693359375 0.11470413208007812 -0.02544403076171875
17.5975 -0.06452178955078125 -0.09728240966796875 0.0695037841796875 0.2697906494140625 -0.0015385746955871582 0.0015226006507873535 0.11502838134765625 -0.032909393310546875
17.60725 -0.06964111328125 -0.0927581787109375 0.0915679931640625 0.2552642822265625 -0.0007652640342712402 0.0001347661018371582 0.1139984130859375 -0.034397125244140625
17.617 -0.0750274658203125 -0.08481597900390625 0.1084136962890625 0.241424560546875 -0.0011224746704101562 0.0017661452293395996 0.11478805541992188 -0.03916168212890625
17.62675 -0.07929229736328125 -0.078399658203125 0.1257781982421875 0.2240142822265625 -0.0006308555603027344 0.0007319450378417969 0.11450576782226562 -0.043880462646484375
17.6365 -0.0843048095703125 -0.07080078125 0.138946533203125 0.205535888671875 -0.0012104511260986328 0.0022192001342773438 0.1125030517578125 -0.04927825927734375
17.64625 -0.08695220947265625 -0.06204986572265625 0.1491851806640625 0.1895904541015625 -0.0020755529403686523 0.0010393857955932617 0.11162948608398438 -0.054317474365234375
17.656 -0.09043121337890625 -0.0567169189453125 0.1578216552734375 0.17156982421875 -0.0018011927604675293 0.0009095072746276855 0.1076812744140625 -0.058650970458984375
17.66575 -0.09333038330078125 -0.04764556884765625 0.166168212890625 0.1570587158203125 -0.0007690191268920898 0.0010478496551513672 0.10781478881835938 -0.061138153076171875
17.6755 -0.09676361083984375 -0.03862762451171875 0.1719512939453125 0.1427764892578125 0.0003040432929992676 0.0011244416236877441 0.10414505004882812 -0.06536102294921875
17.68525 -0.09774017333984375 -0.031219482421875 0.1781768798828125 0.1265411376953125 -0.0015674829483032227 0.0007245540618896484 0.09970474243164062 -0.070098876953125
17.695 -0.099334716796875 -0.023040771484375 0.18231201171875 0.10943603515625 -0.000558316707611084 0.0014742016792297363 0.10058212280273438 -0.07544708251953125
17.70475 -0.09973526000976562 -0.01378631591796875 0.1848297119140625 0.0940399169921875 -0.00040096044540405273 0.0016869306564331055 0.09516143798828125 -0.07898330688476562
17.7145 -0.10169601440429688 -0.005924224853515625 0.1855316162109375 0.07476806640625 -0.0001709461212158203 0.0014070868492126465 0.08846282958984375 -0.0830841064453125
17.72425 -0.10077667236328125 0.00146484375 0.18450164794921875 0.059906005859375 -0.0009479224681854248 0.0005656182765960693 0.085052490234375 -0.08841705322265625
17.734 -0.10414886474609375 0.0085601806640625 0.1808319091796875 0.0438232421875 0.0005428791046142578 0.0014314651489257812 0.0814056396484375 -0.09032440185546875
17.74375 -0.1030426025390625 0.01677703857421875 0.1766510009765625 0.0301513671875 -9.298324584960938e-06 0.0012415647506713867 0.07721710205078125 -0.09474945068359375
17.7535 -0.09914016723632812 0.0244140625 0.16831207275390625 0.01937103271484375 -9.837746620178223e-05 0.0004921853542327881 0.07286453247070312 -0.0982513427734375
17.76325 -0.0980224609375 0.032497406005859375 0.16278076171875 0.0096588134765625 -6.55055046081543e-05 0.0013580322265625 0.06718063354492188 -0.10012054443359375
17.773 -0.0975799560546875 0.038951873779296875 0.15776824951171875 0.00186920166015625 -0.0019811391830444336 0.001289963722229004 0.06298446655273438 -0.10249710083007812
17.78275 -0.09661102294921875 0.047298431396484375 0.1504669189453125 -0.00458526611328125 -0.00020581483840942383 0.0019101500511169434 0.057743072509765625 -0.1033782958984375
17.7925 -0.09143447875976562 0.052715301513671875 0.14365386962890625 -0.0097198486328125 0.00024455785751342773 0.0014864206314086914 0.05394744873046875 -0.10570907592773438
17.80225 -0.08858489990234375 0.0590972900390625 0.13874053955078125 -0.0156097412109375 0.00035452842712402344 0.0006737112998962402 0.0477752685546875 -0.10667037963867188
17.812 -0.08441543579101562 0.06751632690429688 0.133941650390625 -0.0190887451171875 0.0007623434066772461 0.0012809038162231445 0.04217529296875 -0.1076507568359375
17.82175 -0.08081817626953125 0.0751495361328125 0.12784576416015625 -0.02333831787109375 -0.00037598609924316406 0.0010358691215515137 0.038280487060546875 -0.10496902465820312
17.8315 -0.0776824951171875 0.08049774169921875 0.12300872802734375 -0.0272064208984375 3.2782554626464844e-06 0.000994265079498291 0.03163909912109375 -0.1082611083984375
17.84125 -0.0725250244140625 0.08686065673828125 0.1182098388671875 -0.02788543701171875 0.0006012916564941406 0.0017173290252685547 0.02553558349609375 -0.10614013671875
17.851 -0.06628036499023438 0.09418869018554688 0.11341094970703125 -0.028339385986328125 0.0008018016815185547 0.0013251304626464844 0.0216217041015625 -0.10816574096679688
17.86075 -0.062164306640625 0.09917831420898438 0.1103057861328125 -0.02846527099609375 0.00048100948333740234 0.0008632540702819824 0.015186309814453125 -0.106658935546875
17.8705 -0.056446075439453125 0.10532760620117188 0.10999298095703125 -0.028095245361328125 -0.000754237174987793 0.0025447607040405273 0.010349273681640625 -0.104034423828125
17.88025 -0.05106353759765625 0.11054229736328125 0.10949325561523438 -0.026134490966796875 0.00045377016067504883 0.0002931654453277588 0.003143310546875 -0.10498809814453125
17.89 -0.04619598388671875 0.11641311645507812 0.10969924926757812 -0.025180816650390625 0.001401662826538086 0.0008224248886108398 -0.000774383544921875 -0.10453414916992188
17.89975 -0.0401153564453125 0.11993408203125 0.11260986328125 -0.025074005126953125 0.0012651681900024414 0.0011792182922363281 -0.00650787353515625 -0.1029205322265625
17.9095 -0.03426361083984375 0.12445068359375 0.11468124389648438 -0.026256561279296875 -1.2576580047607422e-05 0.0011516809463500977 -0.012668609619140625 -0.0995330810546875
17.91925 -0.02750396728515625 0.1269683837890625 0.11999893188476562 -0.027248382568359375 0.0007209479808807373 -0.0002224743366241455 -0.016422271728515625 -0.09732818603515625
17.929 -0.02166748046875 0.1305084228515625 0.12557220458984375 -0.0292816162109375 -0.0010294914245605469 0.0010004043579101562 -0.021087646484375 -0.09572601318359375
17.93875 -0.014312744140625 0.13359832763671875 0.13205718994140625 -0.03287506103515625 0.00087013840675354 1.990795135498047e-05 -0.02593994140625 -0.0932769775390625
17.9485 -0.00884246826171875 0.1360321044921875 0.13591766357421875 -0.03759765625 0.0009580850601196289 0.0006614923477172852 -0.029613494873046875 -0.08978652954101562
17.95825 -0.00127410888671875 0.13869476318359375 0.142425537109375 -0.0435638427734375 0.0021730661392211914 0.0006831884384155273 -0.031192779541015625 -0.08704757690429688
17.968 0.00579833984375 0.1402740478515625 0.151275634765625 -0.05123138427734375 -0.00023727864027023315 0.00020895898342132568 -0.038097381591796875 -0.08464813232421875
17.97775 0.01259613037109375 0.14009857177734375 0.15674591064453125 -0.06076812744140625 0.00025159120559692383 0.00038808584213256836 -0.04167938232421875 -0.07908248901367188
17.9875 0.0221099853515625 0.14226531982421875 0.16394805908203125 -0.07071685791015625 0.0007385611534118652 0.0006002187728881836 -0.04505157470703125 -0.0762786865234375
17.99725 0.02931976318359375 0.141571044921875 0.17084503173828125 -0.08509063720703125 0.00013977289199829102 0.0011945366859436035 -0.0493927001953125 -0.07078933715820312
18.007 0.03784942626953125 0.1424102783203125 0.17681121826171875 -0.10138702392578125 0.0007534921169281006 -0.000286787748336792 -0.0523529052734375 -0.06561279296875
18.01675 0.04459381103515625 0.14376068115234375 0.18013763427734375 -0.120208740234375 -0.0003048628568649292 7.867813110351562e-06 -0.057621002197265625 -0.061405181884765625
18.0265 0.0507965087890625 0.14349365234375 0.1817626953125 -0.140350341796875 5.340576171875e-05 0.0004849433898925781 -0.06146240234375 -0.057220458984375
18.03625 0.059783935546875 0.1446685791015625 0.1795196533203125 -0.163330078125 -2.8908252716064453e-05 0.0008107423782348633 -0.063446044921875 -0.05156707763671875
18.046 0.06761932373046875 0.14218902587890625 0.174041748046875 -0.1852874755859375 0.0007648766040802002 8.866190910339355e-05 -0.0660858154296875 -0.046916961669921875
18.05575 0.07403564453125 0.13988494873046875 0.1669921875 -0.208526611328125 0.0018105506896972656 0.0009305477142333984 -0.06969070434570312 -0.041393280029296875
18.0655 0.0814056396484375 0.13919830322265625 0.1573638916015625 -0.23165130615234375 0.0016039609909057617 0.0013420581817626953 -0.072998046875 -0.035205841064453125
18.07525 0.0897216796875 0.13611602783203125 0.1445465087890625 -0.2539215087890625 8.635222911834717e-06 0.00016576051712036133 -0.07427978515625 -0.030307769775390625
18.085 0.0962066650390625 0.13431549072265625 0.1278533935546875 -0.27685546875 0.00071677565574646 -7.387995719909668e-05 -0.07606887817382812 -0.025238037109375
18.09475 0.10302734375 0.12982177734375 0.10894775390625 -0.3004608154296875 0.00028024613857269287 -0.0001846998929977417 -0.0737152099609375 -0.01908111572265625
18.1045 0.10897064208984375 0.12737274169921875 0.0842132568359375 -0.3223419189453125 0.0005564689636230469 -0.0006876885890960693 -0.0756683349609375 -0.012847900390625
18.11425 0.11669921875 0.1240692138671875 0.0582275390625 -0.3411712646484375 0.00020167231559753418 5.2869319915771484e-05 -0.07640457153320312 -0.008052825927734375
18.124 0.1223907470703125 0.118865966796875 0.02777099609375 -0.359039306640625 0.0002187192440032959 0.00015717744827270508 -0.0757598876953125 -0.000335693359375
18.13375 0.1284637451171875 0.11516571044921875 -0.0060272216796875 -0.3705902099609375 0.001867055892944336 6.216764450073242e-05 -0.07460784912109375 0.004810333251953125
18.1435 0.13483428955078125 0.11055755615234375 -0.04254150390625 -0.3806915283203125 0.0009513497352600098 -0.0007699429988861084 -0.07411956787109375 0.014301300048828125
18.15325 0.14227294921875 0.10523223876953125 -0.079681396484375 -0.38702392578125 0.0004722476005554199 -0.00016433000564575195 -0.07544326782226562 0.01964569091796875
18.163 0.14734649658203125 0.0992279052734375 -0.11865234375 -0.387939453125 0.0005294084548950195 -0.00078582763671875 -0.07197189331054688 0.025543212890625
18.17275 0.1533355712890625 0.09356689453125 -0.15777587890625 -0.3856201171875 -0.00033986568450927734 -0.0005324482917785645 -0.06769943237304688 0.031566619873046875
18.1825 0.15860748291015625 0.08824920654296875 -0.19915771484375 -0.379302978515625 0.00015690922737121582 -0.0005840659141540527 -0.06505203247070312 0.03887939453125
18.19225 0.1611785888671875 0.0801849365234375 -0.23822021484375 -0.36993408203125 0.0007298290729522705 7.748603820800781e-06 -0.0623931884765625 0.043590545654296875
18.202 0.16912078857421875 0.074737548828125 -0.280517578125 -0.354644775390625 -7.352232933044434e-05 0.0005703568458557129 -0.06099128723144531 0.05083656311035156
18.21175 0.171905517578125 0.06842041015625 -0.3197021484375 -0.33355712890625 0.0009431242942810059 -0.0002092123031616211 -0.055736541748046875 0.0561370849609375
18.2215 0.17656707763671875 0.060028076171875 -0.3565673828125 -0.305145263671875 0.0007238388061523438 -0.0011074542999267578 -0.05069541931152344 0.060420989990234375
18.23125 0.180419921875 0.05306243896484375 -0.39105224609375 -0.27410888671875 -0.00010603666305541992 -0.0007343888282775879 -0.04811859130859375 0.06467819213867188
18.241 0.18304443359375 0.04547882080078125 -0.421966552734375 -0.239837646484375 -0.00024299323558807373 -1.2814998626708984e-05 -0.044281005859375 0.069580078125
18.25075 0.18573760986328125 0.0385894775390625 -0.44805908203125 -0.204498291015625 0.0006116330623626709 0.0003236532211303711 -0.036998748779296875 0.07503509521484375
18.2605 0.187652587890625 0.030548095703125 -0.47113037109375 -0.162872314453125 0.00015532970428466797 -0.0006399154663085938 -0.030483245849609375 0.07745361328125
18.27025 0.1892852783203125 0.02175140380859375 -0.49322509765625 -0.121734619140625 -0.0002866089344024658 -0.0004898905754089355 -0.024303436279296875 0.08211898803710938
18.28 0.192108154296875 0.0132598876953125 -0.509124755859375 -0.077117919921875 0.00022089481353759766 -0.0010414719581604004 -0.018405914306640625 0.08368682861328125
18.28975 0.19364166259765625 0.003265380859375 -0.52142333984375 -0.030364990234375 0.0005042552947998047 -0.0009584426879882812 -0.01015472412109375 0.08708572387695312
18.2995 0.1933746337890625 -0.00372314453125 -0.529296875 0.020233154296875 0.0002650916576385498 -0.00034786760807037354 -0.003383636474609375 0.0872344970703125
18.30925 0.1937255859375 -0.013427734375 -0.53155517578125 0.07122802734375 -0.0007811784744262695 -0.0007202625274658203 0.0035247802734375 0.0903167724609375
18.319 0.19240570068359375 -0.0224456787109375 -0.525115966796875 0.121917724609375 0.0010260343551635742 -0.0008514523506164551 0.0108642578125 0.09254074096679688
18.32875 0.19130706787109375 -0.02915191650390625 -0.51416015625 0.169342041015625 0.0005148351192474365 -0.0009087026119232178 0.01956939697265625 0.09247589111328125
18.3385 0.19004058837890625 -0.03893280029296875 -0.49981689453125 0.2177581787109375 0.0007603168487548828 0.00038248300552368164 0.028675079345703125 0.0941619873046875
18.34825 0.18955230712890625 -0.0490875244140625 -0.4828948974609375 0.2620697021484375 0.000466763973236084 -0.0011488795280456543 0.03459930419921875 0.09487152099609375
18.358 0.1865234375 -0.0562591552734375 -0.4611663818359375 0.3038787841796875 0.000820547342300415 -0.00020116567611694336 0.04276275634765625 0.09120941162109375
18.36775 0.18511199951171875 -0.0646209716796875 -0.4375457763671875 0.347564697265625 0.0003552734851837158 -0.0006995201110839844 0.04876708984375 0.0900421142578125
18.3775 0.1820068359375 -0.07244873046875 -0.40924072265625 0.3886260986328125 -0.0003457963466644287 0.0007783472537994385 0.05736541748046875 0.08846282958984375
18.38725 0.17798614501953125 -0.08172607421875 -0.3756256103515625 0.4271697998046875 0.0008179247379302979 -0.00044655799865722656 0.0638427734375 0.08499908447265625
18.397 0.1758880615234375 -0.086669921875 -0.338165283203125 0.462432861328125 -0.0004140138626098633 -0.0007227659225463867 0.07183837890625 0.08258056640625
18.40675 0.170501708984375 -0.0946197509765625 -0.295562744140625 0.495391845703125 -0.0008234977722167969 -0.00070953369140625 0.078369140625 0.0772857666015625
18.4165 0.1652679443359375 -0.1017303466796875 -0.250396728515625 0.519989013671875 0.0006964802742004395 0.0003960728645324707 0.0830078125 0.07495880126953125
18.42625 0.1597747802734375 -0.10886383056640625 -0.205474853515625 0.53900146484375 6.780028343200684e-05 0.00044864416122436523 0.0909423828125 0.06949615478515625
18.436 0.15369415283203125 -0.11504364013671875 -0.1600341796875 0.554656982421875 0.0003972351551055908 -0.00032135844230651855 0.09922027587890625 0.062255859375
18.44575 0.1472320556640625 -0.12261962890625 -0.114532470703125 0.5684814453125 0.0002034604549407959 0.00023652613162994385 0.1001129150390625 0.0556793212890625
18.4555 0.1405029296875 -0.129608154296875 -0.069915771484375 0.579345703125 -0.0007165074348449707 -0.0004126429557800293 0.1070404052734375 0.05005645751953125
18.46525 0.13379669189453125 -0.13501739501953125 -0.022491455078125 0.587890625 0.0006872415542602539 -0.0006923675537109375 0.11031341552734375 0.04033660888671875
18.475 0.1259918212890625 -0.1396942138671875 0.02655029296875 0.593841552734375 -0.0003972053527832031 -0.0009477734565734863 0.1164703369140625 0.03337860107421875
18.48475 0.12139892578125 -0.1460113525390625 0.0784912109375 0.596832275390625 0.0010960102081298828 -5.125999450683594e-05 0.11913299560546875 0.02614593505859375
18.4945 0.1120452880859375 -0.1491851806640625 0.132293701171875 0.590576171875 -0.00014756619930267334 -0.0001754164695739746 0.12044525146484375 0.0160064697265625
18.50425 0.105926513671875 -0.154388427734375 0.186279296875 0.58026123046875 0.0013232231140136719 -0.0002040863037109375 0.123382568359375 0.009307861328125
18.514 0.0982818603515625 -0.1589508056640625 0.23663330078125 0.5634765625 0.001366257667541504 0.00013935565948486328 0.1245574951171875 0.00060272216796875
18.52375 0.089080810546875 -0.1603546142578125 0.284881591796875 0.540771484375 0.00016573071479797363 0.0004024207592010498 0.12475204467773438 -0.0076141357421875
18.5335 0.08319091796875 -0.1633758544921875 0.328094482421875 0.51446533203125 0.000728309154510498 -0.00018206238746643066 0.125946044921875 -0.01385498046875
18.54325 0.07442474365234375 -0.1669464111328125 0.365875244140625 0.486907958984375 -0.00022493302822113037 0.0003588348627090454 0.12365341186523438 -0.02347564697265625
18.553 0.0659332275390625 -0.169158935546875 0.40509033203125 0.45709228515625 0.0008308589458465576 -0.000544428825378418 0.12170028686523438 -0.031650543212890625
18.56275 0.0586090087890625 -0.1693267822265625 0.44195556640625 0.427703857421875 0.0005530714988708496 -0.0004107356071472168 0.1196441650390625 -0.037353515625
18.5725 0.05060577392578125 -0.1710662841796875 0.478973388671875 0.392608642578125 0.0008973181247711182 -1.1324882507324219e-06 0.11602401733398438 -0.0453948974609375
18.58225 0.042633056640625 -0.1717681884765625 0.512237548828125 0.35504150390625 0.0013214945793151855 -0.0011873841285705566 0.11236953735351562 -0.05197906494140625
18.592 0.0341949462890625 -0.17156982421875 0.54510498046875 0.31219482421875 0.00015954673290252686 0.00015395879745483398 0.10713577270507812 -0.059688568115234375
18.60175 0.0265045166015625 -0.1709136962890625 0.5731201171875 0.26666259765625 -0.0010976791381835938 0.00040841102600097656 0.10369110107421875 -0.06488800048828125
18.6115 0.018310546875 -0.1699066162109375 0.59283447265625 0.2171630859375 -0.0004292726516723633 -0.0004604756832122803 0.09726715087890625 -0.07242965698242188
18.62125 0.0097198486328125 -0.1695404052734375 0.608734130859375 0.16790771484375 0.0003757476806640625 -0.000659257173538208 0.091461181640625 -0.07750320434570312
18.631 0.002685546875 -0.16863250732421875 0.6212158203125 0.12255859375 0.00011146068572998047 0.00010278820991516113 0.08663177490234375 -0.08211517333984375
