!Created with skrf (http://scikit-rf.org).
# GHz S RI R 50.0 
!freq ReS11 ImS11 ReS21 ImS21 ReS12 ImS12 ReS22 ImS22
17.5 0.0092010498046875 -0.143341064453125 -0.277984619140625 0.3542022705078125 -0.0008085966110229492 0.0004132091999053955 0.09702682495117188 0.00276947021484375
17.50975 5.340576171875e-05 -0.140838623046875 -0.240692138671875 0.37347412109375 -0.0014593005180358887 0.0005497336387634277 0.09950637817382812 -0.0001983642578125
17.5195 -0.0071258544921875 -0.13579559326171875 -0.2033538818359375 0.38726806640625 -0.0019303560256958008 -0.00013875961303710938 0.10279083251953125 -0.001495361328125
17.52925 -0.0169830322265625 -0.1327056884765625 -0.1666259765625 0.40032958984375 -0.001468062400817871 -0.0006308555603027344 0.10556793212890625 -0.00629425048828125
17.539 -0.022674560546875 -0.12646484375 -0.129791259765625 0.405670166015625 -0.0022988319396972656 0.0012040138244628906 0.10605621337890625 -0.0086517333984375
17.54875 -0.0330657958984375 -0.1237030029296875 -0.093231201171875 0.4088897705078125 -0.0015674829483032227 0.0009813308715820312 0.1090240478515625 -0.010639190673828125
17.5585 -0.03963470458984375 -0.1189422607421875 -0.0586700439453125 0.4114227294921875 -0.0018781423568725586 1.4722347259521484e-05 0.110992431640625 -0.01505279541015625
17.56825 -0.04676055908203125 -0.1143951416015625 -0.026031494140625 0.407928466796875 -0.0006717443466186523 0.0016355514526367188 0.11107254028320312 -0.019290924072265625
17.578 -0.05365753173828125 -0.108123779296875 0.009918212890625 0.4040985107421875 -0.001904129981994629 0.0012137889862060547 0.11344146728515625 -0.024200439453125
17.58775 -0.059051513671875 -0.1045989990234375 0.0437469482421875 0.39630126953125 -0.00034934282302856445 0.0006778240203857422 0.11409378051757812 -0.026615142822265625
17.5975 -0.06409454345703125 -0.09765625 0.076812744140625 0.3849639892578125 -0.00015106797218322754 0.0003637969493865967 0.11594390869140625 -0.0301971435546875
17.60725 -0.06999969482421875 -0.09174346923828125 0.10736083984375 0.3700714111328125 -0.0013738274574279785 0.0006159543991088867 0.11297225952148438 -0.03501129150390625
17.617 -0.0746917724609375 -0.0838775634765625 0.1335601806640625 0.3514404296875 -0.0011591911315917969 0.0024334192276000977 0.11469268798828125 -0.038818359375
17.62675 -0.07946014404296875 -0.0781707763671875 0.1583251953125 0.3332672119140625 -0.0006870031356811523 -0.00011235475540161133 0.11479949951171875 -0.042278289794921875
17.6365 -0.0826568603515625 -0.069183349609375 0.179168701171875 0.312469482421875 -0.001131296157836914 0.0012121200561523438 0.1128387451171875 -0.04837799072265625
17.64625 -0.0872802734375 -0.06233978271484375 0.197662353515625 0.2918243408203125 -0.0010877251625061035 -0.00014138221740722656 0.11076736450195312 -0.0540008544921875
17.656 -0.091278076171875 -0.05584716796875 0.2114410400390625 0.271240234375 0.0010627508163452148 0.0014095306396484375 0.10766220092773438 -0.05719757080078125
17.66575 -0.0918121337890625 -0.04729461669921875 0.2269744873046875 0.25213623046875 -0.0005204677581787109 0.0013074278831481934 0.1066131591796875 -0.061534881591796875
17.6755 -0.0952606201171875 -0.0383758544921875 0.2395782470703125 0.231292724609375 -0.00017690658569335938 0.0020750761032104492 0.10369110107421875 -0.06708526611328125
17.68525 -0.09796142578125 -0.0306854248046875 0.25372314453125 0.211822509765625 0.0002358555793762207 0.0011067390441894531 0.10064315795898438 -0.070648193359375
17.695 -0.09897613525390625 -0.02374267578125 0.2651824951171875 0.191497802734375 -0.0011563897132873535 0.0007597804069519043 0.0984954833984375 -0.07480621337890625
17.70475 -0.09993743896484375 -0.01470184326171875 0.2759857177734375 0.1661834716796875 -0.00017082691192626953 0.0010665655136108398 0.094268798828125 -0.07938385009765625
17.7145 -0.10165023803710938 -0.007442474365234375 0.2825164794921875 0.14208984375 -8.672475814819336e-05 0.0011081695556640625 0.09098052978515625 -0.08356475830078125
17.72425 -0.10109710693359375 0.00185394287109375 0.285675048828125 0.1166534423828125 -0.0005988478660583496 0.0002773404121398926 0.08541107177734375 -0.08797454833984375
17.734 -0.10150146484375 0.0080108642578125 0.285614013671875 0.092376708984375 0.0010405778884887695 0.0002739429473876953 0.0821990966796875 -0.09108734130859375
17.74375 -0.10296630859375 0.01641845703125 0.281494140625 0.0712890625 -0.0019180774688720703 0.0027527809143066406 0.07825469970703125 -0.09551239013671875
17.7535 -0.09992218017578125 0.023784637451171875 0.2790069580078125 0.0523834228515625 -0.000812143087387085 0.00034815073013305664 0.07398223876953125 -0.09814071655273438
17.76325 -0.09925079345703125 0.032459259033203125 0.2738189697265625 0.0362548828125 -1.0848045349121094e-05 0.0013961195945739746 0.0666961669921875 -0.10021209716796875
17.773 -0.09723663330078125 0.038906097412109375 0.269622802734375 0.020477294921875 0.0006989836692810059 0.0011866092681884766 0.06348419189453125 -0.10110855102539062
17.78275 -0.09471893310546875 0.046604156494140625 0.2632904052734375 0.00628662109375 0.00041353702545166016 0.00027316808700561523 0.059093475341796875 -0.10395050048828125
17.7925 -0.09175491333007812 0.052204132080078125 0.259735107421875 -0.00811767578125 -5.8323144912719727e-05 0.0002518594264984131 0.053661346435546875 -0.10590362548828125
17.80225 -0.0891571044921875 0.059722900390625 0.253570556640625 -0.02264404296875 0.00040143728256225586 0.0006076693534851074 0.04906463623046875 -0.10741043090820312
17.812 -0.08386611938476562 0.06748580932617188 0.2498016357421875 -0.03570556640625 0.0001105964183807373 -0.0004023611545562744 0.0426483154296875 -0.10747528076171875
17.82175 -0.08179855346679688 0.07409286499023438 0.24201202392578125 -0.049285888671875 0.0007216930389404297 0.00046437978744506836 0.0372161865234375 -0.10622787475585938
17.8315 -0.07802200317382812 0.08080673217773438 0.23404693603515625 -0.06107330322265625 1.1920928955078125e-06 0.0011830925941467285 0.031665802001953125 -0.10770797729492188
17.84125 -0.07160186767578125 0.08647918701171875 0.2277679443359375 -0.0726165771484375 0.0008431673049926758 0.000840306282043457 0.0254364013671875 -0.10709381103515625
17.851 -0.06554794311523438 0.09488677978515625 0.21837615966796875 -0.08022308349609375 0.0003873109817504883 0.0018066167831420898 0.0220184326171875 -0.10926055908203125
17.86075 -0.06257247924804688 0.0984039306640625 0.2109222412109375 -0.08882904052734375 0.00028836727142333984 0.0011997818946838379 0.0146484375 -0.106658935546875
17.8705 -0.05905914306640625 0.10522079467773438 0.20558929443359375 -0.09406280517578125 0.0008100271224975586 0.0012531280517578125 0.009754180908203125 -0.105987548828125
17.88025 -0.0523834228515625 0.11126327514648438 0.19994354248046875 -0.10041046142578125 0.0008579492568969727 0.0015469789505004883 0.0030670166015625 -0.1067657470703125
17.89 -0.04644775390625 0.11614227294921875 0.19545745849609375 -0.104156494140625 0.000962376594543457 0.0001024007797241211 -0.00055694580078125 -0.10426712036132812
17.89975 -0.040668487548828125 0.12035369873046875 0.19211578369140625 -0.113616943359375 0.0011841058731079102 0.000702977180480957 -0.0064544677734375 -0.1030731201171875
17.9095 -0.03571319580078125 0.12251663208007812 0.18973541259765625 -0.1197052001953125 0.0018982887268066406 0.00017201900482177734 -0.01178741455078125 -0.10177230834960938
17.91925 -0.02756500244140625 0.126800537109375 0.1864471435546875 -0.12732696533203125 0.0007063746452331543 0.0007297992706298828 -0.016265869140625 -0.09926223754882812
17.929 -0.022125244140625 0.131439208984375 0.1835174560546875 -0.13592529296875 0.0009982585906982422 -1.9669532775878906e-05 -0.02176666259765625 -0.09709930419921875
17.93875 -0.01448822021484375 0.13225555419921875 0.17896270751953125 -0.14263916015625 0.0005286335945129395 0.0010856986045837402 -0.02455902099609375 -0.0947418212890625
17.9485 -0.00717926025390625 0.1348876953125 0.1783905029296875 -0.151092529296875 0.0005106329917907715 -0.0001125633716583252 -0.03131103515625 -0.08960723876953125
17.95825 3.0517578125e-05 0.1381683349609375 0.175445556640625 -0.16027069091796875 0.0009175539016723633 0.0009170174598693848 -0.033451080322265625 -0.087890625
17.968 0.00440216064453125 0.13950347900390625 0.17424774169921875 -0.16899871826171875 0.0018968582153320312 0.0014619827270507812 -0.0399932861328125 -0.08454132080078125
17.97775 0.01390838623046875 0.13970184326171875 0.17169189453125 -0.178253173828125 0.0009745359420776367 0.00024765729904174805 -0.041843414306640625 -0.0793914794921875
17.9875 0.02268218994140625 0.14246368408203125 0.16844940185546875 -0.1930389404296875 0.0007268190383911133 0.0013546943664550781 -0.045623779296875 -0.0764923095703125
17.99725 0.03054046630859375 0.14192962646484375 0.167816162109375 -0.20806884765625 0.0010156631469726562 0.0012722015380859375 -0.05107879638671875 -0.07142257690429688
18.007 0.0370330810546875 0.14180755615234375 0.16220855712890625 -0.2245330810546875 0.001474618911743164 0.0008313655853271484 -0.0547943115234375 -0.0667877197265625
18.01675 0.04393768310546875 0.14336395263671875 0.15962982177734375 -0.24150848388671875 0.0012977123260498047 0.0007419586181640625 -0.0565948486328125 -0.061939239501953125
18.0265 0.051727294921875 0.1427001953125 0.147674560546875 -0.260833740234375 0.0002994537353515625 0.0008455514907836914 -0.06252288818359375 -0.0580902099609375
18.03625 0.059112548828125 0.1444244384765625 0.1368408203125 -0.2803955078125 0.000671684741973877 0.00021207332611083984 -0.06439208984375 -0.05279541015625
18.046 0.06710052490234375 0.14157867431640625 0.1216278076171875 -0.2996368408203125 0.0019425153732299805 0.00106048583984375 -0.06587600708007812 -0.0468292236328125
18.05575 0.0753631591796875 0.13945770263671875 0.10430908203125 -0.3175811767578125 0.0007288455963134766 0.0002511143684387207 -0.06964874267578125 -0.042125701904296875
18.0655 0.08155059814453125 0.1388397216796875 0.0880889892578125 -0.335235595703125 -3.707408905029297e-05 -0.0011208057403564453 -0.07309341430664062 -0.037506103515625
18.07525 0.088714599609375 0.13590240478515625 0.0675201416015625 -0.352874755859375 0.0011872649192810059 -9.942054748535156e-05 -0.07458877563476562 -0.0314178466796875
18.085 0.09647369384765625 0.1340789794921875 0.0428924560546875 -0.368255615234375 0.00037851929664611816 -0.00079384446144104 -0.07684326171875 -0.02513885498046875
18.09475 0.1027984619140625 0.13182830810546875 0.018157958984375 -0.3856048583984375 0.0004058331251144409 -2.8192996978759766e-05 -0.07567596435546875 -0.019603729248046875
18.1045 0.11019134521484375 0.12795257568359375 -0.014404296875 -0.40087890625 0.0011269450187683105 -9.942054748535156e-05 -0.0761260986328125 -0.0126190185546875
18.11425 0.116455078125 0.12419891357421875 -0.048492431640625 -0.4127349853515625 0.0014078617095947266 0.0007096529006958008 -0.07627487182617188 -0.00885772705078125
18.124 0.1220855712890625 0.1183929443359375 -0.0843505859375 -0.42010498046875 -0.00045925378799438477 0.0004935860633850098 -0.07635498046875 -0.00011444091796875
18.13375 0.129180908203125 0.11635589599609375 -0.12225341796875 -0.425079345703125 0.0017073750495910645 -0.0006479620933532715 -0.07657623291015625 0.00397491455078125
18.1435 0.13478851318359375 0.1103973388671875 -0.16143798828125 -0.42462158203125 0.0012416839599609375 -0.00023430585861206055 -0.07595062255859375 0.0123291015625
18.15325 0.1419677734375 0.105194091796875 -0.201995849609375 -0.421295166015625 0.0005116164684295654 -0.0009468495845794678 -0.07493209838867188 0.019161224365234375
18.163 0.1485748291015625 0.0991973876953125 -0.2427978515625 -0.410675048828125 0.0006900429725646973 -0.0005542933940887451 -0.072265625 0.0247344970703125
18.17275 0.153167724609375 0.093994140625 -0.283905029296875 -0.398406982421875 0.0012464523315429688 0.00047391653060913086 -0.06746292114257812 0.03099822998046875
18.1825 0.15868377685546875 0.0871429443359375 -0.326507568359375 -0.38134765625 0.00027580559253692627 -0.0002928227186203003 -0.06512832641601562 0.037994384765625
18.19225 0.16271209716796875 0.08097076416015625 -0.367950439453125 -0.362152099609375 1.3902783393859863e-05 0.00032497942447662354 -0.06302261352539062 0.044017791748046875
18.202 0.1668701171875 0.07439422607421875 -0.406494140625 -0.33538818359375 0.0005511045455932617 -0.002400517463684082 -0.06165313720703125 0.050777435302734375
18.21175 0.1727447509765625 0.0690155029296875 -0.4447021484375 -0.303955078125 0.00039508938789367676 3.6656856536865234e-06 -0.05623626708984375 0.0570831298828125
18.2215 0.177490234375 0.0616302490234375 -0.4779052734375 -0.266021728515625 -0.00032579898834228516 0.0003885924816131592 -0.05100822448730469 0.062084197998046875
18.23125 0.18025970458984375 0.053955078125 -0.50921630859375 -0.22601318359375 0.000420987606048584 -0.0010294914245605469 -0.047672271728515625 0.06457138061523438
18.241 0.18361663818359375 0.046173095703125 -0.53472900390625 -0.182037353515625 0.0005778074264526367 -0.0006659328937530518 -0.04332733154296875 0.07075119018554688
18.25075 0.18613433837890625 0.03801727294921875 -0.55584716796875 -0.137176513671875 0.0003484487533569336 0.0008413195610046387 -0.03804779052734375 0.0749359130859375
18.2605 0.1889495849609375 0.03118133544921875 -0.572296142578125 -0.090606689453125 -7.280707359313965e-05 -0.0006428658962249756 -0.032321929931640625 0.07899093627929688
18.27025 0.1902923583984375 0.0220184326171875 -0.589080810546875 -0.04058837890625 0.0013030767440795898 -0.0014583468437194824 -0.024593353271484375 0.08224868774414062
18.28 0.19293212890625 0.012237548828125 -0.59967041015625 0.012451171875 0.000241890549659729 -0.00029394030570983887 -0.0188751220703125 0.08481216430664062
18.28975 0.19342803955078125 0.0039215087890625 -0.6041259765625 0.067138671875 0.0015891790390014648 -0.00044780969619750977 -0.00998687744140625 0.08848953247070312
18.2995 0.19402313232421875 -0.0034332275390625 -0.60406494140625 0.12176513671875 0.0010380744934082031 -0.00029468536376953125 -0.00313568115234375 0.08775711059570312
18.30925 0.193572998046875 -0.013580322265625 -0.59625244140625 0.1785888671875 0.0004858970642089844 -0.0008845329284667969 0.00411224365234375 0.0893707275390625
18.319 0.19342041015625 -0.02252197265625 -0.580352783203125 0.23577880859375 -0.00029830634593963623 0.0002632737159729004 0.011409759521484375 0.09416580200195312
18.32875 0.19145965576171875 -0.02866363525390625 -0.56134033203125 0.28662109375 0.0004043281078338623 0.0005325973033905029 0.01952362060546875 0.0931396484375
18.3385 0.19051361083984375 -0.04047393798828125 -0.5372314453125 0.333831787109375 -0.0005957484245300293 -0.0005532503128051758 0.02797698974609375 0.09319686889648438
18.34825 0.18951416015625 -0.04761505126953125 -0.51104736328125 0.383544921875 6.508827209472656e-05 -0.0008053481578826904 0.0341644287109375 0.0943603515625
18.358 0.18853759765625 -0.05542755126953125 -0.481231689453125 0.42657470703125 0.0006512105464935303 -3.445148468017578e-05 0.04282379150390625 0.090850830078125
18.36775 0.185882568359375 -0.0647430419921875 -0.4466552734375 0.4713134765625 0.000245705246925354 -0.00018261373043060303 0.0485992431640625 0.08980560302734375
18.3775 0.18129730224609375 -0.0710296630859375 -0.40966796875 0.512969970703125 0.0008071064949035645 -0.001186370849609375 0.05682373046875 0.08860015869140625
18.38725 0.178955078125 -0.0813140869140625 -0.364349365234375 0.5518798828125 0.0018938183784484863 -0.00028908252716064453 0.0645751953125 0.0855865478515625
18.397 0.17449951171875 -0.0867462158203125 -0.3179931640625 0.5858154296875 -0.0008128881454467773 -0.0006808042526245117 0.07110595703125 0.0836944580078125
18.40675 0.17022705078125 -0.094512939453125 -0.26446533203125 0.61572265625 0.0005028843879699707 -4.357099533081055e-05 0.07672119140625 0.078521728515625
18.4165 0.16530609130859375 -0.10207366943359375 -0.209869384765625 0.637542724609375 0.0005830228328704834 -0.0007161796092987061 0.08467864990234375 0.07599639892578125
18.42625 0.15952301025390625 -0.10953521728515625 -0.156585693359375 0.651580810546875 0.0001507401466369629 -0.0004901885986328125 0.08948516845703125 0.0693359375
18.436 0.15291595458984375 -0.115081787109375 -0.102081298828125 0.6630859375 0.0012323856353759766 -0.0007591843605041504 0.0983123779296875 0.06299591064453125
18.44575 0.1471405029296875 -0.122955322265625 -0.051849365234375 0.6700439453125 6.407499313354492e-05 0.0011852383613586426 0.10102081298828125 0.0572662353515625
18.4555 0.139862060546875 -0.12860870361328125 0.0020751953125 0.675201416015625 0.00033588707447052 -0.00013741850852966309 0.10579681396484375 0.049346923828125
18.46525 0.13454437255859375 -0.13382720947265625 0.055908203125 0.678558349609375 0.0004469156265258789 -0.0006185173988342285 0.11190032958984375 0.04071807861328125
18.475 0.12725830078125 -0.14002227783203125 0.110748291015625 0.678802490234375 0.0005014538764953613 -0.0010079741477966309 0.1153717041015625 0.03401947021484375
18.48475 0.12076568603515625 -0.145751953125 0.169158935546875 0.67315673828125 0.0010355114936828613 -0.0005095601081848145 0.1188507080078125 0.0255279541015625
18.4945 0.11208343505859375 -0.149688720703125 0.229949951171875 0.66143798828125 -0.0003632009029388428 -0.00040411949157714844 0.122894287109375 0.01667022705078125
18.50425 0.1040191650390625 -0.1540069580078125 0.2886962890625 0.6416015625 0.0006175637245178223 -0.0005007386207580566 0.1233062744140625 0.0095367431640625
18.514 0.0977020263671875 -0.15869140625 0.34423828125 0.61627197265625 -0.0012038946151733398 8.511543273925781e-05 0.1258087158203125 0.00208282470703125
18.52375 0.08911895751953125 -0.159454345703125 0.394683837890625 0.584228515625 0.0008136332035064697 -0.0003870725631713867 0.1242218017578125 -0.007938385009765625
18.5335 0.082366943359375 -0.16351318359375 0.4388427734375 0.548828125 -0.0006453990936279297 0.0003381967544555664 0.1257781982421875 -0.0155487060546875
18.54325 0.07460784912109375 -0.16800689697265625 0.478973388671875 0.51214599609375 4.410743713378906e-05 -0.0015422701835632324 0.1238861083984375 -0.02275848388671875
18.553 0.06566619873046875 -0.16989898681640625 0.517303466796875 0.47515869140625 6.787478923797607e-06 7.298588752746582e-05 0.122314453125 -0.03002166748046875
18.56275 0.059417724609375 -0.16863250732421875 0.55487060546875 0.4364013671875 -0.0002329498529434204 0.00012418627738952637 0.11865615844726562 -0.037288665771484375
18.5725 0.050628662109375 -0.17179107666015625 0.591400146484375 0.394378662109375 -0.00013954192399978638 3.6716461181640625e-05 0.11661911010742188 -0.0447998046875
18.58225 0.04143524169921875 -0.17139434814453125 0.625640869140625 0.348388671875 -0.00011628866195678711 -0.000977158546447754 0.11226654052734375 -0.0520172119140625
18.592 0.0343475341796875 -0.17181396484375 0.6583251953125 0.295440673828125 -0.0001271367073059082 -0.0013793110847473145 0.1078338623046875 -0.060211181640625
18.60175 0.026092529296875 -0.171234130859375 0.6820068359375 0.24285888671875 0.0007973909378051758 -0.00025784969329833984 0.102996826171875 -0.06468963623046875
18.6115 0.019195556640625 -0.16950225830078125 0.699951171875 0.1851806640625 0.0006770193576812744 -0.0006816387176513672 0.09914016723632812 -0.0741424560546875
18.62125 0.0095977783203125 -0.16799163818359375 0.71234130859375 0.126922607421875 0.000920414924621582 0.0003471970558166504 0.09318923950195312 -0.07875823974609375
18.631 0.00235748291015625 -0.16881561279296875 0.7196044921875 0.07489013671875 -4.965066909790039e-05 -0.0012964606285095215 0.08635711669921875 -0.08339309692382812
18.64075 -0.00702667236328125 -0.1671142578125 0.7225341796875 0.020538330078125 -0.0005399584770202637 -0.0003535747528076172 0.08029937744140625 -0.0864410400390625
