!Created with skrf (http://scikit-rf.org).
# GHz S RI R 50.0 
!freq ReS11 ImS11 ReS21 ImS21 ReS12 ImS12 ReS22 ImS22
17.5 0.00975799560546875 -0.144500732421875 -0.156646728515625 0.2299346923828125 -0.002049565315246582 0.0006513595581054688 0.09836578369140625 0.0011138916015625
17.50975 -0.00064849853515625 -0.14098358154296875 -0.130950927734375 0.23956298828125 -0.0010887980461120605 0.0003669261932373047 0.10064697265625 0.00012969970703125
17.5195 -0.00896453857421875 -0.1374053955078125 -0.10552978515625 0.24688720703125 -0.0015909075736999512 0.00036531686782836914 0.10373306274414062 -0.001979827880859375
17.52925 -0.0173187255859375 -0.1327972412109375 -0.0778656005859375 0.251495361328125 -0.002555251121520996 0.0011987686157226562 0.10620880126953125 -0.0047454833984375
17.539 -0.0244140625 -0.1273345947265625 -0.0545654296875 0.2502593994140625 -0.0009992718696594238 0.0007762312889099121 0.10762786865234375 -0.00859832763671875
17.54875 -0.03194427490234375 -0.12412261962890625 -0.030426025390625 0.24918365478515625 -0.00121384859085083 0.0007792115211486816 0.109619140625 -0.011508941650390625
17.5585 -0.04134368896484375 -0.11922454833984375 -0.00571441650390625 0.2450408935546875 -0.00011767446994781494 -0.00017471611499786377 0.11085891723632812 -0.0162811279296875
17.56825 -0.04700469970703125 -0.11499786376953125 0.01433563232421875 0.2391815185546875 -0.0013155937194824219 0.001500248908996582 0.11186599731445312 -0.01908111572265625
17.578 -0.0534820556640625 -0.10913848876953125 0.035675048828125 0.231964111328125 -0.0007482767105102539 0.0011987686157226562 0.11269378662109375 -0.02352142333984375
17.58775 -0.05913543701171875 -0.10385894775390625 0.0559539794921875 0.2242279052734375 -0.0010967254638671875 0.0011017918586730957 0.11443710327148438 -0.026691436767578125
17.5975 -0.0639190673828125 -0.09642791748046875 0.0749969482421875 0.211883544921875 -0.0019588470458984375 0.001283884048461914 0.115234375 -0.031948089599609375
17.60725 -0.06992340087890625 -0.09300994873046875 0.09173583984375 0.197174072265625 -0.000767052173614502 0.0008467137813568115 0.11351776123046875 -0.035945892333984375
17.617 -0.0749664306640625 -0.08544158935546875 0.1049957275390625 0.1820220947265625 -0.0009299218654632568 0.000809401273727417 0.11473464965820312 -0.040592193603515625
17.62675 -0.08058929443359375 -0.0773468017578125 0.11639404296875 0.16595458984375 -0.001894831657409668 0.0013131499290466309 0.11458206176757812 -0.04360198974609375
17.6365 -0.0829925537109375 -0.069549560546875 0.1248779296875 0.149200439453125 -0.0007200837135314941 0.0007339715957641602 0.1127166748046875 -0.0500030517578125
17.64625 -0.085601806640625 -0.06195068359375 0.1324005126953125 0.13299560546875 -0.0008209943771362305 0.0019655227661132812 0.110382080078125 -0.05328369140625
17.656 -0.0907440185546875 -0.056549072265625 0.1369171142578125 0.1189117431640625 -0.0008292794227600098 -2.086162567138672e-06 0.10747909545898438 -0.05742645263671875
17.66575 -0.092681884765625 -0.0478057861328125 0.13953399658203125 0.10579681396484375 -0.0014563798904418945 0.000995934009552002 0.10523605346679688 -0.06287765502929688
17.6755 -0.09698486328125 -0.03963470458984375 0.142669677734375 0.09024810791015625 -0.0002516508102416992 0.002332329750061035 0.1023406982421875 -0.067169189453125
17.68525 -0.096893310546875 -0.03186798095703125 0.1444549560546875 0.07901763916015625 0.00021123886108398438 0.0012320876121520996 0.100372314453125 -0.071990966796875
17.695 -0.09893035888671875 -0.0234527587890625 0.1454315185546875 0.06341552734375 -0.0005078315734863281 0.0014504194259643555 0.0993499755859375 -0.07415008544921875
17.70475 -0.09943008422851562 -0.013523101806640625 0.1441802978515625 0.04864501953125 -0.00043158233165740967 0.0004133880138397217 0.09440994262695312 -0.07820892333984375
17.7145 -0.10237503051757812 -0.00579071044921875 0.14229583740234375 0.03447723388671875 0.0008512735366821289 0.0013784170150756836 0.09002304077148438 -0.08421707153320312
17.72425 -0.10194778442382812 0.00151824951171875 0.1373138427734375 0.0214385986328125 -0.00022393465042114258 0.0009587109088897705 0.08568191528320312 -0.08693313598632812
17.734 -0.10245513916015625 0.00972747802734375 0.130828857421875 0.0102996826171875 -0.001523733139038086 0.0012966394424438477 0.08252716064453125 -0.09255218505859375
17.74375 -0.10321807861328125 0.017059326171875 0.12177276611328125 0.00200653076171875 7.641315460205078e-05 0.0013049840927124023 0.07880401611328125 -0.09610748291015625
17.7535 -0.09952163696289062 0.02327728271484375 0.11478805541992188 -0.003757476806640625 0.00037932395935058594 0.0021746158599853516 0.0724029541015625 -0.09930419921875
17.76325 -0.09758377075195312 0.032562255859375 0.10747528076171875 -0.00904083251953125 0.00031387805938720703 0.002210855484008789 0.06703948974609375 -0.10017776489257812
17.773 -0.09771728515625 0.038951873779296875 0.09960556030273438 -0.01291656494140625 -0.0002601146697998047 0.0014050006866455078 0.06300735473632812 -0.10238265991210938
17.78275 -0.09455490112304688 0.046375274658203125 0.09196090698242188 -0.016078948974609375 -0.0006188750267028809 0.0004093647003173828 0.05872344970703125 -0.10315704345703125
17.7925 -0.09177780151367188 0.05263519287109375 0.08525848388671875 -0.019775390625 0.00047457218170166016 0.0006234645843505859 0.053279876708984375 -0.10445785522460938
17.80225 -0.08834457397460938 0.0597686767578125 0.07806777954101562 -0.01831817626953125 -0.0016250014305114746 0.0013518333435058594 0.048267364501953125 -0.10601806640625
17.812 -0.08553695678710938 0.06781387329101562 0.0736083984375 -0.018802642822265625 0.0013228654861450195 0.0007299184799194336 0.043834686279296875 -0.10774993896484375
17.82175 -0.08077621459960938 0.07550811767578125 0.06717681884765625 -0.017848968505859375 0.00010848045349121094 0.0013058781623840332 0.037220001220703125 -0.10763931274414062
17.8315 -0.07651138305664062 0.08163833618164062 0.06325149536132812 -0.01534271240234375 0.00078582763671875 0.001279592514038086 0.03289794921875 -0.1071929931640625
17.84125 -0.0717620849609375 0.08710479736328125 0.059787750244140625 -0.012805938720703125 -0.00031554698944091797 0.001398921012878418 0.0250244140625 -0.10735321044921875
17.851 -0.0664215087890625 0.0944061279296875 0.05601692199707031 -0.0089263916015625 0.0007317066192626953 0.0005483627319335938 0.02022552490234375 -0.108673095703125
17.86075 -0.06327438354492188 0.0989990234375 0.0553741455078125 -0.0038776397705078125 -0.000741124153137207 0.001443326473236084 0.014492034912109375 -0.10669708251953125
17.8705 -0.05733489990234375 0.1052703857421875 0.05481529235839844 0.0009899139404296875 0.0005339980125427246 0.0009191632270812988 0.01053619384765625 -0.10608291625976562
17.88025 -0.050685882568359375 0.11125946044921875 0.057392120361328125 0.006595611572265625 0.0002574324607849121 0.0014674067497253418 0.003864288330078125 -0.10480499267578125
17.89 -0.046550750732421875 0.11693954467773438 0.06087493896484375 0.009960174560546875 0.00016012787818908691 0.0007819533348083496 -7.62939453125e-05 -0.10262680053710938
17.89975 -0.039936065673828125 0.12034225463867188 0.06554794311523438 0.015247344970703125 -0.0004909038543701172 0.0016333460807800293 -0.006801605224609375 -0.10274887084960938
17.9095 -0.035274505615234375 0.1229705810546875 0.07254409790039062 0.016757965087890625 0.00047343969345092773 0.0005934834480285645 -0.01363372802734375 -0.10181808471679688
17.91925 -0.02814483642578125 0.1270904541015625 0.07902145385742188 0.01983642578125 -5.97536563873291e-05 0.0005125999450683594 -0.016651153564453125 -0.09940338134765625
17.929 -0.0222015380859375 0.1310882568359375 0.0885009765625 0.02135467529296875 0.000693976879119873 0.0002772808074951172 -0.02236175537109375 -0.09784698486328125
17.93875 -0.0152435302734375 0.13399505615234375 0.09744644165039062 0.019367218017578125 0.001535177230834961 0.0004094839096069336 -0.026088714599609375 -0.09355545043945312
17.9485 -0.0071258544921875 0.13611602783203125 0.10929107666015625 0.0171356201171875 -0.0005255937576293945 0.00125885009765625 -0.03107452392578125 -0.08932876586914062
17.95825 -0.00122833251953125 0.1373291015625 0.11861419677734375 0.013824462890625 6.314367055892944e-05 -0.0001432374119758606 -0.032344818115234375 -0.08676910400390625
17.968 0.00670623779296875 0.13873291015625 0.12998199462890625 0.008544921875 0.0008849501609802246 0.0007643699645996094 -0.037990570068359375 -0.08478546142578125
17.97775 0.0138397216796875 0.13982391357421875 0.1414642333984375 0.000823974609375 0.0009083747863769531 0.0010275840759277344 -0.0429534912109375 -0.07851791381835938
17.9875 0.0227508544921875 0.14186859130859375 0.15332794189453125 -0.00909423828125 0.0014063119888305664 0.0013884305953979492 -0.045642852783203125 -0.07629013061523438
17.99725 0.0298004150390625 0.141845703125 0.16464996337890625 -0.02336883544921875 0.000579535961151123 0.0008508563041687012 -0.049823760986328125 -0.0699005126953125
18.007 0.03684234619140625 0.14267730712890625 0.17670440673828125 -0.03815460205078125 0.000677943229675293 0.001371145248413086 -0.0541839599609375 -0.067138671875
18.01675 0.04584503173828125 0.14284515380859375 0.18553924560546875 -0.05810546875 0.0013331174850463867 0.001242518424987793 -0.05951690673828125 -0.0617828369140625
18.0265 0.0515289306640625 0.143524169921875 0.190521240234375 -0.0776214599609375 0.0003566741943359375 0.0026149749755859375 -0.062103271484375 -0.05628204345703125
18.03625 0.0598297119140625 0.1440582275390625 0.1940460205078125 -0.1013336181640625 0.001232147216796875 9.655952453613281e-06 -0.06343841552734375 -0.05278778076171875
18.046 0.06664276123046875 0.142608642578125 0.19470977783203125 -0.12474822998046875 0.0012640953063964844 0.0006517767906188965 -0.06644821166992188 -0.0474700927734375
18.05575 0.07556915283203125 0.138824462890625 0.19304656982421875 -0.14962005615234375 0.0003654360771179199 0.0005781352519989014 -0.069976806640625 -0.0408477783203125
18.0655 0.0830078125 0.1389617919921875 0.1855926513671875 -0.17517852783203125 0.0011331439018249512 -0.00015246868133544922 -0.07370376586914062 -0.036548614501953125
18.07525 0.08957672119140625 0.13700103759765625 0.17700958251953125 -0.20061492919921875 1.7562881112098694e-05 -5.9876590967178345e-05 -0.07448577880859375 -0.03237152099609375
18.085 0.09665679931640625 0.1341094970703125 0.16521453857421875 -0.2262725830078125 0.0007854700088500977 0.0001823902130126953 -0.07624053955078125 -0.0270538330078125
18.09475 0.10329437255859375 0.129852294921875 0.1512298583984375 -0.251495361328125 0.0006011426448822021 -0.00017565488815307617 -0.07510757446289062 -0.019756317138671875
18.1045 0.10950469970703125 0.12751007080078125 0.1323089599609375 -0.276458740234375 0.0018550753593444824 -0.00012940168380737305 -0.07692718505859375 -0.01332855224609375
18.11425 0.1172332763671875 0.124755859375 0.107818603515625 -0.300567626953125 0.0014832019805908203 -0.00029671192169189453 -0.07474899291992188 -0.00930023193359375
18.124 0.1207733154296875 0.1200408935546875 0.08038330078125 -0.320404052734375 0.0015101432800292969 -0.00018990039825439453 -0.0756683349609375 -0.0012664794921875
18.13375 0.128753662109375 0.11566162109375 0.0494842529296875 -0.3379058837890625 0.00023581087589263916 0.00015328824520111084 -0.07540512084960938 0.005619049072265625
18.1435 0.1332244873046875 0.1110992431640625 0.016204833984375 -0.352508544921875 0.0005511641502380371 -0.0006611347198486328 -0.0746307373046875 0.013187408447265625
18.15325 0.14105224609375 0.10418701171875 -0.0204620361328125 -0.36151123046875 0.0002918839454650879 -0.00021405518054962158 -0.07424163818359375 0.01757049560546875
18.163 0.147796630859375 0.09828948974609375 -0.0560150146484375 -0.3693084716796875 0.000567317008972168 -0.0005721151828765869 -0.0703582763671875 0.026081085205078125
18.17275 0.1532135009765625 0.0937957763671875 -0.096160888671875 -0.3719482421875 0.0012900829315185547 4.76837158203125e-05 -0.06764602661132812 0.032623291015625
18.1825 0.158447265625 0.08647918701171875 -0.133941650390625 -0.370025634765625 0.000348508358001709 -0.0016446709632873535 -0.0660552978515625 0.03850555419921875
18.19225 0.16243743896484375 0.08060455322265625 -0.174835205078125 -0.363494873046875 0.00025920569896698 -2.1666288375854492e-05 -0.06383514404296875 0.044666290283203125
18.202 0.1683197021484375 0.0756988525390625 -0.214996337890625 -0.354888916015625 0.0007378458976745605 -0.0007457733154296875 -0.06139183044433594 0.05036354064941406
18.21175 0.1717987060546875 0.0670013427734375 -0.25445556640625 -0.3382568359375 0.0008011460304260254 9.41157341003418e-05 -0.05496978759765625 0.05730438232421875
18.2215 0.17815399169921875 0.06040191650390625 -0.292694091796875 -0.316009521484375 -0.00021938979625701904 -4.245340824127197e-05 -0.049030303955078125 0.061183929443359375
18.23125 0.18126678466796875 0.05364227294921875 -0.329925537109375 -0.290069580078125 0.0007230639457702637 -0.0006991326808929443 -0.048625946044921875 0.06519317626953125
18.241 0.18344879150390625 0.0462188720703125 -0.35955810546875 -0.261138916015625 0.000707089900970459 0.00042051076889038086 -0.042095184326171875 0.06943893432617188
18.25075 0.18611907958984375 0.03801727294921875 -0.388336181640625 -0.22930908203125 0.0011390447616577148 -0.00027817487716674805 -0.03731536865234375 0.07405471801757812
18.2605 0.18729400634765625 0.031158447265625 -0.41455078125 -0.19354248046875 0.0014228224754333496 -0.00012058019638061523 -0.03063201904296875 0.07892227172851562
18.27025 0.18984222412109375 0.021728515625 -0.436553955078125 -0.156280517578125 0.0003918111324310303 -0.0001589953899383545 -0.023532867431640625 0.0804901123046875
18.28 0.192657470703125 0.0141143798828125 -0.45721435546875 -0.117218017578125 0.0008087158203125 0.0001157522201538086 -0.017040252685546875 0.08398818969726562
18.28975 0.19335174560546875 0.0045318603515625 -0.47296142578125 -0.071258544921875 0.000661015510559082 -0.000856250524520874 -0.00972747802734375 0.08755874633789062
18.2995 0.1939697265625 -0.0028839111328125 -0.484100341796875 -0.02667236328125 0.0006479620933532715 -0.0005543828010559082 -0.003345489501953125 0.08795928955078125
18.30925 0.1927032470703125 -0.012237548828125 -0.489349365234375 0.020172119140625 0.00040584802627563477 -0.0007884502410888672 0.0048065185546875 0.08994293212890625
18.319 0.1932525634765625 -0.02275848388671875 -0.4885101318359375 0.068328857421875 -0.00023569166660308838 0.0003006458282470703 0.0104827880859375 0.0930633544921875
18.32875 0.19110107421875 -0.0284576416015625 -0.482421875 0.1145782470703125 0.0008486807346343994 -0.0004304945468902588 0.019626617431640625 0.09198379516601562
18.3385 0.1905364990234375 -0.03900909423828125 -0.4727630615234375 0.15863037109375 0.0007498264312744141 0.000705420970916748 0.027256011962890625 0.09392547607421875
18.34825 0.1892852783203125 -0.04859161376953125 -0.45977783203125 0.2034149169921875 0.0007586181163787842 -0.0006212294101715088 0.03539276123046875 0.09360504150390625
18.358 0.1866455078125 -0.0553436279296875 -0.4436187744140625 0.243560791015625 0.00038230419158935547 -0.0012211799621582031 0.0442962646484375 0.0907135009765625
18.36775 0.18480682373046875 -0.06436920166015625 -0.4232940673828125 0.2844696044921875 0.0011170506477355957 -0.00022846460342407227 0.050628662109375 0.0882720947265625
18.3775 0.1829071044921875 -0.07212066650390625 -0.4000396728515625 0.3238525390625 -0.0003308802843093872 -6.236135959625244e-05 0.0577239990234375 0.08693695068359375
18.38725 0.17852020263671875 -0.08036041259765625 -0.37188720703125 0.36334228515625 0.00012800097465515137 0.00035506486892700195 0.0638580322265625 0.0863494873046875
18.397 0.17608642578125 -0.0873870849609375 -0.340087890625 0.397491455078125 -0.0004864931106567383 -0.0014028549194335938 0.0701904296875 0.081787109375
18.40675 0.17047119140625 -0.0951995849609375 -0.301605224609375 0.43194580078125 -0.00013786554336547852 0.0006529092788696289 0.0772552490234375 0.07769775390625
18.4165 0.1648406982421875 -0.10262298583984375 -0.2634429931640625 0.4571380615234375 -0.0001767277717590332 -0.00021657347679138184 0.08408355712890625 0.0743408203125
18.42625 0.16021728515625 -0.10933685302734375 -0.2209930419921875 0.479095458984375 -3.102421760559082e-05 -0.0006403923034667969 0.092193603515625 0.06797027587890625
18.436 0.15341949462890625 -0.116180419921875 -0.1802520751953125 0.4952392578125 -0.001147449016571045 0.0013262629508972168 0.09748077392578125 0.0634002685546875
18.44575 0.14678192138671875 -0.1234130859375 -0.13983154296875 0.512176513671875 0.0008584260940551758 -0.0001316666603088379 0.10198211669921875 0.05687713623046875
18.4555 0.1395263671875 -0.12723541259765625 -0.0975341796875 0.523773193359375 4.482269287109375e-05 -0.0014042854309082031 0.10781097412109375 0.0502777099609375
18.46525 0.13455963134765625 -0.133544921875 -0.0560302734375 0.53759765625 0.0002008378505706787 -0.0005213022232055664 0.111083984375 0.03936004638671875
18.475 0.1257171630859375 -0.14057159423828125 -0.01171875 0.545013427734375 -0.000359460711479187 4.2945146560668945e-05 0.114959716796875 0.03353118896484375
18.48475 0.121063232421875 -0.1455535888671875 0.03729248046875 0.54925537109375 0.0008378922939300537 -0.0006179511547088623 0.11733245849609375 0.02548980712890625
18.4945 0.11325836181640625 -0.15032196044921875 0.08758544921875 0.549530029296875 5.21540641784668e-07 0.0002586841583251953 0.12206268310546875 0.01680755615234375
18.50425 0.1043243408203125 -0.1537322998046875 0.13916015625 0.5428466796875 -0.00038617849349975586 -0.0005881786346435547 0.12249755859375 0.0086517333984375
18.514 0.0982513427734375 -0.1574249267578125 0.186767578125 0.52972412109375 0.0004444122314453125 -0.00022837519645690918 0.12450408935546875 0.00164031982421875
18.52375 0.0895538330078125 -0.1592864990234375 0.231781005859375 0.51031494140625 0.0005983412265777588 0.00035330653190612793 0.125 -0.00653076171875
18.5335 0.083038330078125 -0.16375732421875 0.275177001953125 0.48760986328125 8.244812488555908e-05 -0.0003408193588256836 0.124237060546875 -0.01610565185546875
18.54325 0.0743255615234375 -0.16680908203125 0.31280517578125 0.46435546875 0.0007357597351074219 -6.476044654846191e-05 0.12392425537109375 -0.023906707763671875
18.553 0.0678558349609375 -0.1690216064453125 0.35003662109375 0.439971923828125 0.0003190040588378906 -0.00106048583984375 0.12183380126953125 -0.0307159423828125
18.56275 0.0593109130859375 -0.16823577880859375 0.38604736328125 0.414886474609375 8.288025856018066e-05 -0.0008861124515533447 0.11979293823242188 -0.037445068359375
18.5725 0.0498504638671875 -0.170989990234375 0.421722412109375 0.3848876953125 0.0006231069564819336 -0.0008969306945800781 0.11462783813476562 -0.045520782470703125
18.58225 0.04229736328125 -0.17099761962890625 0.45513916015625 0.352020263671875 0.0006743967533111572 -0.00016412138938903809 0.11185073852539062 -0.053226470947265625
18.592 0.03409576416015625 -0.17230987548828125 0.48724365234375 0.314361572265625 0.0002490878105163574 -0.0010016560554504395 0.1075592041015625 -0.059734344482421875
18.60175 0.027374267578125 -0.1703643798828125 0.5146484375 0.27203369140625 0.00022612512111663818 -6.724894046783447e-05 0.10247039794921875 -0.06529998779296875
18.6115 0.0177154541015625 -0.1695556640625 0.536834716796875 0.227386474609375 0.0004991888999938965 -0.0005105733871459961 0.098297119140625 -0.07332611083984375
18.62125 0.010467529296875 -0.16898345947265625 0.555450439453125 0.183319091796875 0.00021888315677642822 -0.00033339858055114746 0.09119415283203125 -0.07807159423828125
18.631 0.00098419189453125 -0.16913604736328125 0.566680908203125 0.138885498046875 5.364418029785156e-06 -0.0005591213703155518 0.08583450317382812 -0.08302688598632812
