!Created with skrf (http://scikit-rf.org).
# GHz S RI R 50.0 
!freq ReS11 ImS11 ReS21 ImS21 ReS12 ImS12 ReS22 ImS22
17.5 0.0135345458984375 -0.14000701904296875 -1.868896484375 2.2357177734375 -0.0009319782257080078 -0.0004425644874572754 0.09154129028320312 0.005741119384765625
17.50975 0.004302978515625 -0.13722991943359375 -1.67919921875 2.3739013671875 -0.0005608201026916504 0.0011228322982788086 0.09497833251953125 0.00463104248046875
17.5195 -0.00366973876953125 -0.13294219970703125 -1.475341796875 2.4930419921875 -0.0009532570838928223 -0.00025087594985961914 0.09836196899414062 0.003448486328125
17.52925 -0.01242828369140625 -0.12982177734375 -1.2674560546875 2.5960693359375 -0.0013734102249145508 0.0008556246757507324 0.100860595703125 -0.00119781494140625
17.539 -0.0175018310546875 -0.1240234375 -1.05859375 2.68017578125 -0.0018509626388549805 9.953975677490234e-05 0.1043701171875 -0.00374603271484375
17.54875 -0.02587890625 -0.12149810791015625 -0.8466796875 2.737548828125 -0.0010958313941955566 0.0017946362495422363 0.10493850708007812 -0.005786895751953125
17.5585 -0.035369873046875 -0.11669158935546875 -0.6348876953125 2.7947998046875 -0.0014504194259643555 0.000615537166595459 0.10859298706054688 -0.00848388671875
17.56825 -0.0400238037109375 -0.1135711669921875 -0.4261474609375 2.833984375 -0.0014366507530212402 0.0005344748497009277 0.11066055297851562 -0.012973785400390625
17.578 -0.04754638671875 -0.10652923583984375 -0.2000732421875 2.8612060546875 -0.001802206039428711 0.0015870332717895508 0.11301040649414062 -0.01642608642578125
17.58775 -0.05370330810546875 -0.10327911376953125 0.029052734375 2.86865234375 -0.0015916824340820312 0.0008966326713562012 0.11289596557617188 -0.02022552490234375
17.5975 -0.0579681396484375 -0.09747314453125 0.267578125 2.8541259765625 -0.0014504194259643555 -8.159875869750977e-05 0.11457061767578125 -0.024036407470703125
17.60725 -0.06423187255859375 -0.092376708984375 0.498291015625 2.8131103515625 -0.00033354759216308594 0.0011248588562011719 0.11368942260742188 -0.026599884033203125
17.617 -0.06833648681640625 -0.08457183837890625 0.7169189453125 2.744873046875 -0.0012401342391967773 0.0009509921073913574 0.1154327392578125 -0.031986236572265625
17.62675 -0.0748748779296875 -0.07843780517578125 0.92626953125 2.6611328125 -0.0014475584030151367 0.0004038810729980469 0.11672592163085938 -0.034801483154296875
17.6365 -0.0771484375 -0.0724334716796875 1.114501953125 2.55859375 -0.0013415813446044922 0.0010586977005004883 0.11407470703125 -0.04312896728515625
17.64625 -0.08217620849609375 -0.0639495849609375 1.2861328125 2.4569091796875 -0.0012317895889282227 0.0009034276008605957 0.11380386352539062 -0.046844482421875
17.656 -0.08444976806640625 -0.059295654296875 1.44580078125 2.351806640625 -0.0005218088626861572 0.0003007650375366211 0.110748291015625 -0.051723480224609375
17.66575 -0.0877227783203125 -0.0497283935546875 1.6038818359375 2.24658203125 -0.0004619508981704712 0.0001338869333267212 0.11083221435546875 -0.056354522705078125
17.6755 -0.09033203125 -0.04216766357421875 1.7567138671875 2.13134765625 -0.0009365379810333252 0.0006053447723388672 0.10769271850585938 -0.05963897705078125
17.68525 -0.0922393798828125 -0.03525543212890625 1.921875 2.0172119140625 -0.0021456480026245117 0.001729726791381836 0.1055908203125 -0.06421661376953125
17.695 -0.09406661987304688 -0.02637481689453125 2.0830078125 1.87451171875 -0.00106734037399292 0.0014816522598266602 0.10424041748046875 -0.07001495361328125
17.70475 -0.09465789794921875 -0.018581390380859375 2.238037109375 1.703857421875 -0.0010266900062561035 0.0007855892181396484 0.09962081909179688 -0.07291412353515625
17.7145 -0.09751510620117188 -0.010272979736328125 2.382080078125 1.5166015625 -0.00017446279525756836 0.0010396838188171387 0.0948944091796875 -0.07976150512695312
17.72425 -0.09772109985351562 -0.003997802734375 2.4910888671875 1.3046875 -0.000716090202331543 0.0007883310317993164 0.09358596801757812 -0.08368301391601562
17.734 -0.10002517700195312 0.0029144287109375 2.5740966796875 1.0904541015625 -0.0004812479019165039 0.0015140175819396973 0.08798599243164062 -0.08787918090820312
17.74375 -0.10040283203125 0.0120697021484375 2.619140625 0.877685546875 5.364418029785156e-05 0.00223541259765625 0.08452606201171875 -0.09365081787109375
17.7535 -0.098114013671875 0.01761627197265625 2.6546630859375 0.6817626953125 -0.00038123130798339844 0.0013245940208435059 0.07988357543945312 -0.096832275390625
17.76325 -0.0976104736328125 0.026275634765625 2.6790771484375 0.4959716796875 5.5730342864990234e-05 0.0012041926383972168 0.07494735717773438 -0.09888076782226562
17.773 -0.09692764282226562 0.033977508544921875 2.6973876953125 0.319091796875 -0.00024110078811645508 0.0006115436553955078 0.071075439453125 -0.10095977783203125
17.78275 -0.09743881225585938 0.04035186767578125 2.7117919921875 0.1339111328125 -0.0004922151565551758 0.001582026481628418 0.06468582153320312 -0.10318374633789062
17.7925 -0.09240341186523438 0.045841217041015625 2.7283935546875 -0.0533447265625 5.698204040527344e-05 0.0011351704597473145 0.06103515625 -0.10588836669921875
17.80225 -0.089385986328125 0.053760528564453125 2.7330322265625 -0.2576904296875 -0.00048810243606567383 -0.0003230273723602295 0.055522918701171875 -0.10815048217773438
17.812 -0.08686447143554688 0.061305999755859375 2.71826171875 -0.468994140625 0.0003387331962585449 0.0011851787567138672 0.048252105712890625 -0.10858154296875
17.82175 -0.0826263427734375 0.06939315795898438 2.6812744140625 -0.6834716796875 0.00039133429527282715 4.932284355163574e-05 0.046550750732421875 -0.10812759399414062
17.8315 -0.07801437377929688 0.075469970703125 2.6162109375 -0.8970947265625 -0.00031453371047973633 0.0017203092575073242 0.03939056396484375 -0.11067581176757812
17.84125 -0.0764312744140625 0.08008575439453125 2.53515625 -1.096435546875 -0.0002580881118774414 0.0014967918395996094 0.03150177001953125 -0.11065673828125
17.851 -0.07050704956054688 0.08897018432617188 2.4263916015625 -1.2767333984375 -5.3942203521728516e-06 0.0007638931274414062 0.02658843994140625 -0.11358642578125
17.86075 -0.06683349609375 0.09432601928710938 2.3206787109375 -1.4384765625 0.00042766332626342773 0.0013180375099182129 0.018222808837890625 -0.11030197143554688
17.8705 -0.0602264404296875 0.10040283203125 2.207763671875 -1.591552734375 0.0007253885269165039 0.0015225410461425781 0.014148712158203125 -0.111175537109375
17.88025 -0.056331634521484375 0.10650634765625 2.0941162109375 -1.7393798828125 0.00043761730194091797 0.000863492488861084 0.00783538818359375 -0.10886383056640625
17.89 -0.05283355712890625 0.11207962036132812 1.9803466796875 -1.8837890625 0.0005182027816772461 0.0006930828094482422 0.004657745361328125 -0.10929489135742188
17.89975 -0.044628143310546875 0.11732101440429688 1.84716796875 -2.0350341796875 0.0006328821182250977 0.0002987980842590332 -0.002773284912109375 -0.10776138305664062
17.9095 -0.04120635986328125 0.12046432495117188 1.7061767578125 -2.1842041015625 0.0005769729614257812 0.001898646354675293 -0.008556365966796875 -0.10692214965820312
17.91925 -0.03415679931640625 0.12350082397460938 1.5382080078125 -2.317138671875 0.0011089444160461426 0.0006766915321350098 -0.014614105224609375 -0.10467147827148438
17.929 -0.0289306640625 0.1288909912109375 1.359619140625 -2.44140625 0.0007045269012451172 0.0010449886322021484 -0.018402099609375 -0.1037139892578125
17.93875 -0.02156829833984375 0.1324005126953125 1.1654052734375 -2.5408935546875 0.0009431838989257812 0.0007617473602294922 -0.0227508544921875 -0.1011962890625
17.9485 -0.0159759521484375 0.13507843017578125 0.9703369140625 -2.6123046875 0.0005515217781066895 0.00010159611701965332 -0.029323577880859375 -0.09656143188476562
17.95825 -0.00821685791015625 0.1387939453125 0.771728515625 -2.671875 0.001528024673461914 0.0005600452423095703 -0.03147125244140625 -0.09514617919921875
17.968 -0.000244140625 0.1408233642578125 0.5838623046875 -2.7176513671875 0.000979006290435791 3.7670135498046875e-05 -0.0384674072265625 -0.091705322265625
17.97775 0.007781982421875 0.14188385009765625 0.39501953125 -2.751953125 0.0011329054832458496 -4.410743713378906e-06 -0.04291534423828125 -0.08587646484375
17.9875 0.01636505126953125 0.14342498779296875 0.2021484375 -2.7867431640625 0.0017832517623901367 0.0009882450103759766 -0.04650115966796875 -0.0829315185546875
17.99725 0.0230865478515625 0.14499664306640625 0.0054931640625 -2.8187255859375 0.0011718273162841797 0.0009409189224243164 -0.05161285400390625 -0.07743072509765625
18.007 0.0301513671875 0.1455230712890625 -0.2066650390625 -2.833251953125 0.0003706514835357666 0.00040224194526672363 -0.05326080322265625 -0.07367706298828125
18.01675 0.03887939453125 0.1457977294921875 -0.423828125 -2.8310546875 0.000901341438293457 0.0008168816566467285 -0.05942535400390625 -0.069366455078125
18.0265 0.0469818115234375 0.14642333984375 -0.652099609375 -2.8046875 0.0009395480155944824 -0.0009385347366333008 -0.0644683837890625 -0.063568115234375
18.03625 0.0547027587890625 0.1485443115234375 -0.875 -2.7529296875 0.00048065185546875 0.0009028911590576172 -0.0679168701171875 -0.0592041015625
18.046 0.063507080078125 0.1477203369140625 -1.0933837890625 -2.67919921875 0.0011480450630187988 0.0004361271858215332 -0.069793701171875 -0.0537109375
18.05575 0.07061004638671875 0.14421844482421875 -1.2923583984375 -2.59228515625 0.001343846321105957 -0.0013290643692016602 -0.073944091796875 -0.048397064208984375
18.0655 0.0787506103515625 0.14458465576171875 -1.478271484375 -2.486083984375 0.0010524392127990723 -0.0004401206970214844 -0.07709503173828125 -0.042949676513671875
18.07525 0.0870513916015625 0.14287567138671875 -1.6591796875 -2.3759765625 0.0009426772594451904 -0.0004916489124298096 -0.07824325561523438 -0.03679656982421875
18.085 0.09445953369140625 0.1402740478515625 -1.8359375 -2.256591796875 0.001257181167602539 -0.0006200671195983887 -0.08040618896484375 -0.030078887939453125
18.09475 0.10051727294921875 0.1382293701171875 -2.00732421875 -2.126953125 0.0006362497806549072 -0.0008295178413391113 -0.08087539672851562 -0.02435302734375
18.1045 0.10986328125 0.13359832763671875 -2.177001953125 -1.98388671875 0.0010944604873657227 -0.0007045865058898926 -0.08196258544921875 -0.01732635498046875
18.11425 0.116302490234375 0.13106536865234375 -2.339599609375 -1.818359375 0.00040537118911743164 0.0010224580764770508 -0.0823974609375 -0.01207733154296875
18.124 0.121795654296875 0.1264495849609375 -2.49072265625 -1.6396484375 -0.0002319812774658203 -0.0012639760971069336 -0.08287811279296875 -0.00150299072265625
18.13375 0.1286773681640625 0.122711181640625 -2.62109375 -1.449951171875 0.00013235211372375488 -0.0004690438508987427 -0.08196640014648438 0.002407073974609375
18.1435 0.1355438232421875 0.1175689697265625 -2.7325439453125 -1.2413330078125 8.542835712432861e-05 0.00015273690223693848 -0.08275604248046875 0.010570526123046875
18.15325 0.14251708984375 0.1115875244140625 -2.833251953125 -1.0269775390625 0.0013248920440673828 -0.002162337303161621 -0.081817626953125 0.017505645751953125
18.163 0.151214599609375 0.1051025390625 -2.90673828125 -0.806640625 0.0011742115020751953 0.0005498528480529785 -0.07932281494140625 0.02606201171875
18.17275 0.1563873291015625 0.098907470703125 -2.9693603515625 -0.5816650390625 -0.0003376603126525879 -0.0012775659561157227 -0.07519912719726562 0.03086090087890625
18.1825 0.1627044677734375 0.0926666259765625 -3.0208740234375 -0.3551025390625 0.0004786252975463867 -0.0013498663902282715 -0.07233428955078125 0.039760589599609375
18.19225 0.1661224365234375 0.0843963623046875 -3.063720703125 -0.115966796875 0.00010895729064941406 -0.0008405148983001709 -0.06955718994140625 0.046710968017578125
18.202 0.17315673828125 0.0799407958984375 -3.0750732421875 0.123291015625 0.00032986700534820557 8.730590343475342e-05 -0.068450927734375 0.051265716552734375
18.21175 0.1768035888671875 0.0718536376953125 -3.06640625 0.375732421875 4.729628562927246e-05 -0.0003718137741088867 -0.0634002685546875 0.0587921142578125
18.2215 0.18355560302734375 0.0639801025390625 -3.0321044921875 0.6248779296875 -0.00028654932975769043 -0.0002435147762298584 -0.0582733154296875 0.06480789184570312
18.23125 0.18648529052734375 0.056640625 -2.9754638671875 0.864013671875 0.0010200738906860352 -7.599592208862305e-05 -0.055576324462890625 0.06848907470703125
18.241 0.189544677734375 0.0491485595703125 -2.898681640625 1.095458984375 0.00223386287689209 -0.0006108283996582031 -0.04911041259765625 0.07465744018554688
18.25075 0.19243621826171875 0.0397186279296875 -2.804443359375 1.314208984375 6.079673767089844e-06 -0.0007205605506896973 -0.043788909912109375 0.079833984375
18.2605 0.19356536865234375 0.0330963134765625 -2.7003173828125 1.5247802734375 0.0010529160499572754 0.00013560056686401367 -0.037197113037109375 0.08367538452148438
18.27025 0.1955108642578125 0.0230712890625 -2.5831298828125 1.733154296875 3.930926322937012e-05 0.0008535087108612061 -0.029941558837890625 0.08705902099609375
18.28 0.197021484375 0.01334381103515625 -2.4512939453125 1.9451904296875 8.630752563476562e-05 -0.0005589127540588379 -0.02317047119140625 0.08980560302734375
18.28975 0.199676513671875 0.0034942626953125 -2.30224609375 2.1396484375 0.0007342100143432617 0.00021284818649291992 -0.01556396484375 0.09491729736328125
18.2995 0.199676513671875 -0.004425048828125 -2.1260986328125 2.32861328125 0.00029605627059936523 -0.0008077323436737061 -0.0075531005859375 0.0943145751953125
18.30925 0.1989593505859375 -0.013397216796875 -1.92626953125 2.49951171875 0.0010665655136108398 -7.963180541992188e-05 0.00153350830078125 0.0971832275390625
18.319 0.1986236572265625 -0.02364349365234375 -1.714599609375 2.649169921875 9.116530418395996e-05 0.0007060468196868896 0.00879669189453125 0.10105514526367188
18.32875 0.1966094970703125 -0.029998779296875 -1.49560546875 2.7703857421875 0.00022298097610473633 -0.0013593435287475586 0.016811370849609375 0.10063552856445312
18.3385 0.19598388671875 -0.04180908203125 -1.2647705078125 2.8638916015625 9.715557098388672e-06 0.0003270357847213745 0.02669525146484375 0.10076141357421875
18.34825 0.19425201416015625 -0.05091094970703125 -1.0445556640625 2.9541015625 0.0012058019638061523 0.0003993511199951172 0.03426361083984375 0.10086822509765625
18.358 0.19132232666015625 -0.05915069580078125 -0.82080078125 3.0235595703125 3.221631050109863e-05 0.000265464186668396 0.043365478515625 0.09923553466796875
18.36775 0.189208984375 -0.06854248046875 -0.5863037109375 3.08642578125 -0.0005966722965240479 8.887052536010742e-05 0.050140380859375 0.098388671875
18.3775 0.18569183349609375 -0.07657623291015625 -0.348876953125 3.1346435546875 0.00012379884719848633 -0.0015048980712890625 0.058013916015625 0.0946044921875
18.38725 0.183502197265625 -0.085693359375 -0.090576171875 3.1619873046875 0.00013121962547302246 0.0004889965057373047 0.06585693359375 0.0935211181640625
18.397 0.1774139404296875 -0.092803955078125 0.171630859375 3.157958984375 0.0010762214660644531 -0.0004968643188476562 0.073333740234375 0.0912017822265625
18.40675 0.17144775390625 -0.1010589599609375 0.43798828125 3.135986328125 0.00028645992279052734 -0.0012367963790893555 0.0807647705078125 0.0851898193359375
18.4165 0.1659698486328125 -0.10854339599609375 0.689208984375 3.07373046875 0.0005620121955871582 -9.310245513916016e-05 0.08855438232421875 0.08148193359375
18.42625 0.159942626953125 -0.11580657958984375 0.924560546875 2.990234375 0.000665128231048584 -0.00020590424537658691 0.09626007080078125 0.0763092041015625
18.436 0.15396881103515625 -0.12033843994140625 1.1407470703125 2.8919677734375 0.0007001757621765137 -0.0001455247402191162 0.10395050048828125 0.0685882568359375
18.44575 0.1461181640625 -0.127471923828125 1.347900390625 2.784912109375 0.00021350383758544922 -0.001482546329498291 0.10695648193359375 0.06180572509765625
18.4555 0.139984130859375 -0.1332244873046875 1.5419921875 2.6728515625 0.00032073259353637695 0.0001920461654663086 0.11177825927734375 0.05612945556640625
18.46525 0.13348388671875 -0.140960693359375 1.7392578125 2.55859375 0.0006875693798065186 -0.00042179226875305176 0.1174774169921875 0.046875
18.475 0.1237945556640625 -0.14493560791015625 1.934326171875 2.4306640625 0.0007104873657226562 0.0005442500114440918 0.1228790283203125 0.039154052734375
18.48475 0.11933135986328125 -0.151580810546875 2.12548828125 2.2734375 0.00045180320739746094 -0.0006385147571563721 0.1244964599609375 0.030517578125
18.4945 0.11006927490234375 -0.15357208251953125 2.307373046875 2.089599609375 0.00025016069412231445 -0.0005572736263275146 0.12847900390625 0.0203704833984375
18.50425 0.1009979248046875 -0.15869140625 2.4765625 1.89208984375 -0.0005671977996826172 -0.00030934810638427734 0.130462646484375 0.0124664306640625
18.514 0.0954437255859375 -0.1619110107421875 2.6064453125 1.66943359375 0.0007753968238830566 -0.0004360079765319824 0.133575439453125 0.00238037109375
18.52375 0.08501434326171875 -0.16219329833984375 2.704345703125 1.4423828125 0.0009639263153076172 0.000751495361328125 0.131988525390625 -0.00543212890625
18.5335 0.0787506103515625 -0.1678009033203125 2.7850341796875 1.2203369140625 -4.2866915464401245e-05 9.656324982643127e-05 0.13416290283203125 -0.01496124267578125
18.54325 0.07045745849609375 -0.16876983642578125 2.8411865234375 1.009521484375 0.0001532435417175293 -0.0013977885246276855 0.131805419921875 -0.02288055419921875
18.553 0.06287384033203125 -0.1717071533203125 2.8875732421875 0.80029296875 0.0005631148815155029 -0.00040590763092041016 0.12955474853515625 -0.0305328369140625
18.56275 0.05511474609375 -0.17136383056640625 2.939208984375 0.5946044921875 -0.001101076602935791 -0.0006198883056640625 0.1280517578125 -0.0382537841796875
18.5725 0.04620361328125 -0.171661376953125 2.9737548828125 0.3785400390625 -0.0001850426197052002 -0.00037920475006103516 0.12360382080078125 -0.04831695556640625
18.58225 0.038177490234375 -0.17237091064453125 2.9971923828125 0.1541748046875 -0.0008823871612548828 0.00010153651237487793 0.11983108520507812 -0.056171417236328125
18.592 0.02941131591796875 -0.171142578125 3.00048828125 -0.0810546875 0.0007095932960510254 -0.0010158419609069824 0.11507034301757812 -0.06393814086914062
18.60175 0.0219268798828125 -0.1700286865234375 2.977294921875 -0.319091796875 3.732740879058838e-05 0.00014990568161010742 0.10948944091796875 -0.06983184814453125
18.6115 0.01358795166015625 -0.1695556640625 2.927734375 -0.5477294921875 -0.0003185868263244629 -0.0005546212196350098 0.10540390014648438 -0.07675552368164062
18.62125 0.00516510009765625 -0.16961669921875 2.857177734375 -0.764892578125 -6.309151649475098e-05 -0.00025434792041778564 0.09860610961914062 -0.08330917358398438
18.631 -0.00200653076171875 -0.16707611083984375 2.7698974609375 -0.953857421875 0.0005330443382263184 2.9712915420532227e-05 0.09194564819335938 -0.0888824462890625
18.64075 -0.00897979736328125 -0.164459228515625 2.675048828125 -1.13671875 -5.27501106262207e-05 -0.0002368837594985962 0.085205078125 -0.09150314331054688
18.6505 -0.01444244384765625 -0.16355133056640625 2.5845947265625 -1.3079833984375 -0.0004075765609741211 -0.002054452896118164 0.0792999267578125 -0.0963134765625
18.66025 -0.02420806884765625 -0.16033172607421875 2.490478515625 -1.4779052734375 0.0011238455772399902 -0.0011135339736938477 0.07036972045898438 -0.09775543212890625
18.67 -0.0298004150390625 -0.15781402587890625 2.3880615234375 -1.64990234375 -0.0005528926849365234 -0.0006981492042541504 0.06627655029296875 -0.10036468505859375
18.67975 -0.03802490234375 -0.15496826171875 2.274169921875 -1.8243408203125 0.00011344254016876221 0.00018112361431121826 0.056964874267578125 -0.10284805297851562
18.6895 -0.0453948974609375 -0.15119171142578125 2.1373291015625 -1.9930419921875 -8.940696716308594e-05 -0.0006787478923797607 0.051723480224609375 -0.10369110107421875
