!Created with skrf (http://scikit-rf.org).
# GHz S RI R 50.0 
!freq ReS11 ImS11 ReS21 ImS21 ReS12 ImS12 ReS22 ImS22
17.5 0.01288604736328125 -0.13883209228515625 -2.0120849609375 2.5859375 -0.001304924488067627 -0.0005256533622741699 0.09091567993164062 0.006778717041015625
17.50975 0.0056610107421875 -0.1373443603515625 -1.7889404296875 2.73486328125 -0.0016881823539733887 0.000641942024230957 0.09360504150390625 0.007045745849609375
17.5195 -0.0016937255859375 -0.1322021484375 -1.556884765625 2.8580322265625 -0.0010364651679992676 0.0002066493034362793 0.0984649658203125 0.00478363037109375
17.52925 -0.01153564453125 -0.129638671875 -1.321044921875 2.970947265625 -0.0012966394424438477 -0.00035858154296875 0.10164642333984375 0.00040435791015625
17.539 -0.0170745849609375 -0.123382568359375 -1.08251953125 3.0546875 -0.0010223388671875 -0.00010645389556884766 0.1032562255859375 -0.00118255615234375
17.54875 -0.0248870849609375 -0.12078094482421875 -0.8408203125 3.1134033203125 -0.0010774731636047363 0.00019854307174682617 0.1064300537109375 -0.005504608154296875
17.5585 -0.0350799560546875 -0.1177520751953125 -0.605224609375 3.169677734375 -0.00036281347274780273 0.00020740926265716553 0.10807037353515625 -0.008785247802734375
17.56825 -0.038848876953125 -0.11175537109375 -0.3671875 3.20263671875 -0.00196683406829834 0.0008559226989746094 0.1093292236328125 -0.011470794677734375
17.578 -0.04657745361328125 -0.1071014404296875 -0.1104736328125 3.224853515625 -0.0018581748008728027 0.0005958080291748047 0.11241531372070312 -0.014987945556640625
17.58775 -0.05301666259765625 -0.1039276123046875 0.1478271484375 3.225830078125 -0.0008882880210876465 0.0012679100036621094 0.11358261108398438 -0.01868438720703125
17.5975 -0.0574798583984375 -0.09540557861328125 0.4149169921875 3.1951904296875 -0.0007731318473815918 0.0013796091079711914 0.11478805541992188 -0.02364349365234375
17.60725 -0.062896728515625 -0.09305572509765625 0.671630859375 3.1424560546875 0.00012540817260742188 0.001214146614074707 0.113983154296875 -0.027004241943359375
17.617 -0.06845855712890625 -0.08620452880859375 0.918701171875 3.06103515625 -0.0011815428733825684 0.0008637309074401855 0.11613845825195312 -0.03179168701171875
17.62675 -0.0733795166015625 -0.079925537109375 1.148681640625 2.955078125 -0.00024297833442687988 0.0006001591682434082 0.11728286743164062 -0.03516387939453125
17.6365 -0.0762481689453125 -0.072052001953125 1.35791015625 2.833984375 0.0002627372741699219 0.0016927719116210938 0.11583709716796875 -0.041595458984375
17.64625 -0.08094024658203125 -0.06565093994140625 1.544921875 2.708984375 -0.0005832910537719727 0.0003764927387237549 0.11473846435546875 -0.0477447509765625
17.656 -0.08409881591796875 -0.0594024658203125 1.722900390625 2.585205078125 -0.0007458329200744629 0.0006445944309234619 0.11098480224609375 -0.050273895263671875
17.66575 -0.0863037109375 -0.04949951171875 1.894775390625 2.4599609375 -0.0004786252975463867 0.001504659652709961 0.110931396484375 -0.055652618408203125
17.6755 -0.09018707275390625 -0.043670654296875 2.064453125 2.326171875 -0.0012788772583007812 0.0014903545379638672 0.10868072509765625 -0.05926513671875
17.68525 -0.09265899658203125 -0.03680419921875 2.2412109375 2.18994140625 -0.0004112124443054199 0.001616060733795166 0.10536956787109375 -0.06563568115234375
17.695 -0.09337615966796875 -0.0289306640625 2.419921875 2.023681640625 -0.001669168472290039 0.001313328742980957 0.10378646850585938 -0.06926727294921875
17.70475 -0.09563446044921875 -0.019527435302734375 2.587646484375 1.825927734375 -0.0016550421714782715 0.001802980899810791 0.10205841064453125 -0.07269287109375
17.7145 -0.09844970703125 -0.012447357177734375 2.74072265625 1.606201171875 -0.0003324747085571289 0.0005705356597900391 0.09700775146484375 -0.0778045654296875
17.72425 -0.09679794311523438 -0.0036468505859375 2.857177734375 1.36328125 -0.0001436173915863037 0.000722050666809082 0.09276199340820312 -0.08367538452148438
17.734 -0.0994720458984375 0.00213623046875 2.941162109375 1.118896484375 0.0011197328567504883 0.0010536909103393555 0.089202880859375 -0.08826446533203125
17.74375 -0.10039520263671875 0.01012420654296875 2.98095703125 0.878173828125 -0.0006690025329589844 0.001021265983581543 0.08550262451171875 -0.09294891357421875
17.7535 -0.09782028198242188 0.018184661865234375 3.010009765625 0.6517333984375 -0.0013033747673034668 0.0013490915298461914 0.08092117309570312 -0.09637832641601562
17.76325 -0.0969696044921875 0.026256561279296875 3.029541015625 0.443115234375 -0.0007553696632385254 5.930662155151367e-05 0.07424163818359375 -0.09827804565429688
17.773 -0.0960845947265625 0.0319061279296875 3.0416259765625 0.2440185546875 0.0003412961959838867 0.002396106719970703 0.07183837890625 -0.10211944580078125
17.78275 -0.09551620483398438 0.038616180419921875 3.0523681640625 0.0357666015625 -8.320808410644531e-05 0.002048492431640625 0.06519317626953125 -0.10329437255859375
17.7925 -0.09308624267578125 0.04557037353515625 3.0633544921875 -0.1793212890625 0.0002626180648803711 0.0010731220245361328 0.06288909912109375 -0.10569000244140625
17.80225 -0.09036636352539062 0.052150726318359375 3.064208984375 -0.407958984375 -0.0003774315118789673 0.0004515647888183594 0.0562896728515625 -0.10927581787109375
17.812 -0.08570098876953125 0.060024261474609375 3.036376953125 -0.6453857421875 0.0004715919494628906 0.0014622211456298828 0.05033111572265625 -0.10762786865234375
17.82175 -0.08264923095703125 0.0682830810546875 2.989013671875 -0.8853759765625 0.00011295080184936523 0.0015211701393127441 0.044891357421875 -0.10962295532226562
17.8315 -0.0799560546875 0.0751800537109375 2.908203125 -1.126708984375 -0.0007323026657104492 0.0009880661964416504 0.04024505615234375 -0.11125564575195312
17.84125 -0.076171875 0.0807342529296875 2.804443359375 -1.34619140625 0.0003695487976074219 0.0018315315246582031 0.03241729736328125 -0.110595703125
17.851 -0.071563720703125 0.08908843994140625 2.6705322265625 -1.54443359375 -0.00017780065536499023 0.001051783561706543 0.027400970458984375 -0.11224746704101562
17.86075 -0.06832122802734375 0.09337997436523438 2.54541015625 -1.72265625 -0.00023639202117919922 0.001491844654083252 0.02092742919921875 -0.11060714721679688
17.8705 -0.061309814453125 0.09905624389648438 2.4110107421875 -1.8919677734375 0.0002766847610473633 0.0012310147285461426 0.01538848876953125 -0.11191940307617188
17.88025 -0.057491302490234375 0.106109619140625 2.274658203125 -2.052490234375 0.00021752715110778809 0.0006401240825653076 0.00868988037109375 -0.11155319213867188
17.89 -0.052997589111328125 0.11160659790039062 2.1400146484375 -2.2103271484375 0.0011943578720092773 0.00026339292526245117 0.004184722900390625 -0.1094818115234375
17.89975 -0.045955657958984375 0.11632156372070312 1.9813232421875 -2.37109375 0.0012334585189819336 0.0019387006759643555 -0.001781463623046875 -0.10861968994140625
17.9095 -0.043003082275390625 0.12101364135742188 1.8123779296875 -2.532470703125 0.00030171871185302734 0.0020819902420043945 -0.00702667236328125 -0.1087188720703125
17.91925 -0.03507232666015625 0.12420654296875 1.617431640625 -2.67333984375 0.0015884637832641602 0.000873565673828125 -0.01192474365234375 -0.10626220703125
17.929 -0.0287933349609375 0.1283416748046875 1.410888671875 -2.806640625 0.000978708267211914 0.0005548000335693359 -0.0184478759765625 -0.10449981689453125
17.93875 -0.021942138671875 0.1317596435546875 1.18212890625 -2.905517578125 0.0013295412063598633 -0.0010811090469360352 -0.0224456787109375 -0.10107421875
17.9485 -0.015655517578125 0.134796142578125 0.9615478515625 -2.9774169921875 0.0015292763710021973 0.00026935338973999023 -0.02911376953125 -0.0982666015625
17.95825 -0.0078277587890625 0.13753509521484375 0.7369384765625 -3.0352783203125 0.0009065866470336914 0.00021338462829589844 -0.03168487548828125 -0.09500885009765625
17.968 -0.00151824951171875 0.1412811279296875 0.5205078125 -3.07666015625 0.0002418309450149536 0.00013478100299835205 -0.03865814208984375 -0.09226226806640625
17.97775 0.0063323974609375 0.14261627197265625 0.30810546875 -3.1068115234375 0.0007313787937164307 -0.00038546323776245117 -0.04299163818359375 -0.08648681640625
17.9875 0.01425933837890625 0.14554595947265625 0.0882568359375 -3.13330078125 0.00018940865993499756 -0.00044260919094085693 -0.04618072509765625 -0.083740234375
17.99725 0.02265167236328125 0.14560699462890625 -0.1356201171875 -3.155029296875 0.00034686923027038574 0.00019291043281555176 -0.05098724365234375 -0.0798492431640625
18.007 0.029937744140625 0.14520263671875 -0.37451171875 -3.1619873046875 0.0012061595916748047 0.0008487701416015625 -0.05492401123046875 -0.07447052001953125
18.01675 0.03812408447265625 0.147491455078125 -0.6185302734375 -3.14453125 0.0007683038711547852 0.0014886856079101562 -0.06087493896484375 -0.0704803466796875
18.0265 0.04547119140625 0.147216796875 -0.87109375 -3.10888671875 0.0009534358978271484 0.0008689165115356445 -0.06512451171875 -0.065032958984375
18.03625 0.054229736328125 0.1491851806640625 -1.1220703125 -3.0361328125 0.001129150390625 0.001251220703125 -0.068756103515625 -0.0588836669921875
18.046 0.06209564208984375 0.14813232421875 -1.361083984375 -2.937744140625 0.0009908080101013184 0.0006176233291625977 -0.07086944580078125 -0.0536346435546875
18.05575 0.070465087890625 0.14488983154296875 -1.5771484375 -2.8291015625 0.0006144344806671143 -0.00047978758811950684 -0.07436752319335938 -0.04906463623046875
18.0655 0.0769805908203125 0.144561767578125 -1.77880859375 -2.7001953125 0.0012650489807128906 0.00032317638397216797 -0.07704925537109375 -0.04286956787109375
18.07525 0.08721923828125 0.1417694091796875 -1.9755859375 -2.565673828125 0.0010467171669006348 -0.0007285475730895996 -0.08054351806640625 -0.037120819091796875
18.085 0.09363555908203125 0.14154815673828125 -2.167236328125 -2.42236328125 0.0002548396587371826 -0.0003630518913269043 -0.08141708374023438 -0.030475616455078125
18.09475 0.10053253173828125 0.139129638671875 -2.353759765625 -2.269287109375 0.0009132027626037598 -0.0005422830581665039 -0.08191680908203125 -0.0262298583984375
18.1045 0.10901641845703125 0.13397979736328125 -2.531005859375 -2.10009765625 0.0007089376449584961 0.0003648996353149414 -0.08437347412109375 -0.01702117919921875
18.11425 0.11550140380859375 0.13189697265625 -2.70361328125 -1.903564453125 0.000758439302444458 -0.0006190240383148193 -0.08222198486328125 -0.011508941650390625
18.124 0.12200927734375 0.1279296875 -2.8564453125 -1.69287109375 0.00013333559036254883 -0.00029984116554260254 -0.08295440673828125 -0.00341033935546875
18.13375 0.1287078857421875 0.1242523193359375 -2.99267578125 -1.47265625 0.0002798736095428467 -0.0002237558364868164 -0.08267974853515625 0.001766204833984375
18.1435 0.136962890625 0.11724853515625 -3.102294921875 -1.234375 -0.0003522932529449463 -0.0005919039249420166 -0.08298873901367188 0.012134552001953125
18.15325 0.1445159912109375 0.1129150390625 -3.198974609375 -0.987060546875 0.001010894775390625 -9.191036224365234e-05 -0.0825653076171875 0.017131805419921875
18.163 0.150543212890625 0.1059722900390625 -3.267333984375 -0.74267578125 0.0009084343910217285 0.0004042387008666992 -0.0802001953125 0.024322509765625
18.17275 0.156219482421875 0.0999298095703125 -3.3238525390625 -0.4903564453125 0.0009961128234863281 0.00014084577560424805 -0.076446533203125 0.031688690185546875
18.1825 0.16326904296875 0.0935211181640625 -3.37060546875 -0.2371826171875 0.0009281635284423828 -0.00023102760314941406 -0.07427215576171875 0.039546966552734375
18.19225 0.1671142578125 0.08648681640625 -3.4012451171875 0.0321044921875 -0.00028398633003234863 -0.00043019652366638184 -0.0721435546875 0.04564666748046875
18.202 0.1732330322265625 0.0812225341796875 -3.4022216796875 0.2977294921875 0.0006584525108337402 -0.0011939406394958496 -0.06894302368164062 0.052768707275390625
18.21175 0.177703857421875 0.072174072265625 -3.38037109375 0.576416015625 0.0005065202713012695 0.0008002519607543945 -0.06346511840820312 0.061279296875
18.2215 0.1827239990234375 0.06479644775390625 -3.32421875 0.8519287109375 0.00016498565673828125 -0.0016924142837524414 -0.059112548828125 0.06447601318359375
18.23125 0.1874542236328125 0.0569000244140625 -3.2490234375 1.1123046875 0.0005034804344177246 0.00016430020332336426 -0.056316375732421875 0.06919097900390625
18.241 0.18976593017578125 0.04815673828125 -3.1488037109375 1.3626708984375 0.00016005337238311768 8.824467658996582e-05 -0.05066680908203125 0.07620620727539062
18.25075 0.19364166259765625 0.0399322509765625 -3.0340576171875 1.597412109375 0.0010659098625183105 -0.0007091164588928223 -0.043819427490234375 0.08061599731445312
18.2605 0.1952056884765625 0.0318603515625 -2.89990234375 1.822021484375 -1.1324882507324219e-06 -0.001646876335144043 -0.036869049072265625 0.08298492431640625
18.27025 0.1969146728515625 0.02304840087890625 -2.7628173828125 2.0455322265625 0.0003915727138519287 0.000540614128112793 -0.029270172119140625 0.08863067626953125
18.28 0.19895172119140625 0.012939453125 -2.6055908203125 2.2701416015625 0.0013513565063476562 -0.001548171043395996 -0.024372100830078125 0.09104537963867188
18.28975 0.20023345947265625 0.00384521484375 -2.433349609375 2.4788818359375 -0.00048667192459106445 -0.0007012486457824707 -0.016448974609375 0.09597015380859375
18.2995 0.1995086669921875 -0.00550079345703125 -2.2266845703125 2.67333984375 0.00018399953842163086 -0.0012911558151245117 -0.008419036865234375 0.09549713134765625
18.30925 0.2004241943359375 -0.01617431640625 -1.99853515625 2.852783203125 -0.00011473894119262695 -0.0004851818084716797 0.00110626220703125 0.09774017333984375
18.319 0.1988983154296875 -0.02487945556640625 -1.7523193359375 2.9991455078125 0.00017893314361572266 -0.0005018115043640137 0.008335113525390625 0.10199737548828125
18.32875 0.1974334716796875 -0.0301666259765625 -1.502685546875 3.1173095703125 -0.0003713071346282959 -5.4016709327697754e-05 0.01784515380859375 0.10231399536132812
18.3385 0.19573211669921875 -0.04273223876953125 -1.249755859375 3.2110595703125 3.916025161743164e-05 -0.0008617639541625977 0.02684783935546875 0.10308074951171875
18.34825 0.1941070556640625 -0.05225372314453125 -1.0028076171875 3.2969970703125 0.0010027885437011719 -6.753206253051758e-05 0.034149169921875 0.1029815673828125
18.358 0.1927337646484375 -0.05994415283203125 -0.7535400390625 3.3594970703125 -0.0003903508186340332 -0.0008574724197387695 0.04425048828125 0.100372314453125
18.36775 0.18979644775390625 -0.0693206787109375 -0.4940185546875 3.4166259765625 -5.511939525604248e-05 0.0003692060708999634 0.05187225341796875 0.09990692138671875
18.3775 0.18575286865234375 -0.0759124755859375 -0.2313232421875 3.456787109375 0.00016620755195617676 -0.000540316104888916 0.05904388427734375 0.0967254638671875
18.38725 0.1817779541015625 -0.0855560302734375 0.0523681640625 3.4739990234375 0.0011248588562011719 -0.00022107362747192383 0.06742095947265625 0.094512939453125
18.397 0.1773834228515625 -0.0930633544921875 0.338134765625 3.457763671875 -0.00041031837463378906 -0.0009458065032958984 0.072509765625 0.0907135009765625
18.40675 0.171600341796875 -0.1000213623046875 0.6279296875 3.41650390625 -0.00035941600799560547 -0.0004190802574157715 0.083740234375 0.087158203125
18.4165 0.166290283203125 -0.10900115966796875 0.8984375 3.335693359375 0.0006390213966369629 -9.205937385559082e-05 0.0886993408203125 0.0825347900390625
18.42625 0.1611480712890625 -0.1160736083984375 1.152587890625 3.233154296875 0.000768125057220459 -0.0004195570945739746 0.09650421142578125 0.0757598876953125
18.436 0.1531219482421875 -0.12091064453125 1.3837890625 3.115478515625 3.8042664527893066e-05 -0.00029081106185913086 0.1026763916015625 0.07033538818359375
18.44575 0.14641571044921875 -0.12885284423828125 1.6025390625 2.98779296875 0.000532686710357666 0.00027129054069519043 0.107666015625 0.06227874755859375
18.4555 0.14002227783203125 -0.13556671142578125 1.80859375 2.85498046875 -7.089972496032715e-05 -0.0002890974283218384 0.114471435546875 0.05487060546875
18.46525 0.13356781005859375 -0.14061737060546875 2.019287109375 2.723388671875 0.000723719596862793 -0.0007589161396026611 0.11841583251953125 0.045196533203125
18.475 0.123565673828125 -0.14565277099609375 2.2275390625 2.572265625 -0.000492393970489502 -0.0006551146507263184 0.1243896484375 0.0377349853515625
18.48475 0.11761474609375 -0.151123046875 2.431884765625 2.397216796875 -0.0005142390727996826 -0.0004399120807647705 0.12567138671875 0.02838897705078125
18.4945 0.1090545654296875 -0.15314483642578125 2.6220703125 2.189208984375 -0.00046944618225097656 -0.00022864341735839844 0.1304931640625 0.021026611328125
18.50425 0.1019287109375 -0.15960693359375 2.791015625 1.95751953125 0.0009202957153320312 -2.6345252990722656e-05 0.1309967041015625 0.012603759765625
18.514 0.0930633544921875 -0.1624755859375 2.92822265625 1.7119140625 0.0006932616233825684 -0.0002776980400085449 0.1343536376953125 0.0042724609375
18.52375 0.0847320556640625 -0.16475677490234375 3.025390625 1.458984375 0.000581592321395874 -0.0004259049892425537 0.133148193359375 -0.0055999755859375
18.5335 0.07871246337890625 -0.16574859619140625 3.09765625 1.21337890625 0.00074043869972229 5.0634145736694336e-05 0.134796142578125 -0.01595306396484375
18.54325 0.07047271728515625 -0.170867919921875 3.153076171875 0.980712890625 6.663799285888672e-05 -0.0004981458187103271 0.13285064697265625 -0.0226287841796875
18.553 0.06215667724609375 -0.1709747314453125 3.1934814453125 0.7509765625 0.0004361271858215332 0.00010067224502563477 0.130706787109375 -0.03139495849609375
18.56275 0.05316162109375 -0.17047119140625 3.2337646484375 0.524169921875 0.0005213618278503418 0.00027066469192504883 0.12902069091796875 -0.04036712646484375
18.5725 0.0449676513671875 -0.17212677001953125 3.26123046875 0.287841796875 -1.481175422668457e-05 0.00034621357917785645 0.12337493896484375 -0.04868316650390625
18.58225 0.03697967529296875 -0.17162322998046875 3.275390625 0.04052734375 0.0006418526172637939 -0.0007778704166412354 0.12007522583007812 -0.057037353515625
18.592 0.02968597412109375 -0.17159271240234375 3.2662353515625 -0.2138671875 0.00017498433589935303 0.0002495795488357544 0.11677169799804688 -0.06399154663085938
18.60175 0.02117919921875 -0.16998291015625 3.2392578125 -0.473388671875 -0.00010192394256591797 -0.001033186912536621 0.10979461669921875 -0.06903839111328125
18.6115 0.01404571533203125 -0.16954803466796875 3.169189453125 -0.7203369140625 0.00014413893222808838 -0.0003052651882171631 0.1058807373046875 -0.0772247314453125
18.62125 0.00583648681640625 -0.1676483154296875 3.083251953125 -0.9505615234375 0.0007616877555847168 0.00013458728790283203 0.09903717041015625 -0.083343505859375
18.631 -0.00231170654296875 -0.167205810546875 2.9798583984375 -1.1522216796875 0.00019082427024841309 -0.0006857812404632568 0.09093093872070312 -0.08896636962890625
18.64075 -0.009063720703125 -0.16547393798828125 2.8704833984375 -1.350341796875 -0.00023418664932250977 -0.001170337200164795 0.08623886108398438 -0.09097671508789062
18.6505 -0.01568603515625 -0.16304779052734375 2.760986328125 -1.5303955078125 0.00043092668056488037 -0.00025935471057891846 0.07949066162109375 -0.0970916748046875
18.66025 -0.02370452880859375 -0.15936279296875 2.6536865234375 -1.7086181640625 0.0004945993423461914 -0.000391155481338501 0.07100296020507812 -0.0985870361328125
18.67 -0.02935028076171875 -0.1581268310546875 2.5311279296875 -1.891357421875 0.00020378828048706055 -0.00040435791015625 0.06559371948242188 -0.10102081298828125
18.67975 -0.0376129150390625 -0.1539154052734375 2.39990234375 -2.0760498046875 0.00012177228927612305 -0.0016720890998840332 0.057949066162109375 -0.10361099243164062
18.6895 -0.0451202392578125 -0.15071868896484375 2.241943359375 -2.2529296875 0.0002021491527557373 -0.0005245208740234375 0.051052093505859375 -0.10447311401367188
