!Created with skrf (http://scikit-rf.org).
# GHz S RI R 50.0 
!freq ReS11 ImS11 ReS21 ImS21 ReS12 ImS12 ReS22 ImS22
17.5 0.0087890625 -0.143951416015625 -0.13309478759765625 0.1995391845703125 -0.0015121698379516602 0.0011819005012512207 0.09762954711914062 0.001483917236328125
17.50975 -0.00046539306640625 -0.1415863037109375 -0.10875701904296875 0.207366943359375 -0.0018267035484313965 0.001340031623840332 0.1003570556640625 -0.00109100341796875
17.5195 -0.0079803466796875 -0.137115478515625 -0.08501434326171875 0.21132659912109375 -0.0015509724617004395 -3.55839729309082e-05 0.1031951904296875 -0.001232147216796875
17.52925 -0.0180206298828125 -0.1344451904296875 -0.06255340576171875 0.21463775634765625 -0.0008987784385681152 0.0012843608856201172 0.10551071166992188 -0.007511138916015625
17.539 -0.02386474609375 -0.127410888671875 -0.0416412353515625 0.2147216796875 -0.0021288394927978516 -0.00035452842712402344 0.1071319580078125 -0.01013946533203125
17.54875 -0.0317840576171875 -0.12430572509765625 -0.018798828125 0.21204376220703125 -0.002008676528930664 0.0007851123809814453 0.10988235473632812 -0.012706756591796875
17.5585 -0.041473388671875 -0.119476318359375 0.00196075439453125 0.20780181884765625 -0.00036776065826416016 0.0018358826637268066 0.11063385009765625 -0.015674591064453125
17.56825 -0.04660797119140625 -0.113800048828125 0.0170745849609375 0.2022857666015625 -0.0007733702659606934 0.0006657242774963379 0.11118698120117188 -0.02014923095703125
17.578 -0.05401611328125 -0.10840606689453125 0.0378570556640625 0.193511962890625 -0.0013250112533569336 5.429983139038086e-05 0.11251449584960938 -0.024555206298828125
17.58775 -0.0602874755859375 -0.1040496826171875 0.05538177490234375 0.184967041015625 -0.0012763142585754395 0.0013407468795776367 0.11418533325195312 -0.027301788330078125
17.5975 -0.06354522705078125 -0.0986175537109375 0.0699005126953125 0.171142578125 -0.0015107989311218262 0.0004382133483886719 0.11477279663085938 -0.0315704345703125
17.60725 -0.07071685791015625 -0.09285736083984375 0.08292388916015625 0.15924835205078125 -0.00013214349746704102 0.0014644861221313477 0.11270904541015625 -0.03615570068359375
17.617 -0.0754241943359375 -0.08514404296875 0.095550537109375 0.14299774169921875 -0.0007616877555847168 0.00115966796875 0.1135406494140625 -0.04009246826171875
17.62675 -0.0799102783203125 -0.07772064208984375 0.1031036376953125 0.1294097900390625 -0.001082003116607666 0.0011025071144104004 0.1142578125 -0.04323577880859375
17.6365 -0.0831298828125 -0.070343017578125 0.1103057861328125 0.115478515625 -0.0010256767272949219 0.0008258819580078125 0.11487579345703125 -0.05010223388671875
17.64625 -0.08654022216796875 -0.06259918212890625 0.113189697265625 0.1007537841796875 -0.0007868409156799316 0.001492619514465332 0.11082839965820312 -0.053630828857421875
17.656 -0.08953094482421875 -0.056396484375 0.1157073974609375 0.08634185791015625 -5.626678466796875e-05 0.0019148588180541992 0.106201171875 -0.056884765625
17.66575 -0.09222412109375 -0.046478271484375 0.117889404296875 0.0740509033203125 -0.0023834705352783203 0.0008716583251953125 0.107177734375 -0.06206512451171875
17.6755 -0.0975189208984375 -0.03896331787109375 0.1172637939453125 0.06192779541015625 1.475214958190918e-05 0.0006015300750732422 0.1027069091796875 -0.06685638427734375
17.68525 -0.09725189208984375 -0.0308685302734375 0.1168212890625 0.04943084716796875 -0.0005450248718261719 0.0013818144798278809 0.102081298828125 -0.07220077514648438
17.695 -0.09906005859375 -0.0224456787109375 0.11553192138671875 0.03630828857421875 0.00029987096786499023 0.0008218288421630859 0.09901046752929688 -0.07615280151367188
17.70475 -0.10095977783203125 -0.014862060546875 0.1119232177734375 0.0250244140625 -0.0004024803638458252 0.0006269514560699463 0.094146728515625 -0.0789337158203125
17.7145 -0.10162353515625 -0.005237579345703125 0.10826492309570312 0.0132598876953125 0.00038748979568481445 0.0010449886322021484 0.09068679809570312 -0.08374786376953125
17.72425 -0.10172653198242188 0.002471923828125 0.10013580322265625 0.004352569580078125 -0.0008178949356079102 0.0014614462852478027 0.085784912109375 -0.08719253540039062
17.734 -0.102264404296875 0.00928497314453125 0.09308624267578125 -0.00292205810546875 0.0004004240036010742 0.0010077953338623047 0.0818634033203125 -0.09085845947265625
17.74375 -0.103271484375 0.01694488525390625 0.08449554443359375 -0.0097198486328125 0.0006209611892700195 0.0012853145599365234 0.077392578125 -0.09540557861328125
17.7535 -0.09966278076171875 0.0239715576171875 0.07723617553710938 -0.014095306396484375 0.00013631582260131836 0.00017039477825164795 0.07252883911132812 -0.0984344482421875
17.76325 -0.09995269775390625 0.03244781494140625 0.06872940063476562 -0.015483856201171875 -0.0004773437976837158 0.0007997751235961914 0.06653213500976562 -0.10018539428710938
17.773 -0.09661102294921875 0.03939056396484375 0.060840606689453125 -0.014993667602539062 -0.000730365514755249 0.0009244680404663086 0.06362152099609375 -0.10318374633789062
17.78275 -0.09420394897460938 0.047760009765625 0.052173614501953125 -0.017711639404296875 -0.00018709897994995117 0.0018864274024963379 0.058048248291015625 -0.10309982299804688
17.7925 -0.091796875 0.0528411865234375 0.048675537109375 -0.016155242919921875 -0.0010128617286682129 0.0014641880989074707 0.054290771484375 -0.10514068603515625
17.80225 -0.08948135375976562 0.05954742431640625 0.03871345520019531 -0.014408111572265625 -0.0010707378387451172 0.00048542022705078125 0.04848480224609375 -0.10728073120117188
17.812 -0.08530044555664062 0.06692123413085938 0.03316688537597656 -0.01123809814453125 -0.0003294944763183594 0.0022429227828979492 0.042003631591796875 -0.107879638671875
17.82175 -0.08055877685546875 0.07540130615234375 0.02816009521484375 -0.005351066589355469 0.00043195486068725586 0.0010998845100402832 0.038166046142578125 -0.10639190673828125
17.8315 -0.077117919921875 0.08166885375976562 0.02512073516845703 -0.0012950897216796875 0.0017362236976623535 -0.0003184080123901367 0.031589508056640625 -0.1075286865234375
17.84125 -0.0726470947265625 0.08742523193359375 0.023473739624023438 0.004215240478515625 -0.0003719329833984375 0.0021522045135498047 0.02545166015625 -0.1067657470703125
17.851 -0.06654739379882812 0.09521865844726562 0.0231781005859375 0.011905670166015625 -0.0003068596124649048 0.0004189610481262207 0.02088165283203125 -0.10834121704101562
17.86075 -0.06381607055664062 0.09973526000976562 0.021890640258789062 0.017759323120117188 -0.000283658504486084 0.001178443431854248 0.013965606689453125 -0.10638427734375
17.8705 -0.056652069091796875 0.10546875 0.025087356567382812 0.02510833740234375 0.0002834200859069824 0.0014482736587524414 0.010105133056640625 -0.10503768920898438
17.88025 -0.051929473876953125 0.11083602905273438 0.028118133544921875 0.034236907958984375 2.5272369384765625e-05 0.00047537684440612793 0.003955841064453125 -0.1045684814453125
17.89 -0.0465850830078125 0.1161346435546875 0.033573150634765625 0.040538787841796875 0.0014481544494628906 0.0013308525085449219 -0.001003265380859375 -0.10396957397460938
17.89975 -0.041717529296875 0.12017059326171875 0.03973388671875 0.046283721923828125 0.0009018778800964355 0.00037348270416259766 -0.0076751708984375 -0.10119247436523438
17.9095 -0.0348052978515625 0.12548828125 0.050182342529296875 0.051197052001953125 0.001560986042022705 -0.00025731325149536133 -0.01229095458984375 -0.10077667236328125
17.91925 -0.02851104736328125 0.12804412841796875 0.060596466064453125 0.05658721923828125 -0.00015234947204589844 0.0019455552101135254 -0.016948699951171875 -0.09966659545898438
17.929 -0.0201263427734375 0.131805419921875 0.0718841552734375 0.0585784912109375 0.0006560087203979492 0.000992417335510254 -0.0213165283203125 -0.097381591796875
17.93875 -0.01517486572265625 0.13397979736328125 0.08319854736328125 0.05994415283203125 0.001186668872833252 0.00027567148208618164 -0.025348663330078125 -0.0937652587890625
17.9485 -0.00714874267578125 0.134735107421875 0.09671783447265625 0.0579071044921875 0.0003840327262878418 0.0008501410484313965 -0.029720306396484375 -0.08858871459960938
17.95825 -0.00091552734375 0.13765716552734375 0.1121063232421875 0.05564117431640625 0.000647127628326416 0.0007394552230834961 -0.0333709716796875 -0.08723068237304688
17.968 0.00737762451171875 0.13976287841796875 0.125762939453125 0.04880523681640625 0.0011601448059082031 -0.0006175637245178223 -0.038532257080078125 -0.084808349609375
17.97775 0.01361083984375 0.140533447265625 0.14068603515625 0.042205810546875 0.0010539889335632324 0.0007520914077758789 -0.0434417724609375 -0.07972335815429688
17.9875 0.02301788330078125 0.1417083740234375 0.1546173095703125 0.03200531005859375 0.0015912652015686035 1.8358230590820312e-05 -0.046047210693359375 -0.07498931884765625
17.99725 0.02988433837890625 0.14334869384765625 0.1695404052734375 0.02082061767578125 0.0007500648498535156 0.0002511143684387207 -0.050037384033203125 -0.07103729248046875
18.007 0.03813934326171875 0.14366912841796875 0.1835479736328125 0.00330352783203125 -0.00018107891082763672 0.0009813904762268066 -0.053707122802734375 -0.06516647338867188
18.01675 0.04601287841796875 0.1431732177734375 0.1967315673828125 -0.0152435302734375 0.0004760921001434326 -0.0007037520408630371 -0.058032989501953125 -0.06277084350585938
18.0265 0.05157470703125 0.14251708984375 0.205841064453125 -0.0387115478515625 0.003031015396118164 0.0007700920104980469 -0.0622406005859375 -0.0568695068359375
18.03625 0.059906005859375 0.1435394287109375 0.2114410400390625 -0.06182861328125 0.0013079643249511719 0.0004209280014038086 -0.06531524658203125 -0.0520477294921875
18.046 0.067291259765625 0.14191436767578125 0.21506500244140625 -0.088134765625 0.0006474554538726807 -0.00033468008041381836 -0.0673980712890625 -0.04808807373046875
18.05575 0.07437896728515625 0.1392059326171875 0.21544647216796875 -0.11537933349609375 0.0013016462326049805 0.0010052919387817383 -0.07181167602539062 -0.041873931884765625
18.0655 0.0814666748046875 0.13970184326171875 0.21258544921875 -0.1407012939453125 0.000590592622756958 -0.0005522370338439941 -0.0726318359375 -0.036319732666015625
18.07525 0.08911895751953125 0.13544464111328125 0.20743560791015625 -0.1691131591796875 0.0009891986846923828 0.0008975863456726074 -0.0734710693359375 -0.03083038330078125
18.085 0.09560394287109375 0.133544921875 0.19660186767578125 -0.19635009765625 -0.0003902912139892578 -0.0013222098350524902 -0.07495498657226562 -0.0247802734375
18.09475 0.10311126708984375 0.12952423095703125 0.18331146240234375 -0.22412872314453125 0.0005854964256286621 -0.001172482967376709 -0.07422256469726562 -0.02001953125
18.1045 0.110626220703125 0.12640380859375 0.16705322265625 -0.251495361328125 -0.00023350119590759277 0.0007383823394775391 -0.0766754150390625 -0.01263427734375
18.11425 0.1165008544921875 0.12477874755859375 0.1445465087890625 -0.2777252197265625 0.0010988116264343262 0.0006963014602661133 -0.07634735107421875 -0.0082855224609375
18.124 0.12286376953125 0.1194000244140625 0.11944580078125 -0.30181884765625 0.0010665655136108398 -0.0009436607360839844 -0.0753936767578125 -0.00032806396484375
18.13375 0.12744140625 0.115753173828125 0.0905609130859375 -0.32373046875 0.001361846923828125 -0.0013753771781921387 -0.07337570190429688 0.005279541015625
18.1435 0.135650634765625 0.1094512939453125 0.0575408935546875 -0.3397979736328125 0.0004994571208953857 0.00030303001403808594 -0.07413482666015625 0.013637542724609375
18.15325 0.14038848876953125 0.10434722900390625 0.022247314453125 -0.35418701171875 0.0003376007080078125 -0.0004439353942871094 -0.07335662841796875 0.020046234130859375
18.163 0.1470489501953125 0.09954071044921875 -0.0145416259765625 -0.3654632568359375 0.0008613467216491699 -0.0009565651416778564 -0.07083892822265625 0.026653289794921875
18.17275 0.15224456787109375 0.0931854248046875 -0.0521240234375 -0.3697052001953125 0.0005058944225311279 -0.0008138716220855713 -0.06648635864257812 0.0314788818359375
18.1825 0.159820556640625 0.0862884521484375 -0.0896148681640625 -0.3723297119140625 0.0013204216957092285 -0.0006275773048400879 -0.06524276733398438 0.038173675537109375
18.19225 0.16237640380859375 0.0813446044921875 -0.131988525390625 -0.37066650390625 0.0006480813026428223 -0.0006937086582183838 -0.061859130859375 0.04418754577636719
18.202 0.16803741455078125 0.07466888427734375 -0.172119140625 -0.363189697265625 -0.0003116130828857422 -0.000314176082611084 -0.061187744140625 0.05081939697265625
18.21175 0.1716766357421875 0.0679931640625 -0.21307373046875 -0.350341796875 0.0001665055751800537 -0.00030097365379333496 -0.055149078369140625 0.05719757080078125
18.2215 0.1775054931640625 0.05954742431640625 -0.251861572265625 -0.3319091796875 0.0008713603019714355 -0.0011128783226013184 -0.05005455017089844 0.06126976013183594
18.23125 0.1805572509765625 0.0537261962890625 -0.28851318359375 -0.309844970703125 0.0009595751762390137 -0.000492483377456665 -0.0475921630859375 0.06504058837890625
18.241 0.18399810791015625 0.0467529296875 -0.32318115234375 -0.28302001953125 -0.000264093279838562 0.0004277229309082031 -0.0435943603515625 0.07056045532226562
18.25075 0.18654632568359375 0.03786468505859375 -0.353912353515625 -0.254608154296875 0.0009501278400421143 -0.0006674826145172119 -0.03740692138671875 0.07542800903320312
18.2605 0.18865966796875 0.02956390380859375 -0.380889892578125 -0.221099853515625 -0.00040286779403686523 -0.00024878978729248047 -0.0302734375 0.0769195556640625
18.27025 0.189788818359375 0.02220916748046875 -0.405242919921875 -0.1849365234375 1.3723969459533691e-05 -0.00017854571342468262 -0.02532958984375 0.08219528198242188
18.28 0.1917877197265625 0.0130615234375 -0.4290771484375 -0.1478271484375 0.0011516213417053223 -0.00038051605224609375 -0.019237518310546875 0.08354568481445312
18.28975 0.1942901611328125 0.00389862060546875 -0.44757080078125 -0.1072998046875 -0.000761866569519043 -0.000232696533203125 -0.011066436767578125 0.08642196655273438
18.2995 0.1928253173828125 -0.00318145751953125 -0.462646484375 -0.063446044921875 -0.00020048022270202637 -0.0004182159900665283 -0.00360870361328125 0.08591842651367188
18.30925 0.1941070556640625 -0.0121307373046875 -0.468963623046875 -0.016876220703125 0.000448763370513916 -0.0006695389747619629 0.0042877197265625 0.08956146240234375
18.319 0.1920318603515625 -0.022674560546875 -0.4705352783203125 0.028564453125 8.083879947662354e-05 0.0002297908067703247 0.01084136962890625 0.09364700317382812
18.32875 0.19191741943359375 -0.0273284912109375 -0.469512939453125 0.073883056640625 0.00036716461181640625 -0.0018214583396911621 0.01976776123046875 0.0926055908203125
18.3385 0.189910888671875 -0.039459228515625 -0.462554931640625 0.117828369140625 1.0885298252105713e-05 -0.00016652047634124756 0.0283050537109375 0.09274673461914062
18.34825 0.18949127197265625 -0.04758453369140625 -0.452392578125 0.1609954833984375 0.0004781484603881836 -0.00020869076251983643 0.03536224365234375 0.093170166015625
18.358 0.1868438720703125 -0.055572509765625 -0.4403228759765625 0.2026824951171875 0.0006396174430847168 0.00047403573989868164 0.04396820068359375 0.0908966064453125
18.36775 0.1854705810546875 -0.06485748291015625 -0.4232635498046875 0.24267578125 0.000666499137878418 -0.0009778141975402832 0.0499420166015625 0.09000396728515625
18.3775 0.182373046875 -0.071319580078125 -0.4031982421875 0.283233642578125 0.00014451146125793457 -0.00021677464246749878 0.05637359619140625 0.08754730224609375
18.38725 0.17818450927734375 -0.0810394287109375 -0.379852294921875 0.3218231201171875 0.0008555054664611816 0.00054931640625 0.06433868408203125 0.0864410400390625
18.397 0.174468994140625 -0.08782958984375 -0.34954833984375 0.357513427734375 8.416175842285156e-05 -0.0005248785018920898 0.0710601806640625 0.081268310546875
18.40675 0.170013427734375 -0.0947113037109375 -0.315887451171875 0.392486572265625 -0.0003999471664428711 -0.0009417533874511719 0.07928466796875 0.078857421875
18.4165 0.16632843017578125 -0.10306549072265625 -0.2789154052734375 0.4185943603515625 0.00032486021518707275 -0.00018291175365447998 0.0834503173828125 0.0734100341796875
18.42625 0.15973663330078125 -0.10973358154296875 -0.2395477294921875 0.4423370361328125 0.00027039647102355957 0.0003591179847717285 0.09087371826171875 0.06858062744140625
18.436 0.15301513671875 -0.11504364013671875 -0.202545166015625 0.461883544921875 6.276369094848633e-05 -0.0012403130531311035 0.09761810302734375 0.06301116943359375
18.44575 0.14642333984375 -0.122772216796875 -0.1635894775390625 0.4779510498046875 0.0016155242919921875 -0.00019872188568115234 0.10182952880859375 0.0556488037109375
18.4555 0.1406707763671875 -0.12781524658203125 -0.1233062744140625 0.493499755859375 0.00021260976791381836 6.085634231567383e-05 0.10501861572265625 0.0503997802734375
18.46525 0.133941650390625 -0.13539886474609375 -0.08282470703125 0.50677490234375 -9.033083915710449e-05 -0.0005175173282623291 0.110107421875 0.039794921875
18.475 0.1264495849609375 -0.13964080810546875 -0.04095458984375 0.519500732421875 0.0005162656307220459 -0.0004458129405975342 0.1147003173828125 0.033416748046875
18.48475 0.12058258056640625 -0.14611053466796875 0.004730224609375 0.52557373046875 0.0014127492904663086 0.00025719404220581055 0.11879730224609375 0.025390625
18.4945 0.11318206787109375 -0.14914703369140625 0.05377197265625 0.5272216796875 0.0006186366081237793 0.00031617283821105957 0.1214752197265625 0.01638031005859375
18.50425 0.104248046875 -0.156219482421875 0.10076904296875 0.52386474609375 0.00045102834701538086 -0.0009462833404541016 0.1224517822265625 0.0096282958984375
18.514 0.0975799560546875 -0.1590576171875 0.1494140625 0.5142822265625 -0.00029921531677246094 -0.0004493594169616699 0.1240997314453125 0.00200653076171875
18.52375 0.08916473388671875 -0.15998077392578125 0.195556640625 0.49749755859375 -0.00036232173442840576 -9.176135063171387e-05 0.12474441528320312 -0.006122589111328125
18.5335 0.082916259765625 -0.16382598876953125 0.236297607421875 0.4794921875 0.00091552734375 -0.0010115504264831543 0.12575531005859375 -0.0152740478515625
18.54325 0.0749969482421875 -0.16657257080078125 0.273223876953125 0.4586181640625 -8.970499038696289e-05 -0.0007085204124450684 0.12421798706054688 -0.02350616455078125
18.553 0.06668853759765625 -0.16881561279296875 0.310577392578125 0.435943603515625 -0.00027552247047424316 -0.000701904296875 0.121490478515625 -0.030757904052734375
18.56275 0.05992889404296875 -0.16979217529296875 0.348114013671875 0.413421630859375 -0.0010986924171447754 -0.00027751922607421875 0.11852645874023438 -0.0364837646484375
18.5725 0.049957275390625 -0.16983795166015625 0.381805419921875 0.387603759765625 0.0007098913192749023 -0.0007397830486297607 0.11474227905273438 -0.045780181884765625
18.58225 0.0423736572265625 -0.17047882080078125 0.4156494140625 0.355194091796875 -4.023313522338867e-05 -0.0010219812393188477 0.11203765869140625 -0.05449676513671875
18.592 0.03432464599609375 -0.17180633544921875 0.449310302734375 0.3216552734375 0.0002390146255493164 -0.0008188784122467041 0.10759353637695312 -0.05970001220703125
18.60175 0.0262298583984375 -0.1709136962890625 0.478271484375 0.28302001953125 0.0009766817092895508 -0.0004988312721252441 0.1016082763671875 -0.06653594970703125
18.6115 0.017242431640625 -0.169677734375 0.503082275390625 0.24066162109375 0.00034117698669433594 -0.0008906722068786621 0.09835052490234375 -0.072967529296875
18.62125 0.00984954833984375 -0.170074462890625 0.521636962890625 0.198272705078125 0.0007167458534240723 -0.0008894801139831543 0.0908660888671875 -0.0773773193359375
18.631 0.0025634765625 -0.16843414306640625 0.5343017578125 0.15618896484375 -0.0001417398452758789 -0.0014830231666564941 0.08605194091796875 -0.08233261108398438
