!Created with skrf (http://scikit-rf.org).
# GHz S RI R 50.0 
!freq ReS11 ImS11 ReS21 ImS21 ReS12 ImS12 ReS22 ImS22
17.5 0.01212310791015625 -0.13890838623046875 -1.7998046875 2.107666015625 -0.0003546476364135742 0.0013219714164733887 0.093536376953125 0.005252838134765625
17.50975 0.00385284423828125 -0.13641357421875 -1.617919921875 2.240478515625 -0.0014215707778930664 0.001443028450012207 0.09623336791992188 0.004459381103515625
17.5195 -0.00335693359375 -0.13332366943359375 -1.4246826171875 2.3548583984375 -0.0013582110404968262 0.0014312267303466797 0.09774398803710938 0.003376007080078125
17.52925 -0.014068603515625 -0.129425048828125 -1.2288818359375 2.45654296875 -0.0018236637115478516 0.001092672348022461 0.10220718383789062 8.7738037109375e-05
17.539 -0.0192108154296875 -0.1247100830078125 -1.032470703125 2.53662109375 -0.0022492408752441406 0.0007464885711669922 0.10359954833984375 -0.00417327880859375
17.54875 -0.0265350341796875 -0.120635986328125 -0.8292236328125 2.5966796875 -0.00184708833694458 0.0012158751487731934 0.10668563842773438 -0.005252838134765625
17.5585 -0.03655242919921875 -0.11679840087890625 -0.6268310546875 2.648681640625 -0.0002149343490600586 0.0009742677211761475 0.10905075073242188 -0.007335662841796875
17.56825 -0.04102325439453125 -0.113250732421875 -0.430908203125 2.6883544921875 -0.001249551773071289 0.0004550814628601074 0.1090240478515625 -0.013278961181640625
17.578 -0.0483856201171875 -0.1072235107421875 -0.2161865234375 2.7152099609375 -0.00011107325553894043 0.000852048397064209 0.11314010620117188 -0.016223907470703125
17.58775 -0.05519866943359375 -0.1030120849609375 0.001953125 2.7244873046875 -0.0018000602722167969 0.0006221532821655273 0.11177825927734375 -0.019931793212890625
17.5975 -0.05799102783203125 -0.0976715087890625 0.2275390625 2.7122802734375 -0.0002962350845336914 0.0012620091438293457 0.11331558227539062 -0.02463531494140625
17.60725 -0.06423187255859375 -0.09264373779296875 0.44580078125 2.6756591796875 -0.0012235641479492188 0.0014622211456298828 0.11407852172851562 -0.028316497802734375
17.617 -0.06996917724609375 -0.08502197265625 0.6558837890625 2.6148681640625 -0.0008865296840667725 0.0008293092250823975 0.1140289306640625 -0.032367706298828125
17.62675 -0.075103759765625 -0.07852935791015625 0.853759765625 2.5350341796875 -0.00011727213859558105 0.0003915727138519287 0.11646652221679688 -0.037784576416015625
17.6365 -0.0779266357421875 -0.071533203125 1.034912109375 2.4423828125 -0.0019408464431762695 0.001630544662475586 0.1141510009765625 -0.0426177978515625
17.64625 -0.0804901123046875 -0.0631256103515625 1.197265625 2.3436279296875 -0.00017499923706054688 0.0016327500343322754 0.11356353759765625 -0.047046661376953125
17.656 -0.085113525390625 -0.05780792236328125 1.3515625 2.2451171875 -0.0002124309539794922 0.0006470084190368652 0.11053848266601562 -0.052349090576171875
17.66575 -0.08914947509765625 -0.04920196533203125 1.5048828125 2.1505126953125 -0.00035178661346435547 0.001044929027557373 0.11133575439453125 -0.056041717529296875
17.6755 -0.09145355224609375 -0.0429229736328125 1.6492919921875 2.0419921875 -0.0014230012893676758 0.0016210079193115234 0.10809326171875 -0.061084747314453125
17.68525 -0.09320831298828125 -0.03496551513671875 1.8043212890625 1.9334716796875 -0.001170039176940918 0.0012453198432922363 0.10477447509765625 -0.06595993041992188
17.695 -0.09555816650390625 -0.02671051025390625 1.96044921875 1.7978515625 -0.0009055137634277344 0.0020407438278198242 0.10445404052734375 -0.06961822509765625
17.70475 -0.09728240966796875 -0.019176483154296875 2.11181640625 1.6414794921875 -0.00027000904083251953 0.002013683319091797 0.09893035888671875 -0.07564926147460938
17.7145 -0.09849166870117188 -0.01113128662109375 2.24560546875 1.46337890625 -0.00046515464782714844 0.0019474029541015625 0.09581756591796875 -0.07872772216796875
17.72425 -0.09862899780273438 -0.002956390380859375 2.3505859375 1.2645263671875 0.0003438591957092285 0.0011100172996520996 0.091339111328125 -0.08415985107421875
17.734 -0.09922409057617188 0.004085540771484375 2.4322509765625 1.0616455078125 -0.00040665268898010254 0.0005535781383514404 0.08778762817382812 -0.08923721313476562
17.74375 -0.10121917724609375 0.01039886474609375 2.478759765625 0.86181640625 0.0006606578826904297 0.0011926889419555664 0.084747314453125 -0.0908203125
17.7535 -0.09785842895507812 0.018428802490234375 2.5126953125 0.6741943359375 0.00010031461715698242 0.0012326240539550781 0.07940673828125 -0.09483718872070312
17.76325 -0.0977325439453125 0.025989532470703125 2.539794921875 0.5006103515625 0.0004767775535583496 0.001101076602935791 0.07476806640625 -0.0984039306640625
17.773 -0.09722518920898438 0.034152984619140625 2.5570068359375 0.3297119140625 -0.000841975212097168 0.0012276172637939453 0.069610595703125 -0.1024322509765625
17.78275 -0.096282958984375 0.040615081787109375 2.571044921875 0.156494140625 -2.2649765014648438e-05 0.00010520592331886292 0.0648193359375 -0.10342788696289062
17.7925 -0.09123611450195312 0.047183990478515625 2.5887451171875 -0.021484375 -0.0008454322814941406 0.0015075206756591797 0.060207366943359375 -0.105010986328125
17.80225 -0.08949661254882812 0.05389404296875 2.5975341796875 -0.214599609375 -3.5703182220458984e-05 0.00132828950881958 0.05521392822265625 -0.10643768310546875
17.812 -0.08615875244140625 0.061687469482421875 2.5855712890625 -0.41748046875 0.0003757476806640625 0.0008302927017211914 0.0495758056640625 -0.10703659057617188
17.82175 -0.082183837890625 0.06959915161132812 2.5548095703125 -0.6187744140625 -0.00016814470291137695 0.0010947585105895996 0.045017242431640625 -0.10990524291992188
17.8315 -0.07983779907226562 0.0758819580078125 2.49560546875 -0.8228759765625 -0.0008058547973632812 0.0010932087898254395 0.03867340087890625 -0.11001968383789062
17.84125 -0.0761871337890625 0.08251190185546875 2.41845703125 -1.011474609375 -2.0742416381835938e-05 0.0020232200622558594 0.0321044921875 -0.10987091064453125
17.851 -0.06811904907226562 0.08966827392578125 2.3160400390625 -1.183837890625 -0.0005649924278259277 0.0013650059700012207 0.027225494384765625 -0.11077117919921875
17.86075 -0.06683731079101562 0.09429168701171875 2.21826171875 -1.3382568359375 0.0008440017700195312 0.0006699562072753906 0.02114105224609375 -0.10999298095703125
17.8705 -0.061676025390625 0.10078048706054688 2.1126708984375 -1.4830322265625 1.7523765563964844e-05 0.0012630820274353027 0.014251708984375 -0.10997390747070312
17.88025 -0.05695343017578125 0.106903076171875 2.010009765625 -1.6263427734375 -0.0005615055561065674 0.0009499192237854004 0.00884246826171875 -0.111114501953125
17.89 -0.050746917724609375 0.11350250244140625 1.90203857421875 -1.76556396484375 0.0007014870643615723 0.0008362531661987305 0.0027313232421875 -0.10786056518554688
17.89975 -0.046192169189453125 0.11730194091796875 1.77874755859375 -1.9083251953125 0.000278472900390625 0.0005412101745605469 -0.000957489013671875 -0.10846710205078125
17.9095 -0.04209136962890625 0.1215057373046875 1.644287109375 -2.0506591796875 4.708394408226013e-05 9.369105100631714e-06 -0.00726318359375 -0.10657119750976562
17.91925 -0.0316009521484375 0.12429046630859375 1.4869384765625 -2.1787109375 0.0006496012210845947 -0.0002008974552154541 -0.0123748779296875 -0.10509109497070312
17.929 -0.0274810791015625 0.12921142578125 1.321044921875 -2.29931640625 0.0004432201385498047 0.002001047134399414 -0.019256591796875 -0.1028289794921875
17.93875 -0.01950836181640625 0.13260650634765625 1.1356201171875 -2.3951416015625 0.00022363662719726562 0.0009520053863525391 -0.0234375 -0.101287841796875
17.9485 -0.0143280029296875 0.1356964111328125 0.9544677734375 -2.466552734375 0.0001658797264099121 0.0014511346817016602 -0.0287017822265625 -0.09693527221679688
17.95825 -0.007659912109375 0.13834381103515625 0.7689208984375 -2.5247802734375 8.596479892730713e-05 0.000329434871673584 -0.032806396484375 -0.0938262939453125
17.968 0.0002899169921875 0.1405487060546875 0.58984375 -2.57080078125 -0.0003180503845214844 0.0008079707622528076 -0.0383453369140625 -0.09110260009765625
17.97775 0.00684356689453125 0.14049530029296875 0.41357421875 -2.6064453125 -0.0004146695137023926 0.0005514323711395264 -0.04203033447265625 -0.087371826171875
17.9875 0.0159454345703125 0.14455413818359375 0.230224609375 -2.6439208984375 0.000380098819732666 0.0011736154556274414 -0.04590606689453125 -0.08295440673828125
17.99725 0.0234375 0.1439056396484375 0.0430908203125 -2.673095703125 4.297494888305664e-05 0.0010566115379333496 -0.05092620849609375 -0.0771942138671875
18.007 0.0300140380859375 0.1444854736328125 -0.1556396484375 -2.69189453125 0.0005284547805786133 0.001283109188079834 -0.0550994873046875 -0.07236480712890625
18.01675 0.03922271728515625 0.14681243896484375 -0.362060546875 -2.6907958984375 0.0005310177803039551 0.000997006893157959 -0.0588531494140625 -0.06966400146484375
18.0265 0.0465087890625 0.14532470703125 -0.578125 -2.6748046875 7.68899917602539e-06 0.0007621049880981445 -0.0649871826171875 -0.063690185546875
18.03625 0.0553131103515625 0.1481170654296875 -0.78857421875 -2.62646484375 -0.0002841949462890625 0.0006069540977478027 -0.0678558349609375 -0.0596466064453125
18.046 0.06255340576171875 0.147369384765625 -0.9989013671875 -2.562255859375 -0.0007356107234954834 -9.569525718688965e-05 -0.07059478759765625 -0.053813934326171875
18.05575 0.07077789306640625 0.14417266845703125 -1.1875 -2.48095703125 0.0004673302173614502 0.00022682547569274902 -0.07448196411132812 -0.047008514404296875
18.0655 0.07740020751953125 0.14272308349609375 -1.364013671875 -2.3839111328125 0.0018233060836791992 0.00043582916259765625 -0.07691192626953125 -0.041103363037109375
18.07525 0.08612823486328125 0.1413116455078125 -1.538818359375 -2.2830810546875 0.00013962388038635254 0.000622093677520752 -0.07997894287109375 -0.036224365234375
18.085 0.0928192138671875 0.138885498046875 -1.709716796875 -2.1746826171875 9.372830390930176e-05 -0.0007140040397644043 -0.08057785034179688 -0.029582977294921875
18.09475 0.100433349609375 0.13726806640625 -1.8760986328125 -2.0528564453125 0.0011012554168701172 -0.0008519887924194336 -0.08012771606445312 -0.02398681640625
18.1045 0.1089935302734375 0.1318359375 -2.0406494140625 -1.923095703125 0.0014418363571166992 -0.000663459300994873 -0.08277511596679688 -0.017818450927734375
18.11425 0.115447998046875 0.1301727294921875 -2.197021484375 -1.768310546875 0.00022840499877929688 0.001342475414276123 -0.08230972290039062 -0.0130462646484375
18.124 0.1215972900390625 0.1268768310546875 -2.343994140625 -1.6015625 0.0015012025833129883 -0.00026726722717285156 -0.08219146728515625 -0.003326416015625
18.13375 0.1305084228515625 0.12213134765625 -2.4716796875 -1.422607421875 0.000822603702545166 -0.0006804764270782471 -0.08071136474609375 0.002460479736328125
18.1435 0.1353607177734375 0.116851806640625 -2.5853271484375 -1.229736328125 0.0007595419883728027 0.00010371208190917969 -0.08216094970703125 0.010173797607421875
18.15325 0.142608642578125 0.110595703125 -2.6827392578125 -1.0223388671875 0.0010835528373718262 -0.0003288388252258301 -0.08118057250976562 0.016109466552734375
18.163 0.1493377685546875 0.10626220703125 -2.7593994140625 -0.819091796875 0.0006684064865112305 0.0003437995910644531 -0.07935714721679688 0.023502349853515625
18.17275 0.155303955078125 0.0991668701171875 -2.819091796875 -0.6043701171875 0.000349581241607666 0.0008077621459960938 -0.07522201538085938 0.031925201416015625
18.1825 0.1616363525390625 0.0917510986328125 -2.8763427734375 -0.38916015625 -9.363889694213867e-05 -0.0011049509048461914 -0.0737457275390625 0.040111541748046875
18.19225 0.166473388671875 0.0858612060546875 -2.91796875 -0.1602783203125 0.0012990236282348633 1.150369644165039e-05 -0.0699615478515625 0.044918060302734375
18.202 0.1724700927734375 0.07927703857421875 -2.9375 0.06591796875 0.0009275674819946289 -0.0010321736335754395 -0.067352294921875 0.05162811279296875
18.21175 0.1756591796875 0.0716705322265625 -2.935546875 0.308349609375 0.0008546113967895508 -0.00023382902145385742 -0.06333160400390625 0.06014251708984375
18.2215 0.1827545166015625 0.06468963623046875 -2.9039306640625 0.54833984375 0.0014171600341796875 -0.00014662742614746094 -0.056182861328125 0.06512069702148438
18.23125 0.18616485595703125 0.056640625 -2.85546875 0.7767333984375 0.0006645321846008301 -0.0009028017520904541 -0.055339813232421875 0.06875991821289062
18.241 0.1889801025390625 0.04795074462890625 -2.784912109375 0.99853515625 0.0001188814640045166 0.00030753016471862793 -0.049808502197265625 0.07468795776367188
18.25075 0.19159698486328125 0.0406036376953125 -2.7008056640625 1.2103271484375 0.0004946589469909668 -0.000455319881439209 -0.043193817138671875 0.07958984375
18.2605 0.19313812255859375 0.03281402587890625 -2.603515625 1.4168701171875 0.00028395652770996094 -0.0011134147644042969 -0.03632354736328125 0.0839996337890625
18.27025 0.195526123046875 0.02355194091796875 -2.4945068359375 1.615478515625 3.3348798751831055e-05 -0.0008501410484313965 -0.0295562744140625 0.08729171752929688
18.28 0.19843292236328125 0.01290130615234375 -2.375732421875 1.8193359375 3.2648444175720215e-05 -0.0003306865692138672 -0.023406982421875 0.0899658203125
18.28975 0.200531005859375 0.0042266845703125 -2.2353515625 2.01123046875 0.000742495059967041 -0.0006971955299377441 -0.016239166259765625 0.09438323974609375
18.2995 0.19879913330078125 -0.00313568115234375 -2.0701904296875 2.1961669921875 -0.00012111663818359375 -0.0005429983139038086 -0.007785797119140625 0.09479522705078125
18.30925 0.1984100341796875 -0.013763427734375 -1.8818359375 2.358154296875 -9.453296661376953e-05 0.0005750656127929688 0.00124359130859375 0.0979156494140625
18.319 0.19733428955078125 -0.02337646484375 -1.680419921875 2.505859375 -0.00046144425868988037 -3.826618194580078e-05 0.008029937744140625 0.10088729858398438
18.32875 0.1966705322265625 -0.0323944091796875 -1.4683837890625 2.625 0.0005397200584411621 0.00021249055862426758 0.018360137939453125 0.09972763061523438
18.3385 0.19626617431640625 -0.0424346923828125 -1.25341796875 2.72021484375 -4.4852495193481445e-05 -0.0002662390470504761 0.02689361572265625 0.10211944580078125
18.34825 0.19417572021484375 -0.05158233642578125 -1.0435791015625 2.8087158203125 -1.189112663269043e-05 -0.0005126595497131348 0.03377532958984375 0.10228729248046875
18.358 0.19077301025390625 -0.0606536865234375 -0.830810546875 2.8809814453125 0.0004754960536956787 -0.0006971657276153564 0.04244232177734375 0.09906005859375
18.36775 0.188507080078125 -0.06851959228515625 -0.607177734375 2.940185546875 0.00024358928203582764 -0.00035046041011810303 0.05023956298828125 0.09638214111328125
18.3775 0.1849212646484375 -0.076019287109375 -0.382080078125 2.9945068359375 -0.0009113848209381104 -1.9788742065429688e-05 0.05857086181640625 0.0963287353515625
18.38725 0.18186187744140625 -0.08585357666015625 -0.1346435546875 3.0224609375 0.00020006299018859863 0.00035431981086730957 0.06572723388671875 0.09415435791015625
18.397 0.1773681640625 -0.09222412109375 0.11474609375 3.02587890625 0.00043269991874694824 -0.00038757920265197754 0.07391357421875 0.090423583984375
18.40675 0.1734466552734375 -0.099822998046875 0.371826171875 3.007080078125 0.00032633543014526367 -0.0005284547805786133 0.080657958984375 0.084686279296875
18.4165 0.16625213623046875 -0.10657501220703125 0.6131591796875 2.9556884765625 0.00022327899932861328 -0.0002490133047103882 0.08849334716796875 0.0811767578125
18.42625 0.16014862060546875 -0.11389923095703125 0.8402099609375 2.8748779296875 -6.097555160522461e-05 -0.0006818473339080811 0.09508514404296875 0.0750885009765625
18.436 0.154449462890625 -0.12114715576171875 1.0511474609375 2.787841796875 0.00041857361793518066 0.0002008378505706787 0.10239410400390625 0.07000732421875
18.44575 0.14749908447265625 -0.12886810302734375 1.248046875 2.68603515625 0.001150667667388916 -0.0003731846809387207 0.10733795166015625 0.06180572509765625
18.4555 0.1403961181640625 -0.13346099853515625 1.436279296875 2.58203125 -0.000269472599029541 -2.592802047729492e-06 0.11058807373046875 0.054443359375
18.46525 0.13420867919921875 -0.13895416259765625 1.627685546875 2.47802734375 -0.00019761919975280762 -0.0003186166286468506 0.11809539794921875 0.04576873779296875
18.475 0.12589263916015625 -0.14437103271484375 1.8154296875 2.35693359375 -0.0001354813575744629 -0.0008098483085632324 0.1231536865234375 0.03914642333984375
18.48475 0.12026214599609375 -0.1504364013671875 2.001708984375 2.208740234375 0.0014083385467529297 -0.0006305575370788574 0.1256866455078125 0.02931976318359375
18.4945 0.1102294921875 -0.1535797119140625 2.180419921875 2.037841796875 -0.00021347403526306152 0.00016280263662338257 0.12945556640625 0.020263671875
18.50425 0.101593017578125 -0.1578369140625 2.3408203125 1.84375 -7.927417755126953e-06 -0.0009415745735168457 0.129364013671875 0.0128021240234375
18.514 0.0946807861328125 -0.16259765625 2.4736328125 1.6376953125 0.0006806850433349609 -0.0005699992179870605 0.13189697265625 0.002777099609375
18.52375 0.08495330810546875 -0.1623992919921875 2.5718994140625 1.4202880859375 0.00038889050483703613 -0.0005684792995452881 0.13079833984375 -0.00536346435546875
18.5335 0.07918548583984375 -0.16646575927734375 2.65283203125 1.2105712890625 0.0002605617046356201 -0.0004671812057495117 0.13372039794921875 -0.015045166015625
18.54325 0.07015228271484375 -0.16942596435546875 2.7105712890625 1.0087890625 0.00026229023933410645 0.0007129311561584473 0.132080078125 -0.02323150634765625
18.553 0.06327056884765625 -0.170440673828125 2.75927734375 0.8096923828125 0.0008568763732910156 -0.0004254281520843506 0.12885284423828125 -0.03241729736328125
18.56275 0.05487060546875 -0.17059326171875 2.80908203125 0.6123046875 -0.000273287296295166 -0.0009999871253967285 0.12738037109375 -0.0386199951171875
18.5725 0.0465087890625 -0.17203521728515625 2.8458251953125 0.404541015625 0.00037738680839538574 -8.732080459594727e-05 0.121978759765625 -0.04779815673828125
18.58225 0.03850555419921875 -0.171630859375 2.8699951171875 0.1903076171875 0.000737994909286499 3.0666589736938477e-05 0.11916732788085938 -0.055889129638671875
18.592 0.02954864501953125 -0.172607421875 2.877685546875 -0.0352783203125 0.0003598630428314209 0.000354766845703125 0.11412429809570312 -0.061870574951171875
18.60175 0.0220947265625 -0.170806884765625 2.86083984375 -0.2646484375 -0.00022232532501220703 -0.0008101463317871094 0.1083221435546875 -0.06864166259765625
18.6115 0.013763427734375 -0.16973114013671875 2.8167724609375 -0.4859619140625 0.00013250112533569336 -0.0008772611618041992 0.1042633056640625 -0.0771484375
18.62125 0.005279541015625 -0.1675262451171875 2.749267578125 -0.693359375 -0.0010231733322143555 -0.0010880231857299805 0.09806442260742188 -0.0822601318359375
18.631 -0.001007080078125 -0.1674041748046875 2.671630859375 -0.877685546875 0.0002923011779785156 -0.0010162591934204102 0.09194183349609375 -0.0870361328125
18.64075 -0.0084991455078125 -0.1647491455078125 2.5823974609375 -1.052978515625 -0.0002632737159729004 -0.00043261051177978516 0.08617019653320312 -0.09108352661132812
18.6505 -0.01500701904296875 -0.16329193115234375 2.498291015625 -1.2200927734375 0.0008261799812316895 -0.001365363597869873 0.07857131958007812 -0.09458541870117188
18.66025 -0.02423858642578125 -0.15990447998046875 2.4102783203125 -1.38525390625 -8.055567741394043e-05 -0.0006185472011566162 0.07126235961914062 -0.09790802001953125
18.67 -0.02988433837890625 -0.1577301025390625 2.311767578125 -1.5489501953125 0.0005736351013183594 -0.0006360113620758057 0.065032958984375 -0.09949111938476562
18.67975 -0.03885650634765625 -0.154571533203125 2.207763671875 -1.7186279296875 -0.001238107681274414 -0.001065373420715332 0.057125091552734375 -0.10292816162109375
