!Created with skrf (http://scikit-rf.org).
# GHz S RI R 50.0 
!freq ReS11 ImS11 ReS21 ImS21 ReS12 ImS12 ReS22 ImS22
17.5 0.00922393798828125 -0.14435577392578125 -0.035121917724609375 0.1041412353515625 -0.0012420415878295898 -0.000493168830871582 0.09930038452148438 0.001186370849609375
17.50975 -0.00091552734375 -0.141876220703125 -0.020801544189453125 0.10419845581054688 -0.0007197260856628418 -0.000168532133102417 0.10086822509765625 -0.0002288818359375
17.5195 -0.00858306884765625 -0.1368865966796875 -0.006439208984375 0.10262298583984375 -0.0005811452865600586 -0.0008688569068908691 0.10358428955078125 -0.002399444580078125
17.52925 -0.01811981201171875 -0.133697509765625 0.007915496826171875 0.09863662719726562 -0.0009119808673858643 0.0007691681385040283 0.10605239868164062 -0.00617218017578125
17.539 -0.023223876953125 -0.1278228759765625 0.0212554931640625 0.09442901611328125 -0.0022687911987304688 0.0014133453369140625 0.1081085205078125 -0.0095672607421875
17.54875 -0.0326385498046875 -0.12473297119140625 0.03328704833984375 0.08612442016601562 -0.0002992600202560425 0.00037357211112976074 0.10950469970703125 -0.012660980224609375
17.5585 -0.04195404052734375 -0.1195831298828125 0.044841766357421875 0.07791900634765625 -0.0007522106170654297 -0.0004642009735107422 0.11115646362304688 -0.015110015869140625
17.56825 -0.0476531982421875 -0.11524200439453125 0.055248260498046875 0.06988525390625 -0.0012342333793640137 0.0004152655601501465 0.1120452880859375 -0.020092010498046875
17.578 -0.05333709716796875 -0.10727691650390625 0.06090545654296875 0.059108734130859375 -0.0009862184524536133 0.0005574822425842285 0.11305999755859375 -0.024639129638671875
17.58775 -0.059844970703125 -0.104339599609375 0.0677032470703125 0.04813385009765625 -0.001068115234375 0.00029152631759643555 0.11480712890625 -0.026851654052734375
17.5975 -0.06438446044921875 -0.0972900390625 0.07251358032226562 0.035533905029296875 -0.001070857048034668 0.0009199380874633789 0.115325927734375 -0.033603668212890625
17.60725 -0.07091522216796875 -0.092315673828125 0.07479476928710938 0.023700714111328125 -0.0011124610900878906 0.00029784440994262695 0.11363983154296875 -0.034481048583984375
17.617 -0.07604217529296875 -0.08515167236328125 0.0760955810546875 0.011005401611328125 -0.0012649893760681152 0.0007803440093994141 0.11497116088867188 -0.0412139892578125
17.62675 -0.080535888671875 -0.07776641845703125 0.0734405517578125 -0.002918243408203125 -0.0011489391326904297 0.0009088516235351562 0.11358261108398438 -0.043376922607421875
17.6365 -0.0841522216796875 -0.0697021484375 0.07010650634765625 -0.01497650146484375 0.00038623809814453125 0.0012278556823730469 0.1128692626953125 -0.0499267578125
17.64625 -0.08750152587890625 -0.0611114501953125 0.06406784057617188 -0.024715423583984375 -0.0009690821170806885 0.00020462274551391602 0.11151504516601562 -0.05374908447265625
17.656 -0.0910491943359375 -0.05599212646484375 0.05916595458984375 -0.03324127197265625 -0.0009090304374694824 0.001058340072631836 0.1085357666015625 -0.058414459228515625
17.66575 -0.09295654296875 -0.0467681884765625 0.05214691162109375 -0.042537689208984375 0.00034731626510620117 0.001457810401916504 0.10618972778320312 -0.06341934204101562
17.6755 -0.096588134765625 -0.03971099853515625 0.044940948486328125 -0.051548004150390625 -0.0010528564453125 0.002150893211364746 0.10213088989257812 -0.06870651245117188
17.68525 -0.098175048828125 -0.03112030029296875 0.03511810302734375 -0.05879020690917969 -0.0009731054306030273 0.0010372400283813477 0.099151611328125 -0.0717620849609375
17.695 -0.1005706787109375 -0.02211761474609375 0.0240478515625 -0.06483840942382812 -0.0004515647888183594 0.0005781650543212891 0.09654998779296875 -0.07512664794921875
17.70475 -0.09989166259765625 -0.013912200927734375 0.0118408203125 -0.06894683837890625 0.0004839897155761719 0.0019463300704956055 0.09354019165039062 -0.0786895751953125
17.7145 -0.10157012939453125 -0.0058441162109375 -0.001445770263671875 -0.07156753540039062 -0.00155717134475708 0.0012285113334655762 0.08954238891601562 -0.08481597900390625
17.72425 -0.10340118408203125 0.001842498779296875 -0.01457977294921875 -0.07328414916992188 -0.0005501210689544678 0.00038111209869384766 0.08626174926757812 -0.08786773681640625
17.734 -0.103179931640625 0.0104522705078125 -0.02716064453125 -0.07007598876953125 -1.1920928955078125e-07 0.0010584592819213867 0.0817718505859375 -0.092498779296875
17.74375 -0.1037750244140625 0.0173187255859375 -0.03818511962890625 -0.06639862060546875 -0.0004870891571044922 0.0014029741287231445 0.0767669677734375 -0.09651947021484375
17.7535 -0.09945297241210938 0.024532318115234375 -0.0507659912109375 -0.06127166748046875 0.0007066130638122559 0.0010210275650024414 0.07223129272460938 -0.0985107421875
17.76325 -0.09857559204101562 0.0323333740234375 -0.061565399169921875 -0.055347442626953125 7.265806198120117e-05 0.0013130903244018555 0.0670623779296875 -0.10111618041992188
17.773 -0.09789276123046875 0.040622711181640625 -0.07255935668945312 -0.0466156005859375 -0.0005998909473419189 0.0009449124336242676 0.06082916259765625 -0.102386474609375
17.78275 -0.09563827514648438 0.04761505126953125 -0.08278656005859375 -0.0371856689453125 -0.00022199749946594238 0.0009752213954925537 0.057231903076171875 -0.10343551635742188
17.7925 -0.09285354614257812 0.0544586181640625 -0.0901641845703125 -0.027805328369140625 -0.00037783384323120117 0.001254439353942871 0.052852630615234375 -0.10627365112304688
17.80225 -0.08826828002929688 0.0597991943359375 -0.09911727905273438 -0.015125274658203125 -8.153915405273438e-05 0.0020186901092529297 0.049835205078125 -0.106689453125
17.812 -0.0844573974609375 0.06836318969726562 -0.10577392578125 -0.00052642822265625 -0.0006511211395263672 0.001393437385559082 0.042392730712890625 -0.10587692260742188
17.82175 -0.080474853515625 0.0759124755859375 -0.11005020141601562 0.01642608642578125 0.000529170036315918 0.0018485784530639648 0.037593841552734375 -0.10623931884765625
17.8315 -0.07693099975585938 0.08176803588867188 -0.10971832275390625 0.030029296875 0.0008374452590942383 0.0017396211624145508 0.031459808349609375 -0.10844802856445312
17.84125 -0.0717620849609375 0.08783721923828125 -0.10968017578125 0.0493621826171875 -0.0006575584411621094 0.0020580291748046875 0.02416229248046875 -0.106842041015625
17.851 -0.0660552978515625 0.09535598754882812 -0.10551834106445312 0.0664215087890625 0.0005946457386016846 -0.0007562339305877686 0.02077484130859375 -0.1077117919921875
17.86075 -0.061676025390625 0.100250244140625 -0.10238265991210938 0.0822296142578125 5.048513412475586e-05 0.001526951789855957 0.01348876953125 -0.10515213012695312
17.8705 -0.05747222900390625 0.10617446899414062 -0.09462356567382812 0.0969390869140625 0.0013505220413208008 0.0014687776565551758 0.00832366943359375 -0.1057281494140625
17.88025 -0.053287506103515625 0.11201858520507812 -0.0855865478515625 0.11330795288085938 0.00023055076599121094 0.0017699003219604492 0.003772735595703125 -0.10551834106445312
17.89 -0.046245574951171875 0.11786651611328125 -0.07568359375 0.12790679931640625 0.00025118887424468994 0.0001261979341506958 -0.00194549560546875 -0.1037139892578125
17.89975 -0.040454864501953125 0.12025833129882812 -0.06237030029296875 0.143829345703125 -0.00022357702255249023 0.0016475915908813477 -0.0084991455078125 -0.10110855102539062
17.9095 -0.035552978515625 0.1245269775390625 -0.04621124267578125 0.157012939453125 0.0003929734230041504 0.0013486742973327637 -0.0144195556640625 -0.0989990234375
17.91925 -0.02721405029296875 0.1267852783203125 -0.0275726318359375 0.16834259033203125 0.001632094383239746 0.0005166530609130859 -0.017024993896484375 -0.0970001220703125
17.929 -0.0214996337890625 0.13214111328125 -0.0068359375 0.17987060546875 -8.034706115722656e-05 -0.00046640634536743164 -0.0233154296875 -0.09668731689453125
17.93875 -0.01441192626953125 0.1342620849609375 0.01514434814453125 0.1854400634765625 8.344650268554688e-07 0.0012616515159606934 -0.0243682861328125 -0.09305953979492188
17.9485 -0.0081939697265625 0.13495635986328125 0.04090118408203125 0.18845367431640625 0.000817418098449707 0.0012488365173339844 -0.030216217041015625 -0.08860397338867188
17.95825 -7.62939453125e-05 0.13639068603515625 0.06396484375 0.189239501953125 0.0011091828346252441 0.000808417797088623 -0.034030914306640625 -0.08730697631835938
17.968 0.0062408447265625 0.13990020751953125 0.087799072265625 0.187835693359375 0.0012660622596740723 0.0005348324775695801 -0.040248870849609375 -0.08429336547851562
17.97775 0.01451873779296875 0.140289306640625 0.112152099609375 0.1839447021484375 0.0008095502853393555 0.0010421276092529297 -0.043121337890625 -0.07781982421875
17.9875 0.02276611328125 0.14202880859375 0.1372833251953125 0.1760406494140625 0.00129622220993042 0.00012814998626708984 -0.04593658447265625 -0.07612228393554688
17.99725 0.03018951416015625 0.14139556884765625 0.1641998291015625 0.1639556884765625 0.0011859536170959473 0.00024360418319702148 -0.050533294677734375 -0.06996536254882812
18.007 0.0380401611328125 0.1425323486328125 0.1898956298828125 0.1485748291015625 0.0006353855133056641 0.0020400285720825195 -0.05328369140625 -0.06616973876953125
18.01675 0.046173095703125 0.1439361572265625 0.2137908935546875 0.13043212890625 0.0007358789443969727 -0.0013001561164855957 -0.056346893310546875 -0.061664581298828125
18.0265 0.0529022216796875 0.142181396484375 0.23638916015625 0.106842041015625 0.0014672279357910156 0.0007233619689941406 -0.0622711181640625 -0.0569915771484375
18.03625 0.0603179931640625 0.1432952880859375 0.254791259765625 0.07952880859375 -0.00024902820587158203 0.0006139874458312988 -0.0630950927734375 -0.0527191162109375
18.046 0.0680389404296875 0.14200592041015625 0.26947021484375 0.051116943359375 0.000456392765045166 0.0011548995971679688 -0.06587982177734375 -0.046558380126953125
18.05575 0.0770111083984375 0.13988494873046875 0.279022216796875 0.0182647705078125 -3.90857458114624e-05 -4.637986421585083e-05 -0.06824874877929688 -0.041675567626953125
18.0655 0.0814056396484375 0.13863372802734375 0.2871856689453125 -0.0146942138671875 0.0003796815872192383 0.0004901289939880371 -0.07262039184570312 -0.03652191162109375
18.07525 0.0901947021484375 0.13465118408203125 0.2892303466796875 -0.0456390380859375 0.0017749667167663574 0.00010961294174194336 -0.072998046875 -0.030971527099609375
18.085 0.09741973876953125 0.13292694091796875 0.2889404296875 -0.0817718505859375 0.0001595020294189453 0.0006586313247680664 -0.07488632202148438 -0.023555755615234375
18.09475 0.10381317138671875 0.1305694580078125 0.2852783203125 -0.1167755126953125 0.0019397735595703125 0.0007845163345336914 -0.07363128662109375 -0.01898956298828125
18.1045 0.1106719970703125 0.1263580322265625 0.2767486572265625 -0.1522064208984375 0.0013382434844970703 0.0007978677749633789 -0.07570648193359375 -0.013187408447265625
18.11425 0.116912841796875 0.1233978271484375 0.264556884765625 -0.18804931640625 0.00034868717193603516 0.000313490629196167 -0.07368087768554688 -0.00864410400390625
18.124 0.122772216796875 0.1191558837890625 0.2449493408203125 -0.2225341796875 0.0004978179931640625 6.943941116333008e-05 -0.07439422607421875 -2.288818359375e-05
18.13375 0.129364013671875 0.1141815185546875 0.2221527099609375 -0.2520294189453125 -0.0005236268043518066 0.001375734806060791 -0.07367324829101562 0.005992889404296875
18.1435 0.13430023193359375 0.10890960693359375 0.1956024169921875 -0.2811431884765625 -2.086162567138672e-07 -0.0004604756832122803 -0.07483673095703125 0.013683319091796875
18.15325 0.14178466796875 0.1043243408203125 0.1651611328125 -0.306488037109375 0.000916898250579834 -0.001101076602935791 -0.073394775390625 0.0190887451171875
18.163 0.14723968505859375 0.09864044189453125 0.13189697265625 -0.3272247314453125 0.0002688765525817871 -0.0010451078414916992 -0.07086944580078125 0.025234222412109375
18.17275 0.15283966064453125 0.09252166748046875 0.09503173828125 -0.343231201171875 0.0007088184356689453 -0.00018200278282165527 -0.06847381591796875 0.03122711181640625
18.1825 0.158477783203125 0.0864410400390625 0.05816650390625 -0.3576812744140625 0.0009734034538269043 0.0002161264419555664 -0.06507492065429688 0.04048919677734375
18.19225 0.162994384765625 0.08016204833984375 0.01873779296875 -0.366912841796875 0.00025500357151031494 9.34302806854248e-06 -0.06115913391113281 0.043857574462890625
18.202 0.16843414306640625 0.0738372802734375 -0.02191162109375 -0.373870849609375 7.653236389160156e-05 0.001052558422088623 -0.05997276306152344 0.049892425537109375
18.21175 0.172760009765625 0.0674896240234375 -0.063385009765625 -0.3724365234375 0.0016291141510009766 -0.00011670589447021484 -0.054752349853515625 0.05657958984375
18.2215 0.17584228515625 0.05876922607421875 -0.105377197265625 -0.3660888671875 0.0014246702194213867 0.0009561777114868164 -0.050296783447265625 0.06144523620605469
18.23125 0.1807098388671875 0.0537567138671875 -0.14508056640625 -0.35321044921875 0.0004516392946243286 -0.000418052077293396 -0.04632568359375 0.06502914428710938
18.241 0.183074951171875 0.04595947265625 -0.184814453125 -0.33978271484375 0.0008925795555114746 0.0005903244018554688 -0.04296875 0.0699920654296875
18.25075 0.185150146484375 0.03768157958984375 -0.21893310546875 -0.32086181640625 0.0012485384941101074 -0.00025087594985961914 -0.03649139404296875 0.07355117797851562
18.2605 0.1872711181640625 0.03154754638671875 -0.25323486328125 -0.29840087890625 0.0005415081977844238 5.8323144912719727e-05 -0.029636383056640625 0.07727813720703125
18.27025 0.18802642822265625 0.021728515625 -0.284576416015625 -0.272491455078125 0.0015475153923034668 -0.0009409189224243164 -0.02516937255859375 0.07991790771484375
18.28 0.192474365234375 0.0133819580078125 -0.3145751953125 -0.24462890625 0.00040562450885772705 -0.00041513144969940186 -0.01721954345703125 0.0829315185546875
18.28975 0.193115234375 0.00380706787109375 -0.3411865234375 -0.212554931640625 -0.00010335445404052734 -0.0008826255798339844 -0.01110076904296875 0.08785247802734375
18.2995 0.1931915283203125 -0.00345611572265625 -0.363006591796875 -0.17694091796875 -0.00031745433807373047 -0.0012802481651306152 -0.003643035888671875 0.08713150024414062
18.30925 0.1913909912109375 -0.0135345458984375 -0.381103515625 -0.13775634765625 0.0006700754165649414 -0.0005094408988952637 0.0048980712890625 0.08916473388671875
18.319 0.19141387939453125 -0.0220184326171875 -0.393096923828125 -0.0978240966796875 -0.00025825202465057373 -0.00023065507411956787 0.01092529296875 0.09222412109375
18.32875 0.190521240234375 -0.0289459228515625 -0.4020843505859375 -0.0580902099609375 7.292628288269043e-05 -0.0005538463592529297 0.01921844482421875 0.09096145629882812
18.3385 0.18997955322265625 -0.03894805908203125 -0.4069671630859375 -0.0180816650390625 0.0003045201301574707 -0.00037804245948791504 0.02852630615234375 0.09305191040039062
18.34825 0.1880035400390625 -0.047332763671875 -0.40728759765625 0.01959228515625 0.0009001195430755615 -0.0008041262626647949 0.03314208984375 0.0933380126953125
18.358 0.18697357177734375 -0.05609130859375 -0.404754638671875 0.058197021484375 0.00016564130783081055 -0.0003063678741455078 0.0426483154296875 0.09023284912109375
18.36775 0.1842498779296875 -0.06485748291015625 -0.398834228515625 0.09796142578125 -4.9680471420288086e-05 -0.000722736120223999 0.05051422119140625 0.0891571044921875
18.3775 0.18093109130859375 -0.0717926025390625 -0.3920440673828125 0.1341552734375 0.000303417444229126 0.00025072693824768066 0.05645751953125 0.08814239501953125
18.38725 0.1775360107421875 -0.08026885986328125 -0.378814697265625 0.174163818359375 -0.00025656819343566895 -0.0005120635032653809 0.06439208984375 0.08435821533203125
18.397 0.1739044189453125 -0.087677001953125 -0.360992431640625 0.211822509765625 0.0004227161407470703 -0.00016808509826660156 0.07037353515625 0.0820770263671875
18.40675 0.1688995361328125 -0.09552001953125 -0.3404541015625 0.246002197265625 -5.474686622619629e-05 -0.00029584765434265137 0.07867431640625 0.0767059326171875
18.4165 0.16524505615234375 -0.1019287109375 -0.3162384033203125 0.279266357421875 -0.00022470951080322266 -0.0004698038101196289 0.084014892578125 0.07268524169921875
18.42625 0.15863800048828125 -0.10947418212890625 -0.2877960205078125 0.3052978515625 0.00024405121803283691 -0.0006769895553588867 0.089813232421875 0.06725311279296875
18.436 0.15319061279296875 -0.11516571044921875 -0.25933837890625 0.3307952880859375 -0.00047129392623901367 -0.000742495059967041 0.09806060791015625 0.06203460693359375
18.44575 0.1463470458984375 -0.1220245361328125 -0.2296600341796875 0.352386474609375 -0.0004526376724243164 -0.0006717443466186523 0.10027313232421875 0.05609893798828125
18.4555 0.14002227783203125 -0.12757110595703125 -0.1991424560546875 0.3725128173828125 0.0003353506326675415 8.417665958404541e-05 0.1047821044921875 0.04883575439453125
18.46525 0.13391876220703125 -0.13407135009765625 -0.1680145263671875 0.39190673828125 -0.00023315846920013428 -1.93864107131958e-05 0.110595703125 0.0402069091796875
18.475 0.12628173828125 -0.13896942138671875 -0.1343994140625 0.4093170166015625 0.0006923675537109375 -0.0005049705505371094 0.1150054931640625 0.03515625
18.48475 0.12148284912109375 -0.1457366943359375 -0.0966796875 0.423858642578125 -0.0002244114875793457 0.0006353259086608887 0.11824798583984375 0.02368927001953125
18.4945 0.111724853515625 -0.14962005615234375 -0.0563201904296875 0.4349212646484375 -0.00017922371625900269 0.00019069015979766846 0.12186431884765625 0.01586151123046875
18.50425 0.104278564453125 -0.15386962890625 -0.014251708984375 0.44097900390625 0.000868678092956543 -0.00044524669647216797 0.123046875 0.009521484375
18.514 0.0977935791015625 -0.156707763671875 0.028533935546875 0.442138671875 0.0005570054054260254 -0.0005967617034912109 0.1240081787109375 0.00119781494140625
18.52375 0.08951568603515625 -0.15995025634765625 0.0699005126953125 0.4356231689453125 -0.0002658963203430176 -0.0012772679328918457 0.12331390380859375 -0.0080108642578125
18.5335 0.08300018310546875 -0.1643524169921875 0.107879638671875 0.42926025390625 0.0007221400737762451 -0.0003134608268737793 0.12474441528320312 -0.016101837158203125
18.54325 0.07497406005859375 -0.1671142578125 0.1435546875 0.4190673828125 -0.0005531907081604004 -0.0005007386207580566 0.12300491333007812 -0.02336883544921875
18.553 0.06838226318359375 -0.1692962646484375 0.178009033203125 0.404388427734375 0.0005428791046142578 0.0002937912940979004 0.12025070190429688 -0.0313873291015625
18.56275 0.059661865234375 -0.16829681396484375 0.214569091796875 0.390869140625 7.890909910202026e-05 -0.00014944374561309814 0.11898422241210938 -0.037090301513671875
18.5725 0.05078887939453125 -0.169769287109375 0.247589111328125 0.374298095703125 0.0012038946151733398 -0.0006826519966125488 0.11463546752929688 -0.04701995849609375
18.58225 0.04282379150390625 -0.17131805419921875 0.28289794921875 0.353973388671875 -3.5703182220458984e-05 -0.001063525676727295 0.11089706420898438 -0.052516937255859375
18.592 0.03455352783203125 -0.17316436767578125 0.31396484375 0.329071044921875 -0.00022047758102416992 -0.0006153583526611328 0.1070404052734375 -0.060253143310546875
18.60175 0.026580810546875 -0.170654296875 0.34576416015625 0.30059814453125 -0.0002803802490234375 -0.0011523962020874023 0.1015777587890625 -0.0649871826171875
18.6115 0.01804351806640625 -0.1694793701171875 0.371734619140625 0.27044677734375 -0.00048226118087768555 -0.0010908246040344238 0.09669113159179688 -0.072967529296875
18.62125 0.0101776123046875 -0.1687164306640625 0.39599609375 0.2366943359375 0.0008431673049926758 -0.0012624859809875488 0.09247589111328125 -0.07761383056640625
18.631 0.00238037109375 -0.1689605712890625 0.412841796875 0.20452880859375 0.0004234611988067627 -0.0008387863636016846 0.08593368530273438 -0.082763671875
