!Created with skrf (http://scikit-rf.org).
# GHz S RI R 50.0 
!freq ReS11 ImS11 ReS21 ImS21 ReS12 ImS12 ReS22 ImS22
17.5 0.00775909423828125 -0.145294189453125 -0.032703399658203125 0.09752273559570312 -0.0014181137084960938 0.0007605552673339844 0.09817886352539062 0.00131988525390625
17.50975 -0.0015716552734375 -0.141693115234375 -0.017650604248046875 0.09868240356445312 -0.0022476911544799805 -0.00028717517852783203 0.10019683837890625 -0.000606536865234375
17.5195 -0.0086822509765625 -0.13774871826171875 -0.0018310546875 0.09583282470703125 -0.0017412900924682617 0.0005714297294616699 0.10420989990234375 -0.00215911865234375
17.52925 -0.01729583740234375 -0.1331939697265625 0.010303497314453125 0.09485244750976562 -0.0025533437728881836 0.001602768898010254 0.10525131225585938 -0.006298065185546875
17.539 -0.0241546630859375 -0.1272125244140625 0.0241546630859375 0.08789825439453125 -0.002162933349609375 0.0011913776397705078 0.1083526611328125 -0.0087738037109375
17.54875 -0.0330963134765625 -0.123748779296875 0.035259246826171875 0.08179473876953125 -0.0010128617286682129 0.000766456127166748 0.108123779296875 -0.011714935302734375
17.5585 -0.04265594482421875 -0.12009429931640625 0.0457916259765625 0.0733184814453125 -0.00203704833984375 0.0014808177947998047 0.11182022094726562 -0.015838623046875
17.56825 -0.0479888916015625 -0.1154632568359375 0.0549774169921875 0.063812255859375 -0.0024275779724121094 0.0011544227600097656 0.112518310546875 -0.01971435546875
17.578 -0.05486297607421875 -0.1089324951171875 0.062091827392578125 0.05230712890625 -0.0009265542030334473 0.001139819622039795 0.11388015747070312 -0.0248565673828125
17.58775 -0.06108856201171875 -0.10350799560546875 0.06671142578125 0.04062652587890625 0.00012475252151489258 0.0006413459777832031 0.11339187622070312 -0.0265960693359375
17.5975 -0.0634613037109375 -0.0963287353515625 0.07138824462890625 0.027080535888671875 -0.0023349523544311523 0.0008270740509033203 0.11513137817382812 -0.033618927001953125
17.60725 -0.07154083251953125 -0.09365081787109375 0.07326889038085938 0.01508331298828125 -0.0005812346935272217 0.0007672607898712158 0.11365890502929688 -0.035358428955078125
17.617 -0.074432373046875 -0.08454132080078125 0.07299041748046875 0.003082275390625 -0.0012034177780151367 -0.0001316070556640625 0.11425018310546875 -0.039455413818359375
17.62675 -0.0802459716796875 -0.07729339599609375 0.07131195068359375 -0.008579254150390625 -0.0010446906089782715 0.0014031529426574707 0.11400985717773438 -0.04323577880859375
17.6365 -0.083526611328125 -0.069976806640625 0.06622314453125 -0.020751953125 -0.0009980201721191406 0.0011467933654785156 0.11151123046875 -0.0494842529296875
17.64625 -0.08843994140625 -0.06069183349609375 0.06059837341308594 -0.030254364013671875 0.00046330690383911133 0.0014383792877197266 0.10968399047851562 -0.054264068603515625
17.656 -0.092620849609375 -0.0557403564453125 0.0545654296875 -0.03899574279785156 -0.0003464818000793457 0.0017037391662597656 0.1073150634765625 -0.059383392333984375
17.66575 -0.09255218505859375 -0.0448760986328125 0.0491485595703125 -0.04741859436035156 -0.0010548830032348633 0.000453948974609375 0.10631561279296875 -0.0622100830078125
17.6755 -0.09603118896484375 -0.03943634033203125 0.03745079040527344 -0.05493927001953125 0.00013142824172973633 0.0009618997573852539 0.1038055419921875 -0.06811141967773438
17.68525 -0.0995330810546875 -0.0312042236328125 0.030101776123046875 -0.063232421875 -0.0014229416847229004 -0.00040906667709350586 0.09968948364257812 -0.07166290283203125
17.695 -0.0999603271484375 -0.0219268798828125 0.01854705810546875 -0.06870651245117188 0.0004138946533203125 0.0017390251159667969 0.097625732421875 -0.07529830932617188
17.70475 -0.10013198852539062 -0.013713836669921875 0.006771087646484375 -0.07405471801757812 0.0002390444278717041 0.0005879998207092285 0.09439468383789062 -0.08041763305664062
17.7145 -0.10219573974609375 -0.005523681640625 -0.0059661865234375 -0.07643508911132812 -0.001067519187927246 0.0014287233352661133 0.08913040161132812 -0.08395004272460938
17.72425 -0.10275650024414062 0.002140045166015625 -0.02017974853515625 -0.075164794921875 0.0002225637435913086 0.0012557506561279297 0.08404922485351562 -0.08740997314453125
17.734 -0.10353851318359375 0.00904083251953125 -0.03385162353515625 -0.07262420654296875 -0.0014175176620483398 0.0010465383529663086 0.08209228515625 -0.09198760986328125
17.74375 -0.1029815673828125 0.01805877685546875 -0.0452423095703125 -0.06821441650390625 -0.0008511543273925781 0.0012214183807373047 0.07607269287109375 -0.0948638916015625
17.7535 -0.09929275512695312 0.023868560791015625 -0.05722808837890625 -0.0616607666015625 0.00018456578254699707 0.0006958842277526855 0.07168197631835938 -0.09780120849609375
17.76325 -0.09897232055664062 0.033679962158203125 -0.0693511962890625 -0.05682373046875 -0.0003439784049987793 0.001333773136138916 0.0667266845703125 -0.09884262084960938
17.773 -0.09820938110351562 0.039829254150390625 -0.07956695556640625 -0.046649932861328125 8.487701416015625e-05 0.0011446475982666016 0.06169891357421875 -0.10330581665039062
17.78275 -0.09495162963867188 0.047069549560546875 -0.08758544921875 -0.03757476806640625 -0.0004583001136779785 -0.00011712312698364258 0.0575714111328125 -0.10453414916992188
17.7925 -0.09275054931640625 0.053043365478515625 -0.09879302978515625 -0.02677154541015625 0.000341951847076416 0.0008588433265686035 0.053287506103515625 -0.10511016845703125
17.80225 -0.088623046875 0.060314178466796875 -0.10560989379882812 -0.013275146484375 2.384185791015625e-05 0.0006676912307739258 0.049465179443359375 -0.10736083984375
17.812 -0.08399581909179688 0.067718505859375 -0.1099395751953125 0.000858306884765625 0.0002776980400085449 0.0010347366333007812 0.0426177978515625 -0.10696792602539062
17.82175 -0.08110427856445312 0.07561874389648438 -0.11500167846679688 0.017704010009765625 9.718537330627441e-05 0.0006015598773956299 0.037014007568359375 -0.1063079833984375
17.8315 -0.07616424560546875 0.08118057250976562 -0.11678695678710938 0.034221649169921875 0.0008262395858764648 0.0014356374740600586 0.031223297119140625 -0.10725021362304688
17.84125 -0.07262420654296875 0.08637237548828125 -0.11539459228515625 0.0523834228515625 0.0007979869842529297 0.00182342529296875 0.025115966796875 -0.106781005859375
17.851 -0.06588363647460938 0.09495162963867188 -0.110748291015625 0.06893157958984375 0.000682532787322998 0.00034034252166748047 0.021091461181640625 -0.1069793701171875
17.86075 -0.0630645751953125 0.09968948364257812 -0.10694122314453125 0.08541488647460938 0.0003132820129394531 0.0020499229431152344 0.013477325439453125 -0.10503005981445312
17.8705 -0.05628204345703125 0.10478973388671875 -0.099761962890625 0.10180282592773438 -0.00015121698379516602 0.0005331039428710938 0.00980377197265625 -0.1056976318359375
17.88025 -0.050262451171875 0.11167144775390625 -0.09044647216796875 0.11796188354492188 -0.0007610619068145752 0.0007951855659484863 0.003086090087890625 -0.10479736328125
17.89 -0.046405792236328125 0.11728668212890625 -0.0809326171875 0.1332855224609375 0.0005584955215454102 0.0016149282455444336 -0.00179290771484375 -0.10433578491210938
17.89975 -0.03993988037109375 0.1208343505859375 -0.06584930419921875 0.1487579345703125 0.0011609792709350586 0.0004976391792297363 -0.008392333984375 -0.1027984619140625
17.9095 -0.0345916748046875 0.12487030029296875 -0.05068206787109375 0.16460418701171875 0.0008932352066040039 0.0008050799369812012 -0.012615203857421875 -0.09949493408203125
17.91925 -0.02715301513671875 0.1279296875 -0.03180694580078125 0.17356109619140625 -0.00042523443698883057 9.709596633911133e-05 -0.015857696533203125 -0.09764480590820312
17.929 -0.0207977294921875 0.1309661865234375 -0.00946044921875 0.185150146484375 0.0009645223617553711 0.00030624866485595703 -0.02166748046875 -0.0962677001953125
17.93875 -0.01554107666015625 0.1333465576171875 0.01396942138671875 0.192718505859375 0.0006282329559326172 0.0009018182754516602 -0.02762603759765625 -0.09295272827148438
17.9485 -0.00614166259765625 0.13494873046875 0.0354156494140625 0.19732666015625 -0.0004049837589263916 0.0007573068141937256 -0.030605316162109375 -0.08888626098632812
17.95825 -0.00092315673828125 0.13774871826171875 0.0619659423828125 0.195709228515625 0.0006086528301239014 -0.0005024075508117676 -0.034603118896484375 -0.08585357666015625
17.968 0.0054779052734375 0.139678955078125 0.08697509765625 0.1928863525390625 0.00024878978729248047 0.00042819976806640625 -0.039997100830078125 -0.08422088623046875
17.97775 0.01410675048828125 0.139923095703125 0.11370849609375 0.188751220703125 0.00030732154846191406 0.0010627508163452148 -0.043605804443359375 -0.0780792236328125
17.9875 0.02355194091796875 0.14217376708984375 0.1393280029296875 0.182464599609375 0.0003362894058227539 0.0006811618804931641 -0.045928955078125 -0.07512283325195312
17.99725 0.03081512451171875 0.14217376708984375 0.162506103515625 0.1711883544921875 0.0005268454551696777 0.0005205273628234863 -0.049488067626953125 -0.07025909423828125
18.007 0.03717803955078125 0.142974853515625 0.190582275390625 0.156951904296875 0.001026928424835205 0.0008094310760498047 -0.053043365478515625 -0.06692886352539062
18.01675 0.04559326171875 0.1423797607421875 0.2150115966796875 0.137542724609375 0.0011153817176818848 0.0005147457122802734 -0.05817413330078125 -0.061252593994140625
18.0265 0.05255126953125 0.1425628662109375 0.23748779296875 0.11444091796875 0.000659942626953125 0.00028324127197265625 -0.06185150146484375 -0.05649566650390625
18.03625 0.0599212646484375 0.1434478759765625 0.25689697265625 0.08599853515625 0.0008374452590942383 -0.00039458274841308594 -0.06487274169921875 -0.051727294921875
18.046 0.06792449951171875 0.14263916015625 0.272125244140625 0.056488037109375 0.0010683536529541016 -0.0014220476150512695 -0.06683349609375 -0.046100616455078125
18.05575 0.0755462646484375 0.13791656494140625 0.28399658203125 0.0243682861328125 2.958625555038452e-05 1.4858320355415344e-05 -0.06941604614257812 -0.0412445068359375
18.0655 0.08144378662109375 0.1380767822265625 0.2904052734375 -0.00738525390625 0.0019762516021728516 0.00023412704467773438 -0.07288360595703125 -0.03585052490234375
18.07525 0.08960723876953125 0.135986328125 0.2944183349609375 -0.0404205322265625 -0.0002845078706741333 1.1220574378967285e-05 -0.07291412353515625 -0.029178619384765625
18.085 0.0971832275390625 0.13298797607421875 0.294281005859375 -0.0754547119140625 0.0016974210739135742 -0.0005146265029907227 -0.07515335083007812 -0.024898529052734375
18.09475 0.102569580078125 0.13025665283203125 0.291656494140625 -0.1114349365234375 0.0012360215187072754 0.0005182027816772461 -0.07410049438476562 -0.0200347900390625
18.1045 0.11055755615234375 0.126434326171875 0.283294677734375 -0.146575927734375 0.0013759732246398926 -0.0004328489303588867 -0.07643508911132812 -0.012516021728515625
18.11425 0.116943359375 0.12369537353515625 0.2700347900390625 -0.1848602294921875 -0.00027245283126831055 -0.0010745525360107422 -0.07464218139648438 -0.008617401123046875
18.124 0.122406005859375 0.119598388671875 0.25201416015625 -0.218353271484375 0.0017273426055908203 0.0016868114471435547 -0.07639312744140625 -0.0001983642578125
18.13375 0.1294097900390625 0.114776611328125 0.229400634765625 -0.24932861328125 0.0003558695316314697 -0.0005895495414733887 -0.07338714599609375 0.004886627197265625
18.1435 0.13393402099609375 0.10942840576171875 0.203582763671875 -0.2799530029296875 0.0005289912223815918 -0.001065373420715332 -0.07446670532226562 0.01421356201171875
18.15325 0.1402587890625 0.104095458984375 0.1730194091796875 -0.3048095703125 0.000799715518951416 -4.100799560546875e-05 -0.07343292236328125 0.01972198486328125
18.163 0.147674560546875 0.09816741943359375 0.13916015625 -0.3248138427734375 0.0017406940460205078 0.0007665157318115234 -0.06967926025390625 0.025272369384765625
18.17275 0.15167999267578125 0.09375 0.1033477783203125 -0.343109130859375 0.0004011094570159912 0.00020936131477355957 -0.06619644165039062 0.031902313232421875
18.1825 0.159332275390625 0.08620452880859375 0.066192626953125 -0.3578338623046875 0.0003717392683029175 -0.00037798285484313965 -0.0642242431640625 0.038738250732421875
18.19225 0.16202545166015625 0.08060455322265625 0.027374267578125 -0.3678131103515625 0.0017436742782592773 0.0002485513687133789 -0.06180381774902344 0.04419708251953125
18.202 0.16770172119140625 0.07457733154296875 -0.0142669677734375 -0.3736724853515625 0.00021514296531677246 -0.00024002790451049805 -0.06146812438964844 0.05002021789550781
18.21175 0.1714935302734375 0.067718505859375 -0.054534912109375 -0.374481201171875 0.00054168701171875 -0.0007689595222473145 -0.05406951904296875 0.056217193603515625
18.2215 0.1761322021484375 0.0599517822265625 -0.097869873046875 -0.3686676025390625 -0.0005037188529968262 0.00022643804550170898 -0.05049896240234375 0.06094551086425781
18.23125 0.18035888671875 0.0529022216796875 -0.13861083984375 -0.3584136962890625 0.0011199712753295898 -0.0006761550903320312 -0.046985626220703125 0.06362152099609375
18.241 0.18344879150390625 0.04673004150390625 -0.17706298828125 -0.34429931640625 0.0005785822868347168 -0.0005988478660583496 -0.039653778076171875 0.07102203369140625
18.25075 0.1865692138671875 0.03759002685546875 -0.21527099609375 -0.325347900390625 0.00025153160095214844 -0.0005122125148773193 -0.0359344482421875 0.0731201171875
18.2605 0.18647003173828125 0.029510498046875 -0.248077392578125 -0.303863525390625 0.0012878179550170898 0.00040435791015625 -0.0308990478515625 0.07670974731445312
18.27025 0.1893310546875 0.0220184326171875 -0.2783203125 -0.278350830078125 0.0003184974193572998 -0.00027458369731903076 -0.023193359375 0.08044052124023438
18.28 0.191925048828125 0.01377105712890625 -0.30926513671875 -0.250030517578125 0.0006493926048278809 -0.0008272230625152588 -0.017070770263671875 0.08318328857421875
18.28975 0.1933746337890625 0.00428009033203125 -0.335845947265625 -0.21771240234375 4.655122756958008e-05 -0.0011709928512573242 -0.010463714599609375 0.0875244140625
18.2995 0.19322967529296875 -0.00467681884765625 -0.35980224609375 -0.1824951171875 0.00018927454948425293 -0.0006155669689178467 -0.003520965576171875 0.08687973022460938
18.30925 0.1932830810546875 -0.01312255859375 -0.37762451171875 -0.1451416015625 0.0005739927291870117 0.00044405460357666016 0.00429534912109375 0.08880615234375
18.319 0.19174957275390625 -0.02216339111328125 -0.3909912109375 -0.1038055419921875 1.7657876014709473e-06 0.00021370500326156616 0.011165618896484375 0.0921173095703125
18.32875 0.1906280517578125 -0.029266357421875 -0.40045166015625 -0.0653076171875 0.0003795921802520752 -0.0008382499217987061 0.018863677978515625 0.09144973754882812
18.3385 0.19058990478515625 -0.03961181640625 -0.404052734375 -0.0267333984375 -0.00023761391639709473 9.898841381072998e-05 0.02852630615234375 0.0932464599609375
18.34825 0.18885040283203125 -0.04795074462890625 -0.4053497314453125 0.0136260986328125 0.0002543032169342041 0.00048407912254333496 0.03433990478515625 0.092559814453125
18.358 0.18733978271484375 -0.05550384521484375 -0.4040679931640625 0.0504150390625 0.0012528300285339355 -0.0004991888999938965 0.04488372802734375 0.0911865234375
18.36775 0.18360137939453125 -0.0643157958984375 -0.4003753662109375 0.090118408203125 0.00042688846588134766 -0.001005411148071289 0.0498199462890625 0.08792877197265625
18.3775 0.181549072265625 -0.07073211669921875 -0.39117431640625 0.1286468505859375 -6.736814975738525e-05 0.0003366023302078247 0.0565032958984375 0.08762359619140625
18.38725 0.17887115478515625 -0.08046722412109375 -0.3790283203125 0.16705322265625 -2.0250678062438965e-05 -0.0004560798406600952 0.06316375732421875 0.08481597900390625
18.397 0.174530029296875 -0.087371826171875 -0.363372802734375 0.203216552734375 -0.0008969306945800781 -9.918212890625e-05 0.0695953369140625 0.0818023681640625
18.40675 0.1693572998046875 -0.0937347412109375 -0.342529296875 0.24005126953125 -0.0005074143409729004 0.00011551380157470703 0.0791473388671875 0.07769775390625
18.4165 0.16526031494140625 -0.1014862060546875 -0.3170623779296875 0.273162841796875 -0.00019222497940063477 -0.0008575916290283203 0.082763671875 0.073638916015625
18.42625 0.15987396240234375 -0.10942840576171875 -0.2919464111328125 0.30010986328125 0.000737994909286499 -0.00011703372001647949 0.0906829833984375 0.06819915771484375
18.436 0.15328216552734375 -0.11457061767578125 -0.262908935546875 0.3245697021484375 0.0006758570671081543 8.505582809448242e-05 0.09688568115234375 0.06262969970703125
18.44575 0.14654541015625 -0.12235260009765625 -0.2333221435546875 0.346435546875 -0.00042825937271118164 0.0003489851951599121 0.1002655029296875 0.0544891357421875
18.4555 0.14048004150390625 -0.12784576416015625 -0.2030181884765625 0.367095947265625 0.00047989189624786377 -2.1249055862426758e-05 0.1059722900390625 0.0483245849609375
18.46525 0.1338653564453125 -0.13510894775390625 -0.1724395751953125 0.3872528076171875 -0.00018614530563354492 -0.000565946102142334 0.108734130859375 0.03977203369140625
18.475 0.12671661376953125 -0.1393890380859375 -0.1401214599609375 0.405670166015625 0.0005349814891815186 -0.0007809102535247803 0.1148681640625 0.03327178955078125
18.48475 0.121307373046875 -0.14527130126953125 -0.1025238037109375 0.4199676513671875 0.0008861720561981201 -0.0003380775451660156 0.1179962158203125 0.02510833740234375
18.4945 0.1124725341796875 -0.14905548095703125 -0.0615997314453125 0.430816650390625 0.0001605004072189331 0.00013658404350280762 0.12151336669921875 0.01624298095703125
18.50425 0.1036224365234375 -0.154693603515625 -0.018829345703125 0.43780517578125 0.0005249381065368652 0.0001920461654663086 0.1216583251953125 0.0083465576171875
18.514 0.0983123779296875 -0.1576995849609375 0.02215576171875 0.43994140625 -0.00018256902694702148 0.0005082488059997559 0.125152587890625 0.00199127197265625
18.52375 0.08950042724609375 -0.159149169921875 0.063262939453125 0.4333953857421875 0.0014983415603637695 -0.0012290477752685547 0.1230926513671875 -0.006603240966796875
18.5335 0.082855224609375 -0.1635284423828125 0.100189208984375 0.425079345703125 -0.00024338066577911377 0.000418245792388916 0.12460708618164062 -0.016704559326171875
18.54325 0.0753326416015625 -0.16748046875 0.1380615234375 0.4158935546875 0.0006569325923919678 -0.00018408894538879395 0.12389373779296875 -0.023685455322265625
18.553 0.06739044189453125 -0.16866302490234375 0.173828125 0.40447998046875 0.001214742660522461 0.0009292364120483398 0.120086669921875 -0.0299530029296875
18.56275 0.05970001220703125 -0.168365478515625 0.2078857421875 0.391357421875 0.0003634542226791382 -0.0003031045198440552 0.11835479736328125 -0.037883758544921875
18.5725 0.05025482177734375 -0.17038726806640625 0.24285888671875 0.375 -0.00035828351974487305 -0.0015006661415100098 0.11452865600585938 -0.044589996337890625
18.58225 0.0430908203125 -0.1706085205078125 0.2750244140625 0.35498046875 0.0005391836166381836 -0.0001678466796875 0.11102294921875 -0.053680419921875
18.592 0.03488922119140625 -0.17139434814453125 0.309539794921875 0.331146240234375 -0.00080108642578125 -0.0002612471580505371 0.10756683349609375 -0.0590362548828125
18.60175 0.0263214111328125 -0.1702880859375 0.33990478515625 0.3028564453125 -0.00010573863983154297 -9.103119373321533e-05 0.101043701171875 -0.06542205810546875
18.6115 0.01869964599609375 -0.1696014404296875 0.367919921875 0.27130126953125 0.0006723403930664062 -0.0014389753341674805 0.09650802612304688 -0.0731964111328125
18.62125 0.00982666015625 -0.169677734375 0.389495849609375 0.239410400390625 0.00021958351135253906 0.00038173794746398926 0.09142684936523438 -0.0779876708984375
18.631 0.002777099609375 -0.16889190673828125 0.407501220703125 0.20831298828125 0.0006181299686431885 -0.0008448958396911621 0.08586502075195312 -0.08230209350585938
