!Created with skrf (http://scikit-rf.org).
# GHz S RI R 50.0 
!freq ReS11 ImS11 ReS21 ImS21 ReS12 ImS12 ReS22 ImS22
17.5 0.01349639892578125 -0.137969970703125 -2.422607421875 3.052001953125 -0.0005514025688171387 0.0006857812404632568 0.09084320068359375 0.00751495361328125
17.50975 0.0058441162109375 -0.13552093505859375 -2.162109375 3.2337646484375 -0.001560986042022705 0.0007684230804443359 0.09339141845703125 0.006683349609375
17.5195 -0.000885009765625 -0.13177490234375 -1.888916015625 3.389892578125 -0.0005558133125305176 -0.000976860523223877 0.09657669067382812 0.00608062744140625
17.52925 -0.01026153564453125 -0.1295318603515625 -1.6102294921875 3.51953125 -0.0015509724617004395 -0.00033676624298095703 0.09934234619140625 0.001827239990234375
17.539 -0.016204833984375 -0.1240386962890625 -1.326171875 3.62451171875 -0.0016543865203857422 0.0003426074981689453 0.10172271728515625 -0.00063323974609375
17.54875 -0.02364349365234375 -0.12158966064453125 -1.0401611328125 3.6981201171875 -0.0013596415519714355 0.001278221607208252 0.1045379638671875 -0.0042724609375
17.5585 -0.032989501953125 -0.11727142333984375 -0.7568359375 3.7642822265625 -0.0016444921493530273 0.0012679100036621094 0.10747528076171875 -0.00626373291015625
17.56825 -0.0372772216796875 -0.112640380859375 -0.47802734375 3.81396484375 -0.0010876059532165527 0.00037747621536254883 0.10956192016601562 -0.010250091552734375
17.578 -0.04534912109375 -0.10681915283203125 -0.173828125 3.842529296875 -0.00040534138679504395 0.0002572983503341675 0.11185836791992188 -0.0150299072265625
17.58775 -0.05126953125 -0.10359954833984375 0.132080078125 3.8466796875 -0.0012745857238769531 0.0014587640762329102 0.11270904541015625 -0.0163421630859375
17.5975 -0.0551300048828125 -0.09786224365234375 0.453369140625 3.82080078125 -0.0005834698677062988 0.00114518404006958 0.11428451538085938 -0.020709991455078125
17.60725 -0.06158447265625 -0.09392547607421875 0.760009765625 3.759033203125 -0.0013087987899780273 0.0013380050659179688 0.1147308349609375 -0.02405548095703125
17.617 -0.06678009033203125 -0.08658599853515625 1.0546875 3.66748046875 -0.0006095170974731445 0.001032412052154541 0.11458969116210938 -0.029933929443359375
17.62675 -0.0719146728515625 -0.07932281494140625 1.331787109375 3.544189453125 -0.000642240047454834 0.0009288191795349121 0.11684799194335938 -0.0348052978515625
17.6365 -0.0751800537109375 -0.0712738037109375 1.5859375 3.4072265625 -0.0016543865203857422 0.0012252330780029297 0.11539459228515625 -0.039794921875
17.64625 -0.07830047607421875 -0.06534576416015625 1.8115234375 3.2587890625 -0.0002028346061706543 0.0017328858375549316 0.115234375 -0.0449676513671875
17.656 -0.0836334228515625 -0.06078338623046875 2.027587890625 3.1142578125 0.0003324747085571289 0.0015751123428344727 0.11211013793945312 -0.04950714111328125
17.66575 -0.08489990234375 -0.04979705810546875 2.23681640625 2.968505859375 -0.0018464922904968262 0.0018025636672973633 0.11149978637695312 -0.052394866943359375
17.6755 -0.088958740234375 -0.04388427734375 2.43994140625 2.807861328125 -0.0009132623672485352 0.001323401927947998 0.109130859375 -0.05745697021484375
17.68525 -0.0914764404296875 -0.03635406494140625 2.652099609375 2.648681640625 -0.00029411911964416504 -6.933510303497314e-05 0.10629653930664062 -0.0644378662109375
17.695 -0.0924835205078125 -0.02965545654296875 2.8720703125 2.45263671875 -0.00024205446243286133 -0.00013528764247894287 0.10546493530273438 -0.06801605224609375
17.70475 -0.0946807861328125 -0.02158355712890625 3.076904296875 2.218017578125 -0.002172231674194336 0.0010788440704345703 0.10206222534179688 -0.07215118408203125
17.7145 -0.09687423706054688 -0.014064788818359375 3.26318359375 1.95947265625 -0.0005156993865966797 0.0021375417709350586 0.09861373901367188 -0.078369140625
17.72425 -0.09794235229492188 -0.005512237548828125 3.406494140625 1.67236328125 3.319978713989258e-05 0.0014179348945617676 0.094024658203125 -0.08258438110351562
17.734 -0.09908676147460938 0.000713348388671875 3.513427734375 1.378173828125 -0.0005575418472290039 0.0002918839454650879 0.09283828735351562 -0.08733749389648438
17.74375 -0.10137176513671875 0.0084991455078125 3.5654296875 1.08837890625 -0.0008411407470703125 0.0012955665588378906 0.08698272705078125 -0.09264373779296875
17.7535 -0.09769058227539062 0.01523590087890625 3.60546875 0.817626953125 0.00035637617111206055 0.0012447237968444824 0.08245849609375 -0.09608840942382812
17.76325 -0.09705352783203125 0.023708343505859375 3.6328125 0.566650390625 -0.0012850165367126465 0.001248776912689209 0.07669830322265625 -0.09758377075195312
17.773 -0.09758758544921875 0.029941558837890625 3.651123046875 0.3253173828125 0.0007438957691192627 -0.00010985136032104492 0.07338333129882812 -0.1024932861328125
17.78275 -0.09428024291992188 0.03867340087890625 3.661865234375 0.0762939453125 0.0004999637603759766 0.0013162493705749512 0.068359375 -0.1033477783203125
17.7925 -0.09269332885742188 0.0447540283203125 3.679931640625 -0.180419921875 -0.0004387497901916504 0.0004119277000427246 0.06354904174804688 -0.10606002807617188
17.80225 -0.089080810546875 0.050628662109375 3.6893310546875 -0.45751953125 0.0010908842086791992 0.0012449026107788086 0.05779266357421875 -0.10865020751953125
17.812 -0.08671951293945312 0.059661865234375 3.657470703125 -0.74609375 0.00023996829986572266 0.0015364885330200195 0.051116943359375 -0.10972976684570312
17.82175 -0.08216476440429688 0.066253662109375 3.6036376953125 -1.03759765625 5.8770179748535156e-05 0.0013541579246520996 0.048236846923828125 -0.1096649169921875
17.8315 -0.07956314086914062 0.07303619384765625 3.505859375 -1.3258056640625 0.0008066892623901367 0.0006549954414367676 0.041168212890625 -0.11088180541992188
17.84125 -0.07647705078125 0.07949066162109375 3.384521484375 -1.595458984375 -0.00039437413215637207 0.00036147236824035645 0.03635406494140625 -0.11185455322265625
17.851 -0.0727081298828125 0.08758163452148438 3.224853515625 -1.835693359375 0.0001672506332397461 0.0014589428901672363 0.02976226806640625 -0.11339187622070312
17.86075 -0.06898880004882812 0.0921783447265625 3.0755615234375 -2.054443359375 0.0006962418556213379 0.001105189323425293 0.0227813720703125 -0.11148452758789062
17.8705 -0.06366729736328125 0.098968505859375 2.91357421875 -2.255859375 -0.0004361867904663086 0.0011276602745056152 0.015453338623046875 -0.11247634887695312
17.88025 -0.058475494384765625 0.10515594482421875 2.7525634765625 -2.451904296875 -0.0004996359348297119 0.00012046098709106445 0.011959075927734375 -0.11220932006835938
17.89 -0.05355072021484375 0.111083984375 2.5911865234375 -2.6434326171875 0.0009272098541259766 0.0001958012580871582 0.00382232666015625 -0.11057281494140625
17.89975 -0.047885894775390625 0.11554718017578125 2.4041748046875 -2.8453369140625 0.001934647560119629 0.0015577077865600586 -0.001071929931640625 -0.11066436767578125
17.9095 -0.043834686279296875 0.12079620361328125 2.198974609375 -3.041748046875 0.0005539059638977051 0.0006154775619506836 -0.00615692138671875 -0.10943222045898438
17.91925 -0.035579681396484375 0.12327194213867188 1.967529296875 -3.2147216796875 0.0001087188720703125 0.0010902881622314453 -0.01058197021484375 -0.10656356811523438
17.929 -0.0307464599609375 0.1288299560546875 1.713623046875 -3.375244140625 0.0009219646453857422 0.0024743080139160156 -0.01775360107421875 -0.10528564453125
17.93875 -0.025238037109375 0.13121795654296875 1.44091796875 -3.5018310546875 0.00028865039348602295 -5.257129669189453e-05 -0.02164459228515625 -0.10424041748046875
17.9485 -0.018096923828125 0.13416290283203125 1.1700439453125 -3.5858154296875 0.0014374256134033203 0.0007323026657104492 -0.0290374755859375 -0.0994415283203125
17.95825 -0.009918212890625 0.13735198974609375 0.8970947265625 -3.6575927734375 0.0009596347808837891 0.0010286569595336914 -0.0324249267578125 -0.0971832275390625
17.968 -0.00249481201171875 0.1402435302734375 0.6326904296875 -3.7030029296875 7.191300392150879e-05 -0.0003602653741836548 -0.037445068359375 -0.094879150390625
17.97775 0.00485992431640625 0.142364501953125 0.3751220703125 -3.744140625 0.00017201900482177734 0.000934600830078125 -0.04364776611328125 -0.08905792236328125
17.9875 0.01262664794921875 0.14388275146484375 0.1077880859375 -3.7745361328125 0.00014352798461914062 -0.0002111494541168213 -0.0462646484375 -0.08489990234375
17.99725 0.02127838134765625 0.1454925537109375 -0.161376953125 -3.80517578125 0.0003801584243774414 -0.00028440356254577637 -0.0511016845703125 -0.0803375244140625
18.007 0.028045654296875 0.14679718017578125 -0.45068359375 -3.80859375 0.0008705854415893555 0.0004131793975830078 -0.05522918701171875 -0.07715606689453125
18.01675 0.036285400390625 0.1483612060546875 -0.746826171875 -3.792724609375 0.0010001659393310547 0.0005218386650085449 -0.06085205078125 -0.07289886474609375
18.0265 0.0440521240234375 0.148193359375 -1.054931640625 -3.7431640625 0.0017895102500915527 -0.0003771781921386719 -0.0656890869140625 -0.0672149658203125
18.03625 0.0514068603515625 0.149688720703125 -1.35888671875 -3.65673828125 -9.246915578842163e-05 0.00011482834815979004 -0.068359375 -0.063079833984375
18.046 0.0616607666015625 0.1490478515625 -1.6494140625 -3.537109375 0.00047090649604797363 0.0004571378231048584 -0.0707550048828125 -0.05664825439453125
18.05575 0.0686798095703125 0.145782470703125 -1.9111328125 -3.398193359375 0.0005256235599517822 -0.0009700655937194824 -0.074981689453125 -0.05113983154296875
18.0655 0.07607269287109375 0.1465606689453125 -2.156005859375 -3.24267578125 0.0009265244007110596 -2.6613473892211914e-05 -0.07907485961914062 -0.044216156005859375
18.07525 0.08551025390625 0.14452362060546875 -2.391845703125 -3.07666015625 0.0008134841918945312 0.0012534856796264648 -0.08099365234375 -0.038227081298828125
18.085 0.0921478271484375 0.14241790771484375 -2.6201171875 -2.897216796875 0.00022758543491363525 -0.0004677772521972656 -0.08397293090820312 -0.031169891357421875
18.09475 0.09918212890625 0.1384429931640625 -2.845458984375 -2.713134765625 0.00040024518966674805 0.0005519092082977295 -0.08197784423828125 -0.025768280029296875
18.1045 0.10813140869140625 0.1346893310546875 -3.056396484375 -2.502197265625 0.0008342862129211426 0.00022852420806884766 -0.08580398559570312 -0.017208099365234375
18.11425 0.11483001708984375 0.134002685546875 -3.26123046875 -2.26708984375 0.0005952119827270508 -0.001135706901550293 -0.08502197265625 -0.01346588134765625
18.124 0.123260498046875 0.1285400390625 -3.443359375 -2.0126953125 0.00020447373390197754 -0.0004076659679412842 -0.08521270751953125 -0.0048065185546875
18.13375 0.12908935546875 0.1247100830078125 -3.604248046875 -1.745361328125 0.000491023063659668 0.00016394257545471191 -0.0842132568359375 0.0018157958984375
18.1435 0.1369476318359375 0.1197967529296875 -3.736083984375 -1.458740234375 0.0011522769927978516 -9.363889694213867e-05 -0.08585739135742188 0.011077880859375
18.15325 0.1429901123046875 0.113189697265625 -3.8486328125 -1.1611328125 0.0014688372611999512 0.00021970272064208984 -0.08430862426757812 0.017932891845703125
18.163 0.151153564453125 0.1086273193359375 -3.93115234375 -0.860595703125 0.0007330775260925293 0.0005112290382385254 -0.08199691772460938 0.02658843994140625
18.17275 0.1568450927734375 0.101898193359375 -3.994384765625 -0.55517578125 0.0005584359169006348 0.0006518959999084473 -0.07792282104492188 0.03258514404296875
18.1825 0.16363525390625 0.0946197509765625 -4.042236328125 -0.2509765625 0.001704394817352295 -0.0004723072052001953 -0.07544708251953125 0.040164947509765625
18.19225 0.1688690185546875 0.0883331298828125 -4.072021484375 0.068115234375 0.0007917881011962891 -0.0004299581050872803 -0.073516845703125 0.046054840087890625
18.202 0.174560546875 0.0814666748046875 -4.0673828125 0.389404296875 -0.00027532875537872314 0.00025641918182373047 -0.07080841064453125 0.053012847900390625
18.21175 0.1783447265625 0.0730438232421875 -4.03369140625 0.724609375 -0.0011377334594726562 8.07046890258789e-05 -0.06676483154296875 0.0601043701171875
18.2215 0.184173583984375 0.0654296875 -3.962646484375 1.0496826171875 0.0015581846237182617 0.00025898218154907227 -0.059810638427734375 0.06554794311523438
18.23125 0.1882781982421875 0.05800628662109375 -3.868408203125 1.35986328125 -0.0009614229202270508 -0.00013387203216552734 -0.057765960693359375 0.07104110717773438
18.241 0.1908721923828125 0.04931640625 -3.7451171875 1.65625 0.0003128349781036377 -0.0004660189151763916 -0.0521697998046875 0.07632064819335938
18.25075 0.19358062744140625 0.04050445556640625 -3.6014404296875 1.9361572265625 0.0010548830032348633 -0.0004054903984069824 -0.046356201171875 0.07986831665039062
18.2605 0.19677734375 0.0330810546875 -3.4423828125 2.2034912109375 0.0012896060943603516 -0.0007266402244567871 -0.03827667236328125 0.08469390869140625
18.27025 0.19828033447265625 0.02288055419921875 -3.27392578125 2.4637451171875 0.0005561709403991699 -0.0016492605209350586 -0.03154754638671875 0.0897979736328125
18.28 0.20088958740234375 0.01267242431640625 -3.084716796875 2.7264404296875 0.0005183815956115723 -0.0009974241256713867 -0.025775909423828125 0.09391021728515625
18.28975 0.202728271484375 0.00304412841796875 -2.87255859375 2.9735107421875 0.0007010698318481445 -0.0005010366439819336 -0.0167388916015625 0.09675216674804688
18.2995 0.20189666748046875 -0.0048675537109375 -2.625244140625 3.205810546875 -0.00040662288665771484 -0.0007585287094116211 -0.00833892822265625 0.09767913818359375
18.30925 0.2021636962890625 -0.0161895751953125 -2.347412109375 3.4111328125 0.00014734268188476562 -0.00044912099838256836 -0.0009002685546875 0.100341796875
18.319 0.1998291015625 -0.02565765380859375 -2.0556640625 3.583984375 -0.00028383731842041016 -0.00013589859008789062 0.006633758544921875 0.10292434692382812
18.32875 0.19889068603515625 -0.0321807861328125 -1.7548828125 3.720458984375 0.00021073222160339355 -0.0005390048027038574 0.01772308349609375 0.10327529907226562
18.3385 0.19673919677734375 -0.04412078857421875 -1.4520263671875 3.8248291015625 0.000978708267211914 0.0005896687507629395 0.02721405029296875 0.10475921630859375
18.34825 0.19610595703125 -0.0530853271484375 -1.1611328125 3.920654296875 -0.0005656778812408447 -0.00010266900062561035 0.03321075439453125 0.1053466796875
18.358 0.19246673583984375 -0.06078338623046875 -0.8662109375 3.995361328125 -0.0003116726875305176 -0.00115966796875 0.04225921630859375 0.10118865966796875
18.36775 0.19052886962890625 -0.0687255859375 -0.555419921875 4.058837890625 -0.000264778733253479 -9.100139141082764e-05 0.05107879638671875 0.10064697265625
18.3775 0.18631744384765625 -0.0775909423828125 -0.247314453125 4.1005859375 -0.0009261965751647949 -0.0003949403762817383 0.0586700439453125 0.0990753173828125
18.38725 0.1826934814453125 -0.08762359619140625 0.089599609375 4.117919921875 -0.00024643540382385254 -0.0003426671028137207 0.06572723388671875 0.09604644775390625
18.397 0.1792144775390625 -0.094573974609375 0.4287109375 4.09716796875 0.0005462169647216797 0.0004621744155883789 0.0740814208984375 0.093353271484375
18.40675 0.1722259521484375 -0.1021728515625 0.7734375 4.04296875 0.00015947222709655762 -0.0003787577152252197 0.082244873046875 0.087615966796875
18.4165 0.16707611083984375 -0.10903167724609375 1.092041015625 3.944580078125 0.0005356669425964355 -0.001234292984008789 0.0888824462890625 0.08383941650390625
18.42625 0.161376953125 -0.11655426025390625 1.393310546875 3.81982421875 0.00021639466285705566 0.0005913674831390381 0.09661102294921875 0.077484130859375
18.436 0.15283966064453125 -0.12299346923828125 1.664794921875 3.67431640625 0.00031763315200805664 -0.0010206103324890137 0.10527801513671875 0.07268524169921875
18.44575 0.14739990234375 -0.13030242919921875 1.919189453125 3.52490234375 0.0007990598678588867 0.0005273222923278809 0.10915374755859375 0.06352996826171875
18.4555 0.14002227783203125 -0.13433074951171875 2.166259765625 3.3662109375 -6.899237632751465e-06 -0.0002603083848953247 0.114166259765625 0.056671142578125
18.46525 0.132232666015625 -0.1410064697265625 2.410400390625 3.205078125 0.0008269250392913818 -0.0004374980926513672 0.1195831298828125 0.04744720458984375
18.475 0.1239776611328125 -0.14626312255859375 2.651611328125 3.025390625 -0.00015294551849365234 -0.0009407401084899902 0.1246490478515625 0.0403594970703125
18.48475 0.1185150146484375 -0.15215301513671875 2.89208984375 2.816650390625 0.0006302893161773682 1.5497207641601562e-06 0.12854766845703125 0.0301666259765625
18.4945 0.10915374755859375 -0.157012939453125 3.11474609375 2.566650390625 0.00026467442512512207 -0.00036022067070007324 0.1328277587890625 0.021575927734375
18.50425 0.0997772216796875 -0.159637451171875 3.31298828125 2.29345703125 0.0006828904151916504 2.849102020263672e-05 0.1324462890625 0.0135650634765625
18.514 0.09423828125 -0.1623382568359375 3.47119140625 1.99853515625 -0.000767827033996582 -0.000494837760925293 0.1349639892578125 0.0042572021484375
18.52375 0.0842437744140625 -0.164886474609375 3.581298828125 1.698486328125 0.00023382902145385742 -0.0012072920799255371 0.13446807861328125 -0.004852294921875
18.5335 0.0778656005859375 -0.168975830078125 3.6650390625 1.408203125 -0.0007800459861755371 -0.00026684999465942383 0.13654327392578125 -0.01493072509765625
18.54325 0.0693359375 -0.17144775390625 3.72265625 1.13330078125 0.0008602142333984375 -4.64022159576416e-05 0.134857177734375 -0.0228271484375
18.553 0.0596923828125 -0.17229461669921875 3.770263671875 0.862060546875 0.0003050863742828369 0.0005882084369659424 0.1323699951171875 -0.03150177001953125
18.56275 0.05204010009765625 -0.17116546630859375 3.81787109375 0.595458984375 0.0004553496837615967 -0.00034461915493011475 0.13109588623046875 -0.039794921875
18.5725 0.04473876953125 -0.17171478271484375 3.8486328125 0.319580078125 0.0008105039596557617 -0.00044861435890197754 0.12680816650390625 -0.04938507080078125
18.58225 0.03765869140625 -0.17269134521484375 3.8641357421875 0.029052734375 0.0002563744783401489 0.0001163482666015625 0.12289047241210938 -0.05811309814453125
18.592 0.02765655517578125 -0.1730804443359375 3.8509521484375 -0.2734375 0.0003102421760559082 -0.0005227923393249512 0.11646270751953125 -0.06381988525390625
18.60175 0.0210113525390625 -0.1715545654296875 3.806640625 -0.575927734375 0.0006564855575561523 -0.0009450912475585938 0.111053466796875 -0.0703887939453125
18.6115 0.01214599609375 -0.1692047119140625 3.7247314453125 -0.8665771484375 0.0002231895923614502 -0.0009190142154693604 0.10681915283203125 -0.07819747924804688
18.62125 0.004638671875 -0.16888427734375 3.618896484375 -1.13720703125 0.0011004805564880371 -0.0007480382919311523 0.099273681640625 -0.085479736328125
18.631 -0.00196075439453125 -0.16613006591796875 3.4990234375 -1.37255859375 0.000735938549041748 -0.001081705093383789 0.09216690063476562 -0.09141159057617188
18.64075 -0.009490966796875 -0.1634063720703125 3.366943359375 -1.5994873046875 0.0003418773412704468 -0.0003629922866821289 0.08862686157226562 -0.09360122680664062
18.6505 -0.017059326171875 -0.16254425048828125 3.2366943359375 -1.81103515625 -0.0006508231163024902 0.00036013126373291016 0.08044052124023438 -0.09747314453125
18.66025 -0.0251617431640625 -0.15948486328125 3.10498046875 -2.021240234375 0.0007613301277160645 -0.000730663537979126 0.071929931640625 -0.10094833374023438
18.67 -0.0307464599609375 -0.15718841552734375 2.9661865234375 -2.234619140625 0.00031259655952453613 -0.0009295642375946045 0.06743240356445312 -0.10198593139648438
18.67975 -0.03852081298828125 -0.153900146484375 2.810791015625 -2.4490966796875 0.0009298324584960938 -0.0004355013370513916 0.058605194091796875 -0.10443878173828125
18.6895 -0.04538726806640625 -0.151336669921875 2.6243896484375 -2.65478515625 -0.00028967857360839844 -0.0010570883750915527 0.0528717041015625 -0.10514450073242188
