!Created with skrf (http://scikit-rf.org).
# GHz S RI R 50.0 
!freq ReS11 ImS11 ReS21 ImS21 ReS12 ImS12 ReS22 ImS22
17.5 0.008148193359375 -0.14459228515625 -0.08261871337890625 0.145477294921875 -0.0013962984085083008 0.0016613602638244629 0.09833526611328125 0.001605987548828125
17.50975 -0.00095367431640625 -0.1407928466796875 -0.063201904296875 0.15015411376953125 -0.0016951560974121094 0.0008823275566101074 0.1011962890625 -0.000354766845703125
17.5195 -0.00922393798828125 -0.13694000244140625 -0.04366302490234375 0.1527099609375 -0.0011910796165466309 -0.00021564960479736328 0.10286712646484375 -0.00164794921875
17.52925 -0.017974853515625 -0.1327972412109375 -0.02645111083984375 0.15242767333984375 -0.0015340447425842285 0.0011568069458007812 0.10600662231445312 -0.00710296630859375
17.539 -0.0245208740234375 -0.1284027099609375 -0.011322021484375 0.1501922607421875 -0.0006352663040161133 -7.510185241699219e-06 0.10779571533203125 -0.0086517333984375
17.54875 -0.0318756103515625 -0.12354278564453125 0.0066986083984375 0.1443328857421875 -0.000873267650604248 0.0005070269107818604 0.10987091064453125 -0.011188507080078125
17.5585 -0.04180145263671875 -0.118896484375 0.0219879150390625 0.138763427734375 -0.0014277100563049316 0.000310361385345459 0.111083984375 -0.016223907470703125
17.56825 -0.046417236328125 -0.1140289306640625 0.0343475341796875 0.13067626953125 -0.0006310939788818359 0.001298367977142334 0.11147308349609375 -0.020877838134765625
17.578 -0.05561065673828125 -0.10880279541015625 0.047149658203125 0.12065887451171875 -0.0010331273078918457 0.0005688667297363281 0.11278152465820312 -0.024631500244140625
17.58775 -0.06012725830078125 -0.10418701171875 0.058929443359375 0.11176300048828125 -0.0015859007835388184 0.0006464719772338867 0.11281967163085938 -0.027812957763671875
17.5975 -0.06452178955078125 -0.09740447998046875 0.06903839111328125 0.09891510009765625 0.0007755756378173828 0.0011744499206542969 0.11318206787109375 -0.0320587158203125
17.60725 -0.07122802734375 -0.0928497314453125 0.0768585205078125 0.0855865478515625 -0.0014781355857849121 0.0009047985076904297 0.11381912231445312 -0.035793304443359375
17.617 -0.07506561279296875 -0.08453369140625 0.0811004638671875 0.07251739501953125 -0.0005935430526733398 0.001085817813873291 0.11298751831054688 -0.040485382080078125
17.62675 -0.08032989501953125 -0.07756805419921875 0.08454132080078125 0.061004638671875 -0.001108407974243164 0.0012674927711486816 0.11357498168945312 -0.044891357421875
17.6365 -0.08441162109375 -0.06939697265625 0.08544921875 0.0469818115234375 -0.0003547370433807373 0.0003185272216796875 0.11305999755859375 -0.04947662353515625
17.64625 -0.0877838134765625 -0.0614776611328125 0.08560943603515625 0.03546142578125 -0.0006300806999206543 0.001024782657623291 0.10990524291992188 -0.054119110107421875
17.656 -0.09220123291015625 -0.05609130859375 0.0806427001953125 0.022815704345703125 -0.0008502602577209473 0.0017850399017333984 0.10661697387695312 -0.059055328369140625
17.66575 -0.093841552734375 -0.04723358154296875 0.08075332641601562 0.012416839599609375 -0.0005762577056884766 0.0014004707336425781 0.10589599609375 -0.06309127807617188
17.6755 -0.09651947021484375 -0.038604736328125 0.07697296142578125 0.001983642578125 -0.0008609890937805176 0.000902026891708374 0.103607177734375 -0.06543350219726562
17.68525 -0.09769439697265625 -0.0301055908203125 0.07323074340820312 -0.005527496337890625 -0.0006331801414489746 0.001861572265625 0.0995635986328125 -0.07201385498046875
17.695 -0.10016632080078125 -0.0227813720703125 0.06552505493164062 -0.017284393310546875 -0.0006836652755737305 0.0014895796775817871 0.09811019897460938 -0.0745086669921875
17.70475 -0.10019683837890625 -0.014102935791015625 0.05720710754394531 -0.022853851318359375 -0.0006403923034667969 0.0011091232299804688 0.09405517578125 -0.07888412475585938
17.7145 -0.10229110717773438 -0.006420135498046875 0.04970741271972656 -0.030073165893554688 -0.0009325146675109863 0.0012974739074707031 0.08928298950195312 -0.084014892578125
17.72425 -0.10144805908203125 0.002071380615234375 0.03787040710449219 -0.036182403564453125 -0.0015805959701538086 0.001910567283630371 0.0861053466796875 -0.08841323852539062
17.734 -0.10378265380859375 0.00928497314453125 0.028163909912109375 -0.03633880615234375 -0.0005741119384765625 0.0017246007919311523 0.08203887939453125 -0.0918121337890625
17.74375 -0.1031951904296875 0.0169525146484375 0.01744842529296875 -0.03585052490234375 0.0003020763397216797 0.0017731189727783203 0.0767669677734375 -0.09590911865234375
17.7535 -0.09962844848632812 0.025196075439453125 0.008304595947265625 -0.03756523132324219 -0.0009812116622924805 0.0010070204734802246 0.073028564453125 -0.098724365234375
17.76325 -0.09900283813476562 0.0331573486328125 -0.00058746337890625 -0.033954620361328125 0.0010333657264709473 0.0002663731575012207 0.06774520874023438 -0.09854888916015625
17.773 -0.09718704223632812 0.03931427001953125 -0.009563446044921875 -0.03116607666015625 0.00014735758304595947 0.0001175999641418457 0.0630035400390625 -0.10195159912109375
17.78275 -0.09525299072265625 0.04656982421875 -0.019617080688476562 -0.02556610107421875 0.00038039684295654297 0.001873016357421875 0.058380126953125 -0.10386276245117188
17.7925 -0.09136581420898438 0.05384063720703125 -0.026304244995117188 -0.019315719604492188 0.0007374584674835205 -3.999471664428711e-05 0.052684783935546875 -0.10609817504882812
17.80225 -0.0899658203125 0.059352874755859375 -0.03370094299316406 -0.011783599853515625 -0.0006964504718780518 -0.00020259618759155273 0.04843902587890625 -0.10633468627929688
17.812 -0.08474349975585938 0.06744003295898438 -0.04064369201660156 -0.0026569366455078125 -1.7583370208740234e-06 0.000640571117401123 0.042133331298828125 -0.106658935546875
17.82175 -0.07996368408203125 0.07517242431640625 -0.04385948181152344 0.00832366943359375 -0.0012829303741455078 0.0023145675659179688 0.039226531982421875 -0.10689163208007812
17.8315 -0.0768585205078125 0.08310699462890625 -0.047168731689453125 0.019598007202148438 0.0005171298980712891 0.0013959407806396484 0.031291961669921875 -0.10747146606445312
17.84125 -0.07262420654296875 0.08762359619140625 -0.04730987548828125 0.032131195068359375 -0.0003725290298461914 0.001262068748474121 0.02478790283203125 -0.10688018798828125
17.851 -0.066558837890625 0.09490966796875 -0.04587554931640625 0.04154777526855469 0.0014231204986572266 0.0026314258575439453 0.02072906494140625 -0.10739898681640625
17.86075 -0.0630340576171875 0.09911727905273438 -0.04316139221191406 0.054866790771484375 0.0011858344078063965 0.0007595419883728027 0.01456451416015625 -0.10508346557617188
17.8705 -0.057529449462890625 0.1059722900390625 -0.0353546142578125 0.06698989868164062 0.0003057718276977539 0.0010386109352111816 0.008502960205078125 -0.10693740844726562
17.88025 -0.0508575439453125 0.11170578002929688 -0.032657623291015625 0.07773208618164062 -6.687641143798828e-05 0.0010537505149841309 0.00301361083984375 -0.1048126220703125
17.89 -0.046955108642578125 0.11667633056640625 -0.023929595947265625 0.08847808837890625 -0.00033551454544067383 0.001594245433807373 -0.001750946044921875 -0.10399627685546875
17.89975 -0.039134979248046875 0.120635986328125 -0.0129852294921875 0.10006332397460938 0.0006328225135803223 0.0008927583694458008 -0.007968902587890625 -0.10195159912109375
17.9095 -0.03559112548828125 0.1246490478515625 0.000850677490234375 0.10982513427734375 0.00016039609909057617 0.0017481446266174316 -0.011383056640625 -0.10009002685546875
17.91925 -0.02811431884765625 0.1263885498046875 0.0153045654296875 0.11925506591796875 -0.0004010796546936035 0.001041710376739502 -0.01583099365234375 -0.09889984130859375
17.929 -0.0207061767578125 0.1316680908203125 0.0312042236328125 0.124481201171875 0.0011093616485595703 6.0439109802246094e-05 -0.0223846435546875 -0.095977783203125
17.93875 -0.014617919921875 0.13353729248046875 0.04921722412109375 0.12807464599609375 -0.00011152029037475586 -0.0009212493896484375 -0.02619171142578125 -0.0933685302734375
17.9485 -0.00691986083984375 0.13552093505859375 0.06806182861328125 0.12909698486328125 0.0006484389305114746 0.0005930662155151367 -0.03125 -0.0894622802734375
17.95825 0.0002899169921875 0.13733673095703125 0.08864593505859375 0.126861572265625 0.00044214725494384766 0.0006531476974487305 -0.034053802490234375 -0.0861968994140625
17.968 0.0061187744140625 0.1388702392578125 0.10774993896484375 0.12366485595703125 0.0009454488754272461 0.0010663270950317383 -0.040008544921875 -0.08513641357421875
17.97775 0.013763427734375 0.14026641845703125 0.12729644775390625 0.11803436279296875 -0.00030934810638427734 0.0008798539638519287 -0.0425567626953125 -0.07837677001953125
17.9875 0.02353668212890625 0.14215850830078125 0.148590087890625 0.1097564697265625 2.8699636459350586e-05 0.0008229911327362061 -0.0465545654296875 -0.0759429931640625
17.99725 0.02977752685546875 0.142333984375 0.168365478515625 0.097503662109375 0.000583946704864502 0.0006785392761230469 -0.0493316650390625 -0.07023239135742188
18.007 0.03759002685546875 0.1438446044921875 0.1878509521484375 0.082122802734375 0.00016817450523376465 0.00014884769916534424 -0.054473876953125 -0.06635665893554688
18.01675 0.04570770263671875 0.14429473876953125 0.207611083984375 0.0632171630859375 5.7071447372436523e-05 0.0008779168128967285 -0.057464599609375 -0.059814453125
18.0265 0.0516815185546875 0.14349365234375 0.224609375 0.03924560546875 0.00042366981506347656 0.0007989406585693359 -0.06127166748046875 -0.05747222900390625
18.03625 0.059051513671875 0.1444091796875 0.2370147705078125 0.013641357421875 0.001143336296081543 -0.0004278421401977539 -0.06368255615234375 -0.05210113525390625
18.046 0.0670166015625 0.142730712890625 0.24680328369140625 -0.01522064208984375 0.0008657276630401611 -0.0009230375289916992 -0.06557846069335938 -0.04671478271484375
18.05575 0.07643890380859375 0.1371917724609375 0.2514801025390625 -0.045013427734375 0.0010422468185424805 -0.0008858442306518555 -0.07016754150390625 -0.041622161865234375
18.0655 0.08196258544921875 0.139862060546875 0.25384521484375 -0.0733184814453125 0.0013655424118041992 0.0010269880294799805 -0.07254409790039062 -0.03646087646484375
18.07525 0.08930206298828125 0.1356353759765625 0.2537994384765625 -0.104095458984375 0.0017453432083129883 -0.0004578232765197754 -0.0731353759765625 -0.031101226806640625
18.085 0.0972137451171875 0.133056640625 0.248046875 -0.137420654296875 0.0009982585906982422 -0.0004226565361022949 -0.07574081420898438 -0.02533721923828125
18.09475 0.10295867919921875 0.13033294677734375 0.24021148681640625 -0.16912078857421875 0.0008105933666229248 -0.00035139918327331543 -0.0740814208984375 -0.020038604736328125
18.1045 0.11009979248046875 0.1259918212890625 0.2276611328125 -0.199493408203125 0.0005929470062255859 -6.67572021484375e-06 -0.07675933837890625 -0.014392852783203125
18.11425 0.11548614501953125 0.12464141845703125 0.20877838134765625 -0.23178863525390625 0.0007176399230957031 0.0006319880485534668 -0.07474136352539062 -0.008880615234375
18.124 0.1224822998046875 0.119354248046875 0.187225341796875 -0.26104736328125 0.0012614727020263672 3.910064697265625e-05 -0.07492828369140625 -0.00031280517578125
18.13375 0.1285247802734375 0.1151580810546875 0.1616058349609375 -0.2868804931640625 0.001239776611328125 -0.0006656050682067871 -0.07466506958007812 0.005931854248046875
18.1435 0.13483428955078125 0.109344482421875 0.131744384765625 -0.3101043701171875 0.00034606456756591797 -0.000378340482711792 -0.07487106323242188 0.013660430908203125
18.15325 0.14068603515625 0.10448455810546875 0.0986328125 -0.3309173583984375 0.00048345327377319336 -0.0001453012228012085 -0.073211669921875 0.01853179931640625
18.163 0.14791107177734375 0.09845733642578125 0.0638275146484375 -0.34503173828125 0.0008940696716308594 0.0019309520721435547 -0.07234573364257812 0.025432586669921875
18.17275 0.15265655517578125 0.09372711181640625 0.0282135009765625 -0.3578338623046875 0.0001640915870666504 0.001515507698059082 -0.0682220458984375 0.030841827392578125
18.1825 0.15802001953125 0.08547210693359375 -0.010589599609375 -0.3670196533203125 0.0007406771183013916 -0.000525742769241333 -0.064361572265625 0.0394287109375
18.19225 0.16294097900390625 0.080230712890625 -0.05242919921875 -0.37109375 0.00010512769222259521 0.0003710240125656128 -0.061199188232421875 0.04411125183105469
18.202 0.1688232421875 0.0754241943359375 -0.090606689453125 -0.3709259033203125 0.0005785524845123291 -0.0007601380348205566 -0.0601654052734375 0.04976844787597656
18.21175 0.172882080078125 0.0682830810546875 -0.1319580078125 -0.365081787109375 -0.0006166696548461914 0.00011962652206420898 -0.05376434326171875 0.056125640869140625
18.2215 0.17763519287109375 0.0593109130859375 -0.175262451171875 -0.353729248046875 0.0018167495727539062 -0.000317990779876709 -0.0510406494140625 0.061412811279296875
18.23125 0.18178558349609375 0.0534820556640625 -0.211822509765625 -0.336700439453125 -0.0006306171417236328 -0.0005561113357543945 -0.04778289794921875 0.06489944458007812
18.241 0.1831512451171875 0.04598236083984375 -0.250091552734375 -0.315887451171875 -1.9609928131103516e-05 -0.0010303258895874023 -0.04329681396484375 0.07117462158203125
18.25075 0.18572235107421875 0.03841400146484375 -0.28326416015625 -0.29229736328125 0.00011688470840454102 0.0010353922843933105 -0.0358123779296875 0.074188232421875
18.2605 0.18814849853515625 0.03079986572265625 -0.3148193359375 -0.26507568359375 0.00046759843826293945 0.0007481575012207031 -0.031284332275390625 0.07776641845703125
18.27025 0.18877410888671875 0.02215576171875 -0.341522216796875 -0.23406982421875 0.0005948245525360107 -0.000379711389541626 -0.024303436279296875 0.08188247680664062
18.28 0.1916656494140625 0.01329803466796875 -0.368988037109375 -0.20037841796875 -7.474422454833984e-05 3.775209188461304e-05 -0.017787933349609375 0.0823974609375
18.28975 0.19240570068359375 0.00336456298828125 -0.391815185546875 -0.165283203125 0.0005650222301483154 -0.0004780888557434082 -0.010997772216796875 0.08730697631835938
18.2995 0.19348907470703125 -0.00337982177734375 -0.411224365234375 -0.124359130859375 -0.0002111196517944336 9.238719940185547e-05 -0.002239227294921875 0.08598709106445312
18.30925 0.1931304931640625 -0.0120086669921875 -0.424560546875 -0.083648681640625 0.000807642936706543 -0.00022941827774047852 0.00592041015625 0.0898284912109375
18.319 0.19205474853515625 -0.02203369140625 -0.4333038330078125 -0.040679931640625 0.0006775856018066406 0.0005064010620117188 0.011058807373046875 0.0922088623046875
18.32875 0.19133758544921875 -0.0287933349609375 -0.4349517822265625 0.001983642578125 0.0003995746374130249 2.3677945137023926e-05 0.01874542236328125 0.09152984619140625
18.3385 0.1895599365234375 -0.0389862060546875 -0.434722900390625 0.043853759765625 0.0002867281436920166 -0.0007732808589935303 0.027957916259765625 0.09300613403320312
18.34825 0.19014739990234375 -0.04717254638671875 -0.4310150146484375 0.085601806640625 -5.476176738739014e-06 -5.408748984336853e-05 0.03530120849609375 0.09222412109375
18.358 0.18773651123046875 -0.05565643310546875 -0.4234771728515625 0.1231536865234375 0.0005226731300354004 -0.0007658302783966064 0.0430908203125 0.091705322265625
18.36775 0.18425750732421875 -0.0643310546875 -0.4132843017578125 0.1654052734375 0.0010552406311035156 -0.0013707876205444336 0.05027008056640625 0.08904266357421875
18.3775 0.18228912353515625 -0.07193756103515625 -0.3985748291015625 0.2037506103515625 0.0007949769496917725 -3.898143768310547e-05 0.05702972412109375 0.08853912353515625
18.38725 0.1782989501953125 -0.0809783935546875 -0.3809051513671875 0.2422637939453125 -0.0005329251289367676 -0.001062929630279541 0.0633697509765625 0.08556365966796875
18.397 0.174652099609375 -0.0885009765625 -0.357330322265625 0.279388427734375 -0.00018703937530517578 -0.0008450746536254883 0.0702667236328125 0.08135986328125
18.40675 0.1700439453125 -0.0932464599609375 -0.3310546875 0.31475830078125 0.0007703900337219238 -0.0009143352508544922 0.0790557861328125 0.07763671875
18.4165 0.16524505615234375 -0.10221099853515625 -0.29986572265625 0.345184326171875 0.00019623339176177979 0.00011932849884033203 0.08315277099609375 0.07349395751953125
18.42625 0.15898895263671875 -0.1095123291015625 -0.26922607421875 0.3712005615234375 0.0005792379379272461 -0.0011262297630310059 0.08997344970703125 0.06838226318359375
18.436 0.15401458740234375 -0.1153717041015625 -0.2358856201171875 0.3925628662109375 0.0010907649993896484 -4.839897155761719e-05 0.09626007080078125 0.06333160400390625
18.44575 0.14769744873046875 -0.1228790283203125 -0.1998291015625 0.412322998046875 0.00030744075775146484 -0.0008088648319244385 0.10094451904296875 0.05657958984375
18.4555 0.14015960693359375 -0.1268463134765625 -0.166046142578125 0.4298858642578125 -0.00044655799865722656 -0.0007761120796203613 0.10528564453125 0.049835205078125
18.46525 0.13362884521484375 -0.1338653564453125 -0.1309967041015625 0.4468536376953125 0.0003082156181335449 -0.0013651847839355469 0.1103668212890625 0.04010009765625
18.475 0.12691497802734375 -0.1392669677734375 -0.09295654296875 0.461669921875 -0.0006818175315856934 0.0008771121501922607 0.1158447265625 0.03334808349609375
18.48475 0.12204742431640625 -0.1459808349609375 -0.0511016845703125 0.472259521484375 -0.0006110668182373047 -0.000591576099395752 0.1180419921875 0.02475738525390625
18.4945 0.11266326904296875 -0.14890289306640625 -0.0065155029296875 0.47906494140625 0.00015339255332946777 0.0005253255367279053 0.11998748779296875 0.01758575439453125
18.50425 0.1044769287109375 -0.153564453125 0.03961181640625 0.48126220703125 -9.02414321899414e-05 -0.0009111166000366211 0.1227874755859375 0.00799560546875
18.514 0.0982666015625 -0.157867431640625 0.08294677734375 0.47607421875 0.001067042350769043 -0.001078963279724121 0.1240081787109375 0.000732421875
18.52375 0.08892059326171875 -0.15914154052734375 0.128021240234375 0.467498779296875 0.0005977451801300049 -0.0008469820022583008 0.124420166015625 -0.007556915283203125
18.5335 0.0819091796875 -0.16375732421875 0.16534423828125 0.45440673828125 0.0005411207675933838 -0.0009187757968902588 0.1249542236328125 -0.01613616943359375
18.54325 0.07482147216796875 -0.1674957275390625 0.20538330078125 0.43853759765625 0.0001426488161087036 0.00014887750148773193 0.12374496459960938 -0.02210235595703125
18.553 0.06739044189453125 -0.1692657470703125 0.2401123046875 0.420928955078125 5.728006362915039e-05 -0.0012006759643554688 0.12097930908203125 -0.0302886962890625
18.56275 0.05944061279296875 -0.16881561279296875 0.275726318359375 0.4024658203125 0.0016515254974365234 -0.0001837015151977539 0.11898422241210938 -0.037006378173828125
18.5725 0.05149078369140625 -0.1699676513671875 0.311187744140625 0.38153076171875 0.00176161527633667 -0.0012491941452026367 0.11497116088867188 -0.046695709228515625
18.58225 0.0434722900390625 -0.1707763671875 0.34619140625 0.35638427734375 0.0009783506393432617 -0.0010973215103149414 0.11147689819335938 -0.053012847900390625
18.592 0.03513336181640625 -0.1727294921875 0.378662109375 0.327545166015625 0.00048401951789855957 -0.0007619857788085938 0.108001708984375 -0.05892181396484375
18.60175 0.0271453857421875 -0.1702728271484375 0.4080810546875 0.294921875 0.0003737807273864746 -0.0005225539207458496 0.10286712646484375 -0.0651702880859375
18.6115 0.01702117919921875 -0.17047119140625 0.4339599609375 0.258758544921875 0.0005105435848236084 0.0002446770668029785 0.09662246704101562 -0.07320022583007812
18.62125 0.00977325439453125 -0.169342041015625 0.454376220703125 0.22119140625 -0.0006405413150787354 -0.0003508031368255615 0.09135055541992188 -0.07690811157226562
18.631 0.0021209716796875 -0.168365478515625 0.47198486328125 0.18499755859375 0.0001367330551147461 -0.001129150390625 0.086090087890625 -0.08293914794921875
