!Created with skrf (http://scikit-rf.org).
# GHz S RI R 50.0 
!freq ReS11 ImS11 ReS21 ImS21 ReS12 ImS12 ReS22 ImS22
17.5 0.00933837890625 -0.14279937744140625 -0.567657470703125 0.646636962890625 -0.0010060667991638184 9.834766387939453e-06 0.095977783203125 0.00182342529296875
17.50975 6.103515625e-05 -0.14022064208984375 -0.505950927734375 0.687255859375 -0.0023795366287231445 -1.1682510375976562e-05 0.09984207153320312 0.000972747802734375
17.5195 -0.00720977783203125 -0.135040283203125 -0.44427490234375 0.721221923828125 -0.0019835233688354492 0.0013900995254516602 0.10193634033203125 0.00016021728515625
17.52925 -0.0163116455078125 -0.13217926025390625 -0.381378173828125 0.750518798828125 -0.0010170340538024902 -0.0005986690521240234 0.104736328125 -0.00457000732421875
17.539 -0.0232391357421875 -0.12652587890625 -0.315673828125 0.7713623046875 -0.002466440200805664 7.033348083496094e-05 0.107086181640625 -0.0070037841796875
17.54875 -0.0313873291015625 -0.123443603515625 -0.251983642578125 0.787811279296875 -0.0010805726051330566 0.0016453266143798828 0.10825347900390625 -0.010955810546875
17.5585 -0.0411376953125 -0.117950439453125 -0.187774658203125 0.800018310546875 -0.0011507868766784668 0.00014507770538330078 0.11024856567382812 -0.012928009033203125
17.56825 -0.0450439453125 -0.11370086669921875 -0.1260986328125 0.808807373046875 -0.0010567307472229004 0.00040906667709350586 0.1126251220703125 -0.018463134765625
17.578 -0.05240631103515625 -0.108184814453125 -0.06024169921875 0.810821533203125 -0.0016782283782958984 0.0013623833656311035 0.11208724975585938 -0.022678375244140625
17.58775 -0.05786895751953125 -0.1029510498046875 0.00506591796875 0.8087158203125 -0.0009630918502807617 0.0008441805839538574 0.11305618286132812 -0.023494720458984375
17.5975 -0.062103271484375 -0.097442626953125 0.073638916015625 0.8004150390625 -0.0013166069984436035 0.0003325939178466797 0.11400985717773438 -0.029705047607421875
17.60725 -0.06925201416015625 -0.09246826171875 0.1370849609375 0.782806396484375 -0.0012081265449523926 0.0004761815071105957 0.11480712890625 -0.033222198486328125
17.617 -0.0735321044921875 -0.0857086181640625 0.196563720703125 0.759979248046875 -0.001614689826965332 0.0015152692794799805 0.115142822265625 -0.03896331787109375
17.62675 -0.07849884033203125 -0.07663726806640625 0.25274658203125 0.73248291015625 -0.0011666417121887207 0.0010074377059936523 0.11476516723632812 -0.041103363037109375
17.6365 -0.082305908203125 -0.0699920654296875 0.30218505859375 0.7015380859375 -0.0012369155883789062 0.0006415843963623047 0.11302947998046875 -0.0470123291015625
17.64625 -0.085357666015625 -0.0617523193359375 0.346588134765625 0.6683349609375 -0.001065969467163086 0.0010764598846435547 0.11143112182617188 -0.053142547607421875
17.656 -0.08852386474609375 -0.0563201904296875 0.388092041015625 0.636932373046875 -0.0006499886512756348 0.0011597275733947754 0.10870361328125 -0.05596923828125
17.66575 -0.092071533203125 -0.0468597412109375 0.4278564453125 0.6065673828125 -0.0007107257843017578 0.001565396785736084 0.1067962646484375 -0.06142425537109375
17.6755 -0.09564971923828125 -0.0400390625 0.46490478515625 0.57513427734375 -0.0009929537773132324 0.00048089027404785156 0.10384368896484375 -0.06420135498046875
17.68525 -0.09775543212890625 -0.030792236328125 0.505859375 0.54034423828125 -0.0013050436973571777 0.0016112923622131348 0.10182571411132812 -0.07033920288085938
17.695 -0.09812164306640625 -0.0233306884765625 0.54473876953125 0.4998779296875 -0.000663071870803833 0.0005627572536468506 0.0993194580078125 -0.07355117797851562
17.70475 -0.09906768798828125 -0.01523590087890625 0.58056640625 0.454345703125 -0.0006814897060394287 0.0006292760372161865 0.09502410888671875 -0.07794952392578125
17.7145 -0.10138320922851562 -0.00699615478515625 0.6142578125 0.403076171875 -0.0006892383098602295 0.00034174323081970215 0.09088134765625 -0.08121871948242188
17.72425 -0.10009002685546875 0.000881195068359375 0.6375732421875 0.3492431640625 0.0008720159530639648 0.0017788410186767578 0.08703231811523438 -0.08658218383789062
17.734 -0.1024017333984375 0.00867462158203125 0.6561279296875 0.2945556640625 -0.0009209513664245605 0.000488579273223877 0.082916259765625 -0.09159088134765625
17.74375 -0.1015777587890625 0.015869140625 0.661865234375 0.24285888671875 -0.0006737709045410156 0.0019965171813964844 0.079437255859375 -0.09515380859375
17.7535 -0.09827804565429688 0.02286529541015625 0.668365478515625 0.193145751953125 0.0002619624137878418 0.0014823079109191895 0.07560348510742188 -0.09708404541015625
17.76325 -0.0987701416015625 0.030925750732421875 0.67034912109375 0.15106201171875 2.79843807220459e-05 0.0009165108203887939 0.06901931762695312 -0.0983734130859375
17.773 -0.0975341796875 0.037281036376953125 0.673126220703125 0.107086181640625 0.000448763370513916 0.0013207197189331055 0.06562042236328125 -0.10187149047851562
17.78275 -0.09535980224609375 0.0442657470703125 0.673614501953125 0.064422607421875 0.00010469555854797363 0.000430375337600708 0.059795379638671875 -0.10347366333007812
17.7925 -0.091400146484375 0.0525360107421875 0.675140380859375 0.021881103515625 0.00039315223693847656 0.0017046928405761719 0.054851531982421875 -0.104644775390625
17.80225 -0.08785629272460938 0.05907440185546875 0.676055908203125 -0.023895263671875 0.0007816553115844727 0.001164078712463379 0.04935455322265625 -0.10663986206054688
17.812 -0.08412551879882812 0.06615066528320312 0.672149658203125 -0.070343017578125 0.000895380973815918 0.00040525197982788086 0.04383087158203125 -0.10769271850585938
17.82175 -0.0809326171875 0.07407760620117188 0.66314697265625 -0.1199951171875 0.000805199146270752 0.0002739429473876953 0.03966522216796875 -0.10704803466796875
17.8315 -0.07733154296875 0.080291748046875 0.648590087890625 -0.1671142578125 -5.5909156799316406e-05 0.0022200345993041992 0.033203125 -0.109405517578125
17.84125 -0.07297515869140625 0.08466339111328125 0.631103515625 -0.2091064453125 0.0008796453475952148 0.0005035400390625 0.02707672119140625 -0.1083831787109375
17.851 -0.0679473876953125 0.09444808959960938 0.609130859375 -0.248626708984375 0.0006568431854248047 0.0020263195037841797 0.022701263427734375 -0.10905838012695312
17.86075 -0.06338119506835938 0.09806060791015625 0.587982177734375 -0.28302001953125 -0.0003758072853088379 0.0018181204795837402 0.01523590087890625 -0.10516738891601562
17.8705 -0.058330535888671875 0.10470199584960938 0.56585693359375 -0.316558837890625 0.0003966689109802246 0.0010508298873901367 0.01158905029296875 -0.10670852661132812
17.88025 -0.052791595458984375 0.10988998413085938 0.5455322265625 -0.34869384765625 -0.00026220083236694336 0.0011605024337768555 0.00484466552734375 -0.10563278198242188
17.89 -0.047760009765625 0.1153106689453125 0.52471923828125 -0.378631591796875 0.0003286004066467285 0.0012680888175964355 -0.000293731689453125 -0.1028289794921875
17.89975 -0.0407562255859375 0.119232177734375 0.50140380859375 -0.411346435546875 0.0006526708602905273 0.0008667111396789551 -0.00470733642578125 -0.105072021484375
17.9095 -0.03672027587890625 0.1230621337890625 0.4770965576171875 -0.446807861328125 0.0019445419311523438 0.0006984472274780273 -0.011493682861328125 -0.10151290893554688
17.91925 -0.027587890625 0.1250152587890625 0.446441650390625 -0.477447509765625 0.0003579854965209961 0.0010116100311279297 -0.01624298095703125 -0.09936904907226562
17.929 -0.0222930908203125 0.1301116943359375 0.41680908203125 -0.50823974609375 -0.00026676058769226074 0.0003903508186340332 -0.02149200439453125 -0.0966339111328125
17.93875 -0.01674652099609375 0.1335601806640625 0.382415771484375 -0.533782958984375 0.0006679892539978027 0.000569462776184082 -0.025012969970703125 -0.095611572265625
17.9485 -0.009185791015625 0.1350250244140625 0.347503662109375 -0.556732177734375 0.0008562207221984863 0.0005371570587158203 -0.029590606689453125 -0.09128570556640625
17.95825 -0.0027618408203125 0.137176513671875 0.315582275390625 -0.574737548828125 0.002130746841430664 0.002492666244506836 -0.031917572021484375 -0.08724212646484375
17.968 0.00501251220703125 0.14060211181640625 0.281341552734375 -0.593597412109375 0.0004933774471282959 0.00047472119331359863 -0.03810882568359375 -0.0851898193359375
17.97775 0.01351165771484375 0.14007568359375 0.249359130859375 -0.61260986328125 0.0012246370315551758 0.001862645149230957 -0.04383087158203125 -0.08016586303710938
17.9875 0.02072906494140625 0.1421661376953125 0.2138671875 -0.633392333984375 0.0003432333469390869 0.00015148520469665527 -0.04483795166015625 -0.07604598999023438
17.99725 0.0278778076171875 0.14337921142578125 0.177459716796875 -0.65399169921875 0.0008336305618286133 0.00022798776626586914 -0.049915313720703125 -0.0730743408203125
18.007 0.03631591796875 0.14319610595703125 0.13958740234375 -0.673126220703125 0.0016247034072875977 0.0014454126358032227 -0.053924560546875 -0.06917572021484375
18.01675 0.04314422607421875 0.14373779296875 0.0955810546875 -0.690643310546875 0.0010848045349121094 0.00035566091537475586 -0.058589935302734375 -0.0629119873046875
18.0265 0.0497894287109375 0.14251708984375 0.04974365234375 -0.70538330078125 0.0003668665885925293 5.7250261306762695e-05 -0.06207275390625 -0.0582275390625
18.03625 0.0587921142578125 0.1451568603515625 0.0015869140625 -0.7156982421875 0.0008805990219116211 0.0006597042083740234 -0.06514739990234375 -0.05368804931640625
18.046 0.06636810302734375 0.14211273193359375 -0.0498046875 -0.721588134765625 0.0008697211742401123 -0.000284731388092041 -0.0675506591796875 -0.048370361328125
18.05575 0.07373046875 0.1396026611328125 -0.098114013671875 -0.725311279296875 0.0002322942018508911 7.495284080505371e-05 -0.07073593139648438 -0.042499542236328125
18.0655 0.081512451171875 0.14009857177734375 -0.147796630859375 -0.723114013671875 0.00018418580293655396 -0.00011759251356124878 -0.0743255615234375 -0.038875579833984375
18.07525 0.0886383056640625 0.13654327392578125 -0.197296142578125 -0.72210693359375 0.001421511173248291 -0.0008451342582702637 -0.07463455200195312 -0.03136444091796875
18.085 0.096221923828125 0.1363067626953125 -0.2493896484375 -0.719024658203125 0.00011265277862548828 0.000924229621887207 -0.07614898681640625 -0.02562713623046875
18.09475 0.10302734375 0.1326446533203125 -0.30401611328125 -0.71142578125 0.00038945674896240234 0.000307619571685791 -0.07683181762695312 -0.021778106689453125
18.1045 0.1096343994140625 0.1274566650390625 -0.359130859375 -0.70233154296875 0.0009317994117736816 0.0009186863899230957 -0.07776641845703125 -0.013431549072265625
18.11425 0.11602020263671875 0.12715911865234375 -0.41998291015625 -0.6854248046875 0.0011969804763793945 -0.0005464553833007812 -0.07772445678710938 -0.0092010498046875
18.124 0.1222686767578125 0.121368408203125 -0.4759521484375 -0.66162109375 0.0013461112976074219 -0.00040137767791748047 -0.0762176513671875 -0.00138092041015625
18.13375 0.12935638427734375 0.1170501708984375 -0.5335693359375 -0.63446044921875 0.0002789497375488281 -0.0005154907703399658 -0.07648086547851562 0.00420379638671875
18.1435 0.13478851318359375 0.11199951171875 -0.58935546875 -0.5989990234375 0.0010668635368347168 -0.0010808706283569336 -0.07663345336914062 0.013423919677734375
18.15325 0.14015960693359375 0.1058197021484375 -0.6416015625 -0.5604248046875 0.001081705093383789 0.00018978118896484375 -0.07409286499023438 0.017078399658203125
18.163 0.14788818359375 0.0993804931640625 -0.691650390625 -0.51788330078125 0.001211702823638916 -0.0005657672882080078 -0.07229995727539062 0.025882720947265625
18.17275 0.1525115966796875 0.0950164794921875 -0.7403564453125 -0.467529296875 0.001064896583557129 -0.00035876035690307617 -0.06917572021484375 0.03128814697265625
18.1825 0.1595001220703125 0.088348388671875 -0.7869873046875 -0.41607666015625 0.00030885636806488037 0.0001385807991027832 -0.06737136840820312 0.03865814208984375
18.19225 0.16277313232421875 0.081146240234375 -0.82952880859375 -0.35833740234375 0.0005716085433959961 0.0011720657348632812 -0.06330490112304688 0.044921875
18.202 0.16832733154296875 0.076995849609375 -0.86700439453125 -0.2962646484375 0.0008612275123596191 -0.0011713504791259766 -0.06158447265625 0.0504150390625
18.21175 0.1730804443359375 0.06854248046875 -0.9019775390625 -0.2252197265625 0.00035437941551208496 -2.0116567611694336e-05 -0.056987762451171875 0.057098388671875
18.2215 0.1786651611328125 0.06003570556640625 -0.92694091796875 -0.1492919921875 -0.0003380775451660156 0.00044311583042144775 -0.05384254455566406 0.06134033203125
18.23125 0.18121337890625 0.05358123779296875 -0.94561767578125 -0.07421875 0.0015867352485656738 9.363889694213867e-05 -0.049713134765625 0.06549072265625
18.241 0.1841278076171875 0.04701995849609375 -0.956329345703125 0.0020751953125 -0.0007083415985107422 -0.0003326535224914551 -0.0442047119140625 0.069732666015625
18.25075 0.187286376953125 0.0385589599609375 -0.96051025390625 0.079498291015625 -0.0005552768707275391 -0.0016825199127197266 -0.0382537841796875 0.07255172729492188
18.2605 0.18886566162109375 0.03154754638671875 -0.95941162109375 0.15576171875 0.0006025135517120361 -0.0002532005310058594 -0.033252716064453125 0.07866287231445312
18.27025 0.1910552978515625 0.02193450927734375 -0.953521728515625 0.2347412109375 0.0006125569343566895 -0.0004220008850097656 -0.025218963623046875 0.08315658569335938
18.28 0.194061279296875 0.0138397216796875 -0.942047119140625 0.316162109375 -0.00028631091117858887 0.0006135404109954834 -0.019779205322265625 0.08568191528320312
18.28975 0.19466400146484375 0.00438690185546875 -0.924224853515625 0.39617919921875 -0.0006034970283508301 -0.0007142424583435059 -0.011669158935546875 0.08936691284179688
18.2995 0.1948089599609375 -0.002716064453125 -0.893646240234375 0.47796630859375 -0.0005631148815155029 0.00013381242752075195 -0.004512786865234375 0.08955764770507812
18.30925 0.195220947265625 -0.013031005859375 -0.8544921875 0.55609130859375 1.9073486328125e-05 -0.0009628534317016602 0.0043487548828125 0.0913848876953125
18.319 0.192413330078125 -0.02211761474609375 -0.805938720703125 0.63116455078125 -0.0007508993148803711 -0.0016331672668457031 0.0098419189453125 0.09256744384765625
18.32875 0.1923828125 -0.02828216552734375 -0.755218505859375 0.697601318359375 -0.0014431476593017578 -0.001002669334411621 0.019775390625 0.09368896484375
18.3385 0.190887451171875 -0.0396881103515625 -0.695220947265625 0.75732421875 -0.00036919116973876953 0.00022016465663909912 0.027923583984375 0.09502029418945312
18.34825 0.19061279296875 -0.04911041259765625 -0.638336181640625 0.81512451171875 0.0004108548164367676 -0.00022864341735839844 0.03421783447265625 0.094696044921875
18.358 0.187530517578125 -0.05597686767578125 -0.573577880859375 0.867034912109375 0.0002714395523071289 0.0003542900085449219 0.04422760009765625 0.09264373779296875
18.36775 0.18573760986328125 -0.06488800048828125 -0.50396728515625 0.91644287109375 0.0003959834575653076 3.357231616973877e-05 0.05035400390625 0.090667724609375
18.3775 0.1827545166015625 -0.07338714599609375 -0.43524169921875 0.9610595703125 0.0010611414909362793 -0.000759422779083252 0.05770111083984375 0.08930206298828125
18.38725 0.1795501708984375 -0.08066558837890625 -0.35430908203125 1.0009765625 0.0007082819938659668 -0.0010985136032104492 0.063018798828125 0.087646484375
18.397 0.174468994140625 -0.08819580078125 -0.2672119140625 1.031982421875 -0.00046521425247192383 -0.0005023479461669922 0.07073974609375 0.0850677490234375
18.40675 0.1715240478515625 -0.094573974609375 -0.1785888671875 1.0535888671875 -0.00046759843826293945 0.0005819797515869141 0.07830810546875 0.07928466796875
18.4165 0.1647796630859375 -0.10385894775390625 -0.09088134765625 1.06475830078125 0.001016855239868164 -0.00033593177795410156 0.0844573974609375 0.0757598876953125
18.42625 0.15993499755859375 -0.11122894287109375 -0.0029296875 1.0645751953125 0.0003116130828857422 -0.00043582916259765625 0.09173583984375 0.0695648193359375
18.436 0.154266357421875 -0.1161041259765625 0.08135986328125 1.06298828125 -6.252527236938477e-05 0.0005992650985717773 0.09912872314453125 0.06381988525390625
18.44575 0.146392822265625 -0.124786376953125 0.1611328125 1.05145263671875 0.0009273886680603027 0.0004969239234924316 0.10189056396484375 0.0574493408203125
18.4555 0.13915252685546875 -0.1297149658203125 0.23974609375 1.03643798828125 0.0009827017784118652 -0.00024265050888061523 0.10717010498046875 0.0492401123046875
18.46525 0.13449859619140625 -0.13562774658203125 0.31890869140625 1.02264404296875 3.466010093688965e-05 -0.000584036111831665 0.11219024658203125 0.04111480712890625
18.475 0.1273345947265625 -0.14055633544921875 0.4013671875 1.0018310546875 8.518248796463013e-05 4.585087299346924e-05 0.1173248291015625 0.0344085693359375
18.48475 0.12046051025390625 -0.14757537841796875 0.48504638671875 0.97344970703125 0.00043585896492004395 0.00042822957038879395 0.1204833984375 0.02672576904296875
18.4945 0.11069488525390625 -0.15152740478515625 0.56744384765625 0.932373046875 -3.403425216674805e-05 -0.0003602653741836548 0.1240386962890625 0.01708984375
18.50425 0.103424072265625 -0.1545867919921875 0.64794921875 0.8848876953125 0.00025022029876708984 0.0005652904510498047 0.1243896484375 0.010772705078125
18.514 0.0979156494140625 -0.15869140625 0.7181396484375 0.8253173828125 0.0007150173187255859 -0.00045228004455566406 0.12607574462890625 0.00116729736328125
18.52375 0.0887908935546875 -0.16156005859375 0.77880859375 0.759033203125 0.0001811981201171875 0.00026595592498779297 0.126708984375 -0.00760650634765625
18.5335 0.0811614990234375 -0.16483306884765625 0.83184814453125 0.69293212890625 -3.981590270996094e-05 -0.0006090104579925537 0.12744903564453125 -0.01605224609375
18.54325 0.07361602783203125 -0.16778564453125 0.87738037109375 0.62896728515625 -0.0005407929420471191 -0.0006421804428100586 0.125579833984375 -0.02381134033203125
18.553 0.06551361083984375 -0.16974639892578125 0.92144775390625 0.55950927734375 -0.00041256844997406006 0.00018693506717681885 0.12241744995117188 -0.030029296875
18.56275 0.058135986328125 -0.1692657470703125 0.96331787109375 0.4918212890625 -8.32676887512207e-05 0.0006962716579437256 0.1201019287109375 -0.03838348388671875
18.5725 0.049407958984375 -0.17079925537109375 0.999755859375 0.42083740234375 0.00042375922203063965 -0.0008447468280792236 0.11716842651367188 -0.045581817626953125
18.58225 0.04196929931640625 -0.171051025390625 1.03436279296875 0.34521484375 -0.0012240409851074219 -0.0009343624114990234 0.11371231079101562 -0.053485870361328125
18.592 0.03273773193359375 -0.1722259521484375 1.0634765625 0.26153564453125 0.0004513263702392578 -0.0015240311622619629 0.10956573486328125 -0.0605621337890625
18.60175 0.0250701904296875 -0.170501708984375 1.0831298828125 0.1744384765625 0.0003675520420074463 -0.0001716017723083496 0.1046142578125 -0.06542205810546875
18.6115 0.0171661376953125 -0.16899871826171875 1.09124755859375 0.0869140625 0.00041937828063964844 -0.0005776286125183105 0.0993499755859375 -0.07461166381835938
18.62125 0.00917816162109375 -0.16910552978515625 1.090576171875 0.0001220703125 0.0004087686538696289 -0.001087963581085205 0.09268951416015625 -0.08043670654296875
18.631 0.00112152099609375 -0.1674957275390625 1.08294677734375 -0.07745361328125 0.00043457746505737305 -0.0012289881706237793 0.08697128295898438 -0.08450698852539062
18.64075 -0.00669097900390625 -0.1659088134765625 1.07177734375 -0.153564453125 1.3619661331176758e-05 -0.0007879137992858887 0.08139801025390625 -0.08747482299804688
18.6505 -0.0126953125 -0.16457366943359375 1.0592041015625 -0.22796630859375 0.0006424784660339355 -0.0010136961936950684 0.07654190063476562 -0.089752197265625
18.66025 -0.0214996337890625 -0.16217803955078125 1.04437255859375 -0.30108642578125 -0.00029508769512176514 0.00016193091869354248 0.06948471069335938 -0.09399032592773438
