!Created with skrf (http://scikit-rf.org).
# GHz S RI R 50.0 
!freq ReS11 ImS11 ReS21 ImS21 ReS12 ImS12 ReS22 ImS22
17.5 0.00905609130859375 -0.1443328857421875 -0.3909454345703125 0.493438720703125 -0.0021588802337646484 0.0008318424224853516 0.09706497192382812 0.0018463134765625
17.50975 2.288818359375e-05 -0.140655517578125 -0.344207763671875 0.52142333984375 -0.0015636086463928223 0.00043886899948120117 0.09898757934570312 0.002109527587890625
17.5195 -0.00768280029296875 -0.13614654541015625 -0.295562744140625 0.542877197265625 -0.001770317554473877 0.0010813474655151367 0.10263824462890625 -0.001888275146484375
17.52925 -0.01750946044921875 -0.133087158203125 -0.246124267578125 0.55975341796875 -0.0018515586853027344 0.0009559392929077148 0.10504531860351562 -0.005489349365234375
17.539 -0.0233154296875 -0.12664794921875 -0.19775390625 0.57501220703125 -0.0004177689552307129 0.0005966424942016602 0.10587310791015625 -0.00717926025390625
17.54875 -0.0305938720703125 -0.12342071533203125 -0.146728515625 0.578948974609375 -0.0013963580131530762 0.0016036629676818848 0.108917236328125 -0.010044097900390625
17.5585 -0.04047393798828125 -0.11859893798828125 -0.0986328125 0.585845947265625 -0.000379025936126709 0.0010221004486083984 0.11090469360351562 -0.01421356201171875
17.56825 -0.0469207763671875 -0.1135101318359375 -0.05426025390625 0.585845947265625 -0.0009903907775878906 0.0011791586875915527 0.11204910278320312 -0.018398284912109375
17.578 -0.05155181884765625 -0.107147216796875 -0.0048828125 0.584686279296875 -0.0013559460639953613 0.0010301470756530762 0.1132659912109375 -0.023006439208984375
17.58775 -0.05914306640625 -0.1052703857421875 0.04296875 0.5787353515625 -0.0011619329452514648 0.0025042295455932617 0.1140899658203125 -0.02587127685546875
17.5975 -0.06241607666015625 -0.09729766845703125 0.09228515625 0.56585693359375 -0.0011243820190429688 0.0009271502494812012 0.11367034912109375 -0.0299072265625
17.60725 -0.06943511962890625 -0.093414306640625 0.135589599609375 0.54815673828125 -0.0006834864616394043 0.0008731186389923096 0.11275100708007812 -0.034698486328125
17.617 -0.07489776611328125 -0.0852203369140625 0.17730712890625 0.527984619140625 -0.0015064477920532227 0.0007981061935424805 0.11341476440429688 -0.038539886474609375
17.62675 -0.07988739013671875 -0.0772247314453125 0.21490478515625 0.5018310546875 -0.0006765425205230713 -5.4270029067993164e-05 0.11476516723632812 -0.042102813720703125
17.6365 -0.0821075439453125 -0.0697479248046875 0.2484130859375 0.47467041015625 -0.00019550323486328125 0.002208232879638672 0.1136474609375 -0.04907989501953125
17.64625 -0.0867462158203125 -0.06235504150390625 0.276641845703125 0.450592041015625 0.00013399124145507812 0.0023790597915649414 0.11045455932617188 -0.052814483642578125
17.656 -0.089691162109375 -0.05728912353515625 0.30340576171875 0.423187255859375 -0.0006421208381652832 0.0015972256660461426 0.10857772827148438 -0.057849884033203125
17.66575 -0.092681884765625 -0.04715728759765625 0.327911376953125 0.399322509765625 -0.00042879581451416016 0.0012639760971069336 0.1074066162109375 -0.06096649169921875
17.6755 -0.09576416015625 -0.0396270751953125 0.3494873046875 0.37091064453125 -0.0008398294448852539 0.0006070435047149658 0.10309600830078125 -0.06578826904296875
17.68525 -0.09686279296875 -0.03046417236328125 0.3746337890625 0.3441162109375 -0.001252889633178711 -0.00015014410018920898 0.10061264038085938 -0.07088851928710938
17.695 -0.09828948974609375 -0.02349090576171875 0.3978271484375 0.313934326171875 -0.0011704564094543457 0.0010142326354980469 0.10011672973632812 -0.07406234741210938
17.70475 -0.09957122802734375 -0.01428985595703125 0.4188232421875 0.279205322265625 -0.0011152029037475586 0.0007827281951904297 0.09494400024414062 -0.07794570922851562
17.7145 -0.10099029541015625 -0.00615692138671875 0.43463134765625 0.242767333984375 -0.0005890130996704102 0.0020700693130493164 0.09000778198242188 -0.08281707763671875
17.72425 -0.10084152221679688 0.000934600830078125 0.44830322265625 0.20428466796875 -0.0001748204231262207 0.0014268159866333008 0.08759689331054688 -0.08825302124023438
17.734 -0.10233306884765625 0.0078887939453125 0.452392578125 0.1661376953125 -0.0010099411010742188 0.0008562803268432617 0.08234405517578125 -0.09168243408203125
17.74375 -0.1019287109375 0.01734161376953125 0.45220947265625 0.131103515625 -0.0005247592926025391 0.0008619427680969238 0.07916259765625 -0.095733642578125
17.7535 -0.1000518798828125 0.02301025390625 0.45233154296875 0.099273681640625 -0.0007276535034179688 0.0016404986381530762 0.07350921630859375 -0.09719085693359375
17.76325 -0.09825515747070312 0.031330108642578125 0.4490966796875 0.070526123046875 4.982948303222656e-05 0.0009829998016357422 0.06749343872070312 -0.10037994384765625
17.773 -0.09721755981445312 0.03741455078125 0.4456634521484375 0.041595458984375 -0.0005269050598144531 0.0015293359756469727 0.06338119506835938 -0.10273361206054688
17.78275 -0.09479141235351562 0.046718597412109375 0.443511962890625 0.0151824951171875 2.092123031616211e-05 0.0013598203659057617 0.059093475341796875 -0.10407638549804688
17.7925 -0.09122467041015625 0.0518951416015625 0.4410858154296875 -0.011016845703125 -9.79304313659668e-05 0.0012206435203552246 0.055088043212890625 -0.10527420043945312
17.80225 -0.0891876220703125 0.05928802490234375 0.4374237060546875 -0.0396881103515625 0.0005589723587036133 0.0009722113609313965 0.048534393310546875 -0.10863494873046875
17.812 -0.08538436889648438 0.06653976440429688 0.4307403564453125 -0.0673370361328125 -0.00036579370498657227 0.0007502436637878418 0.04296875 -0.10784530639648438
17.82175 -0.08037185668945312 0.07551956176757812 0.4227142333984375 -0.0954437255859375 -0.0006158351898193359 0.0016070008277893066 0.039295196533203125 -0.10687637329101562
17.8315 -0.076904296875 0.08168792724609375 0.4078826904296875 -0.122283935546875 -0.00025409460067749023 0.000890582799911499 0.03240203857421875 -0.10631179809570312
17.84125 -0.07239532470703125 0.08541107177734375 0.396820068359375 -0.147125244140625 0.0005642175674438477 0.0005751848220825195 0.02564239501953125 -0.10741424560546875
17.851 -0.0666656494140625 0.0944366455078125 0.3809051513671875 -0.166839599609375 0.0004953145980834961 0.0015588998794555664 0.020420074462890625 -0.10876846313476562
17.86075 -0.06302261352539062 0.0970306396484375 0.3664703369140625 -0.184783935546875 0.00042253732681274414 0.00016772747039794922 0.015834808349609375 -0.10641860961914062
17.8705 -0.05718994140625 0.10493850708007812 0.3525543212890625 -0.204132080078125 6.74128532409668e-05 0.001448988914489746 0.009723663330078125 -0.10570526123046875
17.88025 -0.0515899658203125 0.11057662963867188 0.33953857421875 -0.2195587158203125 -6.729364395141602e-05 0.0013370513916015625 0.00415802001953125 -0.10596084594726562
17.89 -0.046268463134765625 0.11627197265625 0.3262786865234375 -0.235137939453125 0.0012788772583007812 0.0006582736968994141 -0.001018524169921875 -0.10430145263671875
17.89975 -0.0408477783203125 0.1204376220703125 0.31402587890625 -0.2525177001953125 -0.0001525282859802246 0.0012111067771911621 -0.006519317626953125 -0.10348129272460938
17.9095 -0.03716278076171875 0.12309646606445312 0.3005828857421875 -0.270111083984375 0.0006008148193359375 0.0016541481018066406 -0.01082611083984375 -0.10145950317382812
17.91925 -0.0288238525390625 0.12545013427734375 0.287017822265625 -0.2870025634765625 0.0007096529006958008 0.0010207295417785645 -0.015407562255859375 -0.09929275512695312
17.929 -0.0224151611328125 0.1304931640625 0.270965576171875 -0.304534912109375 0.000983595848083496 0.0006090402603149414 -0.02154541015625 -0.09867095947265625
17.93875 -0.01465606689453125 0.13292694091796875 0.2536163330078125 -0.3184356689453125 0.0002943575382232666 0.00014378130435943604 -0.02640533447265625 -0.09422683715820312
17.9485 -0.00940704345703125 0.13578033447265625 0.2375640869140625 -0.33258056640625 -0.0001876354217529297 0.0009195506572723389 -0.03163909912109375 -0.09218597412109375
17.95825 -0.00252532958984375 0.13751220703125 0.2201995849609375 -0.3423919677734375 0.00022619962692260742 -0.0005164146423339844 -0.0323944091796875 -0.08802413940429688
17.968 0.0045013427734375 0.1421661376953125 0.203704833984375 -0.35552978515625 0.0013426542282104492 0.001088261604309082 -0.0386810302734375 -0.08545684814453125
17.97775 0.01306915283203125 0.1416473388671875 0.1895294189453125 -0.3688507080078125 0.0011826753616333008 0.0007965564727783203 -0.04441070556640625 -0.08008575439453125
17.9875 0.0213775634765625 0.14255523681640625 0.174102783203125 -0.3850250244140625 0.0006483793258666992 0.0013085603713989258 -0.046478271484375 -0.0775604248046875
17.99725 0.029144287109375 0.14301300048828125 0.156951904296875 -0.3992462158203125 -0.00014102458953857422 0.001339256763458252 -0.05072021484375 -0.07163619995117188
18.007 0.03615570068359375 0.14398956298828125 0.1373291015625 -0.4156494140625 0.0021169185638427734 0.0008318424224853516 -0.05411529541015625 -0.06726455688476562
18.01675 0.0452728271484375 0.14275360107421875 0.1149139404296875 -0.43316650390625 0.001199185848236084 -0.0002835988998413086 -0.0579833984375 -0.06392288208007812
18.0265 0.0520782470703125 0.1426849365234375 0.0904541015625 -0.448944091796875 0.0007468461990356445 0.0003879070281982422 -0.0618133544921875 -0.057525634765625
18.03625 0.0593109130859375 0.1452178955078125 0.063690185546875 -0.46295166015625 0.0003222227096557617 0.0007500648498535156 -0.06444549560546875 -0.05333709716796875
18.046 0.06664276123046875 0.1431732177734375 0.0343170166015625 -0.4756011962890625 0.0005960762500762939 -0.0006350278854370117 -0.06655502319335938 -0.046916961669921875
18.05575 0.0734710693359375 0.13901519775390625 0.0025634765625 -0.4854888916015625 0.000677257776260376 -0.0008992254734039307 -0.07080078125 -0.043285369873046875
18.0655 0.08231353759765625 0.13880157470703125 -0.0263671875 -0.49481201171875 0.00021466612815856934 0.0005716681480407715 -0.07457733154296875 -0.036258697509765625
18.07525 0.08889007568359375 0.1367950439453125 -0.058990478515625 -0.502777099609375 0.0004184246063232422 0.0003558695316314697 -0.07335281372070312 -0.031581878662109375
18.085 0.09632110595703125 0.13428497314453125 -0.0955810546875 -0.50909423828125 0.0007118582725524902 -0.0003179609775543213 -0.07578277587890625 -0.025890350341796875
18.09475 0.103271484375 0.1320037841796875 -0.13214111328125 -0.513519287109375 0.00023680925369262695 0.00023891031742095947 -0.07516860961914062 -0.0207366943359375
18.1045 0.1100921630859375 0.12703704833984375 -0.171478271484375 -0.5159912109375 0.00030797719955444336 0.00032913684844970703 -0.07604217529296875 -0.013538360595703125
18.11425 0.1168670654296875 0.125396728515625 -0.216583251953125 -0.51495361328125 0.0011682510375976562 -0.0002747774124145508 -0.07758712768554688 -0.00850677490234375
18.124 0.1215362548828125 0.1204071044921875 -0.26007080078125 -0.51153564453125 0.0006486773490905762 -0.0005692839622497559 -0.0765228271484375 -0.00144195556640625
18.13375 0.12905120849609375 0.1177825927734375 -0.30462646484375 -0.50152587890625 -0.00024172663688659668 -0.0004353821277618408 -0.07537841796875 0.004932403564453125
18.1435 0.13420867919921875 0.11086273193359375 -0.350341796875 -0.48486328125 -0.00011219829320907593 7.024779915809631e-05 -0.07466888427734375 0.01352691650390625
18.15325 0.1417083740234375 0.10501861572265625 -0.397064208984375 -0.466400146484375 0.0015409588813781738 -0.0003806948661804199 -0.0753173828125 0.01953887939453125
18.163 0.1488800048828125 0.0999298095703125 -0.43902587890625 -0.440460205078125 0.00023255497217178345 -0.00014247745275497437 -0.07132339477539062 0.0244598388671875
18.17275 0.1529541015625 0.094879150390625 -0.481781005859375 -0.413177490234375 0.00036272406578063965 -8.092820644378662e-05 -0.06894302368164062 0.030853271484375
18.1825 0.1588287353515625 0.08819580078125 -0.524261474609375 -0.380462646484375 0.0005594491958618164 -0.0006657838821411133 -0.06782150268554688 0.038898468017578125
18.19225 0.16341400146484375 0.07979583740234375 -0.564605712890625 -0.344696044921875 0.00036332011222839355 -0.0007700324058532715 -0.06380844116210938 0.044677734375
18.202 0.1685943603515625 0.075347900390625 -0.602630615234375 -0.303314208984375 0.0008737444877624512 -0.00026720762252807617 -0.06120109558105469 0.04999351501464844
18.21175 0.1722564697265625 0.0697174072265625 -0.63836669921875 -0.25390625 0.0003026127815246582 -0.0004203617572784424 -0.056827545166015625 0.05796051025390625
18.2215 0.1775360107421875 0.0610504150390625 -0.667388916015625 -0.201904296875 0.0007405579090118408 0.0002396106719970703 -0.05309295654296875 0.06008338928222656
18.23125 0.181427001953125 0.05396270751953125 -0.690185546875 -0.146820068359375 0.00040349364280700684 -0.0005140602588653564 -0.048229217529296875 0.06576156616210938
18.241 0.1848907470703125 0.04654693603515625 -0.710479736328125 -0.090423583984375 0.0007683038711547852 -0.0006759762763977051 -0.044460296630859375 0.0711517333984375
18.25075 0.1861114501953125 0.03832244873046875 -0.72320556640625 -0.03118896484375 0.0006330609321594238 -0.0017643570899963379 -0.03870391845703125 0.07542037963867188
18.2605 0.18805694580078125 0.03026580810546875 -0.731536865234375 0.0281982421875 0.0008740127086639404 -0.0003425776958465576 -0.03095245361328125 0.07769775390625
18.27025 0.189361572265625 0.02203369140625 -0.735748291015625 0.088958740234375 0.0011175274848937988 -0.0007621049880981445 -0.024600982666015625 0.0819244384765625
18.28 0.19345855712890625 0.0125579833984375 -0.73638916015625 0.15325927734375 0.0008878111839294434 -0.0016700029373168945 -0.019588470458984375 0.08502578735351562
18.28975 0.1932525634765625 0.0037384033203125 -0.729095458984375 0.218292236328125 0.0007146000862121582 -0.0008360743522644043 -0.011524200439453125 0.08768463134765625
18.2995 0.195220947265625 -0.00421142578125 -0.71533203125 0.284027099609375 6.10649585723877e-05 -0.0009163916110992432 -0.005435943603515625 0.08762741088867188
18.30925 0.1935272216796875 -0.014190673828125 -0.69451904296875 0.35028076171875 -0.0006213188171386719 -0.0005704164505004883 0.00380706787109375 0.0891571044921875
18.319 0.19402313232421875 -0.02276611328125 -0.665191650390625 0.412445068359375 0.0005469322204589844 -0.0011366009712219238 0.010692596435546875 0.09347915649414062
18.32875 0.19190216064453125 -0.02875518798828125 -0.6302490234375 0.46923828125 -0.00022248923778533936 6.884336471557617e-05 0.019733428955078125 0.09340286254882812
18.3385 0.19098663330078125 -0.03937530517578125 -0.592529296875 0.52410888671875 -0.0005279183387756348 0.0006697475910186768 0.029224395751953125 0.0944366455078125
18.34825 0.1898345947265625 -0.0477142333984375 -0.55096435546875 0.572540283203125 0.00026932358741760254 -0.0004049241542816162 0.03569793701171875 0.09438323974609375
18.358 0.1873779296875 -0.05670928955078125 -0.506195068359375 0.617340087890625 0.00028896331787109375 -0.0006960928440093994 0.042816162109375 0.09228515625
18.36775 0.1851806640625 -0.06571197509765625 -0.45733642578125 0.66278076171875 0.00031088292598724365 0.00011833012104034424 0.05063629150390625 0.09067535400390625
18.3775 0.18251800537109375 -0.07320404052734375 -0.40594482421875 0.704559326171875 0.0009204745292663574 -0.00028333067893981934 0.0560302734375 0.08884429931640625
18.38725 0.17955780029296875 -0.080596923828125 -0.347320556640625 0.74346923828125 -0.00025984644889831543 2.0742416381835938e-05 0.0643768310546875 0.087005615234375
18.397 0.1746826171875 -0.087921142578125 -0.28155517578125 0.7747802734375 0.0006372332572937012 9.703636169433594e-05 0.0712738037109375 0.08380126953125
18.40675 0.1702423095703125 -0.0944671630859375 -0.21417236328125 0.80126953125 0.00029662251472473145 3.358721733093262e-05 0.0788116455078125 0.0783843994140625
18.4165 0.1655120849609375 -0.10268402099609375 -0.145660400390625 0.81597900390625 0.00023794174194335938 0.0001965165138244629 0.08409881591796875 0.07549285888671875
18.42625 0.1605987548828125 -0.11089324951171875 -0.078277587890625 0.8243408203125 0.0002983361482620239 -0.00023390352725982666 0.0923614501953125 0.06908416748046875
18.436 0.15384674072265625 -0.115814208984375 -0.011932373046875 0.825653076171875 0.0002496093511581421 8.781254291534424e-05 0.09879302978515625 0.0635223388671875
18.44575 0.14629364013671875 -0.123779296875 0.052093505859375 0.82623291015625 0.0006678998470306396 7.179379463195801e-05 0.10095977783203125 0.05712127685546875
18.4555 0.13999176025390625 -0.12847137451171875 0.116668701171875 0.822601318359375 0.0001595616340637207 -0.0006736814975738525 0.10589599609375 0.049224853515625
18.46525 0.13519287109375 -0.13571929931640625 0.17926025390625 0.81756591796875 -9.834766387939453e-06 0.0006194114685058594 0.11141204833984375 0.04059600830078125
18.475 0.12645721435546875 -0.14000701904296875 0.24554443359375 0.809326171875 0.0005298852920532227 -0.0006808638572692871 0.116180419921875 0.03514862060546875
18.48475 0.121063232421875 -0.14666748046875 0.3135986328125 0.79156494140625 1.683831214904785e-05 -0.0005771815776824951 0.1197662353515625 0.026031494140625
18.4945 0.11126708984375 -0.15026092529296875 0.3831787109375 0.765380859375 -0.0001328587532043457 -0.000732719898223877 0.122161865234375 0.0163726806640625
18.50425 0.104644775390625 -0.15472412109375 0.4498291015625 0.7337646484375 -0.0003338754177093506 0.00018268823623657227 0.1237640380859375 0.009918212890625
18.514 0.0970001220703125 -0.157958984375 0.509765625 0.6929931640625 0.0008530616760253906 0.00045680999755859375 0.12493896484375 0.00176239013671875
18.52375 0.088958740234375 -0.160430908203125 0.56341552734375 0.64593505859375 0.0008505582809448242 7.2479248046875e-05 0.1250457763671875 -0.00649261474609375
18.5335 0.0820770263671875 -0.16393280029296875 0.61102294921875 0.5989990234375 0.0013817548751831055 -4.8160552978515625e-05 0.12596893310546875 -0.01546478271484375
18.54325 0.07387542724609375 -0.16771697998046875 0.65240478515625 0.54949951171875 0.00018841028213500977 0.00047653913497924805 0.1250762939453125 -0.0234527587890625
18.553 0.0663909912109375 -0.17022705078125 0.69293212890625 0.49871826171875 0.0006393194198608398 -0.00013551115989685059 0.12103652954101562 -0.029815673828125
18.56275 0.057708740234375 -0.1687774658203125 0.73223876953125 0.44732666015625 0.0003463327884674072 -2.6538968086242676e-05 0.12060928344726562 -0.037807464599609375
18.5725 0.05002593994140625 -0.171478271484375 0.76727294921875 0.39422607421875 -0.0004698038101196289 -0.001015305519104004 0.11678314208984375 -0.045986175537109375
18.58225 0.041595458984375 -0.1707000732421875 0.80072021484375 0.33428955078125 0.00010019540786743164 -0.0010932087898254395 0.11404800415039062 -0.0537261962890625
18.592 0.03321075439453125 -0.17223358154296875 0.82989501953125 0.26849365234375 -0.00018107891082763672 0.0010993480682373047 0.10911941528320312 -0.060428619384765625
18.60175 0.02508544921875 -0.17181396484375 0.8525390625 0.200439453125 0.0002263188362121582 -0.0008074045181274414 0.1036834716796875 -0.06566619873046875
18.6115 0.01806640625 -0.1702728271484375 0.86474609375 0.13116455078125 0.00023576617240905762 -0.0005474984645843506 0.09900665283203125 -0.07352066040039062
18.62125 0.010009765625 -0.1694793701171875 0.87017822265625 0.0611572265625 4.877150058746338e-05 0.0003797560930252075 0.0923309326171875 -0.07880020141601562
18.631 0.0016326904296875 -0.16796875 0.869720458984375 -0.00115966796875 2.8759241104125977e-05 -0.0005006790161132812 0.08729171752929688 -0.08271026611328125
18.64075 -0.00577545166015625 -0.16669464111328125 0.865966796875 -0.063232421875 0.0005206465721130371 0.0005539655685424805 0.0803680419921875 -0.08708953857421875
