!Created with skrf (http://scikit-rf.org).
# GHz S RI R 50.0 
!freq ReS11 ImS11 ReS21 ImS21 ReS12 ImS12 ReS22 ImS22
17.5 0.0095367431640625 -0.14311981201171875 -0.6448974609375 0.78997802734375 -0.0019996166229248047 0.0010123252868652344 0.0966033935546875 0.002288818359375
17.50975 0.00054931640625 -0.139190673828125 -0.57373046875 0.8365478515625 -0.0013762712478637695 0.000920414924621582 0.09921646118164062 0.00049591064453125
17.5195 -0.0070037841796875 -0.1351165771484375 -0.497039794921875 0.874267578125 -0.000950545072555542 0.00037997961044311523 0.10205459594726562 0.000301361083984375
17.52925 -0.016326904296875 -0.13217926025390625 -0.421356201171875 0.907501220703125 -0.0017363429069519043 2.2292137145996094e-05 0.10589981079101562 -0.004032135009765625
17.539 -0.02276611328125 -0.1268157958984375 -0.3446044921875 0.93194580078125 -0.001296401023864746 0.00125885009765625 0.10695648193359375 -0.008026123046875
17.54875 -0.030609130859375 -0.1237030029296875 -0.267822265625 0.9466552734375 -0.002324819564819336 0.0012958049774169922 0.10866546630859375 -0.0093536376953125
17.5585 -0.03949737548828125 -0.11684417724609375 -0.19403076171875 0.962005615234375 -0.0010948777198791504 0.00017392635345458984 0.10937881469726562 -0.0135498046875
17.56825 -0.04557037353515625 -0.11443328857421875 -0.11932373046875 0.968292236328125 -0.00165635347366333 0.00017273426055908203 0.11211395263671875 -0.018741607666015625
17.578 -0.05158233642578125 -0.10703277587890625 -0.039764404296875 0.972137451171875 -0.0021631717681884766 0.0017741918563842773 0.11417770385742188 -0.022647857666015625
17.58775 -0.0575408935546875 -0.1031494140625 0.038970947265625 0.967071533203125 -0.0008070170879364014 0.0008856058120727539 0.11328125 -0.024990081787109375
17.5975 -0.0622711181640625 -0.096710205078125 0.11962890625 0.95526123046875 -0.0008664727210998535 -1.7881393432617188e-06 0.1135406494140625 -0.03015899658203125
17.60725 -0.0676422119140625 -0.09247589111328125 0.1949462890625 0.93414306640625 -0.0014328360557556152 0.0013306736946105957 0.1136627197265625 -0.032337188720703125
17.617 -0.0736236572265625 -0.084991455078125 0.2655029296875 0.9049072265625 -0.0012801289558410645 0.0003307461738586426 0.11292648315429688 -0.036712646484375
17.62675 -0.07901763916015625 -0.07712554931640625 0.33233642578125 0.86920166015625 -0.0008198320865631104 -0.00011092424392700195 0.11447906494140625 -0.042140960693359375
17.6365 -0.08123779296875 -0.0703582763671875 0.392822265625 0.8310546875 0.00021731853485107422 0.0016242265701293945 0.11455535888671875 -0.04769134521484375
17.64625 -0.0851898193359375 -0.06131744384765625 0.4456787109375 0.79266357421875 -0.0011810660362243652 -0.00031876564025878906 0.111572265625 -0.051448822021484375
17.656 -0.08902740478515625 -0.0568084716796875 0.49310302734375 0.751708984375 -0.000812828540802002 0.0012959837913513184 0.1094970703125 -0.056903839111328125
17.66575 -0.0907745361328125 -0.0474700927734375 0.54180908203125 0.71484375 -0.0003845691680908203 0.0006967484951019287 0.1089019775390625 -0.061344146728515625
17.6755 -0.0962371826171875 -0.04097747802734375 0.586181640625 0.67486572265625 -0.00024349987506866455 0.00023387372493743896 0.10377883911132812 -0.06478500366210938
17.68525 -0.097137451171875 -0.032135009765625 0.634765625 0.6314697265625 -0.0009756088256835938 0.00027126073837280273 0.10031509399414062 -0.0706634521484375
17.695 -0.0970001220703125 -0.0236968994140625 0.681396484375 0.58294677734375 -0.001254737377166748 0.0006681084632873535 0.09957504272460938 -0.07429122924804688
17.70475 -0.09849929809570312 -0.0150146484375 0.72607421875 0.52508544921875 0.00012809038162231445 0.0008296966552734375 0.09637069702148438 -0.07740402221679688
17.7145 -0.10088729858398438 -0.007503509521484375 0.76361083984375 0.46124267578125 -0.0003821253776550293 0.0009936690330505371 0.0909576416015625 -0.08162689208984375
17.72425 -0.10019302368164062 0.000270843505859375 0.79168701171875 0.394775390625 -0.0004901289939880371 0.001171410083770752 0.0875091552734375 -0.08727264404296875
17.734 -0.1022796630859375 0.0072479248046875 0.8095703125 0.325927734375 -0.0003288388252258301 -0.00024777650833129883 0.081817626953125 -0.09152984619140625
17.74375 -0.10263824462890625 0.015106201171875 0.8173828125 0.263427734375 -0.0005664825439453125 0.0011718273162841797 0.08133697509765625 -0.09548187255859375
17.7535 -0.09852981567382812 0.02274322509765625 0.823028564453125 0.201568603515625 -2.0503997802734375e-05 0.001589953899383545 0.07631683349609375 -0.0984954833984375
17.76325 -0.098876953125 0.030460357666015625 0.825958251953125 0.146697998046875 0.001475512981414795 0.00047338008880615234 0.06853103637695312 -0.09912109375
17.773 -0.0982666015625 0.0373077392578125 0.826324462890625 0.095977783203125 -0.00030481815338134766 0.001493990421295166 0.06575393676757812 -0.10171127319335938
17.78275 -0.09575653076171875 0.044673919677734375 0.825286865234375 0.041046142578125 -0.00011265277862548828 0.0013892650604248047 0.0619964599609375 -0.10385894775390625
17.7925 -0.09201431274414062 0.051761627197265625 0.82818603515625 -0.013885498046875 0.00044226646423339844 0.000990748405456543 0.0543365478515625 -0.10568618774414062
17.80225 -0.08804702758789062 0.058933258056640625 0.824981689453125 -0.070953369140625 0.001047372817993164 0.0011208057403564453 0.05100250244140625 -0.106475830078125
17.812 -0.08452224731445312 0.065216064453125 0.8192138671875 -0.1312255859375 0.00046128034591674805 0.0010367035865783691 0.04555511474609375 -0.10713958740234375
17.82175 -0.08060073852539062 0.07281875610351562 0.805206298828125 -0.18914794921875 -0.0005359053611755371 0.0017702579498291016 0.038604736328125 -0.10668182373046875
17.8315 -0.07756423950195312 0.079833984375 0.787506103515625 -0.2479248046875 -1.7344951629638672e-05 0.0017250776290893555 0.033313751220703125 -0.10832977294921875
17.84125 -0.07321929931640625 0.08589935302734375 0.76141357421875 -0.3013916015625 -4.506111145019531e-05 0.0013060569763183594 0.028106689453125 -0.10811614990234375
17.851 -0.06723403930664062 0.09403610229492188 0.73065185546875 -0.349822998046875 0.0004183650016784668 0.0008854866027832031 0.0225677490234375 -0.10776138305664062
17.86075 -0.06353378295898438 0.0970916748046875 0.701385498046875 -0.39361572265625 -0.0006849765777587891 0.001232147216796875 0.015453338623046875 -0.1077423095703125
17.8705 -0.05948638916015625 0.10427474975585938 0.671417236328125 -0.434478759765625 0.00014421343803405762 0.0004055798053741455 0.009830474853515625 -0.10675811767578125
17.88025 -0.053325653076171875 0.11010360717773438 0.6422119140625 -0.47283935546875 -0.0001017451286315918 0.00048360228538513184 0.00467681884765625 -0.10573577880859375
17.89 -0.0473785400390625 0.11506271362304688 0.612762451171875 -0.51251220703125 0.0009622573852539062 0.0015355348587036133 8.7738037109375e-05 -0.10419082641601562
17.89975 -0.0423126220703125 0.11848068237304688 0.57720947265625 -0.551239013671875 0.0010513067245483398 0.0005628466606140137 -0.00533294677734375 -0.10594558715820312
17.9095 -0.0382843017578125 0.12356948852539062 0.543426513671875 -0.5921630859375 0.0007976889610290527 0.0009870529174804688 -0.01120758056640625 -0.10187530517578125
17.91925 -0.0290374755859375 0.12735748291015625 0.503143310546875 -0.62823486328125 0.0007016658782958984 0.0008512139320373535 -0.0148773193359375 -0.10066604614257812
17.929 -0.023651123046875 0.130950927734375 0.46051025390625 -0.6632080078125 0.0005495548248291016 0.0014026165008544922 -0.02074432373046875 -0.0982208251953125
17.93875 -0.01612091064453125 0.1334686279296875 0.41326904296875 -0.692230224609375 0.0005936026573181152 0.0011423826217651367 -0.02573394775390625 -0.0947723388671875
17.9485 -0.00855255126953125 0.135528564453125 0.36761474609375 -0.717620849609375 0.0004445314407348633 0.001664280891418457 -0.029689788818359375 -0.0905609130859375
17.95825 -0.00218963623046875 0.137451171875 0.32177734375 -0.739349365234375 8.182600140571594e-05 -7.461756467819214e-05 -0.03202056884765625 -0.08803558349609375
17.968 0.0042572021484375 0.13953399658203125 0.27630615234375 -0.7559814453125 0.0009500980377197266 0.0007867813110351562 -0.03942108154296875 -0.087921142578125
17.97775 0.01169586181640625 0.1392669677734375 0.232208251953125 -0.7735595703125 0.0002886652946472168 0.0004910528659820557 -0.04314422607421875 -0.08069229125976562
17.9875 0.01949310302734375 0.14334869384765625 0.1846923828125 -0.792449951171875 0.001301407814025879 0.0009077787399291992 -0.04605865478515625 -0.078369140625
17.99725 0.0274505615234375 0.142547607421875 0.136474609375 -0.811309814453125 0.0006651580333709717 -0.0007394254207611084 -0.0503082275390625 -0.071929931640625
18.007 0.0351409912109375 0.14410400390625 0.084930419921875 -0.82781982421875 0.0013391971588134766 -0.0008495450019836426 -0.054553985595703125 -0.06865310668945312
18.01675 0.0421905517578125 0.1435546875 0.0308837890625 -0.8406982421875 0.001177370548248291 -0.0003858208656311035 -0.057918548583984375 -0.06311798095703125
18.0265 0.051361083984375 0.1431732177734375 -0.029052734375 -0.85107421875 0.0007762908935546875 8.600950241088867e-05 -0.06098175048828125 -0.058319091796875
18.03625 0.0579833984375 0.1454315185546875 -0.0897216796875 -0.853271484375 0.0012623071670532227 0.0006600618362426758 -0.063812255859375 -0.054290771484375
18.046 0.0653228759765625 0.142059326171875 -0.15234375 -0.853515625 -2.0429491996765137e-05 -0.0004002600908279419 -0.06742477416992188 -0.0482940673828125
18.05575 0.07395172119140625 0.1405029296875 -0.2095947265625 -0.84625244140625 0.00011813640594482422 0.0005354583263397217 -0.07046890258789062 -0.04290771484375
18.0655 0.0801544189453125 0.13930511474609375 -0.26708984375 -0.836181640625 0.001080155372619629 -1.0013580322265625e-05 -0.07309341430664062 -0.0381317138671875
18.07525 0.08744049072265625 0.13716888427734375 -0.32672119140625 -0.82489013671875 0.0009918808937072754 7.927417755126953e-05 -0.075164794921875 -0.032527923583984375
18.085 0.0966339111328125 0.13590240478515625 -0.38623046875 -0.81146240234375 0.000550687313079834 -0.0018905401229858398 -0.07751846313476562 -0.025608062744140625
18.09475 0.10221099853515625 0.13181304931640625 -0.44622802734375 -0.79345703125 0.0005685091018676758 5.53131103515625e-05 -0.07616806030273438 -0.019626617431640625
18.1045 0.10863494873046875 0.12924957275390625 -0.50970458984375 -0.77142333984375 0.00014025717973709106 -2.086162567138672e-07 -0.0782470703125 -0.012462615966796875
18.11425 0.11629486083984375 0.12555694580078125 -0.57470703125 -0.7427978515625 0.0013674497604370117 0.0006881952285766602 -0.0771636962890625 -0.010284423828125
18.124 0.122833251953125 0.121337890625 -0.6368408203125 -0.7081298828125 0.00021541118621826172 -0.00014516711235046387 -0.07761383056640625 -0.00103759765625
18.13375 0.12841033935546875 0.11785888671875 -0.697998046875 -0.668701171875 0.0003100186586380005 -0.00038614869117736816 -0.07645416259765625 0.005199432373046875
18.1435 0.13515472412109375 0.1119842529296875 -0.7530517578125 -0.6192626953125 0.000981152057647705 -0.0005249381065368652 -0.07730484008789062 0.013317108154296875
18.15325 0.1408843994140625 0.10613250732421875 -0.80731201171875 -0.5657958984375 0.001032710075378418 -0.0014920234680175781 -0.07550048828125 0.019077301025390625
18.163 0.1480560302734375 0.099700927734375 -0.85791015625 -0.50970458984375 0.0003666877746582031 -0.0006791353225708008 -0.0739898681640625 0.025081634521484375
18.17275 0.153839111328125 0.0942230224609375 -0.904541015625 -0.4473876953125 0.0010319352149963379 0.00020062923431396484 -0.06974029541015625 0.03000640869140625
18.1825 0.159698486328125 0.0885162353515625 -0.948974609375 -0.3839111328125 0.0005282163619995117 -0.0002715587615966797 -0.06606292724609375 0.039764404296875
18.19225 0.1634521484375 0.08170318603515625 -0.99090576171875 -0.3114013671875 0.0018836259841918945 -0.0005503296852111816 -0.06360626220703125 0.044284820556640625
18.202 0.1691131591796875 0.0763702392578125 -1.025390625 -0.23614501953125 2.0287930965423584e-05 -0.00022073090076446533 -0.06325531005859375 0.049530029296875
18.21175 0.1733551025390625 0.0692901611328125 -1.0533447265625 -0.1531982421875 0.0001595020294189453 -0.0010966062545776367 -0.0574188232421875 0.05804443359375
18.2215 0.1790313720703125 0.06076812744140625 -1.07366943359375 -0.06744384765625 -0.0006717443466186523 -0.0007947087287902832 -0.05182647705078125 0.06041526794433594
18.23125 0.18204498291015625 0.05458831787109375 -1.08331298828125 0.0186767578125 0.0009877681732177734 0.0001068115234375 -0.049041748046875 0.06548309326171875
18.241 0.18502044677734375 0.04666900634765625 -1.08697509765625 0.104736328125 0.0015000104904174805 -0.0007185935974121094 -0.045146942138671875 0.07057571411132812
18.25075 0.18672943115234375 0.0389862060546875 -1.0802001953125 0.19232177734375 -0.00024110078811645508 -0.0010303258895874023 -0.03870391845703125 0.0747222900390625
18.2605 0.18947601318359375 0.031829833984375 -1.0694580078125 0.27923583984375 0.00048172473907470703 0.0009286403656005859 -0.032276153564453125 0.07938003540039062
18.27025 0.19112396240234375 0.0225372314453125 -1.05450439453125 0.36431884765625 -0.0004500150680541992 -0.0004037618637084961 -0.026134490966796875 0.08261871337890625
18.28 0.19426727294921875 0.01337432861328125 -1.0313720703125 0.45465087890625 0.0009368062019348145 -0.0014163851737976074 -0.018703460693359375 0.0852203369140625
18.28975 0.195770263671875 0.00351715087890625 -1.002197265625 0.5426025390625 0.00021979212760925293 -0.000707775354385376 -0.0135040283203125 0.0894622802734375
18.2995 0.19506072998046875 -0.00426483154296875 -0.96136474609375 0.628662109375 0.0007199347019195557 8.428096771240234e-05 -0.0037078857421875 0.08942794799804688
18.30925 0.1956024169921875 -0.0128326416015625 -0.90911865234375 0.71234130859375 0.0002180337905883789 -0.001440882682800293 0.0037841796875 0.09230804443359375
18.319 0.1940155029296875 -0.02260589599609375 -0.84765625 0.79058837890625 -0.00027692317962646484 -0.0008105039596557617 0.009899139404296875 0.09279632568359375
18.32875 0.19303131103515625 -0.0287628173828125 -0.783050537109375 0.858184814453125 0.001089930534362793 0.00022047758102416992 0.0198974609375 0.09397506713867188
18.3385 0.19179534912109375 -0.04004669189453125 -0.71124267578125 0.9197998046875 0.00037658214569091797 -0.0009460747241973877 0.02845001220703125 0.09599685668945312
18.34825 0.1904296875 -0.04913330078125 -0.640228271484375 0.976165771484375 0.0002849698066711426 0.00036913156509399414 0.0343017578125 0.096038818359375
18.358 0.1893157958984375 -0.0573272705078125 -0.56591796875 1.0262451171875 0.0002022385597229004 -0.0008383989334106445 0.04268646240234375 0.09429168701171875
18.36775 0.18487548828125 -0.06600189208984375 -0.48211669921875 1.07574462890625 0.0010263323783874512 0.00019747018814086914 0.049652099609375 0.09185791015625
18.3775 0.1824951171875 -0.0723724365234375 -0.40081787109375 1.1195068359375 -0.000939786434173584 0.00018808245658874512 0.05654144287109375 0.09032440185546875
18.38725 0.17844390869140625 -0.08148193359375 -0.30609130859375 1.155029296875 0.0005880594253540039 -0.0004558563232421875 0.064727783203125 0.08814239501953125
18.397 0.1752471923828125 -0.0884857177734375 -0.2095947265625 1.18017578125 0.0003414154052734375 -6.744265556335449e-05 0.0706787109375 0.0838775634765625
18.40675 0.17132568359375 -0.096954345703125 -0.1072998046875 1.199951171875 0.00015038251876831055 -0.0008575320243835449 0.0797576904296875 0.079376220703125
18.4165 0.165130615234375 -0.10406494140625 -0.00787353515625 1.2027587890625 -0.0006830990314483643 -0.0002547800540924072 0.0849761962890625 0.0759124755859375
18.42625 0.16002655029296875 -0.11113739013671875 0.088134765625 1.193359375 0.0012645125389099121 -0.00040018558502197266 0.09128570556640625 0.06870269775390625
18.436 0.15228271484375 -0.11684417724609375 0.18023681640625 1.179443359375 -0.0006444454193115234 -0.0008372068405151367 0.09934234619140625 0.06575775146484375
18.44575 0.147735595703125 -0.12438201904296875 0.26837158203125 1.159912109375 6.781518459320068e-05 0.00036197900772094727 0.10292816162109375 0.05731201171875
18.4555 0.13991546630859375 -0.1293182373046875 0.353271484375 1.1378173828125 -6.589293479919434e-05 -0.0007633864879608154 0.10698699951171875 0.0514984130859375
18.46525 0.1348876953125 -0.13580322265625 0.44195556640625 1.11572265625 -0.000591278076171875 -0.0013033151626586914 0.11188507080078125 0.04212188720703125
18.475 0.12578582763671875 -0.14096832275390625 0.52947998046875 1.0870361328125 -0.0017478466033935547 -0.0009133815765380859 0.115875244140625 0.03487396240234375
18.48475 0.11978912353515625 -0.1472015380859375 0.6202392578125 1.0465087890625 0.0008132755756378174 -0.00026801228523254395 0.12047576904296875 0.0260772705078125
18.4945 0.1111297607421875 -0.1506195068359375 0.7083740234375 0.994384765625 0.0001418590545654297 -0.0013091564178466797 0.12404632568359375 0.0181732177734375
18.50425 0.102996826171875 -0.15582275390625 0.79345703125 0.93359375 9.143352508544922e-05 0.0004768967628479004 0.125457763671875 0.010467529296875
18.514 0.0980072021484375 -0.1576995849609375 0.864501953125 0.8603515625 0.00029027462005615234 -0.00033542513847351074 0.125946044921875 0.00150299072265625
18.52375 0.08795166015625 -0.15999603271484375 0.927978515625 0.783935546875 0.0004252791404724121 0.00041303038597106934 0.12625885009765625 -0.00702667236328125
18.5335 0.0818023681640625 -0.165313720703125 0.98162841796875 0.70733642578125 0.0009421706199645996 -0.0010769963264465332 0.1263580322265625 -0.01534271240234375
18.54325 0.07392120361328125 -0.16814422607421875 1.02587890625 0.62994384765625 -0.00019559264183044434 -0.00021377205848693848 0.1265106201171875 -0.02420806884765625
18.553 0.064453125 -0.1699066162109375 1.06689453125 0.5523681640625 0.00023162364959716797 -0.0007084012031555176 0.12354660034179688 -0.030429840087890625
18.56275 0.0584869384765625 -0.1704559326171875 1.1060791015625 0.474365234375 0.0006194710731506348 -0.0007129013538360596 0.12266159057617188 -0.038669586181640625
18.5725 0.04911041259765625 -0.1701812744140625 1.14129638671875 0.3912353515625 0.0003524869680404663 3.287196159362793e-05 0.11783981323242188 -0.04735565185546875
18.58225 0.04135894775390625 -0.17144012451171875 1.17340087890625 0.30413818359375 0.0004617273807525635 -0.0003183633089065552 0.11377334594726562 -0.05356597900390625
18.592 0.0328369140625 -0.17130279541015625 1.1982421875 0.21002197265625 0.001048266887664795 -0.0005882978439331055 0.10972976684570312 -0.06043243408203125
18.60175 0.0255279541015625 -0.1717681884765625 1.2137451171875 0.1123046875 0.0006412267684936523 -0.0004999041557312012 0.10483551025390625 -0.0663604736328125
18.6115 0.01757049560546875 -0.16996002197265625 1.21527099609375 0.015869140625 0.0016028285026550293 0.00016885995864868164 0.09977340698242188 -0.07350921630859375
18.62125 0.0101470947265625 -0.1685638427734375 1.20819091796875 -0.0775146484375 0.0003273189067840576 -0.0007770359516143799 0.09223175048828125 -0.08044815063476562
18.631 0.001800537109375 -0.16825103759765625 1.1922607421875 -0.16143798828125 0.001194596290588379 0.00028580427169799805 0.08707046508789062 -0.08455276489257812
18.64075 -0.00681304931640625 -0.16660308837890625 1.17449951171875 -0.24481201171875 -0.00022214651107788086 -0.0005921125411987305 0.08092498779296875 -0.08772659301757812
18.6505 -0.01232147216796875 -0.165496826171875 1.15594482421875 -0.32501220703125 -0.0001475214958190918 -0.0005296766757965088 0.07539749145507812 -0.09218597412109375
18.66025 -0.02142333984375 -0.16207122802734375 1.13311767578125 -0.40399169921875 0.0003616809844970703 -0.0015607476234436035 0.06851577758789062 -0.09471511840820312
