!Created with skrf (http://scikit-rf.org).
# GHz S RI R 50.0 
!freq ReS11 ImS11 ReS21 ImS21 ReS12 ImS12 ReS22 ImS22
17.5 0.00982666015625 -0.14240264892578125 -0.9150390625 1.01727294921875 -0.0008684992790222168 0.0007783770561218262 0.09492874145507812 0.00394439697265625
17.50975 0.00101470947265625 -0.139404296875 -0.82421875 1.0853271484375 -0.0011951923370361328 0.0015136003494262695 0.09736251831054688 0.0021514892578125
17.5195 -0.00542449951171875 -0.1347503662109375 -0.7265625 1.14190673828125 -0.0009680688381195068 0.0007311999797821045 0.1012115478515625 0.000606536865234375
17.52925 -0.0159759521484375 -0.13086700439453125 -0.62939453125 1.19317626953125 -0.0014127492904663086 0.0008199214935302734 0.10494613647460938 -0.004016876220703125
17.539 -0.0213165283203125 -0.1260223388671875 -0.53076171875 1.2305908203125 -0.0010423660278320312 0.000152587890625 0.105560302734375 -0.007049560546875
17.54875 -0.029296875 -0.12290191650390625 -0.43121337890625 1.26007080078125 -0.0017403364181518555 -0.00026720762252807617 0.10790634155273438 -0.010478973388671875
17.5585 -0.03951263427734375 -0.11773681640625 -0.3302001953125 1.28515625 -0.0013086199760437012 0.00043487548828125 0.11018753051757812 -0.011875152587890625
17.56825 -0.04352569580078125 -0.11333465576171875 -0.23358154296875 1.3028564453125 -0.0007368922233581543 0.00012871623039245605 0.11060714721679688 -0.016849517822265625
17.578 -0.05120849609375 -0.1074371337890625 -0.12896728515625 1.31451416015625 -0.0006822049617767334 0.000829547643661499 0.11272048950195312 -0.02111053466796875
17.58775 -0.05805206298828125 -0.1030120849609375 -0.0225830078125 1.3179931640625 -0.0014559030532836914 0.0014258623123168945 0.11303329467773438 -0.0236968994140625
17.5975 -0.061767578125 -0.09729766845703125 0.0897216796875 1.3077392578125 -0.0015207529067993164 0.0004661679267883301 0.114532470703125 -0.028774261474609375
17.60725 -0.06751251220703125 -0.09214019775390625 0.19140625 1.2882080078125 -0.0010424256324768066 0.0007023215293884277 0.11229705810546875 -0.03322601318359375
17.617 -0.0731353759765625 -0.08397674560546875 0.2928466796875 1.25927734375 3.889203071594238e-05 0.0006480515003204346 0.11377334594726562 -0.036609649658203125
17.62675 -0.0782012939453125 -0.07794189453125 0.3853759765625 1.21929931640625 -0.001670241355895996 0.0004538297653198242 0.11572647094726562 -0.040904998779296875
17.6365 -0.08135986328125 -0.070831298828125 0.4708251953125 1.1746826171875 -0.0012218952178955078 0.0012573003768920898 0.114349365234375 -0.04534149169921875
17.64625 -0.0851898193359375 -0.06179046630859375 0.54754638671875 1.1275634765625 -0.0021303892135620117 -0.0003554821014404297 0.11138153076171875 -0.0524444580078125
17.656 -0.08795928955078125 -0.057098388671875 0.61932373046875 1.07879638671875 -0.0005727708339691162 0.0008774101734161377 0.10892105102539062 -0.05591583251953125
17.66575 -0.0911407470703125 -0.046875 0.6917724609375 1.03277587890625 -0.002519965171813965 0.001127481460571289 0.10809707641601562 -0.05963897705078125
17.6755 -0.0933990478515625 -0.0406646728515625 0.760498046875 0.98089599609375 -0.0008718371391296387 0.0013371706008911133 0.1041717529296875 -0.06429672241210938
17.68525 -0.0959625244140625 -0.03206634521484375 0.8314208984375 0.92962646484375 -0.0012873411178588867 0.0009745955467224121 0.10180282592773438 -0.06929397583007812
17.695 -0.09654617309570312 -0.024799346923828125 0.90289306640625 0.86676025390625 -0.0003463625907897949 0.0011591315269470215 0.10006332397460938 -0.07252883911132812
17.70475 -0.09762191772460938 -0.016056060791015625 0.970703125 0.79217529296875 0.0006710290908813477 0.0010828375816345215 0.09650039672851562 -0.07686614990234375
17.7145 -0.10219192504882812 -0.00769805908203125 1.0321044921875 0.70916748046875 -0.0005413293838500977 0.0020570755004882812 0.09228134155273438 -0.08268356323242188
17.72425 -0.10040283203125 -0.000583648681640625 1.0799560546875 0.618408203125 -0.0003655552864074707 0.0018597245216369629 0.08791732788085938 -0.0859527587890625
17.734 -0.10026168823242188 0.007965087890625 1.11663818359375 0.52655029296875 -0.000209808349609375 0.002027153968811035 0.08436965942382812 -0.09014129638671875
17.74375 -0.10109710693359375 0.01415252685546875 1.134765625 0.4337158203125 -9.721517562866211e-05 0.0006337165832519531 0.08008575439453125 -0.09417724609375
17.7535 -0.09923553466796875 0.02201080322265625 1.15008544921875 0.3514404296875 0.00041234493255615234 0.0012650489807128906 0.07519912719726562 -0.09703445434570312
17.76325 -0.0983734130859375 0.029857635498046875 1.16156005859375 0.27069091796875 -4.297494888305664e-05 0.0008238554000854492 0.0693359375 -0.09923171997070312
17.773 -0.09639739990234375 0.0360870361328125 1.16998291015625 0.1973876953125 -0.0012485980987548828 0.0018540620803833008 0.06648635864257812 -0.10255813598632812
17.78275 -0.09602737426757812 0.04438018798828125 1.1785888671875 0.11761474609375 0.00044280290603637695 0.0004087090492248535 0.060596466064453125 -0.10157012939453125
17.7925 -0.09215164184570312 0.050678253173828125 1.1849365234375 0.0386962890625 -0.0003071725368499756 0.00023815035820007324 0.056766510009765625 -0.10552215576171875
17.80225 -0.08844375610351562 0.05707550048828125 1.1878662109375 -0.0462646484375 -0.0006402730941772461 0.00184553861618042 0.05265045166015625 -0.10712432861328125
17.812 -0.08414077758789062 0.06528472900390625 1.1861572265625 -0.1341552734375 0.0006468892097473145 0.0003952980041503906 0.044483184814453125 -0.1094512939453125
17.82175 -0.08127975463867188 0.072265625 1.1748046875 -0.2236328125 -0.00029146671295166016 0.0018526911735534668 0.041667938232421875 -0.10770797729492188
17.8315 -0.07721328735351562 0.07998275756835938 1.15020751953125 -0.31201171875 0.0007398128509521484 0.0017495155334472656 0.035198211669921875 -0.10959243774414062
17.84125 -0.0726165771484375 0.08637237548828125 1.1204833984375 -0.39501953125 0.0004892349243164062 0.0011330842971801758 0.02809906005859375 -0.1090087890625
17.851 -0.06763839721679688 0.09234237670898438 1.0794677734375 -0.470458984375 -0.0005325973033905029 -0.0003312826156616211 0.023494720458984375 -0.10942840576171875
17.86075 -0.06337356567382812 0.09663009643554688 1.03955078125 -0.5382080078125 0.0007758140563964844 8.64267349243164e-06 0.017681121826171875 -0.1079254150390625
17.8705 -0.0578460693359375 0.10364151000976562 0.996429443359375 -0.603515625 0.0005386471748352051 0.0004984140396118164 0.012866973876953125 -0.10709381103515625
17.88025 -0.054363250732421875 0.10935211181640625 0.955413818359375 -0.66461181640625 0.0002757161855697632 -7.548928260803223e-05 0.005542755126953125 -0.10653305053710938
17.89 -0.048389434814453125 0.11467361450195312 0.915008544921875 -0.72784423828125 0.000792086124420166 5.778670310974121e-05 -0.00017547607421875 -0.10569381713867188
17.89975 -0.04331207275390625 0.11972808837890625 0.865875244140625 -0.79180908203125 0.0009575486183166504 0.0008913278579711914 -0.00547027587890625 -0.10420608520507812
17.9095 -0.038372039794921875 0.12187576293945312 0.81146240234375 -0.854888916015625 -8.094310760498047e-05 0.0015897154808044434 -0.009807586669921875 -0.1029815673828125
17.91925 -0.02957916259765625 0.1256103515625 0.751007080078125 -0.9146728515625 0.0012040138244628906 0.0012017488479614258 -0.01515960693359375 -0.10009002685546875
17.929 -0.0236053466796875 0.1293487548828125 0.68670654296875 -0.9703369140625 0.0012493133544921875 0.0016567707061767578 -0.01983642578125 -0.09983062744140625
17.93875 -0.01611328125 0.13289642333984375 0.61505126953125 -1.01806640625 0.0003399848937988281 0.0007637739181518555 -0.024608612060546875 -0.09682464599609375
17.9485 -0.010162353515625 0.1352691650390625 0.541259765625 -1.05706787109375 0.0018078088760375977 0.0005820989608764648 -0.0304107666015625 -0.091796875
17.95825 -0.00394439697265625 0.13747406005859375 0.46728515625 -1.0897216796875 7.051229476928711e-05 0.001356661319732666 -0.03260040283203125 -0.08924484252929688
17.968 0.00337982177734375 0.13944244384765625 0.39599609375 -1.11981201171875 -0.00047004222869873047 0.0008155107498168945 -0.038280487060546875 -0.086334228515625
17.97775 0.01049041748046875 0.1416473388671875 0.32415771484375 -1.1431884765625 0.001087784767150879 0.0008867979049682617 -0.04296875 -0.0828399658203125
17.9875 0.01873779296875 0.14304351806640625 0.25103759765625 -1.171630859375 0.0005320310592651367 0.0006725192070007324 -0.045246124267578125 -0.07757949829101562
17.99725 0.028289794921875 0.14267730712890625 0.17425537109375 -1.1962890625 0.0015026330947875977 -0.00011599063873291016 -0.05049896240234375 -0.07334136962890625
18.007 0.0341644287109375 0.14389801025390625 0.09234619140625 -1.21826171875 0.0005473792552947998 0.0003733038902282715 -0.053539276123046875 -0.06981658935546875
18.01675 0.042144775390625 0.14365386962890625 0.0050048828125 -1.23193359375 0.0007541179656982422 -3.039836883544922e-05 -0.058750152587890625 -0.06543731689453125
18.0265 0.0496063232421875 0.143768310546875 -0.0855712890625 -1.241455078125 7.963180541992188e-05 0.0005723237991333008 -0.06180572509765625 -0.0599365234375
18.03625 0.0582275390625 0.1448822021484375 -0.18017578125 -1.238525390625 0.001291513442993164 0.00043654441833496094 -0.0666961669921875 -0.05432891845703125
18.046 0.06562042236328125 0.1436920166015625 -0.27423095703125 -1.22784423828125 0.000179290771484375 0.00022125244140625 -0.06681060791015625 -0.049861907958984375
18.05575 0.0727691650390625 0.14183807373046875 -0.36248779296875 -1.2125244140625 0.001820683479309082 0.0015488862991333008 -0.07134628295898438 -0.045368194580078125
18.0655 0.07920074462890625 0.14012908935546875 -0.44659423828125 -1.188720703125 0.0012074708938598633 0.0011861324310302734 -0.07476425170898438 -0.039218902587890625
18.07525 0.08701324462890625 0.13812255859375 -0.531005859375 -1.16192626953125 0.0002416372299194336 -0.0002576857805252075 -0.0767059326171875 -0.031276702880859375
18.085 0.095367431640625 0.1357421875 -0.61871337890625 -1.1334228515625 0.0005324780941009521 -0.00019279122352600098 -0.07851028442382812 -0.027545928955078125
18.09475 0.102874755859375 0.13251495361328125 -0.70355224609375 -1.09857177734375 0.0009019374847412109 0.00031238794326782227 -0.07744979858398438 -0.021488189697265625
18.1045 0.10884857177734375 0.12969970703125 -0.790283203125 -1.05712890625 0.001107931137084961 -0.000330507755279541 -0.07822418212890625 -0.014129638671875
18.11425 0.115966796875 0.12738037109375 -0.8782958984375 -1.0032958984375 0.0005651116371154785 -4.112720489501953e-05 -0.07910919189453125 -0.0094146728515625
18.124 0.1216583251953125 0.1216888427734375 -0.960693359375 -0.94482421875 0.0009423494338989258 0.00023806095123291016 -0.0784454345703125 -0.00220489501953125
18.13375 0.12931060791015625 0.11827850341796875 -1.04119873046875 -0.87591552734375 -0.000812828540802002 0.0003483593463897705 -0.07822036743164062 0.00313568115234375
18.1435 0.13519287109375 0.1134796142578125 -1.1134033203125 -0.8013916015625 0.0009896159172058105 -0.00019150972366333008 -0.078643798828125 0.012237548828125
18.15325 0.14139556884765625 0.1065826416015625 -1.18194580078125 -0.71746826171875 0.0011868476867675781 -0.0011844038963317871 -0.07621002197265625 0.01834869384765625
18.163 0.1488494873046875 0.1009979248046875 -1.24102783203125 -0.6300048828125 0.0006263554096221924 0.00027292966842651367 -0.07526016235351562 0.024578094482421875
18.17275 0.1544036865234375 0.09637451171875 -1.2943115234375 -0.53759765625 0.000850379467010498 -0.0010241866111755371 -0.070068359375 0.031139373779296875
18.1825 0.159271240234375 0.0889892578125 -1.34710693359375 -0.4427490234375 0.0013021230697631836 -0.0005886554718017578 -0.06826400756835938 0.038845062255859375
18.19225 0.163848876953125 0.0821533203125 -1.3944091796875 -0.33941650390625 0.0005400776863098145 2.5898218154907227e-05 -0.0659027099609375 0.043933868408203125
18.202 0.169403076171875 0.076629638671875 -1.43048095703125 -0.2322998046875 0.0007045269012451172 -0.00035181641578674316 -0.0649261474609375 0.05078887939453125
18.21175 0.1741485595703125 0.0695343017578125 -1.455810546875 -0.1146240234375 0.0003154277801513672 -0.00102996826171875 -0.05913543701171875 0.057769775390625
18.2215 0.17841339111328125 0.0619354248046875 -1.469970703125 0.0047607421875 0.0003428161144256592 0.0003275275230407715 -0.05414390563964844 0.06195068359375
18.23125 0.18264007568359375 0.05538177490234375 -1.4730224609375 0.1209716796875 -0.00044858455657958984 -0.0013225674629211426 -0.051288604736328125 0.06690597534179688
18.241 0.18602752685546875 0.0478057861328125 -1.46405029296875 0.2398681640625 0.0011851787567138672 0.00019973516464233398 -0.043643951416015625 0.0730438232421875
18.25075 0.188568115234375 0.03897857666015625 -1.4476318359375 0.3553466796875 0.00051841139793396 -0.0008324980735778809 -0.03997802734375 0.07753753662109375
18.2605 0.1899566650390625 0.0315093994140625 -1.42169189453125 0.46710205078125 0.0004070401191711426 0.0005664229393005371 -0.03383636474609375 0.07921218872070312
18.27025 0.192840576171875 0.02198028564453125 -1.38916015625 0.580810546875 0.00014579296112060547 0.0008698105812072754 -0.025180816650390625 0.08380889892578125
18.28 0.19561004638671875 0.01297760009765625 -1.34918212890625 0.6956787109375 0.0005577802658081055 -0.0004902184009552002 -0.020984649658203125 0.08673858642578125
18.28975 0.19646453857421875 0.003936767578125 -1.3016357421875 0.80914306640625 0.0002512335777282715 0.00016510486602783203 -0.012981414794921875 0.09004974365234375
18.2995 0.19564056396484375 -0.002593994140625 -1.2374267578125 0.91888427734375 0.0006067752838134766 -0.0006538927555084229 -0.005519866943359375 0.09002685546875
18.30925 0.1951751708984375 -0.0135498046875 -1.159423828125 1.0244140625 0.00047278404235839844 -0.0009788274765014648 0.00266265869140625 0.09310150146484375
18.319 0.1946258544921875 -0.02292633056640625 -1.0736083984375 1.11895751953125 0.00017793476581573486 -0.0003749728202819824 0.009319305419921875 0.09476852416992188
18.32875 0.19281768798828125 -0.02873992919921875 -0.9786376953125 1.20355224609375 -4.717707633972168e-05 -0.0006510317325592041 0.01732635498046875 0.09645462036132812
18.3385 0.19133758544921875 -0.0397796630859375 -0.87811279296875 1.2777099609375 0.0010369420051574707 -0.0007509589195251465 0.026607513427734375 0.096649169921875
18.34825 0.191558837890625 -0.05013275146484375 -0.780029296875 1.34381103515625 0.00035950541496276855 -0.0003253072500228882 0.0340576171875 0.09738922119140625
18.358 0.188629150390625 -0.05817413330078125 -0.6767578125 1.40374755859375 -0.00039440393447875977 -0.0010401010513305664 0.04210662841796875 0.09400177001953125
18.36775 0.187042236328125 -0.065643310546875 -0.56396484375 1.4599609375 1.2755393981933594e-05 0.00019543617963790894 0.0494537353515625 0.09313201904296875
18.3775 0.1839752197265625 -0.07407379150390625 -0.45330810546875 1.50933837890625 -0.0006424486637115479 -3.078579902648926e-05 0.05698394775390625 0.0914154052734375
18.38725 0.1791534423828125 -0.08188629150390625 -0.32635498046875 1.54766845703125 0.00021699070930480957 0.00010661780834197998 0.06415557861328125 0.088714599609375
18.397 0.1757354736328125 -0.0897369384765625 -0.195556640625 1.5748291015625 -1.7940998077392578e-05 -0.0007641911506652832 0.071807861328125 0.0859527587890625
18.40675 0.171478271484375 -0.09521484375 -0.0601806640625 1.58935546875 -0.0009834766387939453 0.00030481815338134766 0.0800628662109375 0.081878662109375
18.4165 0.1642913818359375 -0.10425567626953125 0.068115234375 1.58416748046875 0.00017875432968139648 -0.0003948807716369629 0.08650970458984375 0.07709503173828125
18.42625 0.16033172607421875 -0.11127471923828125 0.1943359375 1.5665283203125 -2.8878450393676758e-05 -0.0008104443550109863 0.0935516357421875 0.07094573974609375
18.436 0.15346527099609375 -0.11733245849609375 0.3118896484375 1.53863525390625 -0.0002770274877548218 -8.624792098999023e-05 0.0988922119140625 0.06520843505859375
18.44575 0.1477203369140625 -0.12457275390625 0.42694091796875 1.50738525390625 0.0003172755241394043 -0.00015464425086975098 0.10520172119140625 0.05893707275390625
18.4555 0.1403961181640625 -0.13111114501953125 0.5379638671875 1.471435546875 0.0004602670669555664 -0.0011800527572631836 0.10904693603515625 0.05222320556640625
18.46525 0.133026123046875 -0.13593292236328125 0.650146484375 1.4354248046875 0.0006055831909179688 -0.0002129077911376953 0.11272430419921875 0.042877197265625
18.475 0.12555694580078125 -0.14240264892578125 0.759521484375 1.389892578125 0.0008153617382049561 -0.00033411383628845215 0.11774444580078125 0.03635406494140625
18.48475 0.1206512451171875 -0.147369384765625 0.8739013671875 1.3319091796875 0.0006388723850250244 -5.3316354751586914e-05 0.120849609375 0.02808380126953125
18.4945 0.11225128173828125 -0.15093994140625 0.983154296875 1.255126953125 -3.698468208312988e-05 -0.00021739304065704346 0.12459564208984375 0.01854705810546875
18.50425 0.103302001953125 -0.156524658203125 1.0869140625 1.168212890625 0.00016045570373535156 -0.00041553378105163574 0.1250152587890625 0.010955810546875
18.514 0.097137451171875 -0.160369873046875 1.178466796875 1.071044921875 0.00031006336212158203 -0.0012917518615722656 0.1273956298828125 0.00360107421875
18.52375 0.0885162353515625 -0.16190338134765625 1.2510986328125 0.9664306640625 0.0003469884395599365 9.06139612197876e-05 0.1274261474609375 -0.00560760498046875
18.5335 0.08170318603515625 -0.1648101806640625 1.3138427734375 0.86181640625 0.0005794167518615723 -0.0005417168140411377 0.1289825439453125 -0.01625823974609375
18.54325 0.07347869873046875 -0.16773223876953125 1.3670654296875 0.759033203125 0.0011670589447021484 -0.00019401311874389648 0.128326416015625 -0.02276611328125
18.553 0.0654449462890625 -0.1702117919921875 1.412109375 0.65576171875 0.0003986358642578125 0.0008380413055419922 0.12446212768554688 -0.030460357666015625
18.56275 0.056640625 -0.17020416259765625 1.4566650390625 0.552001953125 0.0008331239223480225 -0.0006723999977111816 0.12334442138671875 -0.037296295166015625
18.5725 0.048095703125 -0.17084503173828125 1.49786376953125 0.44622802734375 -0.00021895766258239746 -0.0006299912929534912 0.11975860595703125 -0.04584503173828125
18.58225 0.04126739501953125 -0.17076873779296875 1.53411865234375 0.3299560546875 0.0005075335502624512 -0.0011376738548278809 0.11433792114257812 -0.05397796630859375
18.592 0.03226470947265625 -0.1723785400390625 1.55853271484375 0.20904541015625 0.00033730268478393555 0.00018841028213500977 0.11050033569335938 -0.061008453369140625
18.60175 0.0246734619140625 -0.1715545654296875 1.5703125 0.082763671875 -0.00028395652770996094 -0.0016760826110839844 0.1041259765625 -0.06534576416015625
18.6115 0.01628875732421875 -0.1707916259765625 1.56536865234375 -0.04241943359375 1.4081597328186035e-05 -0.00028520822525024414 0.10163497924804688 -0.07416152954101562
18.62125 0.00836181640625 -0.16930389404296875 1.550537109375 -0.16119384765625 -1.0460615158081055e-05 -0.0006618797779083252 0.09403228759765625 -0.08005142211914062
18.631 -0.00019073486328125 -0.1670989990234375 1.5252685546875 -0.26947021484375 0.0003003329038619995 -0.0003744363784790039 0.089019775390625 -0.08350372314453125
18.64075 -0.00699615478515625 -0.16657257080078125 1.49444580078125 -0.374267578125 -0.00035512447357177734 -0.0010911822319030762 0.08273696899414062 -0.087646484375
18.6505 -0.0138702392578125 -0.1648406982421875 1.462890625 -0.47479248046875 0.0008879899978637695 -0.0007500052452087402 0.07677078247070312 -0.0923919677734375
18.66025 -0.022308349609375 -0.16181182861328125 1.43017578125 -0.5743408203125 -1.0341405868530273e-05 -0.00026588141918182373 0.068511962890625 -0.09527206420898438
