!Created with skrf (http://scikit-rf.org).
# GHz S RI R 50.0 
!freq ReS11 ImS11 ReS21 ImS21 ReS12 ImS12 ReS22 ImS22
17.5 0.0103759765625 -0.14144134521484375 -0.82159423828125 0.99755859375 -0.0011507272720336914 0.00121992826461792 0.09606170654296875 0.003223419189453125
17.50975 0.0009765625 -0.13936614990234375 -0.7330322265625 1.056884765625 -0.0018805265426635742 0.00038486719131469727 0.0992279052734375 0.00257110595703125
17.5195 -0.00603485107421875 -0.13543701171875 -0.6392822265625 1.1072998046875 -0.0009436309337615967 4.273653030395508e-05 0.10239410400390625 0.00211334228515625
17.52925 -0.0151519775390625 -0.13196563720703125 -0.5457763671875 1.150634765625 -0.0012660622596740723 -0.00011563301086425781 0.10469436645507812 -0.003856658935546875
17.539 -0.0214385986328125 -0.125 -0.449462890625 1.182373046875 -0.002384662628173828 0.0005054473876953125 0.106475830078125 -0.00676727294921875
17.54875 -0.02950286865234375 -0.12273406982421875 -0.35186767578125 1.20465087890625 -0.0011266469955444336 0.0006093382835388184 0.10888290405273438 -0.008892059326171875
17.5585 -0.03945159912109375 -0.11817169189453125 -0.2564697265625 1.22393798828125 -0.0016155838966369629 0.0002587437629699707 0.11095046997070312 -0.013378143310546875
17.56825 -0.04485321044921875 -0.11322021484375 -0.16510009765625 1.2373046875 -0.0024689435958862305 0.0013768672943115234 0.10943984985351562 -0.01732635498046875
17.578 -0.05152130126953125 -0.108917236328125 -0.06396484375 1.24066162109375 -0.001777052879333496 0.0006296038627624512 0.111724853515625 -0.020839691162109375
17.58775 -0.05655670166015625 -0.10369110107421875 0.03582763671875 1.23895263671875 -0.00044608116149902344 0.0017257332801818848 0.11445236206054688 -0.024810791015625
17.5975 -0.06148529052734375 -0.09780120849609375 0.140869140625 1.22607421875 -0.0001894831657409668 0.0010623931884765625 0.11401748657226562 -0.028888702392578125
17.60725 -0.06859588623046875 -0.09239959716796875 0.237548828125 1.2021484375 -0.00025904178619384766 0.0014324784278869629 0.11397933959960938 -0.033050537109375
17.617 -0.0723419189453125 -0.08458709716796875 0.32904052734375 1.16729736328125 -0.0011864304542541504 0.0008676648139953613 0.114013671875 -0.037822723388671875
17.62675 -0.0784759521484375 -0.0767822265625 0.4156494140625 1.1263427734375 -0.0011659860610961914 0.0009753108024597168 0.11545562744140625 -0.041751861572265625
17.6365 -0.0814666748046875 -0.0706329345703125 0.4932861328125 1.0799560546875 -0.001275777816772461 0.0016611814498901367 0.11440277099609375 -0.04621124267578125
17.64625 -0.08551788330078125 -0.06179046630859375 0.56280517578125 1.0308837890625 9.028613567352295e-05 0.000329434871673584 0.111480712890625 -0.051761627197265625
17.656 -0.0872650146484375 -0.0579376220703125 0.628662109375 0.9832763671875 -0.0013045668601989746 0.0015436410903930664 0.10721206665039062 -0.055233001708984375
17.66575 -0.0907745361328125 -0.047637939453125 0.69134521484375 0.9366455078125 -0.0014886856079101562 0.001417696475982666 0.10704421997070312 -0.059429168701171875
17.6755 -0.0937652587890625 -0.0417938232421875 0.75396728515625 0.88385009765625 -0.0003565549850463867 0.0015485882759094238 0.10462188720703125 -0.06390380859375
17.68525 -0.0963134765625 -0.032867431640625 0.81793212890625 0.831298828125 -0.0006562471389770508 0.001575767993927002 0.10222625732421875 -0.06928634643554688
17.695 -0.0972900390625 -0.023609161376953125 0.88165283203125 0.7674560546875 0.0005142688751220703 0.0016134977340698242 0.10017776489257812 -0.07344436645507812
17.70475 -0.0979766845703125 -0.014911651611328125 0.93951416015625 0.6929931640625 -0.0002860426902770996 0.000952988862991333 0.09588241577148438 -0.07835769653320312
17.7145 -0.0996856689453125 -0.00920867919921875 0.993408203125 0.6131591796875 -0.0010980963706970215 0.0011641383171081543 0.09316635131835938 -0.082183837890625
17.72425 -0.09942245483398438 -0.000698089599609375 1.03271484375 0.5252685546875 -0.0008334517478942871 0.0015404820442199707 0.08760452270507812 -0.08637619018554688
17.734 -0.10062408447265625 0.00652313232421875 1.06103515625 0.4385986328125 0.000645756721496582 0.001683950424194336 0.084320068359375 -0.09035491943359375
17.74375 -0.101470947265625 0.0146636962890625 1.0733642578125 0.352294921875 0.0003509521484375 0.0004923343658447266 0.0805511474609375 -0.094512939453125
17.7535 -0.098968505859375 0.02227783203125 1.08319091796875 0.2720947265625 -0.00048425793647766113 0.0007638931274414062 0.07546615600585938 -0.09798812866210938
17.76325 -0.09897613525390625 0.030864715576171875 1.09246826171875 0.19879150390625 0.0003429502248764038 -0.00024859607219696045 0.06948089599609375 -0.098663330078125
17.773 -0.09733200073242188 0.037273406982421875 1.0941162109375 0.12890625 0.00012606382369995117 0.0018079876899719238 0.06478500366210938 -0.1029205322265625
17.78275 -0.09391021728515625 0.04384613037109375 1.0982666015625 0.05718994140625 -0.0001989603042602539 0.0014584064483642578 0.0606689453125 -0.10283660888671875
17.7925 -0.09111785888671875 0.05055999755859375 1.1005859375 -0.0169677734375 -2.3245811462402344e-06 0.001749575138092041 0.055728912353515625 -0.10705947875976562
17.80225 -0.08915328979492188 0.056671142578125 1.0987548828125 -0.096435546875 0.0007456541061401367 0.0009689927101135254 0.051578521728515625 -0.10699462890625
17.812 -0.0856475830078125 0.06487655639648438 1.09136962890625 -0.17755126953125 0.0001024007797241211 0.0010806918144226074 0.04488372802734375 -0.107635498046875
17.82175 -0.08116531372070312 0.07126617431640625 1.07635498046875 -0.25921630859375 -0.0010015368461608887 0.000395357608795166 0.042125701904296875 -0.107208251953125
17.8315 -0.07740402221679688 0.07872772216796875 1.0487060546875 -0.33880615234375 1.33514404296875e-05 0.0007915496826171875 0.033321380615234375 -0.10982894897460938
17.84125 -0.07353973388671875 0.08426666259765625 1.0167236328125 -0.412353515625 0.0003237724304199219 -0.0008907914161682129 0.0283203125 -0.1092681884765625
17.851 -0.06818771362304688 0.09295654296875 0.973114013671875 -0.48199462890625 -0.0006483197212219238 0.0013202428817749023 0.023563385009765625 -0.1090087890625
17.86075 -0.064666748046875 0.0962677001953125 0.933013916015625 -0.53985595703125 0.0013507604598999023 0.0021718740463256836 0.016754150390625 -0.10701751708984375
17.8705 -0.057765960693359375 0.1018524169921875 0.894012451171875 -0.596588134765625 0.001178741455078125 3.731250762939453e-05 0.01218414306640625 -0.10683059692382812
17.88025 -0.052577972412109375 0.10906982421875 0.850860595703125 -0.651763916015625 0.0005471706390380859 0.0016384124755859375 0.005069732666015625 -0.106475830078125
17.89 -0.048084259033203125 0.11449813842773438 0.8104248046875 -0.70635986328125 0.0006333589553833008 0.001397848129272461 0.00146484375 -0.1057281494140625
17.89975 -0.04224395751953125 0.11803436279296875 0.762451171875 -0.762237548828125 -0.0004290938377380371 0.0011901259422302246 -0.00577545166015625 -0.10449600219726562
17.9095 -0.03716278076171875 0.1246337890625 0.711151123046875 -0.818267822265625 -0.0009416937828063965 -0.0003616809844970703 -0.0101470947265625 -0.10210037231445312
17.91925 -0.03108978271484375 0.1266021728515625 0.652496337890625 -0.869354248046875 0.00034558773040771484 0.0014721155166625977 -0.014377593994140625 -0.10088348388671875
17.929 -0.02392578125 0.130950927734375 0.59149169921875 -0.91680908203125 0.0007593631744384766 0.0008338689804077148 -0.0214996337890625 -0.09883880615234375
17.93875 -0.01793670654296875 0.13245391845703125 0.522674560546875 -0.95513916015625 -0.00011835992336273193 -0.0003451704978942871 -0.0259552001953125 -0.09663772583007812
17.9485 -0.0111083984375 0.1356658935546875 0.4554443359375 -0.986541748046875 0.0013273358345031738 0.0003848075866699219 -0.028491973876953125 -0.09233474731445312
17.95825 -0.00313568115234375 0.1376800537109375 0.38916015625 -1.0125732421875 0.00018200278282165527 0.00012418627738952637 -0.0326080322265625 -0.09140396118164062
17.968 0.00388336181640625 0.1393280029296875 0.32269287109375 -1.0372314453125 0.0010777711868286133 0.0013420581817626953 -0.039215087890625 -0.08847808837890625
17.97775 0.01092529296875 0.14154815673828125 0.25762939453125 -1.0560302734375 0.001574099063873291 0.0002740025520324707 -0.04302978515625 -0.08182525634765625
17.9875 0.02069854736328125 0.14289093017578125 0.191162109375 -1.07781982421875 0.0011261701583862305 0.0018318891525268555 -0.0443572998046875 -0.07794189453125
17.99725 0.0271759033203125 0.1436767578125 0.1209716796875 -1.099853515625 0.0010606050491333008 0.0010453462600708008 -0.05132293701171875 -0.07508087158203125
18.007 0.0344085693359375 0.14336395263671875 0.04443359375 -1.1136474609375 0.0010152459144592285 -8.362531661987305e-05 -0.0543060302734375 -0.0705718994140625
18.01675 0.04248809814453125 0.14402008056640625 -0.03533935546875 -1.1258544921875 0.0007550418376922607 0.0001481473445892334 -0.058589935302734375 -0.0637664794921875
18.0265 0.049591064453125 0.143798828125 -0.1163330078125 -1.1322021484375 0.0013159513473510742 0.0004278421401977539 -0.06262969970703125 -0.06064605712890625
18.03625 0.0573577880859375 0.1450653076171875 -0.2003173828125 -1.12890625 -0.00028592348098754883 -1.6093254089355469e-06 -0.0643157958984375 -0.05533599853515625
18.046 0.066070556640625 0.14422607421875 -0.28509521484375 -1.114990234375 0.0015898346900939941 0.00011360645294189453 -0.0677642822265625 -0.048381805419921875
18.05575 0.0722808837890625 0.14093780517578125 -0.36138916015625 -1.0986328125 0.0007537007331848145 0.00037163496017456055 -0.07198715209960938 -0.044376373291015625
18.0655 0.08043670654296875 0.140533447265625 -0.43780517578125 -1.07391357421875 0.0007292032241821289 -0.0003803670406341553 -0.07392501831054688 -0.03951263427734375
18.07525 0.0875091552734375 0.13860321044921875 -0.51544189453125 -1.04840087890625 0.0006211698055267334 0.0001615285873413086 -0.07544708251953125 -0.034114837646484375
18.085 0.094635009765625 0.13784027099609375 -0.5919189453125 -1.020263671875 0.0007669627666473389 -7.942318916320801e-05 -0.07753372192382812 -0.026123046875
18.09475 0.1011505126953125 0.13268280029296875 -0.669677734375 -0.98724365234375 0.0003196299076080322 2.1129846572875977e-05 -0.075469970703125 -0.02265167236328125
18.1045 0.10980987548828125 0.12889862060546875 -0.7471923828125 -0.94781494140625 0.0001559033989906311 -0.00022767484188079834 -0.07855224609375 -0.01570892333984375
18.11425 0.11595916748046875 0.126922607421875 -0.825439453125 -0.89996337890625 0.0006083250045776367 0.00043594837188720703 -0.07789230346679688 -0.00954437255859375
18.124 0.122344970703125 0.1236419677734375 -0.900146484375 -0.8433837890625 0.0007373690605163574 -0.0004405975341796875 -0.077423095703125 -0.00095367431640625
18.13375 0.1296234130859375 0.1202392578125 -0.97222900390625 -0.78265380859375 0.0006463527679443359 -0.0003216266632080078 -0.07738876342773438 0.0037841796875
18.1435 0.13471221923828125 0.11293792724609375 -1.03558349609375 -0.7100830078125 0.0003005862236022949 -0.0016199946403503418 -0.0772552490234375 0.012737274169921875
18.15325 0.14105224609375 0.10710906982421875 -1.097412109375 -0.6337890625 0.0013553500175476074 -8.922815322875977e-05 -0.07707595825195312 0.0171356201171875
18.163 0.148590087890625 0.101806640625 -1.15228271484375 -0.5550537109375 0.0006607770919799805 5.301833152770996e-05 -0.07531356811523438 0.024295806884765625
18.17275 0.1549072265625 0.0960845947265625 -1.20135498046875 -0.47088623046875 0.0012989640235900879 0.0004316568374633789 -0.06989288330078125 0.030574798583984375
18.1825 0.1595458984375 0.0885162353515625 -1.245849609375 -0.38189697265625 0.00011566281318664551 -0.0008898675441741943 -0.06876754760742188 0.03873443603515625
18.19225 0.163330078125 0.082550048828125 -1.2884521484375 -0.286376953125 0.0008485317230224609 -0.0017739534378051758 -0.06418228149414062 0.045803070068359375
18.202 0.16895294189453125 0.07532501220703125 -1.31976318359375 -0.1876220703125 0.0013512969017028809 -2.2411346435546875e-05 -0.0645294189453125 0.0504913330078125
18.21175 0.1736602783203125 0.0699310302734375 -1.3421630859375 -0.0794677734375 0.0008293390274047852 5.120038986206055e-05 -0.056896209716796875 0.05861663818359375
18.2215 0.1790313720703125 0.06255340576171875 -1.35235595703125 0.0303955078125 0.0003467649221420288 -2.4378299713134766e-05 -0.05423545837402344 0.062168121337890625
18.23125 0.1828155517578125 0.05533599853515625 -1.3564453125 0.13775634765625 0.00014390051364898682 0.00015974044799804688 -0.050075531005859375 0.06518173217773438
18.241 0.18459320068359375 0.045867919921875 -1.34564208984375 0.24664306640625 0.00030262768268585205 -0.00023727118968963623 -0.045421600341796875 0.07166671752929688
18.25075 0.18833160400390625 0.03900146484375 -1.32855224609375 0.35284423828125 0.0002186596393585205 -0.0004502236843109131 -0.03926849365234375 0.07654953002929688
18.2605 0.18981170654296875 0.03107452392578125 -1.30303955078125 0.45562744140625 -0.0004965066909790039 -0.0011056065559387207 -0.03255462646484375 0.07868576049804688
18.27025 0.19184112548828125 0.021759033203125 -1.274658203125 0.55926513671875 -0.0002427995204925537 -0.0005741715431213379 -0.025806427001953125 0.08343124389648438
18.28 0.193450927734375 0.0141143798828125 -1.2362060546875 0.666748046875 0.00045359134674072266 0.0008041262626647949 -0.020229339599609375 0.08672332763671875
18.28975 0.19516754150390625 0.00482940673828125 -1.19097900390625 0.769775390625 0.00026684999465942383 0.0004630088806152344 -0.012851715087890625 0.09176254272460938
18.2995 0.19618988037109375 -0.0046844482421875 -1.13201904296875 0.8721923828125 0.0011332035064697266 -0.0008414387702941895 -0.004871368408203125 0.09043121337890625
18.30925 0.1960601806640625 -0.013458251953125 -1.05712890625 0.9677734375 0.000659942626953125 -8.344650268554688e-05 0.00301361083984375 0.09297943115234375
18.319 0.19515228271484375 -0.02215576171875 -0.975830078125 1.05413818359375 0.0002383589744567871 -0.00017230212688446045 0.008266448974609375 0.09558868408203125
18.32875 0.19356536865234375 -0.029571533203125 -0.8857421875 1.13031005859375 -0.00043398141860961914 -0.0006120800971984863 0.0189361572265625 0.09465408325195312
18.3385 0.19234466552734375 -0.0400238037109375 -0.7928466796875 1.19720458984375 0.0009490549564361572 -7.927417755126953e-05 0.028400421142578125 0.09543228149414062
18.34825 0.1905517578125 -0.0497283935546875 -0.699462890625 1.25897216796875 0.000741124153137207 -0.00030413269996643066 0.03507232666015625 0.09648895263671875
18.358 0.18897247314453125 -0.057525634765625 -0.603271484375 1.31414794921875 0.0014126896858215332 0.0003851652145385742 0.04334259033203125 0.09375762939453125
18.36775 0.1865386962890625 -0.06671905517578125 -0.4981689453125 1.36163330078125 0.000487595796585083 -6.574392318725586e-05 0.05092620849609375 0.091827392578125
18.3775 0.182708740234375 -0.0736846923828125 -0.3939208984375 1.40692138671875 0.00019390881061553955 7.963180541992188e-05 0.0584716796875 0.0915374755859375
18.38725 0.18011474609375 -0.083221435546875 -0.2772216796875 1.44061279296875 0.00034612417221069336 -0.0002257823944091797 0.065826416015625 0.0887603759765625
18.397 0.1763458251953125 -0.090179443359375 -0.15576171875 1.4642333984375 -0.0002499222755432129 0.00016885995864868164 0.0706939697265625 0.0867767333984375
18.40675 0.1712188720703125 -0.0968475341796875 -0.0302734375 1.473876953125 0.001613616943359375 -0.0005987882614135742 0.0800933837890625 0.08013916015625
18.4165 0.1652679443359375 -0.10427093505859375 0.08941650390625 1.4681396484375 0.0004321932792663574 -0.0006359219551086426 0.08504486083984375 0.0773468017578125
18.42625 0.1614990234375 -0.1108245849609375 0.20843505859375 1.45037841796875 -0.0008351802825927734 -0.0009593367576599121 0.0919036865234375 0.0712127685546875
18.436 0.153839111328125 -0.117431640625 0.31591796875 1.42462158203125 0.000605851411819458 -0.00034624338150024414 0.10042572021484375 0.06508636474609375
18.44575 0.14641571044921875 -0.1254730224609375 0.421630859375 1.3934326171875 0.0009392499923706055 0.00024121999740600586 0.10399627685546875 0.0582733154296875
18.4555 0.1394195556640625 -0.13083648681640625 0.5234375 1.35992431640625 4.427134990692139e-05 -0.0002349764108657837 0.10884857177734375 0.05077362060546875
18.46525 0.1344757080078125 -0.136474609375 0.6258544921875 1.322509765625 6.35385513305664e-05 -0.0010095834732055664 0.1129913330078125 0.042266845703125
18.475 0.126617431640625 -0.14139556884765625 0.72998046875 1.2794189453125 0.0010274052619934082 -0.00026792287826538086 0.11811065673828125 0.0357513427734375
18.48475 0.119659423828125 -0.14756011962890625 0.8343505859375 1.2220458984375 -0.0006119608879089355 -0.0003160834312438965 0.1201171875 0.02691650390625
18.4945 0.111785888671875 -0.15032958984375 0.9368896484375 1.1513671875 -0.0008295774459838867 -0.0005614161491394043 0.12389373779296875 0.01796722412109375
18.50425 0.1026458740234375 -0.156097412109375 1.029541015625 1.067626953125 0.0007538199424743652 -0.00048720836639404297 0.126922607421875 0.01129150390625
18.514 0.0966949462890625 -0.1585235595703125 1.114501953125 0.977783203125 -0.000934898853302002 -2.276897430419922e-05 0.128875732421875 0.0021209716796875
18.52375 0.08713531494140625 -0.16083526611328125 1.18115234375 0.877685546875 0.00020843744277954102 0.000609278678894043 0.128509521484375 -0.0059356689453125
18.5335 0.08223724365234375 -0.16449737548828125 1.2362060546875 0.781005859375 -0.0007563233375549316 -0.0009185671806335449 0.12824249267578125 -0.01477813720703125
18.54325 0.0721588134765625 -0.168304443359375 1.28387451171875 0.6856689453125 -0.0001417398452758789 -0.0006063580513000488 0.12529754638671875 -0.024322509765625
18.553 0.06407928466796875 -0.17044830322265625 1.32647705078125 0.58917236328125 0.000980675220489502 -8.606910705566406e-05 0.12447357177734375 -0.03067779541015625
18.56275 0.05728912353515625 -0.17034149169921875 1.36761474609375 0.49200439453125 0.0004976391792297363 -0.0002644062042236328 0.123260498046875 -0.037944793701171875
18.5725 0.04772186279296875 -0.17119598388671875 1.40460205078125 0.39129638671875 -0.0011810064315795898 -0.00011986494064331055 0.11828231811523438 -0.046657562255859375
18.58225 0.03983306884765625 -0.17148590087890625 1.4342041015625 0.28338623046875 2.2292137145996094e-05 -0.0012467503547668457 0.11504364013671875 -0.054195404052734375
18.592 0.031585693359375 -0.172271728515625 1.45611572265625 0.16949462890625 0.0009490251541137695 -0.0008203983306884766 0.10973739624023438 -0.061809539794921875
18.60175 0.0251617431640625 -0.170013427734375 1.4677734375 0.0511474609375 0.000555872917175293 -0.0012557506561279297 0.104400634765625 -0.0670318603515625
18.6115 0.01673126220703125 -0.1702117919921875 1.461181640625 -0.06536865234375 0.0009600222110748291 -0.00043579936027526855 0.10050582885742188 -0.07303619384765625
18.62125 0.00885772705078125 -0.168975830078125 1.44207763671875 -0.17529296875 -9.059906005859375e-05 -0.00019012391567230225 0.09416961669921875 -0.08080291748046875
18.631 0.00046539306640625 -0.1684112548828125 1.419189453125 -0.27581787109375 -3.260374069213867e-05 -0.0009697079658508301 0.0884857177734375 -0.08539199829101562
18.64075 -0.00704193115234375 -0.16680145263671875 1.38958740234375 -0.37310791015625 0.00010114908218383789 -0.0017141103744506836 0.08289718627929688 -0.08777618408203125
18.6505 -0.01419830322265625 -0.1648101806640625 1.35888671875 -0.46527099609375 0.0002455413341522217 0.0002512037754058838 0.0763092041015625 -0.09153366088867188
18.66025 -0.02269744873046875 -0.16185760498046875 1.3270263671875 -0.5582275390625 0.0009459257125854492 0.00012546777725219727 0.06756210327148438 -0.09432220458984375
