!Created with skrf (http://scikit-rf.org).
# GHz S RI R 50.0 
!freq ReS11 ImS11 ReS21 ImS21 ReS12 ImS12 ReS22 ImS22
17.5 0.00975799560546875 -0.14374542236328125 -0.16606903076171875 0.24398040771484375 -0.0012023448944091797 0.0009923577308654785 0.0978851318359375 0.001155853271484375
17.50975 -0.00099945068359375 -0.141845703125 -0.138885498046875 0.2546234130859375 -0.0019260644912719727 0.00037670135498046875 0.10051727294921875 3.0517578125e-05
17.5195 -0.0084686279296875 -0.13674163818359375 -0.11138916015625 0.261688232421875 -0.0009212493896484375 0.001995563507080078 0.10385894775390625 -0.001445770263671875
17.52925 -0.0169219970703125 -0.13311767578125 -0.0850982666015625 0.2674102783203125 -0.001698315143585205 9.560585021972656e-05 0.10660552978515625 -0.0048828125
17.539 -0.0221710205078125 -0.1274566650390625 -0.05816650390625 0.269256591796875 -0.001947641372680664 0.0008015632629394531 0.10633087158203125 -0.007293701171875
17.54875 -0.0317230224609375 -0.1242523193359375 -0.0327911376953125 0.2657470703125 -0.0015293359756469727 0.0001583099365234375 0.10886383056640625 -0.012432098388671875
17.5585 -0.0420379638671875 -0.11891937255859375 -0.0092010498046875 0.261932373046875 -0.000622481107711792 -0.00018796324729919434 0.11031341552734375 -0.015880584716796875
17.56825 -0.045806884765625 -0.11418914794921875 0.0129547119140625 0.2583465576171875 -0.00039517879486083984 -0.0006248354911804199 0.112335205078125 -0.019565582275390625
17.578 -0.05448150634765625 -0.10970306396484375 0.0366973876953125 0.251739501953125 -0.0015349388122558594 0.0005457401275634766 0.11314773559570312 -0.022960662841796875
17.58775 -0.059600830078125 -0.1041717529296875 0.0590667724609375 0.240264892578125 -0.00039374828338623047 -0.00015786290168762207 0.11391830444335938 -0.025424957275390625
17.5975 -0.06362152099609375 -0.09699249267578125 0.0780181884765625 0.2278594970703125 -0.0003540515899658203 0.000568687915802002 0.11449432373046875 -0.03171539306640625
17.60725 -0.06900787353515625 -0.0936126708984375 0.0963592529296875 0.2146759033203125 -0.0005775094032287598 0.001416921615600586 0.11261367797851562 -0.035923004150390625
17.617 -0.0756072998046875 -0.08377838134765625 0.111572265625 0.1988983154296875 9.614229202270508e-05 0.0010341405868530273 0.11485671997070312 -0.03972625732421875
17.62675 -0.080078125 -0.07723236083984375 0.1234588623046875 0.181793212890625 -0.0007407665252685547 0.00102311372756958 0.11624908447265625 -0.042621612548828125
17.6365 -0.0830535888671875 -0.0696563720703125 0.132843017578125 0.165191650390625 -0.0011156797409057617 0.00026488304138183594 0.11248779296875 -0.04996490478515625
17.64625 -0.08681488037109375 -0.06134796142578125 0.141693115234375 0.1486358642578125 -0.0010200142860412598 0.0012212395668029785 0.1106109619140625 -0.052822113037109375
17.656 -0.09015655517578125 -0.05600738525390625 0.1470489501953125 0.1334686279296875 0.0004500150680541992 0.0008088946342468262 0.10840225219726562 -0.05593109130859375
17.66575 -0.09325408935546875 -0.0467529296875 0.1512298583984375 0.1190032958984375 -0.00019299983978271484 0.0014894604682922363 0.10759735107421875 -0.0624237060546875
17.6755 -0.0960693359375 -0.04016876220703125 0.15594482421875 0.1024322509765625 -0.000978708267211914 0.0006770491600036621 0.10404586791992188 -0.06761550903320312
17.68525 -0.09748077392578125 -0.031494140625 0.15883636474609375 0.08843994140625 0.00022464990615844727 0.0012537837028503418 0.10111618041992188 -0.07135772705078125
17.695 -0.09857177734375 -0.02182769775390625 0.15975189208984375 0.07271575927734375 -0.00039121508598327637 0.0008958876132965088 0.09874725341796875 -0.07564544677734375
17.70475 -0.10019683837890625 -0.014499664306640625 0.15921783447265625 0.0586700439453125 0.00011283159255981445 0.0014195442199707031 0.09304046630859375 -0.07954025268554688
17.7145 -0.10070037841796875 -0.007076263427734375 0.15869903564453125 0.0428009033203125 -0.0009427666664123535 0.0012229084968566895 0.09028244018554688 -0.08351898193359375
17.72425 -0.1014404296875 0.000644683837890625 0.15180206298828125 0.0291748046875 -0.0002442598342895508 0.0020389556884765625 0.0852508544921875 -0.08785629272460938
17.734 -0.1022796630859375 0.0089111328125 0.1480865478515625 0.0157928466796875 -0.00014448165893554688 0.002085447311401367 0.08263397216796875 -0.092193603515625
17.74375 -0.10198974609375 0.017608642578125 0.13916015625 0.0057220458984375 -0.0007462501525878906 0.0012881755828857422 0.0760040283203125 -0.0952911376953125
17.7535 -0.09954833984375 0.0234832763671875 0.1311187744140625 -0.00193023681640625 0.0012881755828857422 0.00122833251953125 0.07410430908203125 -0.09767532348632812
17.76325 -0.09865188598632812 0.032321929931640625 0.1240386962890625 -0.008213043212890625 -0.0006692707538604736 0.0008105337619781494 0.06728363037109375 -0.09917068481445312
17.773 -0.09745025634765625 0.038341522216796875 0.11743927001953125 -0.0136566162109375 0.00014331936836242676 0.00027774274349212646 0.06298065185546875 -0.10102462768554688
17.78275 -0.09543609619140625 0.04677581787109375 0.1092681884765625 -0.01680755615234375 0.0004493594169616699 0.0010830163955688477 0.058742523193359375 -0.10451126098632812
17.7925 -0.09202194213867188 0.053264617919921875 0.10179519653320312 -0.020580291748046875 -0.0011195540428161621 0.0008022785186767578 0.053680419921875 -0.10550689697265625
17.80225 -0.08826065063476562 0.06005859375 0.09678268432617188 -0.02291107177734375 0.0010129213333129883 0.0016121864318847656 0.0479888916015625 -0.10696029663085938
17.812 -0.08496856689453125 0.06731414794921875 0.08948516845703125 -0.02346038818359375 -0.0011566877365112305 0.00222933292388916 0.04219818115234375 -0.10890579223632812
17.82175 -0.08136749267578125 0.07519912719726562 0.08547592163085938 -0.0241851806640625 -0.00037926435470581055 0.0016295909881591797 0.037540435791015625 -0.10697174072265625
17.8315 -0.07749557495117188 0.0809783935546875 0.078033447265625 -0.023792266845703125 0.0007094740867614746 0.0007323026657104492 0.033061981201171875 -0.10791397094726562
17.84125 -0.072998046875 0.08758544921875 0.074005126953125 -0.02115631103515625 0.0005960464477539062 0.00013446807861328125 0.0253448486328125 -0.107513427734375
17.851 -0.06707382202148438 0.0957183837890625 0.0703125 -0.018344879150390625 -0.0010641813278198242 0.00225067138671875 0.021331787109375 -0.10744094848632812
17.86075 -0.063140869140625 0.09945297241210938 0.07024002075195312 -0.015865325927734375 9.393692016601562e-05 0.0010339021682739258 0.01467132568359375 -0.10456466674804688
17.8705 -0.05789947509765625 0.104949951171875 0.0699920654296875 -0.0107574462890625 0.0012422800064086914 0.0026416778564453125 0.009845733642578125 -0.10536956787109375
17.88025 -0.052215576171875 0.10956192016601562 0.06968307495117188 -0.006717681884765625 -8.344650268554688e-07 0.001574099063873291 0.002899169921875 -0.10350418090820312
17.89 -0.046642303466796875 0.116973876953125 0.07276535034179688 -0.003246307373046875 0.0008395016193389893 -0.00047600269317626953 -0.00063323974609375 -0.10282516479492188
17.89975 -0.040576934814453125 0.1196746826171875 0.073974609375 -0.000263214111328125 0.00030159950256347656 0.0011482834815979004 -0.007068634033203125 -0.10250091552734375
17.9095 -0.03553009033203125 0.124359130859375 0.07979202270507812 0.001323699951171875 0.0009273290634155273 0.0011038780212402344 -0.01123809814453125 -0.10083770751953125
17.91925 -0.026702880859375 0.1262054443359375 0.08649063110351562 0.00408935546875 -7.417798042297363e-05 0.0004999339580535889 -0.0152740478515625 -0.09755706787109375
17.929 -0.0200958251953125 0.1304779052734375 0.09383392333984375 0.003692626953125 0.000647425651550293 -0.00015181303024291992 -0.02182769775390625 -0.09650421142578125
17.93875 -0.01529693603515625 0.133636474609375 0.10245132446289062 0.00214385986328125 0.0009210109710693359 0.00042504072189331055 -0.026149749755859375 -0.09370803833007812
17.9485 -0.0076446533203125 0.13494873046875 0.11116409301757812 -0.000240325927734375 -0.00016808509826660156 0.00020166486501693726 -0.03057098388671875 -0.0890655517578125
17.95825 -0.0009613037109375 0.1376495361328125 0.12207794189453125 -0.004180908203125 0.0014199018478393555 -0.0011659860610961914 -0.032680511474609375 -0.08819580078125
17.968 0.0054168701171875 0.1393585205078125 0.13083648681640625 -0.009307861328125 0.0007421374320983887 0.00024706125259399414 -0.038661956787109375 -0.08462142944335938
17.97775 0.01316070556640625 0.1407470703125 0.14054107666015625 -0.01631927490234375 0.00042623281478881836 0.0008566975593566895 -0.044239044189453125 -0.0792236328125
17.9875 0.0223541259765625 0.14278411865234375 0.1526947021484375 -0.0265655517578125 -7.668137550354004e-05 0.0005495548248291016 -0.046184539794921875 -0.07459640502929688
17.99725 0.02899169921875 0.142181396484375 0.1628570556640625 -0.03949737548828125 0.0010662674903869629 -0.0003280043601989746 -0.049938201904296875 -0.07224655151367188
18.007 0.0369720458984375 0.14273834228515625 0.17096710205078125 -0.056396484375 0.0007063746452331543 0.0007575154304504395 -0.05352783203125 -0.06842041015625
18.01675 0.0452423095703125 0.14459991455078125 0.17787933349609375 -0.0728912353515625 0.0007469058036804199 -0.00023418664932250977 -0.057109832763671875 -0.0632171630859375
18.0265 0.0526885986328125 0.14337158203125 0.183990478515625 -0.0947265625 0.00015607476234436035 0.00027370452880859375 -0.0625 -0.05712890625
18.03625 0.060089111328125 0.1432952880859375 0.185638427734375 -0.1183319091796875 0.0006936788558959961 0.0006104707717895508 -0.0643310546875 -0.05194091796875
18.046 0.0693817138671875 0.14194488525390625 0.185394287109375 -0.14025115966796875 0.0005214214324951172 -0.00025728344917297363 -0.0663299560546875 -0.04779052734375
18.05575 0.0750579833984375 0.13944244384765625 0.1812591552734375 -0.16391754150390625 0.0013519525527954102 -6.365776062011719e-05 -0.06930923461914062 -0.042240142822265625
18.0655 0.08037567138671875 0.1387481689453125 0.17388916015625 -0.18711090087890625 0.0023245811462402344 -0.00016677379608154297 -0.07303237915039062 -0.036304473876953125
18.07525 0.08988189697265625 0.1360321044921875 0.164947509765625 -0.211883544921875 0.0004963278770446777 0.0007627010345458984 -0.07308578491210938 -0.030429840087890625
18.085 0.0966949462890625 0.13420867919921875 0.15100860595703125 -0.23650360107421875 0.0003371685743331909 2.7179718017578125e-05 -0.07589340209960938 -0.025119781494140625
18.09475 0.10269927978515625 0.12964630126953125 0.1360626220703125 -0.2624359130859375 8.620321750640869e-06 -9.119883179664612e-05 -0.07400894165039062 -0.02115631103515625
18.1045 0.1092376708984375 0.12677001953125 0.115570068359375 -0.28485107421875 0.0008001327514648438 -0.000773996114730835 -0.07620620727539062 -0.012798309326171875
18.11425 0.11631011962890625 0.1251373291015625 0.0909271240234375 -0.3066253662109375 0.00046756863594055176 -0.0005165934562683105 -0.0760650634765625 -0.007068634033203125
18.124 0.1222381591796875 0.1198577880859375 0.062408447265625 -0.326385498046875 0.0010156631469726562 0.0003247261047363281 -0.07559967041015625 0.0006256103515625
18.13375 0.12866973876953125 0.11618804931640625 0.03131103515625 -0.3443756103515625 0.0006903707981109619 -0.0002415478229522705 -0.07515716552734375 0.00506591796875
18.1435 0.13463592529296875 0.11077117919921875 -0.001983642578125 -0.3558349609375 -0.00013985484838485718 0.0002323240041732788 -0.07537460327148438 0.0120086669921875
18.15325 0.14048004150390625 0.104248046875 -0.0364532470703125 -0.3663177490234375 0.0011662840843200684 -0.0015162229537963867 -0.0738525390625 0.019012451171875
18.163 0.1486968994140625 0.09827423095703125 -0.0748138427734375 -0.367950439453125 0.00141829252243042 -0.00010585784912109375 -0.07086181640625 0.026042938232421875
18.17275 0.1529388427734375 0.09429931640625 -0.1136016845703125 -0.37005615234375 0.00026860833168029785 0.000522911548614502 -0.06711959838867188 0.032825469970703125
18.1825 0.15790557861328125 0.08814239501953125 -0.15203857421875 -0.36767578125 0.0006768405437469482 -0.000383228063583374 -0.06554031372070312 0.039440155029296875
18.19225 0.16225433349609375 0.08043670654296875 -0.193389892578125 -0.361328125 0.0008258223533630371 0.0007200837135314941 -0.06122398376464844 0.04378509521484375
18.202 0.1678009033203125 0.07524871826171875 -0.232666015625 -0.349090576171875 2.6851892471313477e-05 -0.0007119476795196533 -0.060321807861328125 0.05167579650878906
18.21175 0.1721954345703125 0.0686798095703125 -0.2728271484375 -0.33056640625 0.00044205784797668457 -8.32974910736084e-05 -0.055633544921875 0.05619049072265625
18.2215 0.17742156982421875 0.05966949462890625 -0.310028076171875 -0.307861328125 0.0019682645797729492 -0.0007679462432861328 -0.051113128662109375 0.06062507629394531
18.23125 0.1810455322265625 0.05303192138671875 -0.344696044921875 -0.28094482421875 -9.53376293182373e-05 -0.0005138814449310303 -0.04698944091796875 0.06361007690429688
18.241 0.1831512451171875 0.04512786865234375 -0.374847412109375 -0.2506103515625 0.0005216598510742188 -0.0004170238971710205 -0.0420989990234375 0.0702972412109375
18.25075 0.18611907958984375 0.038177490234375 -0.40240478515625 -0.216766357421875 0.0007398724555969238 -0.000310748815536499 -0.036441802978515625 0.0742034912109375
18.2605 0.18785858154296875 0.0306549072265625 -0.42822265625 -0.180877685546875 0.0006740093231201172 -0.0016785264015197754 -0.0311431884765625 0.07763290405273438
18.27025 0.1882781982421875 0.021697998046875 -0.451446533203125 -0.1431884765625 0.0006844699382781982 -0.0003368258476257324 -0.023906707763671875 0.08303451538085938
18.28 0.19184112548828125 0.0138397216796875 -0.469970703125 -0.10113525390625 3.2901763916015625e-05 -0.0010100007057189941 -0.01740264892578125 0.084808349609375
18.28975 0.1932525634765625 0.0035400390625 -0.4847412109375 -0.056915283203125 0.0005718469619750977 -0.0009889602661132812 -0.010669708251953125 0.08707427978515625
18.2995 0.19256591796875 -0.0038604736328125 -0.4923553466796875 -0.0096435546875 0.0004037320613861084 0.0001817643642425537 -0.004405975341796875 0.08662033081054688
18.30925 0.1930999755859375 -0.01202392578125 -0.497039794921875 0.03826904296875 -0.000632166862487793 -0.0007207393646240234 0.00347900390625 0.09006500244140625
18.319 0.1915740966796875 -0.023193359375 -0.4965972900390625 0.0852508544921875 0.0006129443645477295 -0.0005712509155273438 0.0126800537109375 0.0919342041015625
18.32875 0.191131591796875 -0.0297088623046875 -0.4883575439453125 0.13140869140625 -0.0006901025772094727 -0.0008370280265808105 0.0194854736328125 0.09381866455078125
18.3385 0.1902313232421875 -0.03972625732421875 -0.4767913818359375 0.1779327392578125 0.0001169741153717041 -0.0005242824554443359 0.0293426513671875 0.09439849853515625
18.34825 0.18898773193359375 -0.04767608642578125 -0.4617767333984375 0.220611572265625 -0.000925898551940918 -0.000999152660369873 0.03395843505859375 0.0952606201171875
18.358 0.186492919921875 -0.05612945556640625 -0.445220947265625 0.26287841796875 -0.0001766681671142578 -0.001265883445739746 0.04351806640625 0.090545654296875
18.36775 0.18427276611328125 -0.064788818359375 -0.4224395751953125 0.3036346435546875 0.000484466552734375 -0.00012293457984924316 0.04985809326171875 0.08881378173828125
18.3775 0.1818695068359375 -0.0721588134765625 -0.3995513916015625 0.343109130859375 0.000670313835144043 -0.0010431408882141113 0.05631256103515625 0.088775634765625
18.38725 0.17940521240234375 -0.0812225341796875 -0.368865966796875 0.3813323974609375 -5.900859832763672e-05 -0.0015813112258911133 0.06359100341796875 0.08609771728515625
18.397 0.17645263671875 -0.0872650146484375 -0.3349609375 0.41619873046875 -0.00019735097885131836 -0.0002829432487487793 0.0713653564453125 0.0818328857421875
18.40675 0.1699981689453125 -0.0941925048828125 -0.296661376953125 0.449310302734375 0.0002645254135131836 -0.0004849433898925781 0.078704833984375 0.077972412109375
18.4165 0.16495513916015625 -0.10251617431640625 -0.2557220458984375 0.474884033203125 -0.00011497735977172852 -0.001334846019744873 0.0846405029296875 0.07567596435546875
18.42625 0.1600341796875 -0.10913848876953125 -0.2120513916015625 0.495269775390625 0.00011699274182319641 -7.736682891845703e-05 0.0904693603515625 0.06797027587890625
18.436 0.154693603515625 -0.11461639404296875 -0.1700439453125 0.511627197265625 0.0008240044116973877 -0.0009327232837677002 0.09841156005859375 0.06197357177734375
18.44575 0.1475067138671875 -0.122802734375 -0.12847900390625 0.525909423828125 -0.00010591745376586914 0.00021003931760787964 0.1015777587890625 0.0563812255859375
18.4555 0.13982391357421875 -0.1277008056640625 -0.086456298828125 0.537628173828125 0.0006934404373168945 -7.44163990020752e-05 0.10662841796875 0.05028533935546875
18.46525 0.1342620849609375 -0.13428497314453125 -0.043365478515625 0.5496826171875 -0.0006190240383148193 -2.0056962966918945e-05 0.11175537109375 0.04085540771484375
18.475 0.12639617919921875 -0.1392364501953125 0.002899169921875 0.55657958984375 0.0014723539352416992 0.0008703470230102539 0.1153564453125 0.03260040283203125
18.48475 0.12060546875 -0.146148681640625 0.05181884765625 0.56060791015625 0.00014069676399230957 8.115172386169434e-05 0.11820220947265625 0.02571868896484375
18.4945 0.11281585693359375 -0.14836883544921875 0.102020263671875 0.556365966796875 -0.00037467479705810547 -0.00031131505966186523 0.1217193603515625 0.0167236328125
18.50425 0.10504150390625 -0.15362548828125 0.1546630859375 0.54876708984375 0.00019359588623046875 -0.001006007194519043 0.1227264404296875 0.0090789794921875
18.514 0.0979461669921875 -0.1584320068359375 0.20379638671875 0.53558349609375 0.0003631114959716797 0.001461029052734375 0.1233978271484375 2.288818359375e-05
18.52375 0.08950042724609375 -0.16094970703125 0.249542236328125 0.51361083984375 -0.0005078613758087158 0.00026032328605651855 0.12456130981445312 -0.007389068603515625
18.5335 0.0829925537109375 -0.1646270751953125 0.291168212890625 0.4920654296875 -0.0004845261573791504 -0.0005366206169128418 0.12493133544921875 -0.014934539794921875
18.54325 0.0748291015625 -0.16832733154296875 0.3311767578125 0.468231201171875 -0.00023755431175231934 -0.00048166513442993164 0.12348556518554688 -0.023525238037109375
18.553 0.06756591796875 -0.16875457763671875 0.366180419921875 0.441253662109375 0.0004553496837615967 -0.0006144940853118896 0.1218719482421875 -0.028553009033203125
18.56275 0.05971527099609375 -0.16888427734375 0.401702880859375 0.412200927734375 0.00014488399028778076 -5.7443976402282715e-05 0.12047195434570312 -0.038410186767578125
18.5725 0.05031585693359375 -0.16963958740234375 0.43731689453125 0.3819580078125 0.0008179843425750732 0.00012189149856567383 0.1152191162109375 -0.04630279541015625
18.58225 0.042205810546875 -0.1712493896484375 0.47113037109375 0.347198486328125 0.0009822845458984375 -0.0007905960083007812 0.11186981201171875 -0.0533599853515625
18.592 0.03432464599609375 -0.17288970947265625 0.50341796875 0.308074951171875 0.0011931061744689941 -0.0006164908409118652 0.10681915283203125 -0.059696197509765625
18.60175 0.026397705078125 -0.1716766357421875 0.53216552734375 0.2650146484375 0.00031620264053344727 -0.0005853176116943359 0.103179931640625 -0.06488037109375
18.6115 0.01865386962890625 -0.169464111328125 0.55340576171875 0.22076416015625 -0.00030297040939331055 -0.0009033679962158203 0.09773635864257812 -0.07297134399414062
18.62125 0.01080322265625 -0.16998291015625 0.5692138671875 0.173919677734375 -8.177757263183594e-05 -0.00018161535263061523 0.09190750122070312 -0.0765838623046875
18.631 0.00130462646484375 -0.1686553955078125 0.58087158203125 0.1312255859375 0.001015007495880127 -0.0007960200309753418 0.08502960205078125 -0.08391952514648438
