!Created with skrf (http://scikit-rf.org).
# GHz S RI R 50.0 
!freq ReS11 ImS11 ReS21 ImS21 ReS12 ImS12 ReS22 ImS22
17.5 0.00876617431640625 -0.14369964599609375 -0.0881500244140625 0.156829833984375 -0.0013672709465026855 0.0013074874877929688 0.09873580932617188 0.0009613037109375
17.50975 -0.00127410888671875 -0.142120361328125 -0.06887054443359375 0.160430908203125 -0.0009392201900482178 0.00010085105895996094 0.10106277465820312 -8.392333984375e-05
17.5195 -0.0077362060546875 -0.13800048828125 -0.0487823486328125 0.16156005859375 -0.001252293586730957 -0.0003445148468017578 0.10361862182617188 -0.001407623291015625
17.52925 -0.01795196533203125 -0.133026123046875 -0.03099822998046875 0.16199493408203125 -0.001933753490447998 0.000981748104095459 0.10594940185546875 -0.00545501708984375
17.539 -0.023681640625 -0.12786865234375 -0.01361083984375 0.1597442626953125 -0.0015300512313842773 0.0016268491744995117 0.105499267578125 -0.00920867919921875
17.54875 -0.0322113037109375 -0.12395477294921875 0.0025482177734375 0.15545654296875 -0.0011383891105651855 0.0004475712776184082 0.1087799072265625 -0.011260986328125
17.5585 -0.0433197021484375 -0.11959075927734375 0.01970672607421875 0.149444580078125 -0.0003110170364379883 0.0010644793510437012 0.1116485595703125 -0.015727996826171875
17.56825 -0.04651641845703125 -0.11548614501953125 0.0346527099609375 0.1423187255859375 -0.0005392134189605713 0.0007984042167663574 0.11225509643554688 -0.02059173583984375
17.578 -0.05364227294921875 -0.1084442138671875 0.04656982421875 0.13307952880859375 -0.0008424520492553711 -0.00018233060836791992 0.11326980590820312 -0.022502899169921875
17.58775 -0.05959320068359375 -0.1036224365234375 0.06060791015625 0.12050628662109375 -0.0015892982482910156 0.0008834004402160645 0.11299896240234375 -0.0283203125
17.5975 -0.06444549560546875 -0.0977935791015625 0.06958770751953125 0.109375 -0.00033992528915405273 0.0004037320613861084 0.1139984130859375 -0.0326385498046875
17.60725 -0.07079315185546875 -0.09300994873046875 0.07859039306640625 0.09661102294921875 -0.0008051395416259766 0.0010506510734558105 0.11326980590820312 -0.035755157470703125
17.617 -0.0756988525390625 -0.084686279296875 0.08536529541015625 0.08274078369140625 -0.0014308691024780273 0.0012171268463134766 0.11432647705078125 -0.039966583251953125
17.62675 -0.08075714111328125 -0.07735443115234375 0.088623046875 0.0692291259765625 -0.00021588802337646484 0.001407623291015625 0.11418533325195312 -0.044261932373046875
17.6365 -0.0826873779296875 -0.0708770751953125 0.0911865234375 0.054962158203125 -0.000662386417388916 0.0005927681922912598 0.1141815185546875 -0.04953765869140625
17.64625 -0.0866546630859375 -0.062744140625 0.0897674560546875 0.04302978515625 4.953145980834961e-05 0.001194000244140625 0.11040115356445312 -0.05307769775390625
17.656 -0.0904693603515625 -0.05678558349609375 0.08891677856445312 0.031368255615234375 -0.001173555850982666 0.00039380788803100586 0.10660171508789062 -0.05777740478515625
17.66575 -0.09326171875 -0.04601287841796875 0.08855819702148438 0.021770477294921875 -0.001065671443939209 0.001360476016998291 0.10692977905273438 -0.06243896484375
17.6755 -0.09716796875 -0.03942108154296875 0.08359146118164062 0.009845733642578125 -0.0003274381160736084 0.0008969008922576904 0.10306549072265625 -0.06641006469726562
17.68525 -0.0983734130859375 -0.03131866455078125 0.0781097412109375 -0.0005950927734375 -0.0005486607551574707 0.0017412304878234863 0.09996795654296875 -0.07264328002929688
17.695 -0.09984588623046875 -0.02286529541015625 0.07238006591796875 -0.00927734375 -0.0014733076095581055 0.0014174580574035645 0.0989990234375 -0.07521438598632812
17.70475 -0.10019302368164062 -0.013713836669921875 0.06598663330078125 -0.01578521728515625 -0.0013767480850219727 0.0016747117042541504 0.09426116943359375 -0.07912445068359375
17.7145 -0.1026153564453125 -0.0058746337890625 0.05742073059082031 -0.023464202880859375 -0.001041412353515625 0.0023003816604614258 0.0894317626953125 -0.0840911865234375
17.72425 -0.10080337524414062 0.001369476318359375 0.049610137939453125 -0.030765533447265625 -0.0011553168296813965 0.0007374286651611328 0.08480072021484375 -0.0869293212890625
17.734 -0.10327911376953125 0.0097198486328125 0.038684844970703125 -0.032802581787109375 -7.486343383789062e-05 0.0011875629425048828 0.0818023681640625 -0.0898284912109375
17.74375 -0.1027984619140625 0.01642608642578125 0.026214599609375 -0.03632354736328125 -0.0003892183303833008 0.001830458641052246 0.07753753662109375 -0.0966339111328125
17.7535 -0.10058212280273438 0.02452850341796875 0.018281936645507812 -0.033966064453125 -0.0007269382476806641 0.0018367767333984375 0.07221603393554688 -0.09790420532226562
17.76325 -0.098480224609375 0.032688140869140625 0.009157180786132812 -0.03250694274902344 0.0010908842086791992 0.0016454458236694336 0.06687545776367188 -0.09962081909179688
17.773 -0.0970458984375 0.039058685302734375 0.0001678466796875 -0.029862403869628906 -0.0011745691299438477 0.0004348158836364746 0.0631866455078125 -0.10248184204101562
17.78275 -0.09653854370117188 0.047412872314453125 -0.008758544921875 -0.026111602783203125 0.0003489255905151367 0.0010657906532287598 0.058200836181640625 -0.1041107177734375
17.7925 -0.09075546264648438 0.054412841796875 -0.016796112060546875 -0.020200729370117188 -0.0006201267242431641 0.0018298625946044922 0.052433013916015625 -0.1049652099609375
17.80225 -0.08934783935546875 0.060123443603515625 -0.023172378540039062 -0.013502120971679688 -0.00039821863174438477 0.0013748407363891602 0.0490570068359375 -0.10778427124023438
17.812 -0.08484268188476562 0.06716537475585938 -0.029424667358398438 -0.00482177734375 0.0002567768096923828 0.001981377601623535 0.042022705078125 -0.106842041015625
17.82175 -0.08003616333007812 0.07627105712890625 -0.03345298767089844 0.0032405853271484375 -0.0004874765872955322 0.0008086562156677246 0.03826904296875 -0.1057281494140625
17.8315 -0.0771942138671875 0.08111190795898438 -0.03775978088378906 0.015287399291992188 0.0006299614906311035 0.0010462403297424316 0.03202056884765625 -0.10995101928710938
17.84125 -0.07268524169921875 0.0886383056640625 -0.03827667236328125 0.025493621826171875 0.0008592605590820312 0.0009210109710693359 0.02562713623046875 -0.10755157470703125
17.851 -0.06626129150390625 0.09592819213867188 -0.03727531433105469 0.0371856689453125 0.00032013654708862305 0.0012146830558776855 0.021564483642578125 -0.10783767700195312
17.86075 -0.061939239501953125 0.09943389892578125 -0.03341102600097656 0.048770904541015625 0.0012645721435546875 0.0016753673553466797 0.01332855224609375 -0.105560302734375
17.8705 -0.057170867919921875 0.10475921630859375 -0.029432296752929688 0.05950927734375 -0.0003745555877685547 0.0004109889268875122 0.008575439453125 -0.1057891845703125
17.88025 -0.0517425537109375 0.11108016967773438 -0.024066925048828125 0.07040786743164062 0.00024694204330444336 0.001712024211883545 0.00324249267578125 -0.10458755493164062
17.89 -0.04685211181640625 0.11755752563476562 -0.016056060791015625 0.0808258056640625 0.0010849833488464355 0.000329434871673584 -0.001583099365234375 -0.10255050659179688
17.89975 -0.03948974609375 0.1208038330078125 -0.00501251220703125 0.09175872802734375 -6.338953971862793e-05 -3.308802843093872e-05 -0.007251739501953125 -0.10272979736328125
17.9095 -0.03540802001953125 0.1252288818359375 0.006786346435546875 0.10084915161132812 0.0014299750328063965 0.0002823472023010254 -0.011959075927734375 -0.10088729858398438
17.91925 -0.027862548828125 0.12743377685546875 0.01922607421875 0.10823822021484375 0.0004922747611999512 0.0010412931442260742 -0.017375946044921875 -0.098602294921875
17.929 -0.021270751953125 0.1310272216796875 0.0359344482421875 0.11419677734375 0.000573277473449707 0.0008101463317871094 -0.02225494384765625 -0.09644317626953125
17.93875 -0.0137939453125 0.13352203369140625 0.05329132080078125 0.116668701171875 0.0003414750099182129 0.000555187463760376 -0.026958465576171875 -0.09351730346679688
17.9485 -0.0077972412109375 0.1348114013671875 0.07140350341796875 0.11833953857421875 0.0004093647003173828 0.0015826225280761719 -0.030673980712890625 -0.08967971801757812
17.95825 -0.00142669677734375 0.13811492919921875 0.09043121337890625 0.11621856689453125 0.0003154575824737549 0.0002587437629699707 -0.033214569091796875 -0.0864105224609375
17.968 0.0071258544921875 0.13944244384765625 0.10855865478515625 0.11392974853515625 0.001231074333190918 0.00010246038436889648 -0.03842926025390625 -0.08439254760742188
17.97775 0.01448822021484375 0.14002227783203125 0.129302978515625 0.10755157470703125 0.0013992786407470703 0.0013138055801391602 -0.041782379150390625 -0.0784149169921875
17.9875 0.022064208984375 0.14272308349609375 0.1493377685546875 0.0980682373046875 0.0011739134788513184 -0.00017535686492919922 -0.044933319091796875 -0.07419204711914062
17.99725 0.0302734375 0.14398956298828125 0.16796875 0.086212158203125 0.0018541812896728516 0.0011066198348999023 -0.05089569091796875 -0.07101821899414062
18.007 0.0376739501953125 0.14365386962890625 0.187530517578125 0.0707550048828125 0.0006656646728515625 0.0003712773323059082 -0.054889678955078125 -0.06657791137695312
18.01675 0.04575347900390625 0.14380645751953125 0.2050018310546875 0.051849365234375 0.00026683509349823 -6.631016731262207e-05 -0.057781219482421875 -0.0616302490234375
18.0265 0.053253173828125 0.1421356201171875 0.221710205078125 0.0287628173828125 0.0008255243301391602 0.0007973909378051758 -0.0619354248046875 -0.05634307861328125
18.03625 0.06011962890625 0.14544677734375 0.232757568359375 0.00262451171875 0.0005460381507873535 0.00022667646408081055 -0.06429290771484375 -0.05164337158203125
18.046 0.06826019287109375 0.14113616943359375 0.24111175537109375 -0.0241851806640625 0.000827789306640625 0.0004203915596008301 -0.06616592407226562 -0.0455322265625
18.05575 0.07642364501953125 0.13944244384765625 0.2461700439453125 -0.053375244140625 0.00047431886196136475 1.0952353477478027e-05 -0.07036972045898438 -0.04195404052734375
18.0655 0.0813751220703125 0.13932037353515625 0.24700927734375 -0.0835113525390625 0.001095592975616455 -0.00020611286163330078 -0.0723419189453125 -0.036144256591796875
18.07525 0.08873748779296875 0.135833740234375 0.24561309814453125 -0.1139678955078125 0.0005165934562683105 -0.0004936456680297852 -0.07402420043945312 -0.030170440673828125
18.085 0.09699249267578125 0.1333465576171875 0.23968505859375 -0.14322662353515625 0.0007719993591308594 0.00013110041618347168 -0.07560348510742188 -0.023639678955078125
18.09475 0.10357666015625 0.1297607421875 0.231292724609375 -0.1755828857421875 0.0006757378578186035 0.0005944371223449707 -0.07338714599609375 -0.02030181884765625
18.1045 0.10992431640625 0.12520599365234375 0.21734619140625 -0.20664215087890625 0.00045290589332580566 -8.955597877502441e-05 -0.0765533447265625 -0.0114288330078125
18.11425 0.1158599853515625 0.1245269775390625 0.200775146484375 -0.2373504638671875 0.0019905567169189453 0.0014431476593017578 -0.07612991333007812 -0.008487701416015625
18.124 0.1219482421875 0.119049072265625 0.1768798828125 -0.2664794921875 0.0007992386817932129 -0.0005807876586914062 -0.0753631591796875 -0.0004119873046875
18.13375 0.1293182373046875 0.11486053466796875 0.1519317626953125 -0.291748046875 0.0014827847480773926 0.00022029876708984375 -0.07429122924804688 0.0064239501953125
18.1435 0.13330841064453125 0.10976409912109375 0.1213836669921875 -0.3151092529296875 0.0006754398345947266 -0.0007459521293640137 -0.0735626220703125 0.014057159423828125
18.15325 0.14031219482421875 0.1043243408203125 0.0887908935546875 -0.334808349609375 0.001227736473083496 0.00017577409744262695 -0.07373046875 0.01927947998046875
18.163 0.14838409423828125 0.0981903076171875 0.052978515625 -0.347381591796875 0.0007612407207489014 -3.421306610107422e-05 -0.07200241088867188 0.024822235107421875
18.17275 0.15325927734375 0.09252166748046875 0.01513671875 -0.35992431640625 0.0015187263488769531 -3.4332275390625e-05 -0.0670166015625 0.031620025634765625
18.1825 0.15853118896484375 0.0874786376953125 -0.021881103515625 -0.3666229248046875 0.0009492337703704834 -0.0005104541778564453 -0.06599044799804688 0.038730621337890625
18.19225 0.1621856689453125 0.08061981201171875 -0.06341552734375 -0.370208740234375 0.0007818043231964111 -0.0004202425479888916 -0.06180000305175781 0.04506874084472656
18.202 0.1689910888671875 0.0745697021484375 -0.1027679443359375 -0.3701324462890625 0.0016235709190368652 -0.0004996657371520996 -0.0612945556640625 0.05068397521972656
18.21175 0.171539306640625 0.06781005859375 -0.14373779296875 -0.36260986328125 0.0006066560745239258 -0.00034606456756591797 -0.053783416748046875 0.05615997314453125
18.2215 0.177490234375 0.0587158203125 -0.184722900390625 -0.348663330078125 -0.0002638697624206543 -0.0006834864616394043 -0.049510955810546875 0.061481475830078125
18.23125 0.18073272705078125 0.053009033203125 -0.22418212890625 -0.3311767578125 0.0007816553115844727 -0.0008175075054168701 -0.047210693359375 0.0651397705078125
18.241 0.1835174560546875 0.0457305908203125 -0.259857177734375 -0.31109619140625 0.0014716386795043945 -0.0005484223365783691 -0.0425567626953125 0.06861114501953125
18.25075 0.18663787841796875 0.038177490234375 -0.292816162109375 -0.285491943359375 0.0005278289318084717 -0.000466763973236084 -0.037021636962890625 0.07424163818359375
18.2605 0.18793487548828125 0.030364990234375 -0.32421875 -0.257415771484375 0.0018817782402038574 -0.0007269978523254395 -0.031490325927734375 0.07761001586914062
18.27025 0.18900299072265625 0.0221099853515625 -0.351806640625 -0.226593017578125 -0.0001389533281326294 5.960464477539062e-07 -0.024444580078125 0.08138656616210938
18.28 0.19187164306640625 0.01396942138671875 -0.3770751953125 -0.1927490234375 0.00036984682083129883 -0.0006940066814422607 -0.01725006103515625 0.08269500732421875
18.28975 0.19362640380859375 0.0033721923828125 -0.398040771484375 -0.1558837890625 0.00011831521987915039 -0.0006775856018066406 -0.01065826416015625 0.08886337280273438
18.2995 0.19382476806640625 -0.0041351318359375 -0.417694091796875 -0.116455078125 -0.00040906667709350586 -0.00040665268898010254 -0.00368499755859375 0.08737945556640625
18.30925 0.1930694580078125 -0.014007568359375 -0.431427001953125 -0.07275390625 -2.2530555725097656e-05 -0.0009047985076904297 0.004486083984375 0.08895111083984375
18.319 0.19222259521484375 -0.0228424072265625 -0.4383697509765625 -0.0296173095703125 0.0005792975425720215 0.0005287528038024902 0.010986328125 0.091705322265625
18.32875 0.1917266845703125 -0.0278778076171875 -0.439910888671875 0.0129852294921875 0.00035941600799560547 -0.0005759596824645996 0.020038604736328125 0.09151458740234375
18.3385 0.18979644775390625 -0.03911590576171875 -0.4368896484375 0.0548248291015625 -0.0005444884300231934 -0.0010675787925720215 0.027736663818359375 0.09318923950195312
18.34825 0.1888275146484375 -0.0481109619140625 -0.433929443359375 0.0958251953125 0.0007576644420623779 -0.0008207857608795166 0.0358123779296875 0.093170166015625
18.358 0.18790435791015625 -0.056732177734375 -0.4270782470703125 0.1360931396484375 0.00017717480659484863 -0.0009126663208007812 0.0439605712890625 0.0920257568359375
18.36775 0.1845855712890625 -0.06366729736328125 -0.414306640625 0.178131103515625 0.0005217194557189941 -0.00012740492820739746 0.04947662353515625 0.08927154541015625
18.3775 0.18106842041015625 -0.07231903076171875 -0.4003753662109375 0.2161102294921875 -0.00045302510261535645 -0.00042253732681274414 0.0563507080078125 0.08731842041015625
18.38725 0.1784210205078125 -0.08055877685546875 -0.3788604736328125 0.255096435546875 0.00033986568450927734 -0.0009570419788360596 0.0644683837890625 0.08428192138671875
18.397 0.1742095947265625 -0.08648681640625 -0.3553466796875 0.29058837890625 -0.00018769502639770508 0.0009745359420776367 0.070709228515625 0.0813446044921875
18.40675 0.1697998046875 -0.0933685302734375 -0.327667236328125 0.328033447265625 0.0002665519714355469 -0.0004133880138397217 0.078216552734375 0.0779876708984375
18.4165 0.16541290283203125 -0.10285186767578125 -0.2961273193359375 0.3574676513671875 0.00012542307376861572 -0.00028139352798461914 0.08290863037109375 0.07390594482421875
18.42625 0.15946197509765625 -0.1086883544921875 -0.2629852294921875 0.38067626953125 -0.00025665760040283203 -0.0003305971622467041 0.0907135009765625 0.06743621826171875
18.436 0.15238189697265625 -0.1146240234375 -0.2294769287109375 0.4033203125 0.00019025802612304688 -0.0011205077171325684 0.09709930419921875 0.062347412109375
18.44575 0.14754486083984375 -0.12255096435546875 -0.1933441162109375 0.4227294921875 0.0006164312362670898 -0.00036585330963134766 0.10186767578125 0.055572509765625
18.4555 0.13951873779296875 -0.12805938720703125 -0.159515380859375 0.4386444091796875 0.0015003085136413574 -0.00010138750076293945 0.10559844970703125 0.04996490478515625
18.46525 0.13437652587890625 -0.133880615234375 -0.1229705810546875 0.4571075439453125 0.0001518726348876953 0.0003746449947357178 0.11115264892578125 0.04068756103515625
18.475 0.126129150390625 -0.13895416259765625 -0.0832672119140625 0.4698944091796875 0.0002517402172088623 -0.000621795654296875 0.1140899658203125 0.034271240234375
18.48475 0.12160491943359375 -0.14550018310546875 -0.042510986328125 0.4814605712890625 -0.0002333521842956543 0.0005493760108947754 0.11803436279296875 0.0247802734375
18.4945 0.1116485595703125 -0.14926910400390625 0.0024566650390625 0.4873504638671875 -0.0007587075233459473 0.00015732645988464355 0.12195587158203125 0.0164642333984375
18.50425 0.104217529296875 -0.153839111328125 0.049560546875 0.48797607421875 0.00026917457580566406 2.950429916381836e-05 0.1226348876953125 0.009185791015625
18.514 0.0989227294921875 -0.1575469970703125 0.0926513671875 0.482666015625 -3.378093242645264e-05 -7.02589750289917e-06 0.12458038330078125 0.0015869140625
18.52375 0.0900726318359375 -0.15981292724609375 0.1378173828125 0.4715576171875 -0.0005172491073608398 -0.0005882978439331055 0.1243896484375 -0.007015228271484375
18.5335 0.08277130126953125 -0.1646270751953125 0.177947998046875 0.4583740234375 0.00029918551445007324 0.0005781650543212891 0.12593841552734375 -0.0153350830078125
18.54325 0.07575225830078125 -0.166107177734375 0.214599609375 0.441986083984375 -2.446770668029785e-05 -0.0003066211938858032 0.12346649169921875 -0.023853302001953125
18.553 0.06717681884765625 -0.1694183349609375 0.251373291015625 0.423431396484375 -0.0006376504898071289 1.7076730728149414e-05 0.12029647827148438 -0.0300750732421875
18.56275 0.05877685546875 -0.169403076171875 0.286590576171875 0.405303955078125 0.0004253387451171875 0.000896155834197998 0.11913681030273438 -0.037151336669921875
18.5725 0.050689697265625 -0.1714935302734375 0.321075439453125 0.38397216796875 9.72449779510498e-05 -0.0006058216094970703 0.11500167846679688 -0.044742584228515625
18.58225 0.0430145263671875 -0.17102813720703125 0.35675048828125 0.35589599609375 -7.781386375427246e-05 -0.0006519854068756104 0.11228561401367188 -0.05364227294921875
18.592 0.03421783447265625 -0.17218780517578125 0.38836669921875 0.325439453125 -0.00022518634796142578 -0.0010513067245483398 0.10702896118164062 -0.059581756591796875
18.60175 0.027252197265625 -0.171539306640625 0.41973876953125 0.29254150390625 0.00022274255752563477 -0.0009297728538513184 0.101715087890625 -0.06583404541015625
18.6115 0.01961517333984375 -0.1685028076171875 0.443328857421875 0.25506591796875 0.0010952353477478027 2.4318695068359375e-05 0.09773635864257812 -0.07277679443359375
18.62125 0.0113372802734375 -0.16933441162109375 0.46429443359375 0.2169189453125 0.0007419586181640625 -0.0005266070365905762 0.09197998046875 -0.07752227783203125
