!Created with skrf (http://scikit-rf.org).
# GHz S RI R 50.0 
!freq ReS11 ImS11 ReS21 ImS21 ReS12 ImS12 ReS22 ImS22
17.5 0.01141357421875 -0.14243316650390625 -1.223388671875 1.54241943359375 -0.0010391473770141602 0.00038373470306396484 0.093353271484375 0.003173828125
17.50975 0.00238037109375 -0.1378021240234375 -1.08843994140625 1.63250732421875 -0.0016505718231201172 1.8477439880371094e-05 0.09765625 0.003337860107421875
17.5195 -0.00482940673828125 -0.1335906982421875 -0.9462890625 1.7064208984375 -0.0012688636779785156 0.0012871623039245605 0.09969711303710938 0.00281524658203125
17.52925 -0.01410675048828125 -0.13120269775390625 -0.8043212890625 1.77227783203125 -0.0020607709884643555 0.0004165172576904297 0.10290145874023438 -0.003208160400390625
17.539 -0.0196075439453125 -0.1260528564453125 -0.6593017578125 1.822265625 -0.0013391971588134766 0.00033843517303466797 0.10467529296875 -0.00498199462890625
17.54875 -0.02788543701171875 -0.12255096435546875 -0.5135498046875 1.8565673828125 -0.0008186399936676025 0.0007816851139068604 0.10626220703125 -0.007846832275390625
17.5585 -0.03772735595703125 -0.11652374267578125 -0.369384765625 1.8880615234375 -0.0007519423961639404 0.0008471906185150146 0.10982131958007812 -0.011577606201171875
17.56825 -0.04274749755859375 -0.11296844482421875 -0.2271728515625 1.90643310546875 -0.0005492568016052246 0.0005353689193725586 0.1128692626953125 -0.016498565673828125
17.578 -0.04973602294921875 -0.10720062255859375 -0.07415771484375 1.91839599609375 4.079937934875488e-05 0.0009105801582336426 0.1136932373046875 -0.019329071044921875
17.58775 -0.05605316162109375 -0.1025848388671875 0.07965087890625 1.91558837890625 -0.0004171133041381836 0.0007111728191375732 0.1129608154296875 -0.022335052490234375
17.5975 -0.06058502197265625 -0.0962677001953125 0.237060546875 1.897705078125 -0.0025147199630737305 0.0011066198348999023 0.11523056030273438 -0.02736663818359375
17.60725 -0.0667572021484375 -0.0916595458984375 0.388916015625 1.861328125 -0.0010230541229248047 0.0008696913719177246 0.11411285400390625 -0.03034210205078125
17.617 -0.07111358642578125 -0.084991455078125 0.5350341796875 1.8123779296875 -0.001370549201965332 -0.0001761317253112793 0.11501693725585938 -0.033905029296875
17.62675 -0.0763092041015625 -0.078094482421875 0.6690673828125 1.7481689453125 -0.001111745834350586 0.000907599925994873 0.11530685424804688 -0.0387725830078125
17.6365 -0.079132080078125 -0.0707550048828125 0.79345703125 1.677978515625 -0.00026857852935791016 0.0016021728515625 0.114501953125 -0.04486846923828125
17.64625 -0.08374786376953125 -0.0630035400390625 0.9012451171875 1.6026611328125 -0.0013717412948608398 0.001101672649383545 0.11227035522460938 -0.0495758056640625
17.656 -0.08692169189453125 -0.0582275390625 1.005859375 1.529052734375 -0.0019388794898986816 0.0002582073211669922 0.1090850830078125 -0.05370330810546875
17.66575 -0.08966064453125 -0.04803466796875 1.1068115234375 1.4560546875 -0.0008413195610046387 0.0011227726936340332 0.10816192626953125 -0.058788299560546875
17.6755 -0.092620849609375 -0.04126739501953125 1.2052001953125 1.3746337890625 -0.00010824203491210938 0.0024535655975341797 0.10554885864257812 -0.06373977661132812
17.68525 -0.0954132080078125 -0.0333404541015625 1.3065185546875 1.292724609375 0.00018996000289916992 0.0013639330863952637 0.10432815551757812 -0.06799697875976562
17.695 -0.09583282470703125 -0.02570343017578125 1.4100341796875 1.1923828125 -3.439188003540039e-05 0.0009275376796722412 0.100799560546875 -0.07209014892578125
17.70475 -0.09734344482421875 -0.017299652099609375 1.5059814453125 1.0782470703125 -0.00044029951095581055 0.0011222362518310547 0.0975189208984375 -0.07599639892578125
17.7145 -0.09874725341796875 -0.009555816650390625 1.5936279296875 0.94873046875 -0.0013517141342163086 0.0012673735618591309 0.09483718872070312 -0.08096694946289062
17.72425 -0.09926605224609375 -0.002399444580078125 1.658935546875 0.808837890625 0.0006614923477172852 0.0008543729782104492 0.09006881713867188 -0.08552932739257812
17.734 -0.10012435913085938 0.007297515869140625 1.7052001953125 0.6673583984375 -0.0013551712036132812 0.0009946823120117188 0.08557510375976562 -0.08968734741210938
17.74375 -0.10102081298828125 0.0127716064453125 1.726806640625 0.52978515625 0.0007688999176025391 0.0013179779052734375 0.08232879638671875 -0.0955047607421875
17.7535 -0.09936904907226562 0.018951416015625 1.744384765625 0.400634765625 -0.00020688772201538086 0.0015521645545959473 0.07770919799804688 -0.0982666015625
17.76325 -0.09698486328125 0.027980804443359375 1.756591796875 0.2813720703125 0.000637054443359375 0.0016895532608032227 0.07110977172851562 -0.09867095947265625
17.773 -0.0976104736328125 0.0343475341796875 1.76104736328125 0.16485595703125 0.00040781497955322266 0.0015360713005065918 0.0673980712890625 -0.10174179077148438
17.78275 -0.09540176391601562 0.041904449462890625 1.7672119140625 0.0458984375 0.0005623102188110352 0.0014371871948242188 0.06346893310546875 -0.10374832153320312
17.7925 -0.09124374389648438 0.04804229736328125 1.772705078125 -0.07659912109375 -0.00040477514266967773 0.0017341971397399902 0.05899810791015625 -0.10415267944335938
17.80225 -0.08927154541015625 0.055873870849609375 1.77166748046875 -0.2059326171875 0.0011600255966186523 0.0009921789169311523 0.051464080810546875 -0.1075286865234375
17.812 -0.0865020751953125 0.06474685668945312 1.75714111328125 -0.341796875 4.035234451293945e-05 0.00157088041305542 0.046428680419921875 -0.10952377319335938
17.82175 -0.08174896240234375 0.07104873657226562 1.7271728515625 -0.47705078125 -0.0003808140754699707 -0.0006123781204223633 0.04361724853515625 -0.10744857788085938
17.8315 -0.07828140258789062 0.07766342163085938 1.68194580078125 -0.61077880859375 0.002631664276123047 0.0013713836669921875 0.035457611083984375 -0.10887908935546875
17.84125 -0.07384490966796875 0.08289337158203125 1.624267578125 -0.73681640625 0.0008864402770996094 0.0011403560638427734 0.02831268310546875 -0.11075592041015625
17.851 -0.06944656372070312 0.09255218505859375 1.55120849609375 -0.8472900390625 -0.00035813450813293457 0.0008800923824310303 0.024929046630859375 -0.11087799072265625
17.86075 -0.0646514892578125 0.096466064453125 1.48248291015625 -0.947509765625 0.0009300708770751953 0.0004075169563293457 0.018924713134765625 -0.1086578369140625
17.8705 -0.05898284912109375 0.10131072998046875 1.40875244140625 -1.0438232421875 -0.00038179755210876465 0.0009633898735046387 0.012294769287109375 -0.1086578369140625
17.88025 -0.05519866943359375 0.10861587524414062 1.33624267578125 -1.133544921875 0.0008392333984375 0.0011218786239624023 0.00743865966796875 -0.10756683349609375
17.89 -0.050380706787109375 0.11362838745117188 1.2630615234375 -1.2237548828125 0.00012439489364624023 0.0018184781074523926 0.001903533935546875 -0.10689926147460938
17.89975 -0.04323577880859375 0.11785125732421875 1.17755126953125 -1.31646728515625 0.00037044286727905273 0.0009313225746154785 -0.004085540771484375 -0.1050262451171875
17.9095 -0.038848876953125 0.12204360961914062 1.0858154296875 -1.4091796875 4.273653030395508e-05 0.0006166994571685791 -0.009510040283203125 -0.10491561889648438
17.91925 -0.0312347412109375 0.1254425048828125 0.9798583984375 -1.490234375 0.0014069080352783203 0.0013793706893920898 -0.01373291015625 -0.10282516479492188
17.929 -0.0240631103515625 0.1293792724609375 0.869384765625 -1.5667724609375 0.0009291172027587891 0.00119781494140625 -0.01996612548828125 -0.10123443603515625
17.93875 -0.01776123046875 0.133331298828125 0.746826171875 -1.62847900390625 0.0004658699035644531 0.0007629990577697754 -0.024486541748046875 -0.0974273681640625
17.9485 -0.0122528076171875 0.13470458984375 0.62567138671875 -1.67010498046875 0.001073002815246582 0.000569760799407959 -0.029117584228515625 -0.09394073486328125
17.95825 -0.00574493408203125 0.13764190673828125 0.50457763671875 -1.7073974609375 0.0007410049438476562 0.0008221268653869629 -0.033374786376953125 -0.09073638916015625
17.968 0.00264739990234375 0.14093017578125 0.387451171875 -1.735107421875 0.0007057785987854004 0.00016257166862487793 -0.03748321533203125 -0.08931732177734375
17.97775 0.00995635986328125 0.140350341796875 0.27154541015625 -1.75885009765625 0.0013377666473388672 0.00031942129135131836 -0.0441741943359375 -0.083709716796875
17.9875 0.01798248291015625 0.14321136474609375 0.15191650390625 -1.782470703125 0.0004591047763824463 0.0002123713493347168 -0.04569244384765625 -0.080078125
17.99725 0.02451324462890625 0.143463134765625 0.028076171875 -1.8043212890625 -0.0002645254135131836 0.0008065998554229736 -0.0519866943359375 -0.0762939453125
18.007 0.032684326171875 0.14490509033203125 -0.103515625 -1.816162109375 0.0011554956436157227 -0.00033271312713623047 -0.0542449951171875 -0.07227325439453125
18.01675 0.04175567626953125 0.1453399658203125 -0.238037109375 -1.8203125 0.0005933642387390137 0.00031059980392456055 -0.05861663818359375 -0.06707000732421875
18.0265 0.0480194091796875 0.1455230712890625 -0.380859375 -1.807373046875 0.0001297593116760254 -0.0002498328685760498 -0.063232421875 -0.0619354248046875
18.03625 0.0562286376953125 0.1462249755859375 -0.519287109375 -1.778076171875 0.0008909106254577637 -0.0009699463844299316 -0.0660400390625 -0.05510711669921875
18.046 0.06496429443359375 0.14519500732421875 -0.657470703125 -1.7354736328125 0.0005710721015930176 0.00045549869537353516 -0.06896591186523438 -0.05107879638671875
18.05575 0.07257843017578125 0.1422576904296875 -0.7823486328125 -1.6859130859375 0.0015006065368652344 0.001318216323852539 -0.07187652587890625 -0.045497894287109375
18.0655 0.0782012939453125 0.1412200927734375 -0.9013671875 -1.6279296875 0.00023797154426574707 -0.0007600486278533936 -0.07645797729492188 -0.040760040283203125
18.07525 0.08780670166015625 0.14044952392578125 -1.0179443359375 -1.5640869140625 0.00038236379623413086 0.0006753206253051758 -0.07593154907226562 -0.032924652099609375
18.085 0.0949554443359375 0.1383514404296875 -1.1341552734375 -1.4964599609375 9.465217590332031e-05 -0.0013326406478881836 -0.08013153076171875 -0.028377532958984375
18.09475 0.1012420654296875 0.134429931640625 -1.2503662109375 -1.4234619140625 0.001698911190032959 -0.000779271125793457 -0.079254150390625 -0.02294921875
18.1045 0.1094818115234375 0.130859375 -1.3623046875 -1.3380126953125 0.001353442668914795 0.0005071759223937988 -0.08002853393554688 -0.016086578369140625
18.11425 0.1167144775390625 0.12886810302734375 -1.47216796875 -1.2401123046875 0.0007309913635253906 -0.0008919239044189453 -0.0810089111328125 -0.010639190673828125
18.124 0.12255859375 0.124542236328125 -1.5751953125 -1.12939453125 0.0011947154998779297 -0.0004341602325439453 -0.08087921142578125 -0.00164794921875
18.13375 0.128265380859375 0.1197967529296875 -1.6668701171875 -1.01220703125 0.000846564769744873 -0.0005368590354919434 -0.07845306396484375 0.004764556884765625
18.1435 0.135406494140625 0.115020751953125 -1.7474365234375 -0.886474609375 0.0002409517765045166 0.00038558244705200195 -0.08047103881835938 0.0109100341796875
18.15325 0.1417694091796875 0.108795166015625 -1.8209228515625 -0.752685546875 0.0009375810623168945 -0.0003140866756439209 -0.07844161987304688 0.01793670654296875
18.163 0.1483917236328125 0.1015777587890625 -1.880859375 -0.6148681640625 0.0002199113368988037 -0.0008571147918701172 -0.07685089111328125 0.02459716796875
18.17275 0.154632568359375 0.0982818603515625 -1.9324951171875 -0.4720458984375 0.0010660290718078613 0.00023615360260009766 -0.07161712646484375 0.031909942626953125
18.1825 0.1603546142578125 0.0891265869140625 -1.9752197265625 -0.3267822265625 -0.0005563497543334961 -0.00014707446098327637 -0.06975555419921875 0.03951263427734375
18.19225 0.1645660400390625 0.08306884765625 -2.0126953125 -0.171875 0.0006576478481292725 -0.00016310811042785645 -0.0675506591796875 0.04541015625
18.202 0.17176055908203125 0.0771331787109375 -2.033203125 -0.0172119140625 0.0015736818313598633 0.00031000375747680664 -0.06489944458007812 0.0519866943359375
18.21175 0.17413330078125 0.0704193115234375 -2.039794921875 0.1494140625 0.0006967782974243164 0.0003790855407714844 -0.061023712158203125 0.05826568603515625
18.2215 0.18023681640625 0.06175994873046875 -2.0283203125 0.315673828125 0.0013797283172607422 -0.0003304481506347656 -0.055095672607421875 0.06293869018554688
18.23125 0.18489837646484375 0.0540771484375 -2.0040283203125 0.47705078125 0.000677645206451416 -0.0003914833068847656 -0.051532745361328125 0.06623458862304688
18.241 0.187164306640625 0.04657745361328125 -1.96185302734375 0.63360595703125 0.00043469667434692383 -0.0005276203155517578 -0.0464324951171875 0.07245635986328125
18.25075 0.18936920166015625 0.03960418701171875 -1.9134521484375 0.78350830078125 0.0015956759452819824 -0.00014591217041015625 -0.04022979736328125 0.07806396484375
18.2605 0.19167327880859375 0.03144073486328125 -1.849609375 0.92913818359375 -0.00027942657470703125 -0.0007783174514770508 -0.034229278564453125 0.08109283447265625
18.27025 0.19272613525390625 0.02178955078125 -1.782958984375 1.07476806640625 0.00048089027404785156 0.00048810243606567383 -0.02771759033203125 0.08575820922851562
18.28 0.19556427001953125 0.01264190673828125 -1.7049560546875 1.222412109375 -0.0010832548141479492 -0.0015001296997070312 -0.02198028564453125 0.08836746215820312
18.28975 0.1983184814453125 0.0047454833984375 -1.6148681640625 1.36126708984375 0.0005703568458557129 -0.0011476874351501465 -0.014316558837890625 0.09197616577148438
18.2995 0.1968536376953125 -0.00433349609375 -1.5045166015625 1.49310302734375 9.328126907348633e-06 -0.0009188055992126465 -0.0064544677734375 0.09218597412109375
18.30925 0.1973724365234375 -0.0142059326171875 -1.3782958984375 1.6192626953125 -0.0001999586820602417 1.658499240875244e-05 0.00240325927734375 0.09497833251953125
18.319 0.196502685546875 -0.02333831787109375 -1.2396240234375 1.7275390625 0.00032973289489746094 -0.0009336769580841064 0.0091094970703125 0.09822845458984375
18.32875 0.19629669189453125 -0.0291290283203125 -1.09619140625 1.81890869140625 -0.0004082620143890381 -0.0005058348178863525 0.0195159912109375 0.09817123413085938
18.3385 0.1927032470703125 -0.0406341552734375 -0.94573974609375 1.8929443359375 -0.00024659931659698486 0.0004699975252151489 0.028717041015625 0.09749221801757812
18.34825 0.19205474853515625 -0.0500335693359375 -0.7996826171875 1.9659423828125 -0.0005156993865966797 -0.000371396541595459 0.03466033935546875 0.09856414794921875
18.358 0.1903839111328125 -0.0580902099609375 -0.6510009765625 2.02001953125 -0.0001443326473236084 0.00026926398277282715 0.04412078857421875 0.0963592529296875
18.36775 0.1873321533203125 -0.06629180908203125 -0.4908447265625 2.073486328125 -0.0001337975263595581 -0.00010295957326889038 0.05075836181640625 0.09514617919921875
18.3775 0.184326171875 -0.074859619140625 -0.334228515625 2.11376953125 -0.00027367472648620605 0.00026419758796691895 0.0578460693359375 0.09198760986328125
18.38725 0.17998504638671875 -0.0842132568359375 -0.15869140625 2.1416015625 0.0003245025873184204 -0.00022101402282714844 0.064971923828125 0.0908966064453125
18.397 0.175750732421875 -0.0916290283203125 0.017578125 2.1513671875 0.00032529234886169434 -0.0002288520336151123 0.0718536376953125 0.0875701904296875
18.40675 0.16925048828125 -0.099395751953125 0.20263671875 2.14501953125 0.0004050731658935547 0.00010079145431518555 0.081146240234375 0.0829925537109375
18.4165 0.16516876220703125 -0.105804443359375 0.3741455078125 2.11279296875 -0.0006414055824279785 -0.0009461045265197754 0.085662841796875 0.07939910888671875
18.42625 0.1608428955078125 -0.11270904541015625 0.5380859375 2.06640625 -0.0005919337272644043 -0.0004615187644958496 0.09471893310546875 0.0728912353515625
18.436 0.1538238525390625 -0.11837005615234375 0.6922607421875 2.00732421875 -0.00020968914031982422 -0.0011687278747558594 0.1005401611328125 0.06784820556640625
18.44575 0.147186279296875 -0.12723541259765625 0.835205078125 1.943603515625 0.000962674617767334 0.0006281137466430664 0.10546112060546875 0.05886077880859375
18.4555 0.14073944091796875 -0.1305084228515625 0.973388671875 1.87353515625 -0.00011008977890014648 -0.0005814433097839355 0.10930633544921875 0.0534820556640625
18.46525 0.1343841552734375 -0.13794708251953125 1.112548828125 1.8040771484375 0.0006764233112335205 0.00010642409324645996 0.11267852783203125 0.04441070556640625
18.475 0.124847412109375 -0.14270782470703125 1.2508544921875 1.7244873046875 0.0005020499229431152 -0.0013279914855957031 0.1188201904296875 0.03631591796875
18.48475 0.11957550048828125 -0.14838409423828125 1.3912353515625 1.625 0.00010502338409423828 -0.0005099773406982422 0.1232757568359375 0.0290985107421875
18.4945 0.10977935791015625 -0.1519775390625 1.5230712890625 1.5042724609375 -0.0004443526268005371 0.0010146498680114746 0.12644195556640625 0.018951416015625
18.50425 0.1014556884765625 -0.1573028564453125 1.64453125 1.37060546875 0.0010315179824829102 -0.00024330615997314453 0.1273040771484375 0.01239013671875
18.514 0.0955657958984375 -0.160552978515625 1.743896484375 1.226318359375 0.0007939338684082031 0.000855565071105957 0.1298980712890625 0.00128173828125
18.52375 0.08779144287109375 -0.16196441650390625 1.8214111328125 1.0723876953125 0.00025203824043273926 0.00023946166038513184 0.12938690185546875 -0.006011962890625
18.5335 0.08008575439453125 -0.16544342041015625 1.88232421875 0.9244384765625 -0.00022776424884796143 -8.478760719299316e-05 0.12966156005859375 -0.0140228271484375
18.54325 0.07202911376953125 -0.16893768310546875 1.932373046875 0.7818603515625 -4.073977470397949e-05 0.0003001093864440918 0.1291961669921875 -0.02411651611328125
18.553 0.064483642578125 -0.171051025390625 1.9752197265625 0.6385498046875 0.0006236433982849121 -0.0006046593189239502 0.12615203857421875 -0.0303802490234375
18.56275 0.0558013916015625 -0.170257568359375 2.01416015625 0.4970703125 0.0005345344543457031 -0.0007530748844146729 0.12372589111328125 -0.038364410400390625
18.5725 0.04787445068359375 -0.1717987060546875 2.0474853515625 0.34765625 0.0015574097633361816 -7.826089859008789e-05 0.12030792236328125 -0.047534942626953125
18.58225 0.03961944580078125 -0.1725006103515625 2.072021484375 0.193115234375 6.829202175140381e-05 0.00023700296878814697 0.1170654296875 -0.055141448974609375
18.592 0.030853271484375 -0.1729888916015625 2.0819091796875 0.0274658203125 0.0001467093825340271 -9.945780038833618e-05 0.112548828125 -0.0629119873046875
18.60175 0.0241851806640625 -0.1714019775390625 2.0791015625 -0.1376953125 0.0012297630310058594 -0.0011371374130249023 0.10669708251953125 -0.0682830810546875
18.6115 0.016082763671875 -0.1694488525390625 2.0516357421875 -0.2991943359375 0.0005016028881072998 -0.0007246136665344238 0.10172653198242188 -0.07624053955078125
18.62125 0.007659912109375 -0.1678466796875 2.0103759765625 -0.451171875 -0.00033161044120788574 -0.0002378225326538086 0.09479904174804688 -0.08082199096679688
18.631 0.0006256103515625 -0.1677398681640625 1.95611572265625 -0.5858154296875 -1.2695789337158203e-05 -0.0014377832412719727 0.08924484252929688 -0.08575820922851562
18.64075 -0.00707244873046875 -0.1655120849609375 1.8990478515625 -0.71966552734375 0.0007579326629638672 -0.0015795230865478516 0.08465194702148438 -0.0886383056640625
18.6505 -0.0148468017578125 -0.16437530517578125 1.84246826171875 -0.84234619140625 0.00019854307174682617 -0.0012354254722595215 0.07764816284179688 -0.09282302856445312
18.66025 -0.0221710205078125 -0.160980224609375 1.78228759765625 -0.9639892578125 0.00013700127601623535 -0.000220373272895813 0.0705718994140625 -0.09686660766601562
18.67 -0.0274810791015625 -0.15921783447265625 1.716064453125 -1.08795166015625 -0.0003508329391479492 -0.0007337331771850586 0.06526947021484375 -0.09804153442382812
