!Created with skrf (http://scikit-rf.org).
# GHz S RI R 50.0 
!freq ReS11 ImS11 ReS21 ImS21 ReS12 ImS12 ReS22 ImS22
17.5 0.0086517333984375 -0.1443328857421875 -0.1757354736328125 0.257659912109375 -0.0016045570373535156 0.0004724860191345215 0.09775543212890625 0.002101898193359375
17.50975 -0.001220703125 -0.14107513427734375 -0.1470947265625 0.26898193359375 -0.0019686222076416016 -0.00025069713592529297 0.10052108764648438 0.0001068115234375
17.5195 -0.00811767578125 -0.13665008544921875 -0.11883544921875 0.276580810546875 -0.0015909075736999512 0.0005937814712524414 0.10402679443359375 -0.0023345947265625
17.52925 -0.01766204833984375 -0.1329498291015625 -0.089935302734375 0.28271484375 -0.0016835331916809082 0.0014023184776306152 0.10498046875 -0.005222320556640625
17.539 -0.0234222412109375 -0.12744140625 -0.062774658203125 0.283203125 -0.00045222043991088867 0.00020369887351989746 0.10680389404296875 -0.0079498291015625
17.54875 -0.03247833251953125 -0.12281036376953125 -0.0363311767578125 0.2816009521484375 -0.00021159648895263672 0.0006553828716278076 0.109039306640625 -0.011409759521484375
17.5585 -0.041839599609375 -0.1186370849609375 -0.010284423828125 0.278411865234375 -0.0016129612922668457 0.001519322395324707 0.11122894287109375 -0.015628814697265625
17.56825 -0.047760009765625 -0.11578369140625 0.01226806640625 0.2737579345703125 -0.0021065473556518555 0.0007178783416748047 0.11261749267578125 -0.018436431884765625
17.578 -0.05297088623046875 -0.1085662841796875 0.0375213623046875 0.2651214599609375 -0.0016578435897827148 -0.00044286251068115234 0.11265945434570312 -0.023975372314453125
17.58775 -0.06011962890625 -0.1042633056640625 0.05908203125 0.254913330078125 -0.0011496543884277344 -0.00032657384872436523 0.11437606811523438 -0.026165008544921875
17.5975 -0.06436920166015625 -0.0985260009765625 0.08270263671875 0.2431640625 -0.0008296370506286621 0.0006015896797180176 0.11451339721679688 -0.030590057373046875
17.60725 -0.0702056884765625 -0.09232330322265625 0.099761962890625 0.2275390625 -0.0005289614200592041 0.00015977025032043457 0.11362075805664062 -0.036586761474609375
17.617 -0.07566070556640625 -0.08502197265625 0.117462158203125 0.212066650390625 -0.0020443201065063477 0.002315521240234375 0.11444473266601562 -0.04010772705078125
17.62675 -0.080474853515625 -0.0778350830078125 0.130523681640625 0.1952667236328125 -0.0016204118728637695 -0.0003286600112915039 0.11498641967773438 -0.042926788330078125
17.6365 -0.0831451416015625 -0.071380615234375 0.139617919921875 0.177154541015625 -0.0010790824890136719 -0.0008283853530883789 0.11264801025390625 -0.04961395263671875
17.64625 -0.0867919921875 -0.06281280517578125 0.14923095703125 0.1619110107421875 -0.00037282705307006836 0.0007486641407012939 0.11030197143554688 -0.053447723388671875
17.656 -0.09040069580078125 -0.0555267333984375 0.1549072265625 0.1434478759765625 -0.0012611746788024902 0.0010455846786499023 0.10858154296875 -0.058563232421875
17.66575 -0.091796875 -0.04666900634765625 0.160400390625 0.1302032470703125 -0.00048428773880004883 0.0017161369323730469 0.10719680786132812 -0.0623779296875
17.6755 -0.0966644287109375 -0.040191650390625 0.164215087890625 0.1147613525390625 -0.0007663965225219727 0.00141143798828125 0.10174560546875 -0.06710052490234375
17.68525 -0.09925079345703125 -0.03191375732421875 0.16943359375 0.0982666015625 -0.0007433593273162842 -0.00015625357627868652 0.0994720458984375 -0.0713958740234375
17.695 -0.10030364990234375 -0.0219879150390625 0.1734161376953125 0.08331298828125 -2.0503997802734375e-05 0.0010469555854797363 0.0991668701171875 -0.07457733154296875
17.70475 -0.09959030151367188 -0.013828277587890625 0.17315673828125 0.06543731689453125 -0.0010308027267456055 0.0022405385971069336 0.09412765502929688 -0.07698440551757812
17.7145 -0.1016845703125 -0.00679779052734375 0.1707000732421875 0.04985809326171875 -0.00039005279541015625 0.0014767050743103027 0.08951568603515625 -0.08338546752929688
17.72425 -0.10183334350585938 0.0014801025390625 0.1672515869140625 0.03411865234375 -0.0008431673049926758 0.0021392107009887695 0.08556747436523438 -0.08627700805664062
17.734 -0.10285186767578125 0.00760650634765625 0.161895751953125 0.019622802734375 0.00028312206268310547 0.0007530450820922852 0.0805206298828125 -0.091552734375
17.74375 -0.10225677490234375 0.01650238037109375 0.155120849609375 0.0100555419921875 -0.0006352663040161133 0.0014132261276245117 0.077362060546875 -0.0958709716796875
17.7535 -0.09991836547851562 0.025516510009765625 0.14599609375 6.866455078125e-05 0.00019988417625427246 0.0007620453834533691 0.07324981689453125 -0.09793472290039062
17.76325 -0.0983428955078125 0.032390594482421875 0.13965606689453125 -0.00801849365234375 -0.0007956922054290771 -0.0001322627067565918 0.06596755981445312 -0.09964370727539062
17.773 -0.09793472290039062 0.0391845703125 0.1326141357421875 -0.01416778564453125 -0.00010538101196289062 0.0021799802780151367 0.06437301635742188 -0.10260391235351562
17.78275 -0.0954742431640625 0.047481536865234375 0.12434005737304688 -0.017513275146484375 0.0004786849021911621 0.0013825297355651855 0.057666778564453125 -0.10275650024414062
17.7925 -0.09220504760742188 0.05260467529296875 0.11729049682617188 -0.02281951904296875 -0.0002461671829223633 0.0010823607444763184 0.05321502685546875 -0.10621261596679688
17.80225 -0.08968734741210938 0.058605194091796875 0.11036300659179688 -0.0252685546875 0.0008867979049682617 0.0009510517120361328 0.04931640625 -0.10650634765625
17.812 -0.08563232421875 0.06745147705078125 0.10511016845703125 -0.027271270751953125 0.0009665489196777344 0.0012131929397583008 0.04160308837890625 -0.10718154907226562
17.82175 -0.08113861083984375 0.07569503784179688 0.10006332397460938 -0.030101776123046875 0.0011816024780273438 0.0005101561546325684 0.0398406982421875 -0.10594940185546875
17.8315 -0.07691192626953125 0.08193588256835938 0.09404754638671875 -0.030059814453125 -0.00029861927032470703 0.0016560554504394531 0.031726837158203125 -0.10697555541992188
17.84125 -0.0720672607421875 0.086822509765625 0.0889434814453125 -0.02886962890625 -0.00034606456756591797 0.0013375282287597656 0.02519989013671875 -0.10633087158203125
17.851 -0.06744384765625 0.09522628784179688 0.08392715454101562 -0.02727508544921875 0.0010559558868408203 0.001912236213684082 0.0209808349609375 -0.10892105102539062
17.86075 -0.062465667724609375 0.0994415283203125 0.08199691772460938 -0.024333953857421875 0.00022527575492858887 0.0003148019313812256 0.01424407958984375 -0.10655593872070312
17.8705 -0.057262420654296875 0.10584259033203125 0.07980728149414062 -0.02021026611328125 -0.00048041343688964844 0.0003233999013900757 0.010150909423828125 -0.10744094848632812
17.88025 -0.051616668701171875 0.111724853515625 0.07995223999023438 -0.01912689208984375 2.9087066650390625e-05 0.0011164546012878418 0.002346038818359375 -0.10530471801757812
17.89 -0.045940399169921875 0.11609268188476562 0.08188629150390625 -0.016021728515625 0.0003536343574523926 0.0008413195610046387 -0.001918792724609375 -0.10363006591796875
17.89975 -0.03997039794921875 0.11972808837890625 0.0849761962890625 -0.0126800537109375 0.0003318488597869873 -0.00038558244705200195 -0.00601959228515625 -0.1025848388671875
17.9095 -0.03524017333984375 0.12316513061523438 0.08899688720703125 -0.011325836181640625 0.0007092952728271484 0.0013124942779541016 -0.011951446533203125 -0.0997161865234375
17.91925 -0.0281219482421875 0.1271820068359375 0.09384918212890625 -0.009197235107421875 0.0012829303741455078 -0.0005286335945129395 -0.016277313232421875 -0.0988616943359375
17.929 -0.0212860107421875 0.1302032470703125 0.1015472412109375 -0.0107574462890625 0.0010945796966552734 0.0010223388671875 -0.02166748046875 -0.0969390869140625
17.93875 -0.0153350830078125 0.13315582275390625 0.10773468017578125 -0.013134002685546875 0.0016217231750488281 0.000295102596282959 -0.02605438232421875 -0.09364700317382812
17.9485 -0.00811004638671875 0.134552001953125 0.11494064331054688 -0.015575408935546875 0.002425670623779297 0.0005069971084594727 -0.029895782470703125 -0.09051132202148438
17.95825 -0.00148773193359375 0.137969970703125 0.12418746948242188 -0.020503997802734375 0.00044018030166625977 0.0013269782066345215 -0.032764434814453125 -0.08676910400390625
17.968 0.00623321533203125 0.14003753662109375 0.132293701171875 -0.02581787109375 0.0008372962474822998 0.00010594725608825684 -0.03903961181640625 -0.08406448364257812
17.97775 0.01422119140625 0.14147186279296875 0.1410675048828125 -0.03348541259765625 1.919269561767578e-05 -0.00033436715602874756 -0.044033050537109375 -0.07912445068359375
17.9875 0.02266693115234375 0.1424713134765625 0.1506195068359375 -0.04358673095703125 0.0005846619606018066 0.0005502104759216309 -0.045391082763671875 -0.07471847534179688
17.99725 0.029266357421875 0.14243316650390625 0.16014862060546875 -0.0572967529296875 0.0007317662239074707 0.0007429122924804688 -0.049617767333984375 -0.07111358642578125
18.007 0.03635406494140625 0.14337921142578125 0.1679229736328125 -0.071014404296875 0.0011183619499206543 -0.00014549493789672852 -0.053424835205078125 -0.06548690795898438
18.01675 0.0452728271484375 0.14240264892578125 0.17357635498046875 -0.08971405029296875 0.0003287792205810547 0.001878976821899414 -0.05808258056640625 -0.062076568603515625
18.0265 0.0518951416015625 0.1426849365234375 0.1778411865234375 -0.1107025146484375 0.0004387795925140381 -0.0003522336483001709 -0.06456756591796875 -0.05811309814453125
18.03625 0.0602569580078125 0.1439971923828125 0.176971435546875 -0.1319580078125 -0.00013369321823120117 0.0008174777030944824 -0.0625 -0.0522918701171875
18.046 0.06864166259765625 0.14321136474609375 0.1758880615234375 -0.15419769287109375 0.000632941722869873 0.0009837150573730469 -0.06626510620117188 -0.046405792236328125
18.05575 0.07518768310546875 0.13860321044921875 0.1725311279296875 -0.17554473876953125 0.0017458796501159668 6.157159805297852e-05 -0.071441650390625 -0.0415191650390625
18.0655 0.08235931396484375 0.13901519775390625 0.16252899169921875 -0.199798583984375 2.0295381546020508e-05 0.0006464719772338867 -0.07380294799804688 -0.0364990234375
18.07525 0.08841705322265625 0.13568115234375 0.15328216552734375 -0.22442626953125 0.0012982487678527832 -0.00046563148498535156 -0.0733642578125 -0.03041839599609375
18.085 0.09601593017578125 0.1336212158203125 0.1374053955078125 -0.2484130859375 -4.1425228118896484e-06 -0.0006740689277648926 -0.07619857788085938 -0.0255584716796875
18.09475 0.10289764404296875 0.129425048828125 0.1228485107421875 -0.271148681640625 0.0009957551956176758 -0.00041282176971435547 -0.07393646240234375 -0.019519805908203125
18.1045 0.11053466796875 0.12682342529296875 0.10028076171875 -0.293731689453125 0.0012738704681396484 -0.0007982254028320312 -0.07809066772460938 -0.01265716552734375
18.11425 0.11660003662109375 0.12322235107421875 0.076873779296875 -0.3152008056640625 0.0004190504550933838 0.00011974573135375977 -0.07703018188476562 -0.0074462890625
18.124 0.1221466064453125 0.1207733154296875 0.04730224609375 -0.33343505859375 0.0010395050048828125 0.00033783912658691406 -0.074737548828125 -0.0012054443359375
18.13375 0.1287078857421875 0.11502838134765625 0.0157623291015625 -0.3498077392578125 0.0007186532020568848 0.0006882548332214355 -0.07559967041015625 0.005039215087890625
18.1435 0.135040283203125 0.1096649169921875 -0.017974853515625 -0.3592987060546875 0.0010088682174682617 -0.0010854005813598633 -0.07540130615234375 0.0125274658203125
18.15325 0.139892578125 0.10390472412109375 -0.0560455322265625 -0.3673248291015625 2.5272369384765625e-05 -0.00035603344440460205 -0.0741729736328125 0.01848602294921875
18.163 0.14745330810546875 0.0994415283203125 -0.092041015625 -0.3703765869140625 0.0012438297271728516 0.00048106908798217773 -0.07110595703125 0.02498626708984375
18.17275 0.152496337890625 0.094512939453125 -0.129852294921875 -0.3701171875 0.0003826022148132324 0.0005438923835754395 -0.06853866577148438 0.030979156494140625
18.1825 0.15900421142578125 0.08667755126953125 -0.169586181640625 -0.36737060546875 0.0014807581901550293 0.0003502964973449707 -0.06653594970703125 0.040081024169921875
18.19225 0.1633453369140625 0.0797576904296875 -0.209930419921875 -0.35760498046875 0.0006234347820281982 -8.934736251831055e-05 -0.06328201293945312 0.044811248779296875
18.202 0.1677093505859375 0.07541656494140625 -0.247314453125 -0.34503173828125 0.0012534260749816895 -0.00013178586959838867 -0.06211280822753906 0.0503692626953125
18.21175 0.1722412109375 0.0678558349609375 -0.2891845703125 -0.3255615234375 0.0005761384963989258 -2.0265579223632812e-06 -0.056488037109375 0.0571441650390625
18.2215 0.17693328857421875 0.05995941162109375 -0.325103759765625 -0.301483154296875 0.0011130571365356445 -0.0003083944320678711 -0.05160713195800781 0.06028938293457031
18.23125 0.18219757080078125 0.05402374267578125 -0.358734130859375 -0.27325439453125 -0.0001856982707977295 0.00039398670196533203 -0.047214508056640625 0.06415557861328125
18.241 0.1831207275390625 0.04640960693359375 -0.390167236328125 -0.24249267578125 0.0002002418041229248 -0.0003941357135772705 -0.041290283203125 0.0703582763671875
18.25075 0.1857757568359375 0.03868865966796875 -0.415435791015625 -0.2073974609375 0.00040155649185180664 -0.0015847086906433105 -0.037220001220703125 0.07328414916992188
18.2605 0.18785858154296875 0.03151702880859375 -0.4403076171875 -0.1705322265625 0.00011621788144111633 -2.401694655418396e-05 -0.030414581298828125 0.07796096801757812
18.27025 0.18959808349609375 0.0225830078125 -0.461181640625 -0.1292724609375 0.0007051825523376465 0.000432431697845459 -0.024936676025390625 0.08251190185546875
18.28 0.1916961669921875 0.01287078857421875 -0.477783203125 -0.08758544921875 0.0003851354122161865 -0.0005397796630859375 -0.017406463623046875 0.08315277099609375
18.28975 0.193817138671875 0.00390625 -0.49273681640625 -0.042572021484375 0.0011643171310424805 -0.0008027553558349609 -0.011844635009765625 0.08771133422851562
18.2995 0.19474029541015625 -0.0039520263671875 -0.50177001953125 0.003936767578125 0.00047403573989868164 0.0004563331604003906 -0.003574371337890625 0.0868072509765625
18.30925 0.1931915283203125 -0.01397705078125 -0.503875732421875 0.052947998046875 0.00038105249404907227 -0.0005751848220825195 0.00533294677734375 0.09152984619140625
18.319 0.1920928955078125 -0.02346038818359375 -0.500762939453125 0.1019287109375 -6.35981559753418e-05 -0.0005051493644714355 0.009975433349609375 0.0931243896484375
18.32875 0.19155120849609375 -0.028900146484375 -0.4918975830078125 0.148956298828125 -0.0002760887145996094 -0.0003460049629211426 0.019191741943359375 0.09375
18.3385 0.191375732421875 -0.03949737548828125 -0.4785003662109375 0.19342041015625 0.0001468956470489502 -0.0009084343910217285 0.027263641357421875 0.09300613403320312
18.34825 0.189300537109375 -0.047698974609375 -0.46221923828125 0.2362060546875 0.0003209114074707031 -0.002585768699645996 0.034942626953125 0.09455108642578125
18.358 0.1875152587890625 -0.055999755859375 -0.44549560546875 0.278045654296875 0.0004819631576538086 -0.000590890645980835 0.04340362548828125 0.09062957763671875
18.36775 0.18442535400390625 -0.0638885498046875 -0.4234161376953125 0.31976318359375 0.00015848875045776367 0.0003775656223297119 0.0496826171875 0.0912322998046875
18.3775 0.18192291259765625 -0.07122039794921875 -0.3969268798828125 0.35711669921875 0.00038729608058929443 -1.946091651916504e-05 0.055328369140625 0.08758544921875
18.38725 0.17801666259765625 -0.0809326171875 -0.3638763427734375 0.3968353271484375 0.0008479654788970947 0.00010713934898376465 0.0643310546875 0.08696746826171875
18.397 0.1748199462890625 -0.0877838134765625 -0.33087158203125 0.432098388671875 0.0003300905227661133 -0.0007717013359069824 0.0703125 0.083953857421875
18.40675 0.1710662841796875 -0.09539794921875 -0.2890625 0.46405029296875 0.001332998275756836 -9.34600830078125e-05 0.0786285400390625 0.0782928466796875
18.4165 0.16492462158203125 -0.1031341552734375 -0.2499542236328125 0.489471435546875 -2.008676528930664e-05 -0.0008623600006103516 0.08383941650390625 0.074188232421875
18.42625 0.15979766845703125 -0.109222412109375 -0.2047119140625 0.509552001953125 -0.0005527734756469727 -0.0011132359504699707 0.09163665771484375 0.06818389892578125
18.436 0.15373992919921875 -0.11591339111328125 -0.160919189453125 0.526092529296875 0.0005015134811401367 -3.606081008911133e-05 0.09772491455078125 0.06401824951171875
18.44575 0.1468505859375 -0.1229705810546875 -0.119293212890625 0.538299560546875 0.00034786760807037354 6.19739294052124e-05 0.10138702392578125 0.0561981201171875
18.4555 0.13983154296875 -0.127960205078125 -0.07470703125 0.54736328125 2.7358531951904297e-05 -0.0010113716125488281 0.10527801513671875 0.049560546875
18.46525 0.13393402099609375 -0.13411712646484375 -0.0306396484375 0.558441162109375 -0.0003234744071960449 -0.0005093216896057129 0.11023712158203125 0.03990936279296875
18.475 0.12619781494140625 -0.13965606689453125 0.015289306640625 0.56658935546875 0.0003879666328430176 -0.0015346407890319824 0.11571502685546875 0.03485107421875
18.48475 0.12035369873046875 -0.1456298828125 0.065155029296875 0.569122314453125 0.0009343922138214111 -2.142786979675293e-05 0.11910247802734375 0.0252685546875
18.4945 0.11234283447265625 -0.14940643310546875 0.1163330078125 0.56402587890625 -0.0010290145874023438 -0.00020301342010498047 0.1216278076171875 0.0167083740234375
18.50425 0.103973388671875 -0.1546630859375 0.16766357421875 0.555908203125 2.3245811462402344e-06 0.00021059811115264893 0.122894287109375 0.01025390625
18.514 0.098388671875 -0.15771484375 0.21820068359375 0.54052734375 -0.00018155574798583984 -0.0004398822784423828 0.12502288818359375 0.00142669677734375
18.52375 0.08957672119140625 -0.1608428955078125 0.264495849609375 0.518280029296875 0.0006931126117706299 -6.210803985595703e-05 0.12356948852539062 -0.006618499755859375
18.5335 0.0832366943359375 -0.16390228271484375 0.306182861328125 0.495147705078125 0.0008976459503173828 -0.0006121993064880371 0.12575531005859375 -0.01570892333984375
18.54325 0.0751495361328125 -0.1674652099609375 0.345245361328125 0.469207763671875 0.0005768537521362305 0.0001024007797241211 0.12270736694335938 -0.024364471435546875
18.553 0.06658172607421875 -0.16805267333984375 0.380615234375 0.440948486328125 0.001133263111114502 0.0001214742660522461 0.121337890625 -0.0302276611328125
18.56275 0.05908203125 -0.1698760986328125 0.418121337890625 0.41290283203125 0.0003496408462524414 0.0005482733249664307 0.120208740234375 -0.0375518798828125
18.5725 0.05060577392578125 -0.1710662841796875 0.452239990234375 0.38104248046875 0.0006256699562072754 -0.00040647387504577637 0.11551284790039062 -0.0465545654296875
18.58225 0.0432586669921875 -0.1706085205078125 0.486297607421875 0.344635009765625 0.0001761019229888916 0.0007389485836029053 0.1119384765625 -0.0539093017578125
18.592 0.03443145751953125 -0.17198944091796875 0.518707275390625 0.30633544921875 0.0004268437623977661 -2.9295682907104492e-05 0.10821533203125 -0.05974578857421875
18.60175 0.025543212890625 -0.1708831787109375 0.544921875 0.2606201171875 0.0006177425384521484 0.0004922151565551758 0.10193634033203125 -0.06475067138671875
18.6115 0.01845550537109375 -0.17034149169921875 0.5665283203125 0.2158203125 0.0006361007690429688 -0.00040465593338012695 0.09791183471679688 -0.0726470947265625
18.62125 0.01062774658203125 -0.16941070556640625 0.581451416015625 0.16729736328125 0.0005636513233184814 -0.000865250825881958 0.091522216796875 -0.07774734497070312
18.631 0.002349853515625 -0.16881561279296875 0.592010498046875 0.121307373046875 0.0006687045097351074 -0.0011001825332641602 0.0852508544921875 -0.08338165283203125
