!Created with skrf (http://scikit-rf.org).
# GHz S RI R 50.0 
!freq ReS11 ImS11 ReS21 ImS21 ReS12 ImS12 ReS22 ImS22
17.5 0.0083465576171875 -0.14368438720703125 -0.2226409912109375 0.30230712890625 -0.000935673713684082 0.0012920498847961426 0.0981903076171875 0.0013885498046875
17.50975 -0.0006103515625 -0.14238739013671875 -0.1909637451171875 0.316741943359375 -0.0010874271392822266 0.0002067089080810547 0.10022735595703125 -0.000873565673828125
17.5195 -0.00838470458984375 -0.13677978515625 -0.1576995849609375 0.328125 -0.0017838478088378906 -0.0004924535751342773 0.10300064086914062 -0.001712799072265625
17.52925 -0.01788330078125 -0.13379669189453125 -0.125885009765625 0.335693359375 -0.0017892122268676758 0.0006875395774841309 0.10577774047851562 -0.0060577392578125
17.539 -0.0239410400390625 -0.1274871826171875 -0.092681884765625 0.339385986328125 -0.0016148090362548828 0.001080632209777832 0.1060028076171875 -0.007904052734375
17.54875 -0.03206634521484375 -0.12210845947265625 -0.0615692138671875 0.339599609375 -0.0015148520469665527 0.0014370083808898926 0.10894012451171875 -0.00977325439453125
17.5585 -0.04178619384765625 -0.11936187744140625 -0.0332489013671875 0.3388671875 -0.002013564109802246 -9.250640869140625e-05 0.11036300659179688 -0.0150604248046875
17.56825 -0.04723358154296875 -0.1148529052734375 -0.0048370361328125 0.33380126953125 -0.0018372535705566406 0.0020269155502319336 0.11214828491210938 -0.017719268798828125
17.578 -0.0538787841796875 -0.10861968994140625 0.025238037109375 0.3300628662109375 -0.002112269401550293 0.0007381439208984375 0.11400222778320312 -0.023746490478515625
17.58775 -0.058868408203125 -0.103607177734375 0.05120849609375 0.322418212890625 -0.0013818740844726562 0.0008907318115234375 0.11412811279296875 -0.0268402099609375
17.5975 -0.06395721435546875 -0.09814453125 0.078826904296875 0.308258056640625 -0.0006561875343322754 -0.0002709031105041504 0.11336898803710938 -0.0313873291015625
17.60725 -0.07057952880859375 -0.09256744384765625 0.10211181640625 0.2941741943359375 -0.0011313557624816895 6.818771362304688e-05 0.11385726928710938 -0.034912109375
17.617 -0.07431793212890625 -0.0845947265625 0.1230926513671875 0.2770233154296875 -0.0002968311309814453 0.0004249364137649536 0.1143798828125 -0.03973388671875
17.62675 -0.0805816650390625 -0.0779571533203125 0.143341064453125 0.2587738037109375 6.794929504394531e-06 0.0009091794490814209 0.11438369750976562 -0.042575836181640625
17.6365 -0.0824432373046875 -0.0691375732421875 0.158843994140625 0.23779296875 -0.0004360675811767578 -0.00044602155685424805 0.1132659912109375 -0.04791259765625
17.64625 -0.08623504638671875 -0.06340789794921875 0.1711883544921875 0.220794677734375 -0.0012263059616088867 0.0016587376594543457 0.11249923706054688 -0.052501678466796875
17.656 -0.09091949462890625 -0.05511474609375 0.1837310791015625 0.2025909423828125 -0.0004198998212814331 0.00036995112895965576 0.10888290405273438 -0.058589935302734375
17.66575 -0.0930938720703125 -0.0456390380859375 0.191741943359375 0.185333251953125 -5.900859832763672e-05 0.001116931438446045 0.107147216796875 -0.06118011474609375
17.6755 -0.09642791748046875 -0.04019927978515625 0.200042724609375 0.168121337890625 -0.0006903409957885742 0.0008379518985748291 0.1034698486328125 -0.06716537475585938
17.68525 -0.097259521484375 -0.0306396484375 0.207122802734375 0.151153564453125 -0.0011902451515197754 0.001655876636505127 0.10147857666015625 -0.07012176513671875
17.695 -0.09893035888671875 -0.02325439453125 0.213836669921875 0.13287353515625 -0.0004444718360900879 0.0014876127243041992 0.09752655029296875 -0.07568359375
17.70475 -0.1004486083984375 -0.01442718505859375 0.2198333740234375 0.112823486328125 0.0001506805419921875 0.000849604606628418 0.09618377685546875 -0.07824325561523438
17.7145 -0.10135269165039062 -0.00647735595703125 0.222747802734375 0.0914459228515625 -0.00132066011428833 0.001883387565612793 0.08926010131835938 -0.08352279663085938
17.72425 -0.10126876831054688 0.0015106201171875 0.2225341796875 0.07257080078125 -0.0008648037910461426 0.000800788402557373 0.08478164672851562 -0.087799072265625
17.734 -0.1033782958984375 0.00982666015625 0.21875 0.053924560546875 -0.0016113519668579102 0.0004884004592895508 0.08223724365234375 -0.09188079833984375
17.74375 -0.10340118408203125 0.01740264892578125 0.213775634765625 0.0370330810546875 -0.001000523567199707 0.0007790923118591309 0.07798004150390625 -0.0949249267578125
17.7535 -0.09983062744140625 0.023761749267578125 0.20780181884765625 0.02411651611328125 6.711483001708984e-05 0.001465141773223877 0.07271194458007812 -0.0983734130859375
17.76325 -0.09964370727539062 0.0333251953125 0.2015380859375 0.01177215576171875 0.00018540024757385254 0.00045230984687805176 0.06647872924804688 -0.10015106201171875
17.773 -0.0975799560546875 0.039554595947265625 0.1945343017578125 0.00337982177734375 -0.00010102987289428711 0.0009872913360595703 0.06327056884765625 -0.10239791870117188
17.78275 -0.09574127197265625 0.046962738037109375 0.187103271484375 -0.00771331787109375 0.0005144476890563965 0.0008650422096252441 0.058246612548828125 -0.10375595092773438
17.7925 -0.09246826171875 0.053218841552734375 0.1821136474609375 -0.0151519775390625 -0.0006696879863739014 0.0007501542568206787 0.054172515869140625 -0.1052703857421875
17.80225 -0.0889892578125 0.059017181396484375 0.177215576171875 -0.02313232421875 0.00046400725841522217 -5.766749382019043e-06 0.05011749267578125 -0.1079864501953125
17.812 -0.08391571044921875 0.06824111938476562 0.171875 -0.0312347412109375 -0.0008754730224609375 0.001257479190826416 0.04151153564453125 -0.10829925537109375
17.82175 -0.0808868408203125 0.07532501220703125 0.1651153564453125 -0.03839111328125 1.0669231414794922e-05 0.0006232261657714844 0.0381622314453125 -0.10744476318359375
17.8315 -0.0752105712890625 0.08198165893554688 0.15840911865234375 -0.0445098876953125 0.0010797977447509766 0.001110672950744629 0.0323333740234375 -0.10689926147460938
17.84125 -0.07224273681640625 0.08605194091796875 0.15234375 -0.04852294921875 0.0003705620765686035 0.00011610984802246094 0.02587890625 -0.107208251953125
17.851 -0.0672760009765625 0.09473800659179688 0.14536285400390625 -0.05159759521484375 0.0004215240478515625 0.0007269382476806641 0.021251678466796875 -0.10716629028320312
17.86075 -0.06169891357421875 0.09989547729492188 0.14136505126953125 -0.05319976806640625 -0.00042450428009033203 0.0016849637031555176 0.014537811279296875 -0.10408782958984375
17.8705 -0.05670928955078125 0.10414886474609375 0.13790130615234375 -0.0552978515625 0.0002619028091430664 0.0011957883834838867 0.0088958740234375 -0.10564804077148438
17.88025 -0.051361083984375 0.11020278930664062 0.13372039794921875 -0.0549468994140625 0.0007348060607910156 0.00039184093475341797 0.0034637451171875 -0.1043701171875
17.89 -0.0475921630859375 0.11669540405273438 0.134246826171875 -0.0564422607421875 0.0010565519332885742 0.0012573003768920898 -0.001888275146484375 -0.1047515869140625
17.89975 -0.040058135986328125 0.11992645263671875 0.13463592529296875 -0.05859375 0.0005987882614135742 0.0019795894622802734 -0.00618743896484375 -0.1032257080078125
17.9095 -0.03696441650390625 0.12474822998046875 0.13637542724609375 -0.05989837646484375 0.0007828474044799805 0.00046366453170776367 -0.012798309326171875 -0.1022186279296875
17.91925 -0.02707672119140625 0.1284027099609375 0.1360931396484375 -0.06436920166015625 0.0010907649993896484 0.001006007194519043 -0.015888214111328125 -0.09869003295898438
17.929 -0.0220794677734375 0.1302947998046875 0.1389312744140625 -0.0683135986328125 0.0010780096054077148 0.0008336305618286133 -0.021514892578125 -0.097412109375
17.93875 -0.0147247314453125 0.13333892822265625 0.141357421875 -0.07199859619140625 0.0007765293121337891 0.00035387277603149414 -0.025798797607421875 -0.09426116943359375
17.9485 -0.00804901123046875 0.1365966796875 0.14475250244140625 -0.07698822021484375 0.0006083250045776367 0.0004086494445800781 -0.02982330322265625 -0.09018707275390625
17.95825 -0.0009307861328125 0.137115478515625 0.1462249755859375 -0.08364105224609375 0.0018608570098876953 0.0007364749908447266 -0.032928466796875 -0.08741378784179688
17.968 0.00661468505859375 0.1397247314453125 0.151641845703125 -0.091705322265625 0.0006357431411743164 0.0004094839096069336 -0.037837982177734375 -0.08496475219726562
17.97775 0.01549530029296875 0.14095306396484375 0.1555328369140625 -0.09987640380859375 0.00018274784088134766 0.0015946626663208008 -0.044315338134765625 -0.0794830322265625
17.9875 0.0218048095703125 0.142608642578125 0.1587982177734375 -0.11141204833984375 0.002223968505859375 0.0008198022842407227 -0.0448760986328125 -0.07582855224609375
17.99725 0.02945709228515625 0.14220428466796875 0.1629180908203125 -0.1258544921875 0.0013568401336669922 0.0009123086929321289 -0.0501861572265625 -0.07146835327148438
18.007 0.03662109375 0.14311981201171875 0.16538238525390625 -0.14345550537109375 0.0010475516319274902 0.0005014538764953613 -0.05322265625 -0.06603622436523438
18.01675 0.04535675048828125 0.14299774169921875 0.1664581298828125 -0.1594390869140625 0.0008649826049804688 0.0016367435455322266 -0.05925750732421875 -0.061862945556640625
18.0265 0.0523223876953125 0.142730712890625 0.1648101806640625 -0.1798858642578125 0.0005668401718139648 0.0005896091461181641 -0.0624847412109375 -0.05811309814453125
18.03625 0.0597991943359375 0.144500732421875 0.1585235595703125 -0.2006988525390625 0.0007562637329101562 1.0669231414794922e-05 -0.06430816650390625 -0.05289459228515625
18.046 0.06786346435546875 0.1424713134765625 0.1508026123046875 -0.221038818359375 -0.00013425946235656738 -0.00013056397438049316 -0.0660552978515625 -0.047054290771484375
18.05575 0.0750885009765625 0.1401824951171875 0.1416168212890625 -0.2436981201171875 0.0017511844635009766 0.0002796649932861328 -0.06964874267578125 -0.04119110107421875
18.0655 0.08203125 0.13861083984375 0.1294708251953125 -0.262939453125 0.0017395615577697754 -0.0008385777473449707 -0.07265472412109375 -0.037006378173828125
18.07525 0.08928680419921875 0.13629150390625 0.1141204833984375 -0.2827606201171875 0.00042253732681274414 0.0004544854164123535 -0.0740509033203125 -0.030284881591796875
18.085 0.09644317626953125 0.1348876953125 0.094573974609375 -0.3032989501953125 0.0004621148109436035 -0.0011187195777893066 -0.07537078857421875 -0.0259246826171875
18.09475 0.1035919189453125 0.13208770751953125 0.075103759765625 -0.32342529296875 0.0003921389579772949 0.0005244612693786621 -0.07408905029296875 -0.021373748779296875
18.1045 0.110504150390625 0.1260528564453125 0.0488739013671875 -0.34307861328125 -0.0005619525909423828 -0.0010279417037963867 -0.07592391967773438 -0.01261138916015625
18.11425 0.11684417724609375 0.12464141845703125 0.018798828125 -0.3595733642578125 0.0006635785102844238 0.0003962516784667969 -0.07679367065429688 -0.007659912109375
18.124 0.1224212646484375 0.11956787109375 -0.01275634765625 -0.37408447265625 0.0002837181091308594 -0.0015285015106201172 -0.0753173828125 0.0005950927734375
18.13375 0.129364013671875 0.115997314453125 -0.0478515625 -0.383575439453125 0.00026598572731018066 0.0004922747611999512 -0.074493408203125 0.005374908447265625
18.1435 0.13454437255859375 0.10932159423828125 -0.083587646484375 -0.3890533447265625 0.000258713960647583 -0.0004782378673553467 -0.075653076171875 0.0131072998046875
18.15325 0.14107513427734375 0.104705810546875 -0.12158203125 -0.392974853515625 0.0007402300834655762 -0.00011220574378967285 -0.0745391845703125 0.019641876220703125
18.163 0.14769744873046875 0.09906768798828125 -0.160552978515625 -0.389862060546875 0.00012099742889404297 0.0004350244998931885 -0.07027053833007812 0.02459716796875
18.17275 0.1529083251953125 0.09423828125 -0.200439453125 -0.383209228515625 -0.0006603896617889404 7.867813110351562e-05 -0.06780624389648438 0.03148651123046875
18.1825 0.16019439697265625 0.0864715576171875 -0.2403564453125 -0.374969482421875 0.0008161067962646484 -0.0006803572177886963 -0.06579971313476562 0.03913116455078125
18.19225 0.16237640380859375 0.08031463623046875 -0.28271484375 -0.360198974609375 -0.00020951032638549805 -0.0005856752395629883 -0.0626068115234375 0.0449066162109375
18.202 0.1684722900390625 0.0753631591796875 -0.3204345703125 -0.34173583984375 9.432435035705566e-05 -0.0003874450922012329 -0.06028938293457031 0.04991722106933594
18.21175 0.172271728515625 0.0670623779296875 -0.3592529296875 -0.3153076171875 0.0012565851211547852 1.3232231140136719e-05 -0.054439544677734375 0.056697845458984375
18.2215 0.1778106689453125 0.0606536865234375 -0.39532470703125 -0.286956787109375 0.0006292462348937988 -0.0002467334270477295 -0.051753997802734375 0.05987548828125
18.23125 0.18032073974609375 0.0540008544921875 -0.42724609375 -0.252288818359375 1.2233853340148926e-05 -0.0004670470952987671 -0.0468292236328125 0.06531524658203125
18.241 0.18354034423828125 0.04602813720703125 -0.456146240234375 -0.216094970703125 0.0003426671028137207 0.0003311038017272949 -0.042049407958984375 0.0696258544921875
18.25075 0.18572998046875 0.03881072998046875 -0.48046875 -0.17498779296875 6.285309791564941e-05 -0.0005418062210083008 -0.0371246337890625 0.07424545288085938
18.2605 0.189056396484375 0.0318450927734375 -0.50189208984375 -0.134918212890625 0.0013045072555541992 -0.0005668401718139648 -0.031787872314453125 0.07792282104492188
18.27025 0.18946075439453125 0.021575927734375 -0.52117919921875 -0.089813232421875 0.000812143087387085 -0.0006552040576934814 -0.023876190185546875 0.08195114135742188
18.28 0.19173431396484375 0.01406097412109375 -0.53436279296875 -0.04296875 0.00035494565963745117 -0.000466957688331604 -0.018955230712890625 0.08319091796875
18.28975 0.1938629150390625 0.00409698486328125 -0.544219970703125 0.00531005859375 0.0009745955467224121 -0.0010644197463989258 -0.01125335693359375 0.08817291259765625
18.2995 0.1938018798828125 -0.003448486328125 -0.548492431640625 0.057159423828125 0.00015156716108322144 -9.698420763015747e-05 -0.004039764404296875 0.08824539184570312
18.30925 0.1934356689453125 -0.0142669677734375 -0.54864501953125 0.11053466796875 0.0006867051124572754 -0.00021070241928100586 0.00299072265625 0.0910186767578125
18.319 0.19197845458984375 -0.02243804931640625 -0.538360595703125 0.160430908203125 0.0003860592842102051 -0.0015819072723388672 0.0100860595703125 0.09255599975585938
18.32875 0.19156646728515625 -0.02869415283203125 -0.5247802734375 0.210845947265625 -0.0007029473781585693 0.00011563301086425781 0.01934051513671875 0.09263229370117188
18.3385 0.190155029296875 -0.03936767578125 -0.505035400390625 0.25750732421875 0.0009968280792236328 -8.511543273925781e-05 0.028057098388671875 0.09432220458984375
18.34825 0.18923187255859375 -0.04754638671875 -0.4867095947265625 0.3037109375 1.2099742889404297e-05 -0.0011289119720458984 0.0341949462890625 0.0944671630859375
18.358 0.1864471435546875 -0.0565185546875 -0.461181640625 0.34674072265625 -0.0013417601585388184 0.00010532140731811523 0.04378509521484375 0.09227752685546875
18.36775 0.18550872802734375 -0.06447601318359375 -0.4335784912109375 0.3890228271484375 -0.00021367520093917847 7.338821887969971e-06 0.0499420166015625 0.0900421142578125
18.3775 0.1821746826171875 -0.07236480712890625 -0.402496337890625 0.4294891357421875 0.0005012750625610352 7.987022399902344e-05 0.05742645263671875 0.0882110595703125
18.38725 0.1783294677734375 -0.07985687255859375 -0.3668060302734375 0.467987060546875 -0.0006434917449951172 0.00032901763916015625 0.06311798095703125 0.086944580078125
18.397 0.1758270263671875 -0.088409423828125 -0.32513427734375 0.502197265625 0.0002563595771789551 -6.493926048278809e-05 0.0701904296875 0.082244873046875
18.40675 0.1699066162109375 -0.09442138671875 -0.27996826171875 0.53375244140625 -1.609325408935547e-05 -0.0013616085052490234 0.0779266357421875 0.07867431640625
18.4165 0.16522979736328125 -0.10240936279296875 -0.23211669921875 0.5556640625 -0.0007225275039672852 -0.000758826732635498 0.0823516845703125 0.0736083984375
18.42625 0.15938568115234375 -0.110076904296875 -0.1844482421875 0.57379150390625 0.001019120216369629 0.0007561445236206055 0.091888427734375 0.068206787109375
18.436 0.152923583984375 -0.11467742919921875 -0.135162353515625 0.58673095703125 0.0005249977111816406 -0.0005938708782196045 0.0989532470703125 0.06320953369140625
18.44575 0.1470794677734375 -0.12393951416015625 -0.088531494140625 0.599365234375 -0.0003457367420196533 -0.00021436810493469238 0.101104736328125 0.056549072265625
18.4555 0.14044189453125 -0.12799835205078125 -0.0401611328125 0.60699462890625 -0.0003471970558166504 -0.000992119312286377 0.10760498046875 0.0485992431640625
18.46525 0.13482666015625 -0.1342926025390625 0.007049560546875 0.614471435546875 0.0007288455963134766 0.0005723834037780762 0.1103668212890625 0.04096221923828125
18.475 0.1264495849609375 -0.14008331298828125 0.058319091796875 0.6171875 -0.00020781159400939941 -0.00030165910720825195 0.1164398193359375 0.03371429443359375
18.48475 0.12151336669921875 -0.14560699462890625 0.11126708984375 0.615997314453125 0.000772625207901001 -0.0007936358451843262 0.11917877197265625 0.026092529296875
18.4945 0.1124114990234375 -0.14899444580078125 0.167022705078125 0.608489990234375 0.00012385845184326172 -0.0002643018960952759 0.121673583984375 0.01709747314453125
18.50425 0.10418701171875 -0.1545562744140625 0.221923828125 0.594482421875 -0.00046455860137939453 -0.00028645992279052734 0.1238861083984375 0.0105743408203125
18.514 0.0986175537109375 -0.1580047607421875 0.2752685546875 0.57489013671875 -2.333521842956543e-05 -0.0004649162292480469 0.1235504150390625 -0.00054168701171875
18.52375 0.088165283203125 -0.15953826904296875 0.322174072265625 0.547943115234375 0.000616908073425293 0.0007160305976867676 0.12445831298828125 -0.00545501708984375
18.5335 0.08252716064453125 -0.16362762451171875 0.366058349609375 0.5191650390625 -8.028745651245117e-05 -0.0005830526351928711 0.1251220703125 -0.0159454345703125
18.54325 0.0752105712890625 -0.16783905029296875 0.40509033203125 0.489227294921875 0.00026172399520874023 -0.0006228387355804443 0.12500762939453125 -0.02252960205078125
18.553 0.0665283203125 -0.1689453125 0.4423828125 0.45745849609375 0.00017276406288146973 7.37905502319336e-05 0.12212371826171875 -0.0308074951171875
18.56275 0.05912017822265625 -0.16855621337890625 0.47998046875 0.42205810546875 0.0004476308822631836 0.0010169148445129395 0.12029647827148438 -0.037090301513671875
18.5725 0.050872802734375 -0.1698760986328125 0.51531982421875 0.3883056640625 7.909536361694336e-05 -0.0009588003158569336 0.11513519287109375 -0.045146942138671875
18.58225 0.04236602783203125 -0.17095184326171875 0.5504150390625 0.347747802734375 0.0004215836524963379 -0.0010619759559631348 0.11177825927734375 -0.0541839599609375
18.592 0.032989501953125 -0.17130279541015625 0.581024169921875 0.3026123046875 0.0010628104209899902 -0.0006108880043029785 0.10760879516601562 -0.059322357177734375
18.60175 0.0259857177734375 -0.17156982421875 0.6080322265625 0.25201416015625 0.0007864236831665039 -0.0006649494171142578 0.10149383544921875 -0.0669708251953125
18.6115 0.01793670654296875 -0.1693572998046875 0.6268310546875 0.20208740234375 0.0005900263786315918 -0.0010831952095031738 0.09849929809570312 -0.0736846923828125
18.62125 0.0102691650390625 -0.16922760009765625 0.641326904296875 0.151611328125 4.932284355163574e-05 -0.00023164600133895874 0.09132766723632812 -0.07767486572265625
18.631 0.00194549560546875 -0.1679229736328125 0.650665283203125 0.1036376953125 0.0008568763732910156 -0.00030347704887390137 0.08543777465820312 -0.08217620849609375
18.64075 -0.00695037841796875 -0.1667633056640625 0.65765380859375 0.053131103515625 0.00018897652626037598 -0.0007164180278778076 0.08027267456054688 -0.086029052734375
