!Created with skrf (http://scikit-rf.org).
# GHz S RI R 50.0 
!freq ReS11 ImS11 ReS21 ImS21 ReS12 ImS12 ReS22 ImS22
17.5 0.00897979736328125 -0.14409637451171875 -0.1190948486328125 0.17881011962890625 -0.0016835331916809082 0.0010231733322143555 0.09829330444335938 0.000240325927734375
17.50975 -0.00041961669921875 -0.14148712158203125 -0.096221923828125 0.18521881103515625 -0.0009706616401672363 0.0010333061218261719 0.10070037841796875 -0.000591278076171875
17.5195 -0.00775146484375 -0.1378936767578125 -0.07586669921875 0.18910980224609375 -0.0008214116096496582 0.0006968379020690918 0.1032257080078125 0.00037384033203125
17.52925 -0.01836395263671875 -0.13317108154296875 -0.05382537841796875 0.19144439697265625 -0.0003947317600250244 -0.0003739595413208008 0.106201171875 -0.006591796875
17.539 -0.0244598388671875 -0.1279754638671875 -0.0339202880859375 0.1900482177734375 -0.0018355846405029297 0.0006345510482788086 0.10681915283203125 -0.007659912109375
17.54875 -0.03253173828125 -0.125274658203125 -0.015045166015625 0.18599700927734375 -0.0026323795318603516 0.0005872249603271484 0.11079025268554688 -0.01201629638671875
17.5585 -0.04132843017578125 -0.11981964111328125 0.00433349609375 0.1833343505859375 -0.0013432502746582031 -0.0002631545066833496 0.11232376098632812 -0.01641082763671875
17.56825 -0.04784393310546875 -0.11510467529296875 0.0203857421875 0.1768951416015625 -0.0010921359062194824 0.0010360479354858398 0.11080169677734375 -0.020648956298828125
17.578 -0.05312347412109375 -0.1088104248046875 0.03778076171875 0.16912841796875 -0.0013244152069091797 0.0012039542198181152 0.11486434936523438 -0.02489471435546875
17.58775 -0.059722900390625 -0.10451507568359375 0.05218505859375 0.1580352783203125 6.090104579925537e-05 6.765127182006836e-05 0.11388015747070312 -0.026580810546875
17.5975 -0.06496429443359375 -0.097320556640625 0.06739044189453125 0.14664459228515625 -0.0003989487886428833 0.0004073977470397949 0.11399078369140625 -0.032238006591796875
17.60725 -0.06923675537109375 -0.09326934814453125 0.07773590087890625 0.1338348388671875 8.723139762878418e-05 0.0005411505699157715 0.1135711669921875 -0.034709930419921875
17.617 -0.07523345947265625 -0.0848236083984375 0.08750152587890625 0.12078094482421875 -0.00047665834426879883 0.0013091564178466797 0.1145782470703125 -0.039958953857421875
17.62675 -0.08026123046875 -0.0788726806640625 0.09271240234375 0.1053314208984375 -0.0011472105979919434 0.0002567768096923828 0.1136016845703125 -0.04438018798828125
17.6365 -0.08514404296875 -0.071075439453125 0.09771728515625 0.091949462890625 1.0401010513305664e-05 0.0003898739814758301 0.11279296875 -0.0498809814453125
17.64625 -0.08776092529296875 -0.06258392333984375 0.10012054443359375 0.0777587890625 -0.0009311437606811523 0.0010955333709716797 0.10979080200195312 -0.0519866943359375
17.656 -0.09061431884765625 -0.05593109130859375 0.1035003662109375 0.0653533935546875 -0.0009210109710693359 0.0011458992958068848 0.10688400268554688 -0.057788848876953125
17.66575 -0.09268951416015625 -0.0462188720703125 0.10134124755859375 0.0552825927734375 -0.0004152655601501465 -0.00024446845054626465 0.1064910888671875 -0.06379318237304688
17.6755 -0.09673309326171875 -0.0402069091796875 0.0999908447265625 0.04320526123046875 -0.001169443130493164 0.0007173418998718262 0.10280227661132812 -0.06766891479492188
17.68525 -0.09780120849609375 -0.03084564208984375 0.09807586669921875 0.0322265625 -0.0002810657024383545 0.0008703768253326416 0.10100555419921875 -0.07176971435546875
17.695 -0.0995025634765625 -0.02277374267578125 0.09482955932617188 0.023830413818359375 -0.0006344318389892578 0.0005544126033782959 0.0979766845703125 -0.075164794921875
17.70475 -0.10136032104492188 -0.013591766357421875 0.09174346923828125 0.010799407958984375 0.0005754828453063965 0.0005025267601013184 0.09420394897460938 -0.07915496826171875
17.7145 -0.10168075561523438 -0.00646209716796875 0.08530426025390625 0.002483367919921875 -2.6941299438476562e-05 0.0005099773406982422 0.09003067016601562 -0.08459854125976562
17.72425 -0.1030120849609375 0.002048492431640625 0.078399658203125 -0.006122589111328125 0.0001214146614074707 0.0013120770454406738 0.08514785766601562 -0.08712005615234375
17.734 -0.10218048095703125 0.0097808837890625 0.0696868896484375 -0.0124969482421875 -0.00045484304428100586 0.0004507899284362793 0.08121490478515625 -0.09123992919921875
17.74375 -0.10248565673828125 0.01763153076171875 0.060482025146484375 -0.01568603515625 -0.0010905265808105469 0.0016984939575195312 0.07854461669921875 -0.09545135498046875
17.7535 -0.10036849975585938 0.024211883544921875 0.052814483642578125 -0.017545700073242188 0.0002855062484741211 0.00044354796409606934 0.07253646850585938 -0.09914779663085938
17.76325 -0.0982513427734375 0.033153533935546875 0.04432868957519531 -0.018095016479492188 -7.867813110351562e-06 0.0012599825859069824 0.06599807739257812 -0.099853515625
17.773 -0.09776687622070312 0.040157318115234375 0.03528022766113281 -0.017518997192382812 0.0013380050659179688 0.0010384321212768555 0.06284713745117188 -0.1037750244140625
17.78275 -0.0964813232421875 0.046375274658203125 0.02739715576171875 -0.015799522399902344 0.0013517141342163086 0.0017942190170288086 0.05826568603515625 -0.10243988037109375
17.7925 -0.09161758422851562 0.053234100341796875 0.020626068115234375 -0.013926506042480469 0.0007364749908447266 0.0006952285766601562 0.05390167236328125 -0.10549545288085938
17.80225 -0.08900070190429688 0.05998992919921875 0.013981342315673828 -0.010313987731933594 0.0016609430313110352 0.001114487648010254 0.0486602783203125 -0.10770416259765625
17.812 -0.08463668823242188 0.06886672973632812 0.009856224060058594 -0.002826213836669922 0.0009979009628295898 0.0016411542892456055 0.04266357421875 -0.10683059692382812
17.82175 -0.07950210571289062 0.0759735107421875 0.0053234100341796875 0.0023653507232666016 0.0003077387809753418 0.0013371109962463379 0.03778076171875 -0.10684585571289062
17.8315 -0.07527542114257812 0.08123779296875 0.0029048919677734375 0.00990915298461914 0.0006247162818908691 0.0012244582176208496 0.0304107666015625 -0.1084747314453125
17.84125 -0.071502685546875 0.08820343017578125 0.0009326934814453125 0.01828765869140625 6.318092346191406e-05 0.0012128353118896484 0.025390625 -0.10813140869140625
17.851 -0.06610870361328125 0.096282958984375 0.0005846023559570312 0.027704238891601562 -9.250640869140625e-05 0.00034065544605255127 0.020984649658203125 -0.10645294189453125
17.86075 -0.06363296508789062 0.098419189453125 0.003261566162109375 0.0359649658203125 0.0005578994750976562 0.000508725643157959 0.012691497802734375 -0.10502243041992188
17.8705 -0.05680084228515625 0.105133056640625 0.005886077880859375 0.04139518737792969 0.00041407346725463867 0.0007236599922180176 0.009189605712890625 -0.10546112060546875
17.88025 -0.051883697509765625 0.1110687255859375 0.009695053100585938 0.052028656005859375 0.0010780096054077148 0.0012540817260742188 0.00330352783203125 -0.10493087768554688
17.89 -0.046329498291015625 0.11693954467773438 0.017330169677734375 0.0603790283203125 0.0006944537162780762 0.0006200671195983887 -0.00177001953125 -0.10219573974609375
17.89975 -0.04012298583984375 0.12018203735351562 0.024951934814453125 0.06708526611328125 0.0006077885627746582 0.0005925297737121582 -0.007572174072265625 -0.1015777587890625
17.9095 -0.03530120849609375 0.124237060546875 0.03472137451171875 0.07410430908203125 -0.00042825937271118164 0.0017514228820800781 -0.01288604736328125 -0.09918975830078125
17.91925 -0.02789306640625 0.12751007080078125 0.0476226806640625 0.0793609619140625 0.0012097358703613281 0.001058340072631836 -0.015926361083984375 -0.099700927734375
17.929 -0.0216522216796875 0.131500244140625 0.0609893798828125 0.083587646484375 0.0015566349029541016 0.0012302398681640625 -0.02283477783203125 -0.0947418212890625
17.93875 -0.0141143798828125 0.13402557373046875 0.07476806640625 0.0841827392578125 -0.00018745660781860352 0.0005600452423095703 -0.0266265869140625 -0.09317398071289062
17.9485 -0.00782012939453125 0.13535308837890625 0.0900726318359375 0.08371734619140625 1.150369644165039e-05 0.0013262033462524414 -0.029972076416015625 -0.08911514282226562
17.95825 -3.814697265625e-05 0.1376495361328125 0.1072235107421875 0.0813446044921875 0.001498103141784668 0.0016199350357055664 -0.032672882080078125 -0.08753204345703125
17.968 0.00612640380859375 0.1387481689453125 0.123779296875 0.0755615234375 -0.0007789433002471924 0.0008371472358703613 -0.03891754150390625 -0.0834197998046875
17.97775 0.01385498046875 0.14104461669921875 0.14068603515625 0.06858062744140625 -0.0003666877746582031 0.002131223678588867 -0.04372406005859375 -0.07939910888671875
17.9875 0.02288055419921875 0.142730712890625 0.1576385498046875 0.05905914306640625 0.000913083553314209 0.0009768009185791016 -0.045818328857421875 -0.07611846923828125
17.99725 0.02884674072265625 0.1414642333984375 0.17394256591796875 0.0461883544921875 0.0012243986129760742 0.0009455680847167969 -0.05013275146484375 -0.07134628295898438
18.007 0.03826904296875 0.14218902587890625 0.1889190673828125 0.02918243408203125 0.0006485879421234131 0.00016897916793823242 -0.05188751220703125 -0.0684356689453125
18.01675 0.04608917236328125 0.14382171630859375 0.20377349853515625 0.01152801513671875 3.8504600524902344e-05 0.0002602487802505493 -0.05809783935546875 -0.06200408935546875
18.0265 0.05291748046875 0.143463134765625 0.217010498046875 -0.0129241943359375 -0.0002474784851074219 0.000635683536529541 -0.06102752685546875 -0.05745697021484375
18.03625 0.0616455078125 0.1447601318359375 0.225341796875 -0.037506103515625 0.000283658504486084 0.00022238492965698242 -0.0640869140625 -0.0528717041015625
18.046 0.06817626953125 0.1422882080078125 0.22942352294921875 -0.063995361328125 0.0001770704984664917 -1.9252300262451172e-05 -0.06517410278320312 -0.045955657958984375
18.05575 0.074798583984375 0.14038848876953125 0.23195648193359375 -0.0921173095703125 0.0007087290287017822 0.00011160969734191895 -0.06820297241210938 -0.041168212890625
18.0655 0.08370208740234375 0.13817596435546875 0.22977447509765625 -0.11942291259765625 0.0010595321655273438 0.000851750373840332 -0.07105636596679688 -0.037567138671875
18.07525 0.0889434814453125 0.13694000244140625 0.225677490234375 -0.149200439453125 0.0002499520778656006 -0.0006925463676452637 -0.07300567626953125 -0.03105926513671875
18.085 0.0965423583984375 0.13321685791015625 0.21749114990234375 -0.18010711669921875 0.0010918974876403809 -0.00021034479141235352 -0.07537460327148438 -0.0255584716796875
18.09475 0.10205841064453125 0.129913330078125 0.206207275390625 -0.2105255126953125 0.000957876443862915 -0.0004654228687286377 -0.07400131225585938 -0.020008087158203125
18.1045 0.11083984375 0.12491607666015625 0.1909637451171875 -0.23715972900390625 0.0007184743881225586 0.0007734298706054688 -0.07643508911132812 -0.013469696044921875
18.11425 0.11600494384765625 0.12360382080078125 0.170989990234375 -0.2664947509765625 7.992982864379883e-05 -0.0002660900354385376 -0.07532501220703125 -0.007663726806640625
18.124 0.1223297119140625 0.1185760498046875 0.14404296875 -0.292633056640625 0.0002824068069458008 -0.0005348920822143555 -0.07445526123046875 -0.00064849853515625
18.13375 0.1296539306640625 0.11563873291015625 0.11669921875 -0.3151702880859375 -0.0003803670406341553 -0.0005647242069244385 -0.07469940185546875 0.005794525146484375
18.1435 0.13437652587890625 0.10982513427734375 0.0846099853515625 -0.3350830078125 0.0010314583778381348 -7.69495964050293e-05 -0.07477951049804688 0.01369476318359375
18.15325 0.13961029052734375 0.1036529541015625 0.0496368408203125 -0.351806640625 0.0009738802909851074 -0.00020331144332885742 -0.07292556762695312 0.018032073974609375
18.163 0.1484375 0.0988616943359375 0.0136260986328125 -0.361358642578125 0.0010445117950439453 -0.0002834200859069824 -0.07161331176757812 0.0258331298828125
18.17275 0.15195465087890625 0.0924224853515625 -0.025390625 -0.3697357177734375 0.0017491579055786133 -0.00031250715255737305 -0.06688690185546875 0.032062530517578125
18.1825 0.158477783203125 0.0874481201171875 -0.062957763671875 -0.3746795654296875 0.001229405403137207 -0.00026661157608032227 -0.06503677368164062 0.039997100830078125
18.19225 0.162841796875 0.0803375244140625 -0.1044464111328125 -0.374847412109375 0.0015755891799926758 -0.00045984983444213867 -0.06114768981933594 0.04485893249511719
18.202 0.168670654296875 0.0745697021484375 -0.145660400390625 -0.370208740234375 0.00015431642532348633 -0.0002789348363876343 -0.06058692932128906 0.04909515380859375
18.21175 0.1727142333984375 0.068206787109375 -0.18719482421875 -0.35906982421875 -0.0002551078796386719 -0.0013309717178344727 -0.054592132568359375 0.05655670166015625
18.2215 0.17714691162109375 0.05826568603515625 -0.2274169921875 -0.34320068359375 0.0009540021419525146 -0.00021651387214660645 -0.050426483154296875 0.06160545349121094
18.23125 0.18096923828125 0.0532684326171875 -0.26397705078125 -0.322662353515625 -0.00032407045364379883 -0.0004677772521972656 -0.047794342041015625 0.06333541870117188
18.241 0.18321990966796875 0.045135498046875 -0.29974365234375 -0.296417236328125 -0.0006958246231079102 -0.0013009309768676758 -0.04296112060546875 0.06916046142578125
18.25075 0.1844635009765625 0.03714752197265625 -0.33282470703125 -0.2705078125 0.001404106616973877 0.0003362298011779785 -0.0371551513671875 0.07370376586914062
18.2605 0.187225341796875 0.03023529052734375 -0.36077880859375 -0.239654541015625 0.000945746898651123 -0.0012497305870056152 -0.030895233154296875 0.07744216918945312
18.27025 0.1898040771484375 0.02091217041015625 -0.388092041015625 -0.20550537109375 -0.00035059452056884766 -0.0011332035064697266 -0.024394989013671875 0.08155441284179688
18.28 0.19199371337890625 0.01396942138671875 -0.41021728515625 -0.16845703125 0.0011979341506958008 -0.0006753206253051758 -0.01842498779296875 0.08333587646484375
18.28975 0.194061279296875 0.00310516357421875 -0.43182373046875 -0.13092041015625 8.7738037109375e-05 -0.0005703568458557129 -0.0101776123046875 0.08753585815429688
18.2995 0.19370269775390625 -0.0033416748046875 -0.446197509765625 -0.087493896484375 0.000963747501373291 -0.000659257173538208 -0.002773284912109375 0.08710098266601562
18.30925 0.1933746337890625 -0.0122528076171875 -0.456695556640625 -0.04058837890625 -0.0006061792373657227 -0.0007278919219970703 0.00449371337890625 0.08988189697265625
18.319 0.19202423095703125 -0.0223388671875 -0.46240234375 0.0045928955078125 -4.410743713378906e-05 -0.0009848475456237793 0.0115203857421875 0.0909271240234375
18.32875 0.1911773681640625 -0.02791595458984375 -0.4615325927734375 0.0484771728515625 -0.0007192492485046387 0.0004208683967590332 0.02036285400390625 0.092742919921875
18.3385 0.19010162353515625 -0.03874969482421875 -0.4552459716796875 0.0912933349609375 0.0012851357460021973 -0.0009045600891113281 0.026515960693359375 0.0912628173828125
18.34825 0.189178466796875 -0.04718780517578125 -0.4484710693359375 0.1333465576171875 0.00018393993377685547 -0.001563429832458496 0.03482818603515625 0.09339141845703125
18.358 0.18679046630859375 -0.0553131103515625 -0.43780517578125 0.17340087890625 0.00020894408226013184 -0.0005509555339813232 0.04372406005859375 0.09096527099609375
18.36775 0.18514251708984375 -0.06525421142578125 -0.4225311279296875 0.2162933349609375 -0.00012139976024627686 0.00022840499877929688 0.04949188232421875 0.0899505615234375
18.3775 0.182769775390625 -0.07093048095703125 -0.4055938720703125 0.25628662109375 0.00014400482177734375 0.00039902329444885254 0.05735015869140625 0.0890045166015625
18.38725 0.17835235595703125 -0.08171844482421875 -0.38348388671875 0.2960052490234375 -0.0008579790592193604 0.0005401074886322021 0.0624542236328125 0.08600616455078125
18.397 0.1753692626953125 -0.0878143310546875 -0.3560791015625 0.331390380859375 0.00033655762672424316 7.933378219604492e-05 0.0706634521484375 0.0838775634765625
18.40675 0.169189453125 -0.0950164794921875 -0.325286865234375 0.366668701171875 0.00023978948593139648 0.0002759099006652832 0.077911376953125 0.0767974853515625
18.4165 0.16593170166015625 -0.10193634033203125 -0.29058837890625 0.3947296142578125 0.00018365681171417236 -7.15404748916626e-05 0.083404541015625 0.07366180419921875
18.42625 0.16013336181640625 -0.109466552734375 -0.2530059814453125 0.41943359375 0.0005666613578796387 -0.00019976496696472168 0.09088134765625 0.0681304931640625
18.436 0.15396881103515625 -0.11460113525390625 -0.2176055908203125 0.4404144287109375 0.0002875328063964844 0.0004977285861968994 0.0970306396484375 0.0631103515625
18.44575 0.14748382568359375 -0.122955322265625 -0.180145263671875 0.4582061767578125 0.00023617595434188843 -0.0001214742660522461 0.10218048095703125 0.055023193359375
18.4555 0.14003753662109375 -0.128204345703125 -0.141021728515625 0.4740753173828125 -0.0003272145986557007 2.1845102310180664e-05 0.10479736328125 0.05059814453125
18.46525 0.1348724365234375 -0.13434600830078125 -0.1011810302734375 0.4888763427734375 2.8848648071289062e-05 0.0005410611629486084 0.11083221435546875 0.03916168212890625
18.475 0.1267242431640625 -0.13946533203125 -0.062255859375 0.5015869140625 -0.0004621744155883789 -0.001278221607208252 0.115264892578125 0.03400421142578125
18.48475 0.1205291748046875 -0.146087646484375 -0.016143798828125 0.51055908203125 0.0009680986404418945 0.00013363361358642578 0.119110107421875 0.0250701904296875
18.4945 0.11318206787109375 -0.148895263671875 0.030364990234375 0.513397216796875 -0.0002499520778656006 0.0008789300918579102 0.12134552001953125 0.01609039306640625
18.50425 0.1046295166015625 -0.1532135009765625 0.07855224609375 0.51031494140625 0.0015692710876464844 0.00013780593872070312 0.1220550537109375 0.00982666015625
18.514 0.0981292724609375 -0.158477783203125 0.125 0.50518798828125 4.801154136657715e-05 0.00025793910026550293 0.1242218017578125 0.00092315673828125
18.52375 0.08953094482421875 -0.1595001220703125 0.169281005859375 0.489959716796875 0.000750422477722168 0.0013290643692016602 0.124908447265625 -0.00775909423828125
18.5335 0.08257293701171875 -0.16375732421875 0.21221923828125 0.47418212890625 -0.000967860221862793 -0.0012449026107788086 0.12496185302734375 -0.014892578125
18.54325 0.07561492919921875 -0.167266845703125 0.24993896484375 0.456451416015625 5.59687614440918e-05 -0.00015478581190109253 0.12282943725585938 -0.0238494873046875
18.553 0.0678558349609375 -0.16931915283203125 0.286651611328125 0.43560791015625 -0.00018961727619171143 -0.00011283159255981445 0.12147903442382812 -0.029644012451171875
18.56275 0.0597686767578125 -0.16947174072265625 0.323638916015625 0.4134521484375 0.0004526376724243164 -4.960596561431885e-05 0.11951065063476562 -0.036327362060546875
18.5725 0.05075836181640625 -0.17125701904296875 0.35845947265625 0.388916015625 0.0004277825355529785 0.0001284182071685791 0.11599349975585938 -0.046367645263671875
18.58225 0.04125213623046875 -0.17083740234375 0.393280029296875 0.361236572265625 0.0010327696800231934 -0.00040835142135620117 0.11031723022460938 -0.0532073974609375
18.592 0.03513336181640625 -0.17168426513671875 0.4261474609375 0.326263427734375 0.0006819367408752441 -0.0010288357734680176 0.10723495483398438 -0.059505462646484375
18.60175 0.0259857177734375 -0.170806884765625 0.45635986328125 0.28955078125 1.3679265975952148e-05 -0.00025963783264160156 0.10245513916015625 -0.06526947021484375
18.6115 0.01854705810546875 -0.17024993896484375 0.480804443359375 0.250396728515625 -0.00014385581016540527 -0.00035056471824645996 0.09772109985351562 -0.07352447509765625
18.62125 0.01078033447265625 -0.1683349609375 0.4993896484375 0.208984375 -0.00014212727546691895 -0.0005338490009307861 0.09056854248046875 -0.07784652709960938
