!Created with skrf (http://scikit-rf.org).
# GHz S RI R 50.0 
!freq ReS11 ImS11 ReS21 ImS21 ReS12 ImS12 ReS22 ImS22
17.5 0.008636474609375 -0.1434783935546875 -0.26336669921875 0.338134765625 -0.001793980598449707 -0.0007457733154296875 0.09772491455078125 0.001049041748046875
17.50975 -1.52587890625e-05 -0.14090728759765625 -0.230804443359375 0.3546905517578125 -0.0013564825057983398 0.0016947388648986816 0.10037994384765625 -0.0001068115234375
17.5195 -0.00740814208984375 -0.1358642578125 -0.19281005859375 0.370147705078125 -0.0018277764320373535 0.0009253025054931641 0.10284423828125 -0.000408172607421875
17.52925 -0.01752471923828125 -0.13246917724609375 -0.1590728759765625 0.38043212890625 -0.0010700821876525879 0.0008597373962402344 0.10538101196289062 -0.005771636962890625
17.539 -0.02276611328125 -0.127685546875 -0.12274169921875 0.38671875 -0.001620650291442871 0.0010434389114379883 0.10662841796875 -0.00852203369140625
17.54875 -0.03145599365234375 -0.1244659423828125 -0.089080810546875 0.3882598876953125 -0.0008797645568847656 0.0011411309242248535 0.10963821411132812 -0.011505126953125
17.5585 -0.041412353515625 -0.11822509765625 -0.0560150146484375 0.3885650634765625 -2.282857894897461e-05 0.0007618069648742676 0.11240768432617188 -0.01552581787109375
17.56825 -0.04639434814453125 -0.1157989501953125 -0.0236968994140625 0.387908935546875 -0.0018080472946166992 0.0005458593368530273 0.11118698120117188 -0.019596099853515625
17.578 -0.05292510986328125 -0.108062744140625 0.0095062255859375 0.3828125 -0.0010302066802978516 -0.000469207763671875 0.11326217651367188 -0.02387237548828125
17.58775 -0.06023406982421875 -0.103759765625 0.0411834716796875 0.373748779296875 -0.0005604922771453857 0.00035202503204345703 0.1137847900390625 -0.025066375732421875
17.5975 -0.0635833740234375 -0.0973358154296875 0.0741424560546875 0.363494873046875 -0.0008307993412017822 0.0006463229656219482 0.1147003173828125 -0.031337738037109375
17.60725 -0.0697784423828125 -0.09304046630859375 0.1024322509765625 0.3507537841796875 -0.0013446211814880371 0.001834094524383545 0.11262893676757812 -0.033954620361328125
17.617 -0.07588958740234375 -0.0843658447265625 0.126983642578125 0.3308868408203125 -0.0011772513389587402 0.0013502836227416992 0.11468124389648438 -0.039031982421875
17.62675 -0.080352783203125 -0.07717132568359375 0.149505615234375 0.31402587890625 -0.0009291172027587891 0.0008788108825683594 0.11390304565429688 -0.042270660400390625
17.6365 -0.08251953125 -0.0697479248046875 0.170318603515625 0.2928466796875 -0.0010671615600585938 0.00020122528076171875 0.114654541015625 -0.04871368408203125
17.64625 -0.08696746826171875 -0.06292724609375 0.18560791015625 0.2740631103515625 -0.0009340643882751465 0.001040041446685791 0.10976791381835938 -0.052852630615234375
17.656 -0.08913421630859375 -0.05751800537109375 0.20013427734375 0.2544403076171875 0.0007436275482177734 0.0008801817893981934 0.10744857788085938 -0.058277130126953125
17.66575 -0.0930633544921875 -0.0466156005859375 0.212982177734375 0.23675537109375 -0.001056671142578125 0.001473844051361084 0.10713958740234375 -0.061370849609375
17.6755 -0.09499359130859375 -0.0406494140625 0.2266387939453125 0.2172698974609375 -7.326900959014893e-05 0.0003257244825363159 0.10320281982421875 -0.06642532348632812
17.68525 -0.09865570068359375 -0.03192901611328125 0.236297607421875 0.1966400146484375 -0.0009931325912475586 0.0007698535919189453 0.10135269165039062 -0.07104873657226562
17.695 -0.09830856323242188 -0.023082733154296875 0.2477264404296875 0.1775360107421875 -0.00033342838287353516 0.000553429126739502 0.0982208251953125 -0.07392120361328125
17.70475 -0.0996856689453125 -0.014739990234375 0.2566375732421875 0.1546173095703125 -0.001023411750793457 0.0010461807250976562 0.0946197509765625 -0.07845687866210938
17.7145 -0.10129547119140625 -0.00704193115234375 0.2623748779296875 0.1316375732421875 -0.00046697258949279785 0.00023356080055236816 0.09127044677734375 -0.08149337768554688
17.72425 -0.10137557983398438 0.001354217529296875 0.265045166015625 0.1088714599609375 0.00015729665756225586 0.0014957785606384277 0.08734512329101562 -0.08867645263671875
17.734 -0.1037750244140625 0.00853729248046875 0.263427734375 0.087554931640625 -0.000944972038269043 0.0017110109329223633 0.08209228515625 -0.09073638916015625
17.74375 -0.1025390625 0.01648712158203125 0.261688232421875 0.0660400390625 -0.0012818574905395508 0.0013810396194458008 0.07798004150390625 -0.0941925048828125
17.7535 -0.1002197265625 0.025218963623046875 0.2577972412109375 0.0484771728515625 8.606910705566406e-05 0.001006007194519043 0.0728302001953125 -0.09823989868164062
17.76325 -0.09890365600585938 0.0325775146484375 0.2524871826171875 0.0335693359375 -0.0004245638847351074 0.0019318461418151855 0.06732559204101562 -0.10007095336914062
17.773 -0.0971527099609375 0.039035797119140625 0.2478790283203125 0.019683837890625 -0.0005120038986206055 0.0014517903327941895 0.06360244750976562 -0.10184478759765625
17.78275 -0.09517288208007812 0.046169281005859375 0.24212646484375 0.0067901611328125 0.0002453923225402832 0.0004995763301849365 0.058467864990234375 -0.10367584228515625
17.7925 -0.09333419799804688 0.053802490234375 0.238555908203125 -0.0066375732421875 0.0007128119468688965 0.0008695721626281738 0.053668975830078125 -0.10541534423828125
17.80225 -0.08816909790039062 0.06053924560546875 0.23360443115234375 -0.01898193359375 0.0006562471389770508 0.0016938447952270508 0.04891204833984375 -0.1062469482421875
17.812 -0.084991455078125 0.068359375 0.22849273681640625 -0.030853271484375 -0.00033877789974212646 1.2233853340148926e-05 0.042682647705078125 -0.10702133178710938
17.82175 -0.08124542236328125 0.07511520385742188 0.2236785888671875 -0.0430755615234375 0.0007086992263793945 0.0018503665924072266 0.037841796875 -0.10544586181640625
17.8315 -0.07651519775390625 0.08167648315429688 0.21517181396484375 -0.05218505859375 -0.0007269978523254395 0.0009714365005493164 0.032978057861328125 -0.10763931274414062
17.84125 -0.07263946533203125 0.086639404296875 0.2086639404296875 -0.062408447265625 -0.0001119375228881836 0.0015687942504882812 0.025543212890625 -0.10826873779296875
17.851 -0.0667877197265625 0.094482421875 0.19907379150390625 -0.0689697265625 0.000500798225402832 0.0014841556549072266 0.019683837890625 -0.10750579833984375
17.86075 -0.06201171875 0.09988021850585938 0.1937103271484375 -0.074462890625 0.0010128021240234375 0.0007595419883728027 0.01580810546875 -0.105621337890625
17.8705 -0.057369232177734375 0.1052398681640625 0.18836212158203125 -0.07881927490234375 0.0014704465866088867 0.0004315972328186035 0.00923919677734375 -0.105560302734375
17.88025 -0.051097869873046875 0.111053466796875 0.18483734130859375 -0.08404541015625 -0.00078621506690979 0.000843346118927002 0.003223419189453125 -0.10495376586914062
17.89 -0.0470123291015625 0.11696624755859375 0.1818084716796875 -0.08966064453125 0.00027883052825927734 0.001863241195678711 -0.00138092041015625 -0.10297393798828125
17.89975 -0.0413970947265625 0.11821746826171875 0.17952728271484375 -0.0934906005859375 -0.00036782026290893555 0.001240551471710205 -0.0059661865234375 -0.10279464721679688
17.9095 -0.03636932373046875 0.124267578125 0.17734527587890625 -0.10108184814453125 0.00044906139373779297 0.001048445701599121 -0.011470794677734375 -0.10011672973632812
17.91925 -0.02776336669921875 0.12776947021484375 0.176422119140625 -0.10694122314453125 -0.00026160478591918945 0.0012922286987304688 -0.0165557861328125 -0.09848403930664062
17.929 -0.020599365234375 0.1314239501953125 0.174713134765625 -0.1150054931640625 0.0009582042694091797 0.000643610954284668 -0.02156829833984375 -0.096343994140625
17.93875 -0.0146484375 0.13346099853515625 0.1735687255859375 -0.12164306640625 0.001094520092010498 0.00048035383224487305 -0.024814605712890625 -0.09339523315429688
17.9485 -0.00782012939453125 0.13533782958984375 0.17134857177734375 -0.1299285888671875 0.000666499137878418 0.0009682774543762207 -0.03009033203125 -0.09057998657226562
17.95825 -0.00122833251953125 0.13826751708984375 0.17249298095703125 -0.13736724853515625 0.0009754300117492676 0.0005378127098083496 -0.032535552978515625 -0.0883636474609375
17.968 0.00524139404296875 0.13951873779296875 0.1721954345703125 -0.1465606689453125 0.00018249452114105225 -0.00023967772722244263 -0.03778076171875 -0.08437347412109375
17.97775 0.01409912109375 0.139892578125 0.1717987060546875 -0.15862274169921875 -0.0006269216537475586 0.0019176602363586426 -0.042491912841796875 -0.07972335815429688
17.9875 0.02001953125 0.14255523681640625 0.170196533203125 -0.1697235107421875 0.0004519820213317871 0.000783085823059082 -0.045650482177734375 -0.0755767822265625
17.99725 0.0295562744140625 0.1435394287109375 0.17159271240234375 -0.1846923828125 0.00042492151260375977 0.001180410385131836 -0.0506591796875 -0.07114410400390625
18.007 0.03719329833984375 0.1434783935546875 0.1693572998046875 -0.202392578125 0.0008751749992370605 0.0009290575981140137 -0.052898406982421875 -0.06627273559570312
18.01675 0.0435943603515625 0.1438140869140625 0.16425323486328125 -0.21966552734375 0.0006731748580932617 0.0006487369537353516 -0.0578460693359375 -0.061981201171875
18.0265 0.0511474609375 0.1434326171875 0.158172607421875 -0.240692138671875 0.0011893510818481445 0.0004976987838745117 -0.0621337890625 -0.05821990966796875
18.03625 0.059234619140625 0.1442108154296875 0.146881103515625 -0.260467529296875 0.0017876625061035156 0.0008656978607177734 -0.0634002685546875 -0.0527801513671875
18.046 0.067413330078125 0.14275360107421875 0.134124755859375 -0.2795562744140625 0.0008040666580200195 0.0005820393562316895 -0.06732177734375 -0.0467681884765625
18.05575 0.0745697021484375 0.13858795166015625 0.119537353515625 -0.2999420166015625 0.0007712244987487793 0.0007915496826171875 -0.07030487060546875 -0.04311370849609375
18.0655 0.08020782470703125 0.13909912109375 0.1020050048828125 -0.3172454833984375 0.0010162591934204102 0.0010856389999389648 -0.07234954833984375 -0.036678314208984375
18.07525 0.08840179443359375 0.13616180419921875 0.0831451416015625 -0.3370361328125 0.0016444921493530273 -0.0011410117149353027 -0.07397079467773438 -0.030605316162109375
18.085 0.09731292724609375 0.13385772705078125 0.0598602294921875 -0.3546600341796875 0.0014049410820007324 -0.0006781220436096191 -0.07782745361328125 -0.024944305419921875
18.09475 0.10376739501953125 0.13036346435546875 0.035186767578125 -0.3723907470703125 0.0007479190826416016 0.00038176774978637695 -0.07508468627929688 -0.02045440673828125
18.1045 0.11041259765625 0.12616729736328125 0.0074310302734375 -0.3880615234375 0.0002811849117279053 0.00038307905197143555 -0.0760345458984375 -0.013751983642578125
18.11425 0.11635589599609375 0.12439727783203125 -0.0264129638671875 -0.4026641845703125 0.0005233585834503174 -0.0003294050693511963 -0.0757293701171875 -0.00852203369140625
18.124 0.123046875 0.11981201171875 -0.062286376953125 -0.411956787109375 0.001131296157836914 -0.0009567737579345703 -0.076202392578125 -0.0003814697265625
18.13375 0.12853240966796875 0.115753173828125 -0.0999755859375 -0.41802978515625 0.00041584670543670654 -0.00030916929244995117 -0.07569503784179688 0.0057373046875
18.1435 0.1353759765625 0.1097259521484375 -0.139373779296875 -0.419403076171875 0.0010901689529418945 4.464387893676758e-05 -0.07548141479492188 0.01335906982421875
18.15325 0.141876220703125 0.10546112060546875 -0.179656982421875 -0.416717529296875 -0.00061798095703125 0.0006265044212341309 -0.07433319091796875 0.01941680908203125
18.163 0.14853668212890625 0.09836578369140625 -0.22027587890625 -0.4100341796875 2.1249055862426758e-05 0.00046390295028686523 -0.07241058349609375 0.0271453857421875
18.17275 0.15283966064453125 0.09354400634765625 -0.26043701171875 -0.3994140625 0.00012803822755813599 -1.8574297428131104e-05 -0.06792068481445312 0.030544281005859375
18.1825 0.1589202880859375 0.0862884521484375 -0.300323486328125 -0.387420654296875 0.0003314763307571411 -0.00014109909534454346 -0.06621170043945312 0.039440155029296875
18.19225 0.16432952880859375 0.08040618896484375 -0.34295654296875 -0.366485595703125 0.0010861754417419434 -0.0009777545928955078 -0.06220054626464844 0.04471015930175781
18.202 0.1680450439453125 0.0753936767578125 -0.38275146484375 -0.342529296875 2.4080276489257812e-05 -0.00194549560546875 -0.06153678894042969 0.051456451416015625
18.21175 0.17254638671875 0.069000244140625 -0.4227294921875 -0.3116455078125 0.00018197298049926758 -0.0009336471557617188 -0.056331634521484375 0.056873321533203125
18.2215 0.176605224609375 0.0608062744140625 -0.458343505859375 -0.27777099609375 -0.00032551586627960205 0.0003375113010406494 -0.05058860778808594 0.062122344970703125
18.23125 0.18070220947265625 0.05449676513671875 -0.488189697265625 -0.23944091796875 6.697326898574829e-05 -0.0002021491527557373 -0.047027587890625 0.06512832641601562
18.241 0.1834716796875 0.04509735107421875 -0.51507568359375 -0.1982421875 9.424984455108643e-05 -0.0004179626703262329 -0.042606353759765625 0.0704498291015625
18.25075 0.1860809326171875 0.03882598876953125 -0.5369873046875 -0.151580810546875 0.0006707906723022461 -0.0003635883331298828 -0.038311004638671875 0.07282638549804688
18.2605 0.18880462646484375 0.03025054931640625 -0.555755615234375 -0.10540771484375 0.0015233755111694336 0.0003389716148376465 -0.0317230224609375 0.0791473388671875
18.27025 0.1898651123046875 0.02146148681640625 -0.572723388671875 -0.057159423828125 5.9604644775390625e-06 -0.001033782958984375 -0.024707794189453125 0.08221054077148438
18.28 0.19194793701171875 0.01324462890625 -0.584564208984375 -0.00665283203125 -0.00015747547149658203 -0.0011824965476989746 -0.0184783935546875 0.0837860107421875
18.28975 0.195098876953125 0.003448486328125 -0.592315673828125 0.04486083984375 0.0017115473747253418 -0.0001665353775024414 -0.010608673095703125 0.0870208740234375
18.2995 0.19310760498046875 -0.00335693359375 -0.591583251953125 0.100830078125 9.110569953918457e-05 0.0003967583179473877 -0.003658294677734375 0.08617401123046875
18.30925 0.1934051513671875 -0.014068603515625 -0.585693359375 0.1575927734375 0.0005942583084106445 -0.0006366968154907227 0.00391387939453125 0.08878326416015625
18.319 0.193115234375 -0.02387237548828125 -0.575042724609375 0.21234130859375 0.00022464990615844727 -0.0005340874195098877 0.010875701904296875 0.09286117553710938
18.32875 0.1915740966796875 -0.029541015625 -0.557159423828125 0.263427734375 0.0008736550807952881 -0.0009627938270568848 0.020359039306640625 0.09357452392578125
18.3385 0.19173431396484375 -0.0390472412109375 -0.53240966796875 0.313262939453125 0.00014705955982208252 -0.0002878904342651367 0.027103424072265625 0.0955810546875
18.34825 0.19024658203125 -0.04842376708984375 -0.50958251953125 0.359344482421875 -0.00013214349746704102 -0.0006406307220458984 0.03411102294921875 0.09374237060546875
18.358 0.187225341796875 -0.0548553466796875 -0.4810638427734375 0.4049530029296875 -0.0007091760635375977 -0.0010776519775390625 0.04328155517578125 0.09066009521484375
18.36775 0.1849365234375 -0.064422607421875 -0.4488525390625 0.4469146728515625 0.0007989704608917236 8.937716484069824e-05 0.0495147705078125 0.08869171142578125
18.3775 0.1826019287109375 -0.07086944580078125 -0.412689208984375 0.4896240234375 -0.0005180239677429199 -0.0011422038078308105 0.05699920654296875 0.0872955322265625
18.38725 0.17901611328125 -0.08025360107421875 -0.370697021484375 0.528533935546875 0.000206679105758667 -0.0005161166191101074 0.06430816650390625 0.08681488037109375
18.397 0.1752777099609375 -0.08624267578125 -0.32476806640625 0.563232421875 0.000164031982421875 -0.0004897117614746094 0.0702667236328125 0.0828704833984375
18.40675 0.170501708984375 -0.0960235595703125 -0.2730712890625 0.5933837890625 0.0002461373805999756 -0.0004316568374633789 0.0789947509765625 0.079254150390625
18.4165 0.165924072265625 -0.10277557373046875 -0.22052001953125 0.616943359375 0.0002644658088684082 -0.0010417699813842773 0.084014892578125 0.0750885009765625
18.42625 0.16014862060546875 -0.1090087890625 -0.16912841796875 0.633209228515625 0.0003813505172729492 -0.00025519728660583496 0.09197998046875 0.0683441162109375
18.436 0.1530609130859375 -0.1151580810546875 -0.116851806640625 0.645050048828125 0.0006971657276153564 -8.320808410644531e-05 0.09765625 0.06380462646484375
18.44575 0.14705657958984375 -0.124755859375 -0.065582275390625 0.6529541015625 -0.0010279417037963867 -4.100799560546875e-05 0.1025238037109375 0.0557098388671875
18.4555 0.14076995849609375 -0.1276092529296875 -0.01318359375 0.658477783203125 1.2196600437164307e-05 -0.00012748688459396362 0.10540008544921875 0.04937744140625
18.46525 0.134368896484375 -0.134857177734375 0.038482666015625 0.66552734375 0.0005330145359039307 -0.0002645552158355713 0.11052703857421875 0.041259765625
18.475 0.1262359619140625 -0.1396636962890625 0.0926513671875 0.665679931640625 0.0012907981872558594 -0.0005517005920410156 0.11620330810546875 0.0340576171875
18.48475 0.12192535400390625 -0.1456146240234375 0.152191162109375 0.6624755859375 0.0003224611282348633 0.0003955364227294922 0.11826324462890625 0.026336669921875
18.4945 0.1121826171875 -0.14947509765625 0.20867919921875 0.649932861328125 0.00043967366218566895 -0.00021930038928985596 0.1225738525390625 0.0164337158203125
18.50425 0.1035614013671875 -0.1553802490234375 0.2698974609375 0.6339111328125 -0.001451730728149414 9.584426879882812e-05 0.1220245361328125 0.009033203125
18.514 0.0984954833984375 -0.15838623046875 0.32305908203125 0.60858154296875 0.000256955623626709 -0.00047972798347473145 0.12456512451171875 0.00189208984375
18.52375 0.08757781982421875 -0.15985870361328125 0.37347412109375 0.578765869140625 6.973743438720703e-05 0.0008492767810821533 0.12392807006835938 -0.007854461669921875
18.5335 0.08333587646484375 -0.16442108154296875 0.418670654296875 0.54522705078125 0.0001373589038848877 -0.0005498826503753662 0.12683868408203125 -0.0153961181640625
18.54325 0.0748748779296875 -0.16822052001953125 0.458892822265625 0.51129150390625 0.0008684396743774414 0.0002308487892150879 0.12434005737304688 -0.022708892822265625
18.553 0.06607818603515625 -0.1688690185546875 0.4974365234375 0.473602294921875 -0.0005256533622741699 -0.0005947351455688477 0.12166595458984375 -0.030887603759765625
18.56275 0.059356689453125 -0.16834259033203125 0.53472900390625 0.437286376953125 0.0009211301803588867 -0.0005033016204833984 0.12038421630859375 -0.037891387939453125
18.5725 0.050537109375 -0.1705474853515625 0.57080078125 0.39678955078125 9.083747863769531e-05 -0.0008397102355957031 0.11680984497070312 -0.045440673828125
18.58225 0.04291534423828125 -0.17121124267578125 0.604736328125 0.352752685546875 -0.0003617405891418457 -0.000921785831451416 0.11298370361328125 -0.052814483642578125
18.592 0.0335235595703125 -0.17241668701171875 0.63763427734375 0.303009033203125 0.0007914304733276367 -0.0002900063991546631 0.1089935302734375 -0.06058502197265625
18.60175 0.0252532958984375 -0.17041015625 0.6632080078125 0.24853515625 0.0010325908660888672 0.0008608102798461914 0.10262298583984375 -0.065093994140625
18.6115 0.01862335205078125 -0.16998291015625 0.6826171875 0.194183349609375 0.0008682608604431152 9.307265281677246e-05 0.09825515747070312 -0.07282257080078125
18.62125 0.009918212890625 -0.16977691650390625 0.696075439453125 0.13763427734375 0.0008019208908081055 -0.00042882561683654785 0.09259033203125 -0.078643798828125
18.631 0.0013275146484375 -0.16921234130859375 0.702117919921875 0.086456298828125 -0.0002416074275970459 -0.0006921589374542236 0.08582687377929688 -0.08282089233398438
18.64075 -0.005889892578125 -0.167510986328125 0.707000732421875 0.0347900390625 0.0003555715084075928 -5.7324767112731934e-05 0.0809173583984375 -0.08707427978515625
