!Created with skrf (http://scikit-rf.org).
# GHz S RI R 50.0 
!freq ReS11 ImS11 ReS21 ImS21 ReS12 ImS12 ReS22 ImS22
17.5 0.01007843017578125 -0.1423492431640625 -0.72100830078125 0.8170166015625 -0.0016654729843139648 0.0003210902214050293 0.0963134765625 0.002582550048828125
17.50975 0.00072479248046875 -0.138671875 -0.648345947265625 0.869110107421875 -0.0006089210510253906 0.0006940066814422607 0.09899520874023438 0.001071929931640625
17.5195 -0.00844573974609375 -0.13607025146484375 -0.570068359375 0.913818359375 -0.0015026330947875977 1.3768672943115234e-05 0.1027069091796875 0.000469207763671875
17.52925 -0.01572418212890625 -0.1318817138671875 -0.490997314453125 0.951446533203125 -0.0006483197212219238 0.0006266236305236816 0.10388565063476562 -0.004688262939453125
17.539 -0.0225677490234375 -0.126495361328125 -0.4091796875 0.98193359375 -0.001754164695739746 -0.00023102760314941406 0.1064605712890625 -0.00726318359375
17.54875 -0.03092193603515625 -0.12389373779296875 -0.3302001953125 1.00311279296875 -0.0011144280433654785 -8.338689804077148e-05 0.1086273193359375 -0.008350372314453125
17.5585 -0.03855133056640625 -0.11844635009765625 -0.2490234375 1.01947021484375 -0.0005583465099334717 0.0008486509323120117 0.1103057861328125 -0.01433563232421875
17.56825 -0.044647216796875 -0.11345672607421875 -0.172607421875 1.03155517578125 -0.0012691020965576172 0.0007535219192504883 0.11182403564453125 -0.017902374267578125
17.578 -0.05185699462890625 -0.10901641845703125 -0.08758544921875 1.0394287109375 -0.00048741698265075684 0.00048035383224487305 0.11229705810546875 -0.0216217041015625
17.58775 -0.0577392578125 -0.10349273681640625 -0.00323486328125 1.03839111328125 -0.0007898509502410889 -4.6193599700927734e-06 0.11317825317382812 -0.024402618408203125
17.5975 -0.06192779541015625 -0.0970611572265625 0.0833740234375 1.03045654296875 -0.0008854866027832031 0.002222895622253418 0.11417388916015625 -0.0279083251953125
17.60725 -0.0670013427734375 -0.09185028076171875 0.165771484375 1.01104736328125 -0.0004589557647705078 0.001452803611755371 0.113067626953125 -0.032924652099609375
17.617 -0.07358551025390625 -0.08509063720703125 0.2440185546875 0.9840087890625 -0.0013513565063476562 0.002028226852416992 0.11444473266601562 -0.0376434326171875
17.62675 -0.07762908935546875 -0.0778961181640625 0.31488037109375 0.95123291015625 -0.0012710094451904297 0.0013195276260375977 0.11529159545898438 -0.0423583984375
17.6365 -0.0810699462890625 -0.069366455078125 0.3829345703125 0.9141845703125 -0.00014472007751464844 0.001195669174194336 0.11395263671875 -0.0455474853515625
17.64625 -0.08446502685546875 -0.06200408935546875 0.44085693359375 0.875244140625 -0.0014170408248901367 0.001084446907043457 0.110992431640625 -0.0523223876953125
17.656 -0.088836669921875 -0.05739593505859375 0.49639892578125 0.83685302734375 -0.0006924867630004883 0.0017200112342834473 0.10756301879882812 -0.056243896484375
17.66575 -0.0904693603515625 -0.047821044921875 0.54931640625 0.79901123046875 -0.0009985566139221191 0.0012019872665405273 0.1068267822265625 -0.06029510498046875
17.6755 -0.095001220703125 -0.040740966796875 0.600341796875 0.75543212890625 -0.00031298398971557617 0.0007969141006469727 0.10358810424804688 -0.06517791748046875
17.68525 -0.0955657958984375 -0.031005859375 0.65386962890625 0.71173095703125 -0.0016381144523620605 7.271766662597656e-05 0.10237884521484375 -0.06871414184570312
17.695 -0.09832763671875 -0.024658203125 0.70977783203125 0.662841796875 -8.982419967651367e-05 0.0015076398849487305 0.10015487670898438 -0.07462310791015625
17.70475 -0.098968505859375 -0.014575958251953125 0.7578125 0.60418701171875 -0.00023871660232543945 0.0012266039848327637 0.09662246704101562 -0.0780792236328125
17.7145 -0.10128402709960938 -0.007434844970703125 0.80389404296875 0.53857421875 -0.0002974867820739746 0.001221299171447754 0.092041015625 -0.08231735229492188
17.72425 -0.10036468505859375 0.0001373291015625 0.83929443359375 0.46759033203125 -0.000337451696395874 0.0008878111839294434 0.08637619018554688 -0.08638381958007812
17.734 -0.10115814208984375 0.00800323486328125 0.8648681640625 0.3956298828125 -7.033348083496094e-06 0.0017539262771606445 0.0835113525390625 -0.08995819091796875
17.74375 -0.1022491455078125 0.01589202880859375 0.877685546875 0.326171875 6.711483001708984e-05 0.000782012939453125 0.07907867431640625 -0.09456634521484375
17.7535 -0.09986114501953125 0.024494171142578125 0.88726806640625 0.259765625 -0.0002989470958709717 0.000620037317276001 0.07508087158203125 -0.096923828125
17.76325 -0.09847640991210938 0.03113555908203125 0.8939208984375 0.2021484375 0.0004398226737976074 0.0009598731994628906 0.06830596923828125 -0.09822463989257812
17.773 -0.0963592529296875 0.037158966064453125 0.8988037109375 0.142333984375 -0.0008026659488677979 0.000938713550567627 0.06522369384765625 -0.10130691528320312
17.78275 -0.09386444091796875 0.04549407958984375 0.90234375 0.08477783203125 0.000652015209197998 0.0012701153755187988 0.059467315673828125 -0.104034423828125
17.7925 -0.09194564819335938 0.051395416259765625 0.9068603515625 0.026031494140625 -5.230307579040527e-06 0.00029602646827697754 0.055850982666015625 -0.10547256469726562
17.80225 -0.0883636474609375 0.05811309814453125 0.91033935546875 -0.039306640625 -0.0008881688117980957 0.0005420148372650146 0.051471710205078125 -0.10680770874023438
17.812 -0.0849456787109375 0.066558837890625 0.90496826171875 -0.102813720703125 0.0004642009735107422 0.001329183578491211 0.0450439453125 -0.1061248779296875
17.82175 -0.08062744140625 0.07321929931640625 0.89447021484375 -0.171295166015625 0.000299990177154541 0.0011170506477355957 0.041229248046875 -0.10671234130859375
17.8315 -0.07782745361328125 0.08045196533203125 0.87591552734375 -0.2362060546875 0.0003268122673034668 0.0014159083366394043 0.034656524658203125 -0.10842514038085938
17.84125 -0.07274627685546875 0.08512115478515625 0.85260009765625 -0.29620361328125 -1.33514404296875e-05 0.002145051956176758 0.02692413330078125 -0.10840606689453125
17.851 -0.06734085083007812 0.09294509887695312 0.819915771484375 -0.35260009765625 -0.0003973245620727539 0.002015352249145508 0.0219879150390625 -0.10744476318359375
17.86075 -0.06430435180664062 0.0968475341796875 0.792694091796875 -0.40289306640625 0.0007600784301757812 0.001384735107421875 0.015445709228515625 -0.1070709228515625
17.8705 -0.058086395263671875 0.10327911376953125 0.759521484375 -0.449951171875 7.286667823791504e-05 0.0005312561988830566 0.010662078857421875 -0.10817337036132812
17.88025 -0.053104400634765625 0.10999298095703125 0.7310791015625 -0.496490478515625 0.0004552602767944336 0.0009592771530151367 0.00464630126953125 -0.10666275024414062
17.89 -0.047893524169921875 0.11525344848632812 0.699554443359375 -0.54046630859375 0.0009296238422393799 -0.00016930699348449707 -0.000499725341796875 -0.10394668579101562
17.89975 -0.040767669677734375 0.11981582641601562 0.662933349609375 -0.588714599609375 0.000345766544342041 0.0003075599670410156 -0.005474090576171875 -0.10345840454101562
17.9095 -0.036773681640625 0.1237030029296875 0.62664794921875 -0.63433837890625 0.0004628300666809082 0.0011225342750549316 -0.011077880859375 -0.10307693481445312
17.91925 -0.02954864501953125 0.1260833740234375 0.58294677734375 -0.67913818359375 0.0008257031440734863 0.0006700754165649414 -0.015964508056640625 -0.09924697875976562
17.929 -0.0230865478515625 0.13116455078125 0.534912109375 -0.71954345703125 0.0008318424224853516 0.0007802248001098633 -0.02150726318359375 -0.09912109375
17.93875 -0.016937255859375 0.13245391845703125 0.48345947265625 -0.75555419921875 0.0009958148002624512 0.0009145736694335938 -0.024784088134765625 -0.09628677368164062
17.9485 -0.00865936279296875 0.134307861328125 0.431854248046875 -0.783538818359375 -0.00020019710063934326 -0.00010564923286437988 -0.031322479248046875 -0.09165573120117188
17.95825 -0.00302886962890625 0.1368255615234375 0.379913330078125 -0.810546875 0.001109004020690918 0.000992417335510254 -0.03240203857421875 -0.08925628662109375
17.968 0.00431060791015625 0.1396636962890625 0.33050537109375 -0.83282470703125 0.0016012787818908691 0.0002651214599609375 -0.03826904296875 -0.086669921875
17.97775 0.01250457763671875 0.140777587890625 0.279083251953125 -0.854827880859375 0.0007764101028442383 0.0009300708770751953 -0.04157257080078125 -0.08014297485351562
17.9875 0.0206146240234375 0.1436920166015625 0.227020263671875 -0.87799072265625 0.0011301636695861816 -0.00036346912384033203 -0.044498443603515625 -0.07842636108398438
17.99725 0.02872467041015625 0.14263153076171875 0.172332763671875 -0.900360107421875 0.0013880729675292969 0.000606536865234375 -0.049480438232421875 -0.07276535034179688
18.007 0.03397369384765625 0.14244842529296875 0.113525390625 -0.92083740234375 0.0012023448944091797 0.0005043148994445801 -0.0545654296875 -0.06939697265625
18.01675 0.04291534423828125 0.14508819580078125 0.04937744140625 -0.93609619140625 0.0010866522789001465 0.0005862116813659668 -0.05782318115234375 -0.06258010864257812
18.0265 0.0499267578125 0.143707275390625 -0.016357421875 -0.9493408203125 0.0020415782928466797 0.0010457038879394531 -0.0628662109375 -0.0595550537109375
18.03625 0.05865478515625 0.1443023681640625 -0.085693359375 -0.9501953125 0.0012737512588500977 -0.0004762411117553711 -0.0651092529296875 -0.0529937744140625
18.046 0.0670166015625 0.14391326904296875 -0.155517578125 -0.9486083984375 0.0009400844573974609 0.0011612176895141602 -0.06634902954101562 -0.049411773681640625
18.05575 0.07324981689453125 0.140045166015625 -0.2218017578125 -0.94268798828125 0.001192927360534668 0.00038379430770874023 -0.07100677490234375 -0.045200347900390625
18.0655 0.08132171630859375 0.14029693603515625 -0.286376953125 -0.931884765625 0.0013077259063720703 0.0005165338516235352 -0.0736846923828125 -0.037029266357421875
18.07525 0.08693695068359375 0.13848876953125 -0.3524169921875 -0.9197998046875 0.0009621977806091309 -0.0005057752132415771 -0.07422256469726562 -0.0321044921875
18.085 0.095428466796875 0.13666534423828125 -0.4205322265625 -0.90216064453125 0.00012418627738952637 -0.000598609447479248 -0.076385498046875 -0.02649688720703125
18.09475 0.10285186767578125 0.13238525390625 -0.48968505859375 -0.8857421875 0.001851201057434082 -0.00012820959091186523 -0.0750732421875 -0.021839141845703125
18.1045 0.10868072509765625 0.12860870361328125 -0.55743408203125 -0.85894775390625 0.0011959671974182129 0.0005202889442443848 -0.07873153686523438 -0.014400482177734375
18.11425 0.116729736328125 0.1259765625 -0.63037109375 -0.82598876953125 0.0008155107498168945 0.00012534856796264648 -0.07897567749023438 -0.0099945068359375
18.124 0.12188720703125 0.1213226318359375 -0.698974609375 -0.786865234375 0.0003210306167602539 0.00016739964485168457 -0.07757568359375 -0.00173187255859375
18.13375 0.12851715087890625 0.117919921875 -0.76507568359375 -0.74017333984375 0.0010262131690979004 0.0005995035171508789 -0.07669448852539062 0.003204345703125
18.1435 0.1353912353515625 0.1121063232421875 -0.8292236328125 -0.6868896484375 7.659196853637695e-05 -0.0011456012725830078 -0.07737350463867188 0.012638092041015625
18.15325 0.1414794921875 0.10666656494140625 -0.88861083984375 -0.6280517578125 0.000575721263885498 -0.0004278421401977539 -0.07509613037109375 0.01784515380859375
18.163 0.1484527587890625 0.101837158203125 -0.94097900390625 -0.562255859375 0.0016547441482543945 -0.0002567768096923828 -0.072998046875 0.025180816650390625
18.17275 0.152587890625 0.095611572265625 -0.9908447265625 -0.4942626953125 0.0010625123977661133 -0.0008623003959655762 -0.07032394409179688 0.030261993408203125
18.1825 0.159637451171875 0.0888214111328125 -1.0399169921875 -0.42205810546875 0.0006326436996459961 1.0728836059570312e-06 -0.06687545776367188 0.039508819580078125
18.19225 0.1639404296875 0.08223724365234375 -1.0848388671875 -0.3441162109375 0.0012552738189697266 4.2319297790527344e-05 -0.06467437744140625 0.045379638671875
18.202 0.16930389404296875 0.07668304443359375 -1.120361328125 -0.2606201171875 5.638599395751953e-05 -0.00038304924964904785 -0.06250381469726562 0.051128387451171875
18.21175 0.1744537353515625 0.06884765625 -1.1512451171875 -0.16845703125 0.0007914304733276367 -0.00028139352798461914 -0.0564727783203125 0.057403564453125
18.2215 0.17838287353515625 0.06151580810546875 -1.17083740234375 -0.07440185546875 0.0007328391075134277 -0.00023227930068969727 -0.05321693420410156 0.06122398376464844
18.23125 0.18170166015625 0.0553131103515625 -1.18359375 0.0184326171875 0.0012882351875305176 6.157159805297852e-05 -0.049518585205078125 0.064910888671875
18.241 0.18489837646484375 0.04685211181640625 -1.1849365234375 0.11444091796875 0.0003178119659423828 -0.0013008713722229004 -0.04499053955078125 0.069793701171875
18.25075 0.18750762939453125 0.0394287109375 -1.17974853515625 0.2088623046875 0.001804351806640625 -0.0009518861770629883 -0.039440155029296875 0.07554244995117188
18.2605 0.1893157958984375 0.03075408935546875 -1.1676025390625 0.30072021484375 -0.0002396106719970703 -0.0013614296913146973 -0.0323028564453125 0.07716751098632812
18.27025 0.19028472900390625 0.0214996337890625 -1.148681640625 0.39556884765625 0.0006498992443084717 -0.0007562041282653809 -0.02597808837890625 0.0822296142578125
18.28 0.1939544677734375 0.01358795166015625 -1.1239013671875 0.49224853515625 -9.709596633911133e-05 -0.00077056884765625 -0.019939422607421875 0.08652496337890625
18.28975 0.19635009765625 0.004608154296875 -1.0904541015625 0.587158203125 0.000866234302520752 0.00016415119171142578 -0.0122222900390625 0.0892333984375
18.2995 0.194427490234375 -0.00450897216796875 -1.0460205078125 0.680908203125 0.00013786554336547852 -0.0007923245429992676 -0.004573822021484375 0.0893402099609375
18.30925 0.19537353515625 -0.0138397216796875 -0.9896240234375 0.77239990234375 0.001915574073791504 -0.0010253190994262695 0.00319671630859375 0.0924835205078125
18.319 0.193634033203125 -0.0236358642578125 -0.92449951171875 0.856964111328125 1.1205673217773438e-05 -0.0010430216789245605 0.008495330810546875 0.09571456909179688
18.32875 0.19448089599609375 -0.0291290283203125 -0.851043701171875 0.930267333984375 -0.00016945600509643555 -0.0007080435752868652 0.018764495849609375 0.09431838989257812
18.3385 0.19203948974609375 -0.0408477783203125 -0.773773193359375 0.99627685546875 0.0003640502691268921 -3.509223461151123e-05 0.028049468994140625 0.09644699096679688
18.34825 0.1908721923828125 -0.04871368408203125 -0.6971435546875 1.0574951171875 5.930662155151367e-05 -0.0006078779697418213 0.03448486328125 0.0958099365234375
18.358 0.18787384033203125 -0.057220458984375 -0.614990234375 1.1116943359375 0.001053929328918457 0.0008999109268188477 0.043792724609375 0.09392547607421875
18.36775 0.1858978271484375 -0.06504058837890625 -0.526611328125 1.1650390625 0.00041843950748443604 -0.00018770992755889893 0.04982757568359375 0.0910797119140625
18.3775 0.1827392578125 -0.07335662841796875 -0.43670654296875 1.21014404296875 0.0003440678119659424 -0.0005975067615509033 0.05736541748046875 0.0903778076171875
18.38725 0.17945098876953125 -0.0821990966796875 -0.33599853515625 1.2493896484375 0.00034162402153015137 -0.0003600865602493286 0.06542205810546875 0.08815765380859375
18.397 0.1752471923828125 -0.088653564453125 -0.2303466796875 1.27685546875 0.00039124488830566406 -0.0010696649551391602 0.0714874267578125 0.084991455078125
18.40675 0.1699676513671875 -0.097076416015625 -0.12060546875 1.2967529296875 0.0006797909736633301 0.00022476911544799805 0.0791168212890625 0.0791015625
18.4165 0.16573333740234375 -0.1044464111328125 -0.0142822265625 1.29949951171875 -0.00028383731842041016 -0.00034177303314208984 0.08464813232421875 0.0772552490234375
18.42625 0.16065216064453125 -0.1111297607421875 0.09112548828125 1.2900390625 0.0003089308738708496 0.00043585896492004395 0.0918121337890625 0.0697784423828125
18.436 0.15277862548828125 -0.11650848388671875 0.19110107421875 1.27679443359375 0.00042538344860076904 -0.00041979551315307617 0.099578857421875 0.06484222412109375
18.44575 0.14719390869140625 -0.1244964599609375 0.28564453125 1.255859375 -0.00014925003051757812 -0.0002879202365875244 0.1032257080078125 0.05725860595703125
18.4555 0.13950347900390625 -0.1305694580078125 0.3807373046875 1.23162841796875 -6.154924631118774e-05 1.2896955013275146e-05 0.10764312744140625 0.05060577392578125
18.46525 0.13536834716796875 -0.1352996826171875 0.47332763671875 1.2061767578125 -0.00012940168380737305 -0.0008251667022705078 0.112396240234375 0.04210662841796875
18.475 0.12511444091796875 -0.14178466796875 0.56756591796875 1.1756591796875 0.0012378096580505371 -0.00034373998641967773 0.1171722412109375 0.035491943359375
18.48475 0.11960601806640625 -0.14685821533203125 0.6656494140625 1.1307373046875 0.0002694129943847656 -0.0009414851665496826 0.1206817626953125 0.0279693603515625
18.4945 0.11206817626953125 -0.14958953857421875 0.759765625 1.07550048828125 -0.00026166439056396484 -0.0005437731742858887 0.12396240234375 0.01861572265625
18.50425 0.10223388671875 -0.1567230224609375 0.8524169921875 1.0076904296875 0.0008246898651123047 -0.00028759241104125977 0.1250152587890625 0.0095367431640625
18.514 0.0973663330078125 -0.1595306396484375 0.92919921875 0.932373046875 0.00030177831649780273 -0.0004112422466278076 0.128082275390625 0.0030059814453125
18.52375 0.087860107421875 -0.16150665283203125 0.99615478515625 0.84783935546875 0.00020766258239746094 -0.0010027289390563965 0.12773895263671875 -0.00707244873046875
18.5335 0.081390380859375 -0.16495513916015625 1.05462646484375 0.7657470703125 0.0004125237464904785 0.0006729960441589355 0.1283416748046875 -0.014862060546875
18.54325 0.0732421875 -0.16725921630859375 1.1025390625 0.68353271484375 0.0002853572368621826 -4.1961669921875e-05 0.12468338012695312 -0.023468017578125
18.553 0.06610870361328125 -0.1704559326171875 1.14642333984375 0.59991455078125 5.7853758335113525e-05 -0.00017848610877990723 0.12290191650390625 -0.0312042236328125
18.56275 0.0587310791015625 -0.16916656494140625 1.1883544921875 0.51580810546875 0.000524371862411499 -0.0002244710922241211 0.12286376953125 -0.0376129150390625
18.5725 0.04979705810546875 -0.17182159423828125 1.2288818359375 0.4271240234375 -0.00014784932136535645 -0.00045037269592285156 0.11793899536132812 -0.0460052490234375
18.58225 0.0401763916015625 -0.1722412109375 1.26153564453125 0.33282470703125 -0.00029949843883514404 4.805624485015869e-05 0.114410400390625 -0.055141448974609375
18.592 0.03261566162109375 -0.1722564697265625 1.28839111328125 0.23236083984375 0.0005246102809906006 -0.00045987963676452637 0.10986328125 -0.061168670654296875
18.60175 0.0247344970703125 -0.169647216796875 1.3045654296875 0.1259765625 0.0003827810287475586 -0.001263260841369629 0.1041107177734375 -0.06613922119140625
18.6115 0.01678466796875 -0.1705169677734375 1.306396484375 0.02362060546875 -0.0001944899559020996 0.00046509504318237305 0.10016250610351562 -0.0735626220703125
18.62125 0.0098876953125 -0.168426513671875 1.2991943359375 -0.0782470703125 0.0008314251899719238 -0.00040540099143981934 0.09377670288085938 -0.07935714721679688
18.631 0.001495361328125 -0.1680908203125 1.2808837890625 -0.16876220703125 0.0012000203132629395 -0.0013641119003295898 0.08767318725585938 -0.08500289916992188
18.64075 -0.006378173828125 -0.165863037109375 1.26068115234375 -0.258544921875 0.0008594691753387451 -0.00020256638526916504 0.08165740966796875 -0.08812713623046875
18.6505 -0.01323699951171875 -0.16432952880859375 1.24273681640625 -0.34393310546875 0.0009626150131225586 -0.0013911128044128418 0.07678985595703125 -0.0919952392578125
18.66025 -0.02240753173828125 -0.1619110107421875 1.21734619140625 -0.42987060546875 0.0009933710098266602 -0.00022172927856445312 0.06896591186523438 -0.09197616577148438
