!Created with skrf (http://scikit-rf.org).
# GHz S RI R 50.0 
!freq ReS11 ImS11 ReS21 ImS21 ReS12 ImS12 ReS22 ImS22
17.5 0.00849151611328125 -0.144439697265625 -0.211212158203125 0.2831573486328125 -0.0011878609657287598 0.0006666183471679688 0.097381591796875 0.001811981201171875
17.50975 -0.000946044921875 -0.14167022705078125 -0.17987060546875 0.29632568359375 -0.0010826587677001953 0.0013085603713989258 0.1009368896484375 0.000255584716796875
17.5195 -0.00868988037109375 -0.13558197021484375 -0.1490936279296875 0.3073272705078125 -0.002048969268798828 0.0005179643630981445 0.1013641357421875 -0.0016937255859375
17.52925 -0.01725006103515625 -0.1338958740234375 -0.119720458984375 0.31524658203125 -0.001253664493560791 -8.821487426757812e-06 0.10527420043945312 -0.006458282470703125
17.539 -0.0227813720703125 -0.126953125 -0.0888671875 0.318572998046875 -0.000494837760925293 0.0010898113250732422 0.1064453125 -0.0091400146484375
17.54875 -0.03121185302734375 -0.12459564208984375 -0.0610504150390625 0.317840576171875 -0.00033169984817504883 0.0015100836753845215 0.110565185546875 -0.012874603271484375
17.5585 -0.0422821044921875 -0.12071990966796875 -0.0326995849609375 0.317230224609375 -0.0007247030735015869 0.0007195174694061279 0.11116790771484375 -0.016033172607421875
17.56825 -0.04720306396484375 -0.11457061767578125 -0.0065765380859375 0.3130035400390625 -0.00047528743743896484 -0.0007598400115966797 0.1116943359375 -0.01964569091796875
17.578 -0.05319976806640625 -0.10809326171875 0.0220489501953125 0.3062744140625 -0.0014241933822631836 0.0010640621185302734 0.113311767578125 -0.024868011474609375
17.58775 -0.05963134765625 -0.10474395751953125 0.0480194091796875 0.2975006103515625 -0.0016547441482543945 0.0023387670516967773 0.1139678955078125 -0.0263519287109375
17.5975 -0.062835693359375 -0.09783172607421875 0.073760986328125 0.287384033203125 -0.0012071728706359863 0.00043654441833496094 0.11491012573242188 -0.032062530517578125
17.60725 -0.070220947265625 -0.0935211181640625 0.0954742431640625 0.272674560546875 -0.000864863395690918 0.0013790726661682129 0.11331558227539062 -0.035594940185546875
17.617 -0.075714111328125 -0.08499908447265625 0.115692138671875 0.2567291259765625 -0.0014346837997436523 0.0008634328842163086 0.11534881591796875 -0.03865814208984375
17.62675 -0.0809783935546875 -0.0783843994140625 0.132293701171875 0.238433837890625 -0.00012242794036865234 0.0016502737998962402 0.11301803588867188 -0.044322967529296875
17.6365 -0.0832366943359375 -0.069610595703125 0.145538330078125 0.22088623046875 -0.00038751959800720215 0.00020429491996765137 0.113311767578125 -0.04912567138671875
17.64625 -0.086090087890625 -0.06230926513671875 0.1567840576171875 0.203094482421875 -0.0005465149879455566 0.0009092986583709717 0.11040496826171875 -0.05323028564453125
17.656 -0.0909271240234375 -0.05513763427734375 0.1670684814453125 0.1870880126953125 -0.0014639496803283691 0.0005441904067993164 0.10651779174804688 -0.057628631591796875
17.66575 -0.092437744140625 -0.04647064208984375 0.1763458251953125 0.1712188720703125 -0.0003173351287841797 0.001196444034576416 0.10794830322265625 -0.06170654296875
17.6755 -0.095855712890625 -0.03948211669921875 0.18310546875 0.1536865234375 -0.0006917119026184082 0.0007445812225341797 0.10269927978515625 -0.06715011596679688
17.68525 -0.09808349609375 -0.03113555908203125 0.1902923583984375 0.138427734375 -0.0006727874279022217 0.00043019652366638184 0.099884033203125 -0.07118988037109375
17.695 -0.099151611328125 -0.02288818359375 0.196533203125 0.121795654296875 -0.00022298097610473633 0.0012145042419433594 0.09918212890625 -0.07538223266601562
17.70475 -0.10000228881835938 -0.013988494873046875 0.1989288330078125 0.101959228515625 -0.001072227954864502 0.0008736252784729004 0.09508132934570312 -0.07837677001953125
17.7145 -0.10233306884765625 -0.006404876708984375 0.2009735107421875 0.0830230712890625 -0.0004623830318450928 0.0005798935890197754 0.09136581420898438 -0.08405685424804688
17.72425 -0.10132217407226562 0.002307891845703125 0.200714111328125 0.0660552978515625 -0.0011988282203674316 0.0007260441780090332 0.08587265014648438 -0.08756256103515625
17.734 -0.101287841796875 0.009765625 0.1976776123046875 0.0491485595703125 0.0007450580596923828 0.002094268798828125 0.0823974609375 -0.0910797119140625
17.74375 -0.1026763916015625 0.01567840576171875 0.1917572021484375 0.034149169921875 0.0003527402877807617 0.0010955333709716797 0.07598114013671875 -0.0948944091796875
17.7535 -0.0997772216796875 0.02490997314453125 0.18407440185546875 0.0220947265625 0.00015917420387268066 -0.00026035308837890625 0.07247161865234375 -0.09891510009765625
17.76325 -0.0983123779296875 0.03327178955078125 0.17911529541015625 0.01314544677734375 0.00017574429512023926 0.0005452632904052734 0.0670166015625 -0.10058212280273438
17.773 -0.09709548950195312 0.038303375244140625 0.17303466796875 0.002105712890625 0.0002643465995788574 0.0011938810348510742 0.06291961669921875 -0.10218048095703125
17.78275 -0.09602737426757812 0.04662322998046875 0.1650238037109375 -0.004486083984375 0.0002408921718597412 0.0003008842468261719 0.058559417724609375 -0.10378265380859375
17.7925 -0.09181976318359375 0.05384063720703125 0.16053009033203125 -0.0105743408203125 -0.00012475252151489258 0.0007778406143188477 0.0527191162109375 -0.10520553588867188
17.80225 -0.08876800537109375 0.05976104736328125 0.15566253662109375 -0.01898193359375 -0.00039833784103393555 0.001035153865814209 0.04947662353515625 -0.10721969604492188
17.812 -0.0846710205078125 0.06808853149414062 0.14890289306640625 -0.0250244140625 0.0009465813636779785 0.0006038546562194824 0.04329681396484375 -0.10638046264648438
17.82175 -0.08002090454101562 0.075408935546875 0.1443328857421875 -0.02874755859375 -0.00011280179023742676 0.000717461109161377 0.038787841796875 -0.10616302490234375
17.8315 -0.0766754150390625 0.08016204833984375 0.13951873779296875 -0.03234100341796875 7.769465446472168e-05 0.0007453858852386475 0.032642364501953125 -0.10718536376953125
17.84125 -0.0716400146484375 0.0874786376953125 0.1342315673828125 -0.0363616943359375 0.0003039836883544922 0.0014598369598388672 0.025238037109375 -0.10881805419921875
17.851 -0.06683731079101562 0.09498977661132812 0.12837982177734375 -0.0379180908203125 3.844499588012695e-05 0.0008795261383056641 0.02129364013671875 -0.10860061645507812
17.86075 -0.0634613037109375 0.09870529174804688 0.124664306640625 -0.0377044677734375 0.0007184743881225586 0.0012128353118896484 0.013919830322265625 -0.1060943603515625
17.8705 -0.057926177978515625 0.10522842407226562 0.12285232543945312 -0.03861236572265625 0.0006895065307617188 0.0015141963958740234 0.009166717529296875 -0.10478973388671875
17.88025 -0.05176544189453125 0.11064910888671875 0.1214752197265625 -0.038707733154296875 -0.0007738471031188965 0.001243889331817627 0.003055572509765625 -0.10450363159179688
17.89 -0.045253753662109375 0.11498641967773438 0.12208175659179688 -0.037872314453125 0.0011504888534545898 0.0006644725799560547 -0.0009918212890625 -0.1023406982421875
17.89975 -0.0389556884765625 0.11994171142578125 0.12236785888671875 -0.039051055908203125 -0.0001500248908996582 0.0007472038269042969 -0.006977081298828125 -0.1026153564453125
17.9095 -0.03484344482421875 0.125457763671875 0.12493896484375 -0.040924072265625 0.0011639595031738281 0.0019979476928710938 -0.012233734130859375 -0.10084152221679688
17.91925 -0.0274505615234375 0.1274261474609375 0.1275482177734375 -0.0425872802734375 -0.0009598135948181152 0.0003218650817871094 -0.016727447509765625 -0.09816360473632812
17.929 -0.0211181640625 0.13104248046875 0.1334686279296875 -0.045440673828125 0.0003292560577392578 0.0010533332824707031 -0.0227203369140625 -0.0975341796875
17.93875 -0.01556396484375 0.13324737548828125 0.135589599609375 -0.04993438720703125 -0.00034530460834503174 0.0002705901861190796 -0.026126861572265625 -0.093597412109375
17.9485 -0.00923919677734375 0.13494873046875 0.13941192626953125 -0.0563812255859375 0.00022426247596740723 9.807944297790527e-05 -0.02991485595703125 -0.09037399291992188
17.95825 -0.00025177001953125 0.13803863525390625 0.1457977294921875 -0.059814453125 0.00023379921913146973 0.0004410743713378906 -0.032962799072265625 -0.08734130859375
17.968 0.0063934326171875 0.14111328125 0.1515350341796875 -0.068359375 3.4570693969726562e-06 0.0010460615158081055 -0.03914642333984375 -0.08493423461914062
17.97775 0.01277923583984375 0.1391448974609375 0.15824127197265625 -0.0789337158203125 -0.00023330748081207275 0.0003061741590499878 -0.04399871826171875 -0.07971572875976562
17.9875 0.0221099853515625 0.1432952880859375 0.16363525390625 -0.090362548828125 0.001593172550201416 4.887580871582031e-05 -0.045917510986328125 -0.0753936767578125
17.99725 0.02906036376953125 0.142974853515625 0.168426513671875 -0.1038360595703125 0.002133607864379883 0.0014870166778564453 -0.05081939697265625 -0.07145309448242188
18.007 0.036407470703125 0.14321136474609375 0.17334747314453125 -0.11913299560546875 -0.0006122589111328125 0.0004793703556060791 -0.054019927978515625 -0.06638717651367188
18.01675 0.0441436767578125 0.1431884765625 0.174468994140625 -0.13840484619140625 0.0019432902336120605 -6.54458999633789e-05 -0.057483673095703125 -0.06240081787109375
18.0265 0.0528564453125 0.1438140869140625 0.1748504638671875 -0.1586151123046875 0.0012956857681274414 0.0002874135971069336 -0.06127166748046875 -0.058563232421875
18.03625 0.0597991943359375 0.144073486328125 0.1724395751953125 -0.18017578125 0.0020492076873779297 0.0009601116180419922 -0.0638885498046875 -0.05289459228515625
18.046 0.06832122802734375 0.1409454345703125 0.164794921875 -0.20374298095703125 0.00045990943908691406 0.001182258129119873 -0.0667572021484375 -0.0463714599609375
18.05575 0.07480621337890625 0.13922119140625 0.15567779541015625 -0.22371673583984375 0.0021352767944335938 0.00015497207641601562 -0.06941604614257812 -0.04157257080078125
18.0655 0.0817718505859375 0.1392822265625 0.144866943359375 -0.24662017822265625 0.00029754638671875 -0.0006608963012695312 -0.07160568237304688 -0.036037445068359375
18.07525 0.08898162841796875 0.1371917724609375 0.130889892578125 -0.268341064453125 0.001627802848815918 0.0003522634506225586 -0.07421875 -0.03082275390625
18.085 0.0967254638671875 0.1340484619140625 0.1148681640625 -0.2903900146484375 0.0013728141784667969 0.0004906058311462402 -0.07483291625976562 -0.024707794189453125
18.09475 0.10391998291015625 0.13083648681640625 0.0944671630859375 -0.3119964599609375 0.0011365413665771484 -0.00017213821411132812 -0.07379150390625 -0.01959228515625
18.1045 0.11069488525390625 0.12677764892578125 0.070343017578125 -0.3327789306640625 0.001115262508392334 -0.00015372037887573242 -0.0747833251953125 -0.013080596923828125
18.11425 0.11682891845703125 0.1249847412109375 0.040985107421875 -0.3506622314453125 0.0006459355354309082 0.0011639595031738281 -0.07458114624023438 -0.009063720703125
18.124 0.121856689453125 0.119842529296875 0.009063720703125 -0.36700439453125 0.00022900104522705078 0.0007807016372680664 -0.0764007568359375 -0.000274658203125
18.13375 0.1291656494140625 0.11571502685546875 -0.0241241455078125 -0.379425048828125 0.0008254647254943848 0.0007587075233459473 -0.07398605346679688 0.00444793701171875
18.1435 0.13338470458984375 0.11077880859375 -0.0611724853515625 -0.3846588134765625 0.0014383792877197266 0.00029653310775756836 -0.07422637939453125 0.013275146484375
18.15325 0.14179229736328125 0.10359954833984375 -0.0985870361328125 -0.38995361328125 -0.00046327710151672363 0.00027073919773101807 -0.074554443359375 0.01805877685546875
18.163 0.14705657958984375 0.097808837890625 -0.13690185546875 -0.390167236328125 0.0017043352127075195 -0.0009821057319641113 -0.07132339477539062 0.02501678466796875
18.17275 0.15198516845703125 0.093719482421875 -0.17657470703125 -0.386199951171875 0.001044154167175293 -0.001222848892211914 -0.06846237182617188 0.032283782958984375
18.1825 0.1593017578125 0.08676910400390625 -0.21728515625 -0.37786865234375 0.0008837580680847168 -0.0012701749801635742 -0.0656585693359375 0.039142608642578125
18.19225 0.1632843017578125 0.0813751220703125 -0.258941650390625 -0.365203857421875 0.000684887170791626 -0.0008841156959533691 -0.06180572509765625 0.04494476318359375
18.202 0.1688079833984375 0.07452392578125 -0.298248291015625 -0.34832763671875 0.0004321485757827759 -0.0003952980041503906 -0.060382843017578125 0.05075836181640625
18.21175 0.17218017578125 0.0680999755859375 -0.33740234375 -0.3262939453125 4.00543212890625e-05 0.00022849440574645996 -0.0557098388671875 0.055835723876953125
18.2215 0.17707061767578125 0.05971527099609375 -0.374603271484375 -0.296783447265625 0.0010486245155334473 -0.0004711747169494629 -0.0510711669921875 0.06083488464355469
18.23125 0.18230438232421875 0.054107666015625 -0.407958984375 -0.265960693359375 2.6881694793701172e-05 -0.00014280527830123901 -0.047214508056640625 0.06427383422851562
18.241 0.18439483642578125 0.04637908935546875 -0.43707275390625 -0.229644775390625 -0.0003212094306945801 -0.0014586448669433594 -0.04449462890625 0.0694427490234375
18.25075 0.185516357421875 0.03912353515625 -0.46270751953125 -0.19091796875 0.0006538629531860352 -0.0005803406238555908 -0.03739166259765625 0.075653076171875
18.2605 0.18808746337890625 0.03052520751953125 -0.484893798828125 -0.15087890625 0.0007077455520629883 0.0009881854057312012 -0.0310211181640625 0.07794952392578125
18.27025 0.18938446044921875 0.021728515625 -0.5042724609375 -0.10833740234375 0.0012139081954956055 -0.000620424747467041 -0.02422332763671875 0.08198928833007812
18.28 0.1926422119140625 0.01319122314453125 -0.520477294921875 -0.061370849609375 0.001066446304321289 0.00030928850173950195 -0.01821136474609375 0.08402252197265625
18.28975 0.19403839111328125 0.00341796875 -0.532684326171875 -0.014068603515625 -0.0002613067626953125 0.0005061626434326172 -0.010181427001953125 0.087158203125
18.2995 0.19384002685546875 -0.004364013671875 -0.53753662109375 0.0379638671875 0.0012757182121276855 -0.0010880231857299805 -0.00595855712890625 0.08775711059570312
18.30925 0.193603515625 -0.0135650634765625 -0.53753662109375 0.089111328125 -0.00015369057655334473 -0.00012502074241638184 0.004119873046875 0.08884429931640625
18.319 0.19305419921875 -0.022796630859375 -0.53167724609375 0.139251708984375 -0.0005905628204345703 -0.0010107755661010742 0.010311126708984375 0.09171295166015625
18.32875 0.19142913818359375 -0.0298919677734375 -0.51934814453125 0.189239501953125 0.00016710162162780762 0.00018870830535888672 0.01859283447265625 0.09300994873046875
18.3385 0.1894073486328125 -0.0397491455078125 -0.502655029296875 0.234954833984375 0.000156402587890625 3.0413269996643066e-05 0.028751373291015625 0.09445953369140625
18.34825 0.1903076171875 -0.04901123046875 -0.484161376953125 0.279693603515625 0.0006021261215209961 -0.0017122626304626465 0.032958984375 0.09328460693359375
18.358 0.1882171630859375 -0.0565032958984375 -0.462554931640625 0.3231964111328125 0.000417172908782959 -0.0004611164331436157 0.04425048828125 0.092254638671875
18.36775 0.1844329833984375 -0.0639801025390625 -0.435760498046875 0.3651885986328125 8.600950241088867e-05 -0.0009911060333251953 0.04901123046875 0.089569091796875
18.3775 0.18277740478515625 -0.07192230224609375 -0.4076995849609375 0.406219482421875 0.0011263489723205566 -0.0009158849716186523 0.056854248046875 0.08814239501953125
18.38725 0.17844390869140625 -0.07968902587890625 -0.3711395263671875 0.4445648193359375 -1.7896294593811035e-05 -0.00032858550548553467 0.0634613037109375 0.0855560302734375
18.397 0.175262451171875 -0.0873260498046875 -0.33404541015625 0.480010986328125 -0.0009576082229614258 -0.0003719329833984375 0.069671630859375 0.0814971923828125
18.40675 0.1701202392578125 -0.095001220703125 -0.28955078125 0.5118408203125 -0.00022667646408081055 -0.0003044009208679199 0.0785369873046875 0.078216552734375
18.4165 0.1655120849609375 -0.10257720947265625 -0.24395751953125 0.53741455078125 8.784234523773193e-05 0.0001948028802871704 0.0849456787109375 0.0735931396484375
18.42625 0.1602630615234375 -0.10931396484375 -0.19525146484375 0.55560302734375 0.0008914768695831299 -4.291534423828125e-06 0.091278076171875 0.06719207763671875
18.436 0.15398406982421875 -0.11540985107421875 -0.14837646484375 0.5712890625 -0.0008029937744140625 -0.001067042350769043 0.09804534912109375 0.06284332275390625
18.44575 0.14723968505859375 -0.1224212646484375 -0.1033935546875 0.58203125 0.0006879568099975586 -0.0010125041007995605 0.101531982421875 0.0564117431640625
18.4555 0.140350341796875 -0.12799072265625 -0.057281494140625 0.592315673828125 0.0008761882781982422 -0.0007191002368927002 0.1068878173828125 0.04956817626953125
18.46525 0.1350860595703125 -0.13407135009765625 -0.009735107421875 0.599853515625 2.658367156982422e-05 -0.0006099939346313477 0.111053466796875 0.03989410400390625
18.475 0.12487030029296875 -0.1401519775390625 0.04046630859375 0.606719970703125 -0.0002260953187942505 -0.00017352402210235596 0.11541748046875 0.03516387939453125
18.48475 0.12126922607421875 -0.14589691162109375 0.09368896484375 0.60540771484375 0.0005438327789306641 -0.00031948089599609375 0.118194580078125 0.0255279541015625
18.4945 0.1134033203125 -0.14836883544921875 0.146270751953125 0.600067138671875 -0.00019478797912597656 -0.00044229626655578613 0.12215423583984375 0.017303466796875
18.50425 0.1041107177734375 -0.1548614501953125 0.20306396484375 0.58819580078125 0.0011812448501586914 -0.00066375732421875 0.123321533203125 0.0105133056640625
18.514 0.098114013671875 -0.15771484375 0.25372314453125 0.5693359375 -0.00032961368560791016 -0.00030994415283203125 0.1251983642578125 0.0008087158203125
18.52375 0.08995819091796875 -0.15923309326171875 0.30096435546875 0.545013427734375 0.00033214688301086426 -0.000798344612121582 0.12599945068359375 -0.00737762451171875
18.5335 0.082489013671875 -0.16301727294921875 0.3448486328125 0.517486572265625 -0.0003008842468261719 0.0010799169540405273 0.1266937255859375 -0.0162506103515625
18.54325 0.07376861572265625 -0.1663360595703125 0.385162353515625 0.48944091796875 0.000380784273147583 -0.0008768439292907715 0.12411880493164062 -0.0233612060546875
18.553 0.0662384033203125 -0.16986846923828125 0.422637939453125 0.457855224609375 0.0021119117736816406 -0.00019860267639160156 0.12218093872070312 -0.03070831298828125
18.56275 0.058502197265625 -0.169830322265625 0.459869384765625 0.42529296875 0.0005381107330322266 -0.0002143383026123047 0.11848831176757812 -0.036785125732421875
18.5725 0.05078125 -0.17087554931640625 0.4959716796875 0.391387939453125 8.55177640914917e-05 -0.0003819465637207031 0.11613082885742188 -0.045619964599609375
18.58225 0.042510986328125 -0.17075347900390625 0.5303955078125 0.35174560546875 0.0009504556655883789 6.020069122314453e-05 0.11200714111328125 -0.053089141845703125
18.592 0.0338897705078125 -0.172454833984375 0.560211181640625 0.30877685546875 0.00047466158866882324 0.00041604042053222656 0.10810470581054688 -0.059505462646484375
18.60175 0.0256500244140625 -0.1709442138671875 0.58868408203125 0.2607421875 -0.0004627704620361328 -0.0017597675323486328 0.1025848388671875 -0.0648956298828125
18.6115 0.01776123046875 -0.16999053955078125 0.608062744140625 0.210845947265625 6.377696990966797e-06 -0.0013779401779174805 0.09815216064453125 -0.0721282958984375
18.62125 0.00957489013671875 -0.17003631591796875 0.623992919921875 0.16162109375 0.0009818673133850098 -0.000510871410369873 0.09233474731445312 -0.0777587890625
18.631 0.001556396484375 -0.167755126953125 0.63323974609375 0.11297607421875 0.0001328587532043457 -0.0005471408367156982 0.085784912109375 -0.08366775512695312
18.64075 -0.0055999755859375 -0.16748046875 0.64178466796875 0.065460205078125 0.0002640038728713989 -0.00013121962547302246 0.08011627197265625 -0.08659744262695312
