!Created with skrf (http://scikit-rf.org).
# GHz S RI R 50.0 
!freq ReS11 ImS11 ReS21 ImS21 ReS12 ImS12 ReS22 ImS22
17.5 0.0081787109375 -0.14360809326171875 -0.303680419921875 0.398773193359375 -0.0017418265342712402 0.001407921314239502 0.0978546142578125 0.000499725341796875
17.50975 -0.00107574462890625 -0.142181396484375 -0.2630157470703125 0.4191741943359375 -0.002147197723388672 0.0005556344985961914 0.10060501098632812 0.000202178955078125
17.5195 -0.00821685791015625 -0.13701629638671875 -0.2236175537109375 0.43572998046875 -0.0010602474212646484 0.0004974007606506348 0.10342025756835938 0.00049591064453125
17.52925 -0.01731109619140625 -0.13181304931640625 -0.1824951171875 0.4493560791015625 -0.0005616247653961182 0.0009465515613555908 0.10588836669921875 -0.0066680908203125
17.539 -0.02288818359375 -0.1269378662109375 -0.1417236328125 0.455841064453125 -0.0008995532989501953 0.0001271367073059082 0.10610198974609375 -0.0073089599609375
17.54875 -0.03237152099609375 -0.123199462890625 -0.101043701171875 0.4598541259765625 -0.0012541413307189941 6.210803985595703e-05 0.10969924926757812 -0.011249542236328125
17.5585 -0.04035186767578125 -0.11937713623046875 -0.0646514892578125 0.46173095703125 -0.0016363859176635742 0.0006191730499267578 0.11095809936523438 -0.01593780517578125
17.56825 -0.04447174072265625 -0.1139373779296875 -0.0265960693359375 0.459136962890625 -0.0015127062797546387 0.0013178586959838867 0.111297607421875 -0.01995849609375
17.578 -0.0542755126953125 -0.10752105712890625 0.0133819580078125 0.4535064697265625 -0.0007300674915313721 0.0007580816745758057 0.11304855346679688 -0.02342987060546875
17.58775 -0.0585479736328125 -0.10340118408203125 0.050262451171875 0.4471435546875 -0.0006991326808929443 0.0006241798400878906 0.1141510009765625 -0.025829315185546875
17.5975 -0.06246185302734375 -0.0973663330078125 0.087890625 0.43426513671875 -0.00030481815338134766 0.0008681416511535645 0.1137847900390625 -0.03256988525390625
17.60725 -0.0703582763671875 -0.092498779296875 0.12164306640625 0.417022705078125 -0.0015895366668701172 0.0017273426055908203 0.11296844482421875 -0.03380584716796875
17.617 -0.074493408203125 -0.0844573974609375 0.154998779296875 0.399810791015625 -0.00041487812995910645 0.0005939900875091553 0.11319732666015625 -0.0383148193359375
17.62675 -0.07903289794921875 -0.076904296875 0.18157958984375 0.376922607421875 -0.0019878149032592773 0.001271963119506836 0.1131134033203125 -0.043460845947265625
17.6365 -0.0829620361328125 -0.0697784423828125 0.20538330078125 0.3560791015625 -0.0006364583969116211 0.0013428926467895508 0.11377716064453125 -0.04868316650390625
17.64625 -0.0863037109375 -0.06134033203125 0.224517822265625 0.33245849609375 -0.0003730654716491699 0.0010709762573242188 0.11196136474609375 -0.053737640380859375
17.656 -0.08941650390625 -0.055450439453125 0.24139404296875 0.31024169921875 -0.0005043745040893555 0.0010802745819091797 0.10697555541992188 -0.057537078857421875
17.66575 -0.0921630859375 -0.046844482421875 0.260406494140625 0.287506103515625 -0.0006624460220336914 0.0017036199569702148 0.1073760986328125 -0.0625
17.6755 -0.09552764892578125 -0.03929901123046875 0.276885986328125 0.265899658203125 -0.0012025833129882812 0.0015423893928527832 0.10229873657226562 -0.06639862060546875
17.68525 -0.097808837890625 -0.0323486328125 0.292083740234375 0.244354248046875 -0.0004406273365020752 0.0008934736251831055 0.10070419311523438 -0.07040023803710938
17.695 -0.0998687744140625 -0.02416229248046875 0.30609130859375 0.219146728515625 0.0005784034729003906 0.0009383559226989746 0.0983734130859375 -0.07621002197265625
17.70475 -0.09905242919921875 -0.014583587646484375 0.31842041015625 0.192657470703125 0.00022840499877929688 0.0012973546981811523 0.0946197509765625 -0.07923126220703125
17.7145 -0.10192489624023438 -0.00496673583984375 0.3287353515625 0.163482666015625 -0.0001920461654663086 0.001216590404510498 0.09088134765625 -0.08392333984375
17.72425 -0.10109710693359375 0.002197265625 0.3330230712890625 0.1352996826171875 -0.0007594823837280273 0.0019207000732421875 0.0859222412109375 -0.08756256103515625
17.734 -0.10150909423828125 0.00882720947265625 0.335113525390625 0.106414794921875 -0.000718235969543457 0.0008965730667114258 0.08176422119140625 -0.0914459228515625
17.74375 -0.1031036376953125 0.016326904296875 0.33160400390625 0.081787109375 -0.0003063678741455078 9.119510650634766e-06 0.0778961181640625 -0.09661865234375
17.7535 -0.10029220581054688 0.02387237548828125 0.328948974609375 0.057037353515625 -0.0005256533622741699 0.0013106465339660645 0.07358551025390625 -0.09862899780273438
17.76325 -0.09858322143554688 0.031829833984375 0.3242034912109375 0.0379638671875 0.0007213354110717773 0.0015548467636108398 0.0674591064453125 -0.10039520263671875
17.773 -0.09704971313476562 0.0383453369140625 0.3182373046875 0.0200042724609375 0.0004456043243408203 0.0006521940231323242 0.06359100341796875 -0.10170745849609375
17.78275 -0.096160888671875 0.046878814697265625 0.3132476806640625 0.00146484375 0.0008957386016845703 0.0016732215881347656 0.059436798095703125 -0.10432815551757812
17.7925 -0.092681884765625 0.05260467529296875 0.309234619140625 -0.016082763671875 -0.0004239678382873535 0.0014050602912902832 0.05393218994140625 -0.1067352294921875
17.80225 -0.0886077880859375 0.058254241943359375 0.305877685546875 -0.0345916748046875 0.000591278076171875 0.0011812448501586914 0.0485687255859375 -0.10720443725585938
17.812 -0.08508682250976562 0.06743621826171875 0.2984466552734375 -0.0513916015625 0.0008388161659240723 0.0008998513221740723 0.042278289794921875 -0.10857009887695312
17.82175 -0.08064651489257812 0.07481002807617188 0.290313720703125 -0.07025146484375 0.00022178888320922852 0.0015864968299865723 0.039165496826171875 -0.10561370849609375
17.8315 -0.07648468017578125 0.07983779907226562 0.2827301025390625 -0.0844268798828125 0.00026169419288635254 0.0002599060535430908 0.03232574462890625 -0.10845565795898438
17.84125 -0.07312774658203125 0.08667755126953125 0.271636962890625 -0.098907470703125 -0.0004582405090332031 0.0009434819221496582 0.025115966796875 -0.10805511474609375
17.851 -0.06768035888671875 0.09430694580078125 0.2599945068359375 -0.110626220703125 0.0009440779685974121 0.0009471774101257324 0.0210418701171875 -0.10767745971679688
17.86075 -0.06327056884765625 0.09833145141601562 0.250274658203125 -0.120880126953125 0.0008162260055541992 0.0007050037384033203 0.0130615234375 -0.10538864135742188
17.8705 -0.0562286376953125 0.10449981689453125 0.242828369140625 -0.12872314453125 0.0009431838989257812 0.0008673667907714844 0.009708404541015625 -0.10672378540039062
17.88025 -0.05228424072265625 0.1099395751953125 0.2341766357421875 -0.1391143798828125 0.001162886619567871 0.0009469985961914062 0.00359344482421875 -0.10571670532226562
17.89 -0.046512603759765625 0.1170501708984375 0.22748565673828125 -0.1467437744140625 -2.2903084754943848e-05 0.0003345757722854614 -0.000804901123046875 -0.10293960571289062
17.89975 -0.04051971435546875 0.12046051025390625 0.2206573486328125 -0.1555633544921875 0.0005658864974975586 0.001223742961883545 -0.00608062744140625 -0.10280609130859375
17.9095 -0.0363311767578125 0.12480926513671875 0.21500396728515625 -0.16468048095703125 0.000380098819732666 0.0011246204376220703 -0.0121612548828125 -0.102081298828125
17.91925 -0.02852630615234375 0.12618255615234375 0.20644378662109375 -0.17528533935546875 0.0011706352233886719 0.0006240606307983398 -0.01447296142578125 -0.09978103637695312
17.929 -0.0227508544921875 0.131011962890625 0.200347900390625 -0.1839752197265625 0.0018939971923828125 0.0005002021789550781 -0.022308349609375 -0.09774017333984375
17.93875 -0.01581573486328125 0.133148193359375 0.19295501708984375 -0.194580078125 0.0013279318809509277 0.0004490017890930176 -0.02625274658203125 -0.09365081787109375
17.9485 -0.009185791015625 0.13529205322265625 0.18685150146484375 -0.203094482421875 0.0019336938858032227 0.000731348991394043 -0.030368804931640625 -0.08951950073242188
17.95825 -0.00136566162109375 0.13759613037109375 0.18119049072265625 -0.21234130859375 0.0007070302963256836 0.0004660487174987793 -0.031978607177734375 -0.08623886108398438
17.968 0.0063323974609375 0.14107513427734375 0.17474365234375 -0.22205352783203125 0.0008846521377563477 0.0007425546646118164 -0.03992462158203125 -0.08638763427734375
17.97775 0.01329803466796875 0.14044952392578125 0.168670654296875 -0.23291778564453125 0.0021353960037231445 0.0016771554946899414 -0.042209625244140625 -0.07941436767578125
17.9875 0.02135467529296875 0.1421966552734375 0.16356658935546875 -0.2456512451171875 0.0017926692962646484 0.0002065896987915039 -0.045391082763671875 -0.07651519775390625
17.99725 0.02972412109375 0.14308929443359375 0.1565093994140625 -0.2593841552734375 0.0010807514190673828 0.0005919933319091797 -0.051578521728515625 -0.071319580078125
18.007 0.03546905517578125 0.1418609619140625 0.148223876953125 -0.277069091796875 -0.00044268369674682617 -0.0013415217399597168 -0.0529632568359375 -0.0676422119140625
18.01675 0.04497528076171875 0.14406585693359375 0.1387786865234375 -0.2944793701171875 0.0009192228317260742 0.0010455846786499023 -0.05820465087890625 -0.063385009765625
18.0265 0.051513671875 0.14434814453125 0.1240234375 -0.3114013671875 0.0017976760864257812 0.00048804283142089844 -0.0612640380859375 -0.0579833984375
18.03625 0.059356689453125 0.1430511474609375 0.109100341796875 -0.328704833984375 0.0009784698486328125 -0.00028514862060546875 -0.06542205810546875 -0.05147552490234375
18.046 0.0673828125 0.14188385009765625 0.089630126953125 -0.3452911376953125 0.002088785171508789 0.00029265880584716797 -0.06671142578125 -0.046741485595703125
18.05575 0.0739898681640625 0.1395416259765625 0.071014404296875 -0.360992431640625 0.0019022822380065918 -0.0002384185791015625 -0.07049560546875 -0.043430328369140625
18.0655 0.08087921142578125 0.13924407958984375 0.0499267578125 -0.376251220703125 7.028132677078247e-05 -0.0001905485987663269 -0.07214736938476562 -0.03682708740234375
18.07525 0.08931732177734375 0.1366424560546875 0.025543212890625 -0.3909759521484375 0.0005203485488891602 0.0002192854881286621 -0.07432937622070312 -0.031276702880859375
18.085 0.09676361083984375 0.134674072265625 -0.000274658203125 -0.4037933349609375 6.407499313354492e-05 0.0005897581577301025 -0.07598495483398438 -0.026554107666015625
18.09475 0.1023712158203125 0.13095855712890625 -0.0279693603515625 -0.4163055419921875 0.0007555484771728516 0.0009442567825317383 -0.07400131225585938 -0.018917083740234375
18.1045 0.11002349853515625 0.12652587890625 -0.0635223388671875 -0.426025390625 0.000533372163772583 0.00029265880584716797 -0.0769805908203125 -0.012592315673828125
18.11425 0.11676025390625 0.1245269775390625 -0.098663330078125 -0.434478759765625 0.0014929771423339844 -0.00025773048400878906 -0.07509613037109375 -0.008697509765625
18.124 0.122406005859375 0.1207275390625 -0.135986328125 -0.4384765625 0.0013941526412963867 -0.0002117156982421875 -0.0769805908203125 -0.00127410888671875
18.13375 0.12918853759765625 0.11663818359375 -0.17486572265625 -0.43756103515625 0.0017823576927185059 -0.000141143798828125 -0.07471466064453125 0.00591278076171875
18.1435 0.134521484375 0.11066436767578125 -0.216278076171875 -0.43280029296875 0.00014610588550567627 0.00029633939266204834 -0.07587051391601562 0.013576507568359375
18.15325 0.1413726806640625 0.10521697998046875 -0.2587890625 -0.425262451171875 8.174777030944824e-05 0.0006248652935028076 -0.0739288330078125 0.018703460693359375
18.163 0.149078369140625 0.099700927734375 -0.29931640625 -0.41064453125 -0.00011259317398071289 -0.0009257197380065918 -0.07123947143554688 0.0245513916015625
18.17275 0.15252685546875 0.09490966796875 -0.340087890625 -0.39556884765625 -1.5027821063995361e-05 0.00011183321475982666 -0.06934356689453125 0.03183746337890625
18.1825 0.15960693359375 0.087554931640625 -0.3797607421875 -0.375030517578125 0.0019559860229492188 4.088878631591797e-05 -0.06528091430664062 0.03978729248046875
18.19225 0.16357421875 0.079864501953125 -0.42108154296875 -0.348602294921875 0.0008012950420379639 -0.0005339086055755615 -0.06377410888671875 0.043430328369140625
18.202 0.169952392578125 0.07513427734375 -0.45892333984375 -0.31951904296875 -0.00025343894958496094 -0.00017586350440979004 -0.062061309814453125 0.05048561096191406
18.21175 0.1715087890625 0.0676727294921875 -0.49609375 -0.28179931640625 0.00028896331787109375 -0.0001564323902130127 -0.05594635009765625 0.056903839111328125
18.2215 0.177642822265625 0.05928802490234375 -0.5289306640625 -0.240753173828125 0.0010706782341003418 -0.0006092190742492676 -0.05135154724121094 0.061313629150390625
18.23125 0.18111419677734375 0.0540771484375 -0.556182861328125 -0.197296142578125 -0.00020453333854675293 -0.00010281801223754883 -0.047328948974609375 0.06467819213867188
18.241 0.18424224853515625 0.04651641845703125 -0.580413818359375 -0.150726318359375 0.0014594197273254395 -0.0006223917007446289 -0.043163299560546875 0.07049560546875
18.25075 0.1879119873046875 0.03769683837890625 -0.59844970703125 -0.101165771484375 0.0009147524833679199 0.00038301944732666016 -0.036838531494140625 0.0742950439453125
18.2605 0.18863677978515625 0.03070068359375 -0.6123046875 -0.050506591796875 0.0015293359756469727 0.0006814002990722656 -0.03009033203125 0.07730484008789062
18.27025 0.18909454345703125 0.02191925048828125 -0.62506103515625 0.0008544921875 0.00045353174209594727 -0.0007348954677581787 -0.0247955322265625 0.0812225341796875
18.28 0.1915740966796875 0.01222991943359375 -0.63104248046875 0.057098388671875 0.0007961690425872803 -0.00039255619049072266 -0.017093658447265625 0.08415985107421875
18.28975 0.19387054443359375 0.00347137451171875 -0.634368896484375 0.11236572265625 0.00038510560989379883 -0.0009674429893493652 -0.010944366455078125 0.08827590942382812
18.2995 0.19409942626953125 -0.00421905517578125 -0.62939453125 0.1724853515625 0.00014591217041015625 0.00019688904285430908 -0.0040283203125 0.08765792846679688
18.30925 0.193939208984375 -0.01312255859375 -0.61865234375 0.2303466796875 0.0012558698654174805 -0.001316070556640625 0.0048065185546875 0.09172821044921875
18.319 0.1930389404296875 -0.02234649658203125 -0.598968505859375 0.28680419921875 -7.133185863494873e-05 -0.0004153400659561157 0.010589599609375 0.09391403198242188
18.32875 0.19155120849609375 -0.0286712646484375 -0.57373046875 0.340240478515625 0.00034618377685546875 -0.001728057861328125 0.018157958984375 0.09310531616210938
18.3385 0.19195556640625 -0.03960418701171875 -0.545745849609375 0.389190673828125 -0.0002097487449645996 -0.0010074973106384277 0.027812957763671875 0.094207763671875
18.34825 0.18946075439453125 -0.04828643798828125 -0.515045166015625 0.437957763671875 0.0009697079658508301 0.0001868605613708496 0.03447723388671875 0.094024658203125
18.358 0.18792724609375 -0.056304931640625 -0.480560302734375 0.4817962646484375 0.00015425682067871094 0.0008359551429748535 0.043487548828125 0.09258270263671875
18.36775 0.18529510498046875 -0.06502532958984375 -0.441558837890625 0.523895263671875 0.0010010004043579102 -0.0010912418365478516 0.04993438720703125 0.090301513671875
18.3775 0.1820831298828125 -0.07227325439453125 -0.402069091796875 0.56536865234375 0.00043016672134399414 -7.65770673751831e-05 0.0579681396484375 0.08786773681640625
18.38725 0.1787567138671875 -0.08100128173828125 -0.35174560546875 0.603973388671875 0.000383526086807251 -0.0002457350492477417 0.0633544921875 0.08660888671875
18.397 0.1753692626953125 -0.0879974365234375 -0.301025390625 0.63726806640625 -0.00030517578125 -0.00023239850997924805 0.0709228515625 0.083740234375
18.40675 0.1704864501953125 -0.0960540771484375 -0.24432373046875 0.66510009765625 -0.00047588348388671875 -0.0010595321655273438 0.078094482421875 0.078338623046875
18.4165 0.1657562255859375 -0.10257720947265625 -0.18646240234375 0.6842041015625 0.0006134510040283203 -0.0006916224956512451 0.0831146240234375 0.07309722900390625
18.42625 0.1600494384765625 -0.10943603515625 -0.12744140625 0.696746826171875 0.0006486177444458008 -0.0008139908313751221 0.0914306640625 0.0687713623046875
18.436 0.15367889404296875 -0.11572265625 -0.071990966796875 0.705841064453125 -0.0001303553581237793 6.66007399559021e-05 0.0980072021484375 0.06403350830078125
18.44575 0.146881103515625 -0.1228485107421875 -0.017364501953125 0.708953857421875 5.9664249420166016e-05 -0.0005652010440826416 0.10245513916015625 0.05719757080078125
18.4555 0.139312744140625 -0.12853240966796875 0.03839111328125 0.712158203125 0.001499176025390625 -0.00022608041763305664 0.10526275634765625 0.0510711669921875
18.46525 0.1347808837890625 -0.13591766357421875 0.094879150390625 0.713134765625 0.0007050931453704834 -0.0004405379295349121 0.11114501953125 0.04022216796875
18.475 0.125579833984375 -0.1395721435546875 0.152557373046875 0.710296630859375 0.00026991963386535645 0.00048166513442993164 0.115875244140625 0.033935546875
18.48475 0.120849609375 -0.14656829833984375 0.21490478515625 0.7022705078125 5.263090133666992e-05 0.0005762577056884766 0.12001800537109375 0.0274810791015625
18.4945 0.1122283935546875 -0.14832305908203125 0.27532958984375 0.68548583984375 0.0011574029922485352 -0.000522613525390625 0.12192535400390625 0.0169677734375
18.50425 0.1048736572265625 -0.1543731689453125 0.3363037109375 0.66064453125 0.0012843608856201172 -0.0004960298538208008 0.1244354248046875 0.010406494140625
18.514 0.09771728515625 -0.158233642578125 0.3929443359375 0.63037109375 0.0002270042896270752 6.175041198730469e-05 0.1249542236328125 0.00154876708984375
18.52375 0.08849334716796875 -0.160400390625 0.44268798828125 0.593994140625 -0.0002124309539794922 -0.0005736351013183594 0.12566375732421875 -0.00732421875
18.5335 0.08289337158203125 -0.16363525390625 0.48876953125 0.556640625 0.0012257695198059082 -0.0009262561798095703 0.1253662109375 -0.01486968994140625
18.54325 0.0748443603515625 -0.1681365966796875 0.53057861328125 0.51611328125 0.0003509223461151123 -0.00021499395370483398 0.12344741821289062 -0.023895263671875
18.553 0.065948486328125 -0.169769287109375 0.56787109375 0.47418212890625 0.00022771954536437988 -0.0009686052799224854 0.12206268310546875 -0.030048370361328125
18.56275 0.0585784912109375 -0.1703643798828125 0.6043701171875 0.43121337890625 -0.00033843517303466797 -0.001042187213897705 0.12053680419921875 -0.0379791259765625
18.5725 0.04976654052734375 -0.1709442138671875 0.64056396484375 0.38763427734375 0.0006799101829528809 0.00036597251892089844 0.11517333984375 -0.04535675048828125
18.58225 0.04286956787109375 -0.16945648193359375 0.67327880859375 0.3385009765625 0.0013388395309448242 -0.001000046730041504 0.1130523681640625 -0.0536041259765625
18.592 0.033660888671875 -0.17352294921875 0.703704833984375 0.283660888671875 0.0005775690078735352 4.0084123611450195e-05 0.10878372192382812 -0.06034088134765625
18.60175 0.0260009765625 -0.1696014404296875 0.72833251953125 0.2235107421875 0.0007812976837158203 -0.0009778738021850586 0.10308074951171875 -0.06597137451171875
18.6115 0.0189208984375 -0.16936492919921875 0.7440185546875 0.16412353515625 0.0003355741500854492 -0.0011744499206542969 0.09869003295898438 -0.072967529296875
18.62125 0.009918212890625 -0.168670654296875 0.753631591796875 0.1041259765625 0.0005186498165130615 -0.00037488341331481934 0.09245681762695312 -0.07815170288085938
18.631 0.00197601318359375 -0.1680145263671875 0.7591552734375 0.048614501953125 -0.00022101402282714844 -0.0008165240287780762 0.08615493774414062 -0.08327865600585938
18.64075 -0.00547027587890625 -0.166290283203125 0.759002685546875 -0.00799560546875 0.0005058646202087402 -0.000555187463760376 0.08143997192382812 -0.08588027954101562
