!Created with skrf (http://scikit-rf.org).
# GHz S RI R 50.0 
!freq ReS11 ImS11 ReS21 ImS21 ReS12 ImS12 ReS22 ImS22
17.5 0.0113983154296875 -0.1520538330078125 4.238037109375 1.268798828125 -0.0006941854953765869 0.0005826354026794434 0.10818862915039062 0.0062408447265625
17.50975 0.001739501953125 -0.14887237548828125 4.322021484375 0.92578125 -0.0015109777450561523 0.0009927153587341309 0.11187362670898438 0.004512786865234375
17.5195 -0.00571441650390625 -0.14510345458984375 4.367919921875 0.5771484375 -0.0010514259338378906 0.0005530118942260742 0.11501312255859375 0.001491546630859375
17.52925 -0.01648712158203125 -0.14185333251953125 4.396484375 0.23583984375 -0.00159454345703125 0.0005820393562316895 0.1179656982421875 -0.00405120849609375
17.539 -0.0233612060546875 -0.1371917724609375 4.3955078125 -0.10498046875 -0.0022399425506591797 0.0005009174346923828 0.11939239501953125 -0.00766754150390625
17.54875 -0.0325775146484375 -0.13315582275390625 4.3623046875 -0.43798828125 -0.0012684464454650879 0.0003344416618347168 0.1224517822265625 -0.010875701904296875
17.5585 -0.04323577880859375 -0.12906646728515625 4.325439453125 -0.766845703125 -0.000926673412322998 -0.00046688318252563477 0.12317657470703125 -0.01764678955078125
17.56825 -0.04933929443359375 -0.12408447265625 4.2685546875 -1.087890625 -0.0017267465591430664 0.0009569525718688965 0.12449264526367188 -0.021862030029296875
17.578 -0.05503082275390625 -0.11664581298828125 4.175537109375 -1.427490234375 -0.0013526678085327148 0.0008084774017333984 0.12518310546875 -0.02867889404296875
17.58775 -0.0627899169921875 -0.1110992431640625 4.058349609375 -1.763671875 -0.0015391111373901367 0.002030611038208008 0.12421417236328125 -0.030059814453125
17.5975 -0.067962646484375 -0.10479736328125 3.898681640625 -2.0999755859375 0.00019043684005737305 0.0011539459228515625 0.12624359130859375 -0.03807830810546875
17.60725 -0.07427215576171875 -0.09920501708984375 3.7005615234375 -2.399658203125 -0.0009827017784118652 0.0005527138710021973 0.12288665771484375 -0.04094696044921875
17.617 -0.08007049560546875 -0.09124755859375 3.4779052734375 -2.6761474609375 -0.0003262758255004883 0.002085447311401367 0.1243896484375 -0.04742431640625
17.62675 -0.08605194091796875 -0.08420562744140625 3.232666015625 -2.9197998046875 -0.000811845064163208 0.000794142484664917 0.12457656860351562 -0.0511932373046875
17.6365 -0.0890960693359375 -0.0764617919921875 2.98583984375 -3.13134765625 -0.0017688274383544922 0.0011332035064697266 0.12149810791015625 -0.05762481689453125
17.64625 -0.095458984375 -0.067535400390625 2.7431640625 -3.320068359375 -0.000614464282989502 0.0005707144737243652 0.11834335327148438 -0.0619659423828125
17.656 -0.09778594970703125 -0.06021881103515625 2.5009765625 -3.4947509765625 -0.00024813413619995117 0.0012646913528442383 0.11342620849609375 -0.06765365600585938
17.66575 -0.10121917724609375 -0.05257415771484375 2.263916015625 -3.6693115234375 -0.0016130805015563965 0.0007131695747375488 0.11327743530273438 -0.07339096069335938
17.6755 -0.1037445068359375 -0.0442352294921875 2.00537109375 -3.837890625 -0.0008012652397155762 0.0014224648475646973 0.10905838012695312 -0.07827377319335938
17.68525 -0.1056060791015625 -0.0349884033203125 1.73583984375 -4.012451171875 -0.0006433725357055664 0.002100706100463867 0.10600662231445312 -0.0841827392578125
17.695 -0.107513427734375 -0.02588653564453125 1.419921875 -4.177734375 -0.002117633819580078 0.0014442205429077148 0.10152435302734375 -0.08669662475585938
17.70475 -0.1078033447265625 -0.01691436767578125 1.070556640625 -4.303955078125 -0.0005506575107574463 0.0008477866649627686 0.09765243530273438 -0.09249114990234375
17.7145 -0.11047744750976562 -0.007610321044921875 0.697998046875 -4.39453125 -0.0007094442844390869 0.0007466673851013184 0.0931549072265625 -0.0972137451171875
17.72425 -0.10922622680664062 0.001255035400390625 0.3173828125 -4.421630859375 0.00041496753692626953 0.0028715133666992188 0.08568572998046875 -0.10062789916992188
17.734 -0.112213134765625 0.00927734375 -0.0458984375 -4.40966796875 -0.0003666877746582031 0.001415252685546875 0.08350372314453125 -0.10323333740234375
17.74375 -0.111724853515625 0.0175628662109375 -0.38330078125 -4.341796875 0.0005033016204833984 0.0010557174682617188 0.07596588134765625 -0.1089935302734375
17.7535 -0.10791778564453125 0.02637481689453125 -0.694580078125 -4.273193359375 -7.001683115959167e-05 -3.186613321304321e-05 0.07154083251953125 -0.11048507690429688
17.76325 -0.10838699340820312 0.03574371337890625 -0.9833984375 -4.197998046875 0.001196146011352539 0.0016502141952514648 0.0645904541015625 -0.11119461059570312
17.773 -0.1067657470703125 0.044742584228515625 -1.265625 -4.12646484375 0.000713050365447998 -0.00012934207916259766 0.057830810546875 -0.11259841918945312
17.78275 -0.10355377197265625 0.05081939697265625 -1.555908203125 -4.0361328125 -0.0006579458713531494 0.0006374716758728027 0.05402374267578125 -0.11465835571289062
17.7925 -0.09978485107421875 0.058940887451171875 -1.858154296875 -3.9443359375 0.000774383544921875 0.0010121464729309082 0.048095703125 -0.11595916748046875
17.80225 -0.09611129760742188 0.0671539306640625 -2.17919921875 -3.82177734375 0.0003013014793395996 0.0014417171478271484 0.042644500732421875 -0.11817169189453125
17.812 -0.09261703491210938 0.07464981079101562 -2.493896484375 -3.6513671875 0.00037294626235961914 0.0012801289558410645 0.034236907958984375 -0.11781692504882812
17.82175 -0.08742904663085938 0.08270645141601562 -2.790771484375 -3.44384765625 0.0003034621477127075 6.221234798431396e-05 0.030788421630859375 -0.11552047729492188
17.8315 -0.0833587646484375 0.08924102783203125 -3.06298828125 -3.19873046875 0.0011132359504699707 0.0003300905227661133 0.02208709716796875 -0.11590576171875
17.84125 -0.0775146484375 0.0954742431640625 -3.30322265625 -2.93701171875 0.0005744695663452148 0.0004138946533203125 0.0165863037109375 -0.11624908447265625
17.851 -0.07149124145507812 0.10453414916992188 -3.4951171875 -2.651123046875 0.00030744075775146484 0.0012530088424682617 0.010540008544921875 -0.1151580810546875
17.86075 -0.06757736206054688 0.10842514038085938 -3.666015625 -2.3828125 0.000634610652923584 0.00035637617111206055 0.00453948974609375 -0.11234283447265625
17.8705 -0.0604400634765625 0.11629104614257812 -3.823974609375 -2.1103515625 0.0001958310604095459 0.00041943788528442383 -0.002140045166015625 -0.10965347290039062
17.88025 -0.0541534423828125 0.12171173095703125 -3.976318359375 -1.833740234375 0.0005775094032287598 0.0012292861938476562 -0.008693695068359375 -0.1093597412109375
17.89 -0.04827117919921875 0.126617431640625 -4.1220703125 -1.55078125 0.0009981393814086914 -0.000240325927734375 -0.012844085693359375 -0.10810089111328125
17.89975 -0.04170989990234375 0.13037109375 -4.25341796875 -1.229736328125 6.866455078125e-05 0.0010614395141601562 -0.0186614990234375 -0.10488128662109375
17.9095 -0.03509521484375 0.13552093505859375 -4.36962890625 -0.89453125 0.0006937980651855469 0.0009639263153076172 -0.023773193359375 -0.102081298828125
17.91925 -0.0251922607421875 0.13855743408203125 -4.435302734375 -0.537841796875 0.0020618438720703125 0.0014439821243286133 -0.02921295166015625 -0.099365234375
17.929 -0.018402099609375 0.1417999267578125 -4.4765625 -0.17333984375 0.00012198090553283691 -0.0003095567226409912 -0.0342864990234375 -0.097625732421875
17.93875 -0.01314544677734375 0.1430816650390625 -4.464111328125 0.190673828125 0.0007732510566711426 0.0008355379104614258 -0.0387420654296875 -0.09224700927734375
17.9485 -0.00437164306640625 0.145904541015625 -4.417236328125 0.533447265625 0.0018581151962280273 0.0007840394973754883 -0.04205322265625 -0.08762359619140625
17.95825 0.00405120849609375 0.14708709716796875 -4.348388671875 0.86474609375 0.00020739436149597168 0.0003916025161743164 -0.04392242431640625 -0.082794189453125
17.968 0.01250457763671875 0.14957427978515625 -4.2685546875 1.178955078125 0.00020840764045715332 0.0006710290908813477 -0.05011749267578125 -0.0792388916015625
17.97775 0.0223236083984375 0.14902496337890625 -4.168701171875 1.484375 0.0006684660911560059 0.0001042485237121582 -0.05490875244140625 -0.07489776611328125
17.9875 0.02960968017578125 0.150726318359375 -4.0625 1.804931640625 0.0004347264766693115 9.685754776000977e-05 -0.05645751953125 -0.07097625732421875
17.99725 0.03887176513671875 0.15030670166015625 -3.9383544921875 2.124755859375 0.0013681650161743164 0.0006055831909179688 -0.06182098388671875 -0.0651092529296875
18.007 0.04736328125 0.150634765625 -3.77392578125 2.4462890625 0.0006838440895080566 0.0009524822235107422 -0.06335830688476562 -0.058788299560546875
18.01675 0.05605316162109375 0.14984893798828125 -3.57568359375 2.754150390625 0.0010426044464111328 0.0003319978713989258 -0.06675338745117188 -0.0540618896484375
18.0265 0.0623321533203125 0.1475372314453125 -3.33984375 3.048828125 0.0009232163429260254 -0.0004023313522338867 -0.0719757080078125 -0.04743194580078125
18.03625 0.070709228515625 0.14862823486328125 -3.07080078125 3.3095703125 0.00011354684829711914 0.0014200806617736816 -0.07265090942382812 -0.04138946533203125
18.046 0.0793914794921875 0.14522552490234375 -2.775390625 3.535400390625 0.0011080503463745117 0.0006601214408874512 -0.07378005981445312 -0.034210205078125
18.05575 0.0870208740234375 0.1416473388671875 -2.4864501953125 3.724853515625 -0.0003698766231536865 -0.0005422532558441162 -0.07695388793945312 -0.030788421630859375
18.0655 0.09400177001953125 0.1401519775390625 -2.1871337890625 3.8800048828125 0.0012344717979431152 8.51750373840332e-05 -0.07782745361328125 -0.025669097900390625
18.07525 0.10150146484375 0.1375885009765625 -1.883544921875 4.02734375 0.00048539042472839355 0.0003059208393096924 -0.07885360717773438 -0.01850128173828125
18.085 0.107666015625 0.131317138671875 -1.570556640625 4.15478515625 0.0024057626724243164 -0.0001087188720703125 -0.079071044921875 -0.013225555419921875
18.09475 0.11438751220703125 0.129302978515625 -1.255126953125 4.273681640625 0.0007508993148803711 0.0009744763374328613 -0.07668685913085938 -0.005828857421875
18.1045 0.12198638916015625 0.12345123291015625 -0.92041015625 4.36279296875 0.00014702975749969482 -0.0004126429557800293 -0.07867431640625 -0.00030517578125
18.11425 0.12767791748046875 0.1202239990234375 -0.5654296875 4.42724609375 0.0006521344184875488 -0.00021705031394958496 -0.0768280029296875 0.005870819091796875
18.124 0.131927490234375 0.11468505859375 -0.20556640625 4.4541015625 -0.0008231401443481445 0.0008450746536254883 -0.07498931884765625 0.0125274658203125
18.13375 0.138671875 0.10919952392578125 0.14453125 4.4541015625 0.0009001195430755615 -0.0007934272289276123 -0.07480621337890625 0.01889801025390625
18.1435 0.1439666748046875 0.10382843017578125 0.492919921875 4.409912109375 0.0005827546119689941 0.00011423230171203613 -0.07317352294921875 0.026165008544921875
18.15325 0.1494140625 0.09693145751953125 0.840087890625 4.34814453125 0.0005769729614257812 -9.587407112121582e-05 -0.07137298583984375 0.03186798095703125
18.163 0.15616607666015625 0.0894775390625 1.163330078125 4.2509765625 0.0009725689888000488 -0.00013458728790283203 -0.06637954711914062 0.03955841064453125
18.17275 0.15984344482421875 0.083465576171875 1.481201171875 4.14111328125 0.0011206269264221191 -0.0004962682723999023 -0.06293106079101562 0.044284820556640625
18.1825 0.16500091552734375 0.0768280029296875 1.7900390625 4.012939453125 0.0011773109436035156 -0.0012461543083190918 -0.057239532470703125 0.05048561096191406
18.19225 0.16796875 0.0695037841796875 2.10107421875 3.86669921875 0.0009480118751525879 1.9669532775878906e-06 -0.054035186767578125 0.05607795715332031
18.202 0.171234130859375 0.063751220703125 2.38671875 3.68798828125 0.0008741617202758789 -1.9490718841552734e-05 -0.051792144775390625 0.061309814453125
18.21175 0.1765594482421875 0.057037353515625 2.671875 3.484375 0.00016948580741882324 0.00020176172256469727 -0.0458221435546875 0.067138671875
18.2215 0.1789398193359375 0.0478363037109375 2.92626953125 3.244873046875 -0.00016486644744873047 -0.0019060373306274414 -0.039455413818359375 0.0702972412109375
18.23125 0.1808319091796875 0.0422821044921875 3.15966796875 3.001708984375 0.001840829849243164 0.0005692243576049805 -0.0373382568359375 0.07392120361328125
18.241 0.18320465087890625 0.03485107421875 3.36474609375 2.7373046875 0.0006276369094848633 -0.0005103945732116699 -0.031116485595703125 0.078887939453125
18.25075 0.18502044677734375 0.02625274658203125 3.552001953125 2.4658203125 0.00010859966278076172 -0.0007800161838531494 -0.02496337890625 0.08106613159179688
18.2605 0.18609619140625 0.0203094482421875 3.712158203125 2.185791015625 -0.000485837459564209 -0.0009257197380065918 -0.01689910888671875 0.08422470092773438
18.27025 0.18674468994140625 0.01035308837890625 3.8623046875 1.901611328125 0.00030559301376342773 -0.0005782544612884521 -0.0112762451171875 0.08611297607421875
18.28 0.186920166015625 0.00360870361328125 4.003173828125 1.59912109375 -2.771615982055664e-05 -0.0013492107391357422 -0.00518035888671875 0.08798599243164062
18.28975 0.1880645751953125 -0.00656890869140625 4.109375 1.289794921875 0.0012412071228027344 -0.00040161609649658203 0.00305938720703125 0.08954620361328125
18.2995 0.188079833984375 -0.014404296875 4.196044921875 0.96337890625 -0.0006598532199859619 0.00016754865646362305 0.01145172119140625 0.08861923217773438
18.30925 0.1854095458984375 -0.0217742919921875 4.24658203125 0.6220703125 0.0004082918167114258 -0.0006238222122192383 0.01897430419921875 0.090789794921875
18.319 0.18441009521484375 -0.03183746337890625 4.262939453125 0.2880859375 0.000887751579284668 0.00021791458129882812 0.02596282958984375 0.09169769287109375
18.32875 0.1830291748046875 -0.0368194580078125 4.25244140625 -0.035400390625 0.0005852580070495605 -0.000333636999130249 0.035549163818359375 0.09070205688476562
18.3385 0.18083953857421875 -0.04582977294921875 4.213134765625 -0.35400390625 0.0008171200752258301 -0.0013303160667419434 0.0427703857421875 0.091217041015625
18.34825 0.1800537109375 -0.053436279296875 4.16845703125 -0.660888671875 -0.0009163022041320801 -8.004903793334961e-05 0.0479736328125 0.08875274658203125
18.358 0.17613983154296875 -0.06104278564453125 4.1064453125 -0.9658203125 0.0002568066120147705 -0.0008146464824676514 0.05596923828125 0.08655548095703125
18.36775 0.17423248291015625 -0.0681610107421875 4.02392578125 -1.27880859375 3.528594970703125e-05 -0.0013289451599121094 0.06296539306640625 0.08229827880859375
18.3775 0.17099761962890625 -0.07396697998046875 3.92138671875 -1.5780029296875 -0.0002281665802001953 -0.0009698867797851562 0.06865692138671875 0.0797119140625
18.38725 0.1674346923828125 -0.08245086669921875 3.78369140625 -1.8890380859375 0.0009888410568237305 -0.0007742047309875488 0.07550811767578125 0.07794189453125
18.397 0.1634674072265625 -0.0883026123046875 3.609375 -2.178955078125 0.00022205710411071777 -0.00019659101963043213 0.0815887451171875 0.072418212890625
18.40675 0.160003662109375 -0.095458984375 3.407958984375 -2.463134765625 -0.0004202425479888916 0.00015616416931152344 0.087890625 0.066986083984375
18.4165 0.154022216796875 -0.10214996337890625 3.180908203125 -2.703125 -0.0003776848316192627 -0.0006061792373657227 0.093017578125 0.06316375732421875
18.42625 0.1490631103515625 -0.10741424560546875 2.9415283203125 -2.9169921875 -0.00039577484130859375 -0.0007612705230712891 0.09920501708984375 0.05550384521484375
18.436 0.14190673828125 -0.111236572265625 2.698974609375 -3.0970458984375 0.0003254413604736328 -0.0005034208297729492 0.10552215576171875 0.04976654052734375
18.44575 0.1361846923828125 -0.1176910400390625 2.45751953125 -3.270751953125 0.0007011294364929199 0.0006632208824157715 0.10642242431640625 0.04279327392578125
18.4555 0.1308746337890625 -0.1233367919921875 2.2095947265625 -3.4271240234375 0.0006256997585296631 -0.0006926655769348145 0.112335205078125 0.03560638427734375
18.46525 0.12500762939453125 -0.12839508056640625 1.9569091796875 -3.5885009765625 -0.0003021061420440674 0.000960618257522583 0.114654541015625 0.0264739990234375
18.475 0.11756134033203125 -0.1329193115234375 1.6842041015625 -3.7325439453125 5.930662155151367e-06 0.0006912648677825928 0.1190032958984375 0.0189361572265625
18.48475 0.11316680908203125 -0.138397216796875 1.383056640625 -3.858642578125 0.0006886422634124756 -0.00028821825981140137 0.11894989013671875 0.011749267578125
18.4945 0.1056060791015625 -0.14162445068359375 1.0625 -3.93994140625 -0.0002844184637069702 0.00019678473472595215 0.12073516845703125 0.00266265869140625
18.50425 0.0983428955078125 -0.1452178955078125 0.731201171875 -4.000732421875 0.0011224746704101562 -0.0006719827651977539 0.12113189697265625 -0.00530242919921875
18.514 0.0931854248046875 -0.148040771484375 0.40576171875 -4.012451171875 0.0006125569343566895 -0.00018256902694702148 0.12215423583984375 -0.01306915283203125
18.52375 0.08486175537109375 -0.15042877197265625 0.0955810546875 -3.9847412109375 0.00036212801933288574 0.00028693675994873047 0.12085723876953125 -0.02093505859375
18.5335 0.079803466796875 -0.1527252197265625 -0.194091796875 -3.937744140625 0.00030541419982910156 -0.0007773339748382568 0.12060165405273438 -0.028720855712890625
18.54325 0.0728759765625 -0.15569305419921875 -0.464111328125 -3.880615234375 -0.00020632147789001465 -0.00019903481006622314 0.11673736572265625 -0.0368499755859375
18.553 0.06713104248046875 -0.15915679931640625 -0.73046875 -3.8134765625 0.000617682933807373 -0.00011548399925231934 0.11512374877929688 -0.04218292236328125
18.56275 0.05841064453125 -0.159149169921875 -0.990234375 -3.74462890625 0.0009597539901733398 0.0003943443298339844 0.11151504516601562 -0.04937744140625
18.5725 0.05120849609375 -0.16103363037109375 -1.2529296875 -3.658203125 0.0005131065845489502 -0.0006207823753356934 0.10610580444335938 -0.057525634765625
18.58225 0.04396820068359375 -0.16162872314453125 -1.5224609375 -3.552490234375 0.00011709332466125488 -0.0007294416427612305 0.10223007202148438 -0.063385009765625
18.592 0.035614013671875 -0.16290283203125 -1.78857421875 -3.415283203125 0.0006985068321228027 -0.0010973215103149414 0.09616851806640625 -0.07113265991210938
18.60175 0.0296173095703125 -0.162841796875 -2.04150390625 -3.25732421875 0.0009437799453735352 -0.0011190176010131836 0.090362548828125 -0.0731048583984375
18.6115 0.023162841796875 -0.16191864013671875 -2.2646484375 -3.06201171875 0.00031644105911254883 0.00029924511909484863 0.08645248413085938 -0.08063125610351562
18.62125 0.0139617919921875 -0.161376953125 -2.462890625 -2.856689453125 0.00017118453979492188 0.0003566741943359375 0.07976150512695312 -0.08475112915039062
18.631 0.0082550048828125 -0.1619720458984375 -2.625 -2.654052734375 0.0004101693630218506 -0.0003804713487625122 0.07447052001953125 -0.08705902099609375
18.64075 -0.00072479248046875 -0.16121673583984375 -2.779052734375 -2.444580078125 0.0003477632999420166 -0.0005865097045898438 0.06782150268554688 -0.09069442749023438
18.6505 -0.0054473876953125 -0.1604156494140625 -2.915771484375 -2.242919921875 0.001121222972869873 -0.0008065700531005859 0.06322097778320312 -0.09397125244140625
18.66025 -0.01564788818359375 -0.15863037109375 -3.047607421875 -2.03564453125 -0.0003616809844970703 -0.0015909671783447266 0.054607391357421875 -0.09466934204101562
18.67 -0.0217132568359375 -0.1557769775390625 -3.178955078125 -1.8193359375 0.0007055401802062988 -0.00174790620803833 0.049892425537109375 -0.0949249267578125
18.67975 -0.02862548828125 -0.1536102294921875 -3.302978515625 -1.593505859375 0.0006072521209716797 -0.000999748706817627 0.041576385498046875 -0.0974273681640625
18.6895 -0.03600311279296875 -0.15180206298828125 -3.405517578125 -1.342529296875 -0.00026023387908935547 -0.0009781122207641602 0.035648345947265625 -0.09554672241210938
