!Created with skrf (http://scikit-rf.org).
# GHz S RI R 50.0 
!freq ReS11 ImS11 ReS21 ImS21 ReS12 ImS12 ReS22 ImS22
17.5 0.008056640625 -0.15334320068359375 4.797119140625 -0.017822265625 -0.0015324950218200684 0.0006377100944519043 0.11266326904296875 0.002979278564453125
17.50975 -0.00247955322265625 -0.15015411376953125 4.774169921875 -0.39453125 -0.001144707202911377 0.00019162893295288086 0.11388397216796875 0.00063323974609375
17.5195 -0.0091705322265625 -0.14583587646484375 4.714599609375 -0.77001953125 -0.0013048052787780762 0.0007066726684570312 0.11771011352539062 -0.001461029052734375
17.52925 -0.019683837890625 -0.14227294921875 4.63671875 -1.131591796875 -0.0019701719284057617 0.0006576776504516602 0.11866378784179688 -0.00814056396484375
17.539 -0.0258636474609375 -0.13671875 4.53125 -1.47998046875 -0.00048351287841796875 0.0008438229560852051 0.1207122802734375 -0.01094818115234375
17.54875 -0.035919189453125 -0.1329803466796875 4.3935546875 -1.811279296875 -0.001070857048034668 0.0008454322814941406 0.12261962890625 -0.016326904296875
17.5585 -0.04555511474609375 -0.1277923583984375 4.255126953125 -2.139892578125 -0.0012955069541931152 0.0007257461547851562 0.12470626831054688 -0.020870208740234375
17.56825 -0.05234527587890625 -0.12287139892578125 4.095947265625 -2.45458984375 -0.0007016658782958984 0.00023686885833740234 0.12424087524414062 -0.025745391845703125
17.578 -0.0593109130859375 -0.115936279296875 3.90283203125 -2.7789306640625 -0.0006519556045532227 0.0013358592987060547 0.12531280517578125 -0.03022003173828125
17.58775 -0.06649017333984375 -0.11077880859375 3.6781005859375 -3.09423828125 -0.0006482899188995361 0.000494837760925293 0.1244964599609375 -0.03546905517578125
17.5975 -0.0714569091796875 -0.10317230224609375 3.4090576171875 -3.3863525390625 -0.0004807710647583008 0.00019168853759765625 0.12451934814453125 -0.04119110107421875
17.60725 -0.077117919921875 -0.0987701416015625 3.113037109375 -3.6422119140625 -0.00022137165069580078 0.001403510570526123 0.12285614013671875 -0.04524993896484375
17.617 -0.0848236083984375 -0.0904083251953125 2.7996826171875 -3.857421875 -0.0007674694061279297 0.0017071366310119629 0.12282943725585938 -0.050342559814453125
17.62675 -0.0882568359375 -0.0829925537109375 2.4765625 -4.03515625 -0.000738680362701416 0.0002779364585876465 0.12223052978515625 -0.05460357666015625
17.6365 -0.0936279296875 -0.07476806640625 2.15380859375 -4.18310546875 -4.738569259643555e-05 0.0005913376808166504 0.11943817138671875 -0.06072235107421875
17.64625 -0.09600830078125 -0.06542205810546875 1.843994140625 -4.296875 -0.0007892251014709473 0.0009702444076538086 0.11589431762695312 -0.06576156616210938
17.656 -0.10091400146484375 -0.0589752197265625 1.541259765625 -4.410888671875 -0.0018112659454345703 0.0002956390380859375 0.111236572265625 -0.07081985473632812
17.66575 -0.103546142578125 -0.04859161376953125 1.239013671875 -4.526611328125 -0.00029861927032470703 0.0013377666473388672 0.11175155639648438 -0.07584381103515625
17.6755 -0.10631561279296875 -0.03977203369140625 0.919189453125 -4.62109375 7.170438766479492e-05 0.0013220906257629395 0.10406494140625 -0.08088302612304688
17.68525 -0.10858154296875 -0.03156280517578125 0.5859375 -4.724609375 -0.0007214248180389404 0.00036469101905822754 0.10228347778320312 -0.08472061157226562
17.695 -0.10942840576171875 -0.02245330810546875 0.2109375 -4.80078125 -0.0006910264492034912 0.0006088018417358398 0.09877395629882812 -0.0890960693359375
17.70475 -0.1107635498046875 -0.012176513671875 -0.190185546875 -4.828125 -0.0014247298240661621 0.0009274482727050781 0.09380722045898438 -0.0932769775390625
17.7145 -0.11209487915039062 -0.004543304443359375 -0.60595703125 -4.814453125 -0.0010992884635925293 0.0007079839706420898 0.08880996704101562 -0.09731292724609375
17.72425 -0.11118698120117188 0.005603790283203125 -1.00927734375 -4.731201171875 -0.0006123781204223633 0.0013777613639831543 0.08233261108398438 -0.10048294067382812
17.734 -0.1111907958984375 0.0142974853515625 -1.384765625 -4.6064453125 -4.982948303222656e-05 0.0016497373580932617 0.07791900634765625 -0.1048126220703125
17.74375 -0.112823486328125 0.02051544189453125 -1.71435546875 -4.43798828125 -0.0004949569702148438 0.0013741254806518555 0.07160186767578125 -0.10845184326171875
17.7535 -0.1093597412109375 0.030239105224609375 -2.024169921875 -4.2783203125 0.00032126903533935547 0.0012104511260986328 0.06793212890625 -0.10983657836914062
17.76325 -0.10815048217773438 0.038417816162109375 -2.306884765625 -4.118896484375 -0.0012954473495483398 0.0014756321907043457 0.061817169189453125 -0.11157608032226562
17.773 -0.1063079833984375 0.046573638916015625 -2.577880859375 -3.955322265625 -0.0007348358631134033 0.0009142458438873291 0.055393218994140625 -0.11367034912109375
17.78275 -0.10371780395507812 0.053691864013671875 -2.86181640625 -3.776611328125 -0.0004343390464782715 0.0011693835258483887 0.049160003662109375 -0.11357498168945312
17.7925 -0.09949111938476562 0.061496734619140625 -3.15478515625 -3.58203125 -0.0005443990230560303 0.00087013840675354 0.04454803466796875 -0.11559677124023438
17.80225 -0.09423065185546875 0.06973648071289062 -3.45361328125 -3.358642578125 5.97834587097168e-05 0.0016115307807922363 0.0390472412109375 -0.1170806884765625
17.812 -0.09042739868164062 0.077056884765625 -3.733642578125 -3.087646484375 0.0003902316093444824 0.0002980828285217285 0.03025054931640625 -0.1164703369140625
17.82175 -0.08481979370117188 0.08539581298828125 -3.98779296875 -2.781982421875 -0.0001334846019744873 0.0009318292140960693 0.02710723876953125 -0.1152801513671875
17.8315 -0.08008956909179688 0.0926361083984375 -4.20068359375 -2.443603515625 -0.00012268126010894775 0.000207461416721344 0.01935577392578125 -0.1147003173828125
17.84125 -0.074554443359375 0.09771728515625 -4.376953125 -2.09912109375 -0.0005990862846374512 6.943941116333008e-05 0.0125579833984375 -0.11171722412109375
17.851 -0.06985092163085938 0.10689544677734375 -4.496826171875 -1.74072265625 0.0007607936859130859 0.0009468197822570801 0.008209228515625 -0.11221694946289062
17.86075 -0.06392669677734375 0.11107635498046875 -4.604736328125 -1.409912109375 0.0008454322814941406 0.0017538070678710938 0.00078582763671875 -0.10835647583007812
17.8705 -0.05661773681640625 0.11635208129882812 -4.689453125 -1.07080078125 -8.26120376586914e-05 0.0030188560485839844 -0.00379180908203125 -0.10701751708984375
17.88025 -0.050937652587890625 0.12235260009765625 -4.768310546875 -0.730224609375 2.47955322265625e-05 0.001368105411529541 -0.010467529296875 -0.10692596435546875
17.89 -0.04367828369140625 0.1280059814453125 -4.83544921875 -0.384521484375 0.0005421042442321777 0.0009840726852416992 -0.014453887939453125 -0.10303497314453125
17.89975 -0.03781890869140625 0.13179779052734375 -4.884033203125 -0.0048828125 0.0012298226356506348 -0.0006169676780700684 -0.01934814453125 -0.09997177124023438
17.9095 -0.03209686279296875 0.135650634765625 -4.9033203125 0.38818359375 -0.00033527612686157227 0.0010200142860412598 -0.025726318359375 -0.09851837158203125
17.91925 -0.02223968505859375 0.13721466064453125 -4.868896484375 0.78955078125 0.0014477968215942383 -7.081031799316406e-05 -0.02964019775390625 -0.095306396484375
17.929 -0.0145111083984375 0.1406707763671875 -4.80029296875 1.1845703125 0.0006000995635986328 0.0005483627319335938 -0.0352935791015625 -0.0931549072265625
17.93875 -0.00714111328125 0.14363861083984375 -4.679931640625 1.569580078125 -0.0005312561988830566 0.001422882080078125 -0.0396575927734375 -0.08811187744140625
17.9485 0.00101470947265625 0.1454620361328125 -4.52978515625 1.918701171875 0.0004546642303466797 0.0006313323974609375 -0.04441070556640625 -0.08341217041015625
17.95825 0.00742340087890625 0.147918701171875 -4.365234375 2.254638671875 0.0006532669067382812 0.0010606646537780762 -0.044338226318359375 -0.08058929443359375
17.968 0.01532745361328125 0.1477203369140625 -4.187255859375 2.5703125 0.000853121280670166 0.0003185868263244629 -0.05126190185546875 -0.077850341796875
17.97775 0.02393341064453125 0.146820068359375 -3.990478515625 2.8740234375 0.0018399953842163086 0.00039386749267578125 -0.0532684326171875 -0.07048797607421875
17.9875 0.0321044921875 0.14887237548828125 -3.7779541015625 3.1876220703125 0.001548469066619873 0.00014764070510864258 -0.05591583251953125 -0.06599044799804688
17.99725 0.04216766357421875 0.14841461181640625 -3.5477294921875 3.49609375 0.0017107725143432617 0.0015865564346313477 -0.06047821044921875 -0.060886383056640625
18.007 0.0496368408203125 0.14778900146484375 -3.27001953125 3.78759765625 0.0012036561965942383 0.002051115036010742 -0.06274795532226562 -0.0554351806640625
18.01675 0.05876922607421875 0.14687347412109375 -2.9580078125 4.05712890625 0.0012340545654296875 0.00044995546340942383 -0.06573486328125 -0.04941558837890625
18.0265 0.066650390625 0.145050048828125 -2.61279296875 4.2998046875 0.0001443028450012207 0.0007259249687194824 -0.06940460205078125 -0.044708251953125
18.03625 0.07314300537109375 0.1444091796875 -2.2412109375 4.49267578125 0.0006952285766601562 0.0005123019218444824 -0.07143783569335938 -0.03823089599609375
18.046 0.08094024658203125 0.14211273193359375 -1.854736328125 4.646484375 0.00047579407691955566 0.000257641077041626 -0.0712432861328125 -0.032917022705078125
18.05575 0.08827972412109375 0.1381072998046875 -1.4853515625 4.760009765625 0.001368701457977295 0.0003033876419067383 -0.07253646850585938 -0.027294158935546875
18.0655 0.0950164794921875 0.13697052001953125 -1.115966796875 4.83837890625 0.00048035383224487305 0.00028702616691589355 -0.07518768310546875 -0.02262115478515625
18.07525 0.10149383544921875 0.13251495361328125 -0.7421875 4.90234375 0.0015916228294372559 -0.00029098987579345703 -0.07520675659179688 -0.015377044677734375
18.085 0.1094970703125 0.1286773681640625 -0.362548828125 4.9501953125 0.000607907772064209 0.0008510947227478027 -0.07765579223632812 -0.00995635986328125
18.09475 0.11510467529296875 0.12420654296875 0.02001953125 4.973876953125 0.0006097555160522461 -0.0006102919578552246 -0.07260513305664062 -0.00513458251953125
18.1045 0.12146759033203125 0.12021636962890625 0.40966796875 4.969482421875 -0.00012074410915374756 -0.0003170520067214966 -0.074676513671875 0.0016021728515625
18.11425 0.1286773681640625 0.1167449951171875 0.81396484375 4.9228515625 0.0011063814163208008 0.00022262334823608398 -0.07207107543945312 0.00543212890625
18.124 0.13226318359375 0.11053466796875 1.20947265625 4.833984375 0.0009545087814331055 -0.0006511211395263672 -0.07083892822265625 0.01351165771484375
18.13375 0.13836669921875 0.1054534912109375 1.59033203125 4.71728515625 0.0005544424057006836 -0.0004127323627471924 -0.06991195678710938 0.018123626708984375
18.1435 0.1434783935546875 0.09922027587890625 1.954345703125 4.558837890625 0.0008208751678466797 0.0011057257652282715 -0.068023681640625 0.02593994140625
18.15325 0.1473846435546875 0.09261322021484375 2.310546875 4.377685546875 7.128715515136719e-05 0.0005851686000823975 -0.06719207763671875 0.031856536865234375
18.163 0.15406036376953125 0.08675384521484375 2.628173828125 4.1669921875 0.00016282498836517334 8.365511894226074e-05 -0.06299972534179688 0.03790283203125
18.17275 0.15740203857421875 0.08139801025390625 2.93701171875 3.94091796875 0.0017637014389038086 0.0008255243301391602 -0.05781364440917969 0.043155670166015625
18.1825 0.162628173828125 0.07501983642578125 3.2275390625 3.703857421875 -0.00023916363716125488 -0.00046500563621520996 -0.05529022216796875 0.049839019775390625
18.19225 0.16429901123046875 0.0675201416015625 3.515380859375 3.443359375 0.0007779300212860107 -0.0006402730941772461 -0.051136016845703125 0.05420875549316406
18.202 0.1696929931640625 0.060211181640625 3.76416015625 3.158203125 0.000512540340423584 0.00010442733764648438 -0.04726409912109375 0.05963134765625
18.21175 0.1715087890625 0.05389404296875 4.0048828125 2.83740234375 0.0006467700004577637 -0.0002320408821105957 -0.042510986328125 0.0660552978515625
18.2215 0.17633056640625 0.04752349853515625 4.20556640625 2.50048828125 0.000561833381652832 -0.0009111464023590088 -0.03768157958984375 0.06681060791015625
18.23125 0.17757415771484375 0.03971099853515625 4.37158203125 2.15673828125 7.243826985359192e-05 -1.705065369606018e-05 -0.03363800048828125 0.06943511962890625
18.241 0.17977142333984375 0.033416748046875 4.5078125 1.802001953125 0.000500798225402832 -0.0011319518089294434 -0.02797698974609375 0.0749053955078125
18.25075 0.1809539794921875 0.02542877197265625 4.61572265625 1.44873046875 -0.00015631318092346191 -0.0007139742374420166 -0.022052764892578125 0.07800674438476562
18.2605 0.18264007568359375 0.019317626953125 4.69140625 1.09130859375 0.0002897679805755615 -0.0004642605781555176 -0.016529083251953125 0.07979202270507812
18.27025 0.18239593505859375 0.0109100341796875 4.757080078125 0.732666015625 -0.0002256631851196289 -8.006393909454346e-05 -0.00925445556640625 0.08264923095703125
18.28 0.1838531494140625 0.0020751953125 4.802978515625 0.360107421875 -0.0001529902219772339 0.00036773085594177246 -0.002349853515625 0.08449935913085938
18.28975 0.18413543701171875 -0.00588226318359375 4.810302734375 -0.009033203125 -0.0006140768527984619 0.0007786452770233154 0.0059356689453125 0.0861053466796875
18.2995 0.1836395263671875 -0.01319122314453125 4.78662109375 -0.388671875 0.0011469721794128418 -0.0007298588752746582 0.011379241943359375 0.08417892456054688
18.30925 0.1823272705078125 -0.022003173828125 4.72705078125 -0.771484375 0.0011203289031982422 0.0001558065414428711 0.0207061767578125 0.0862579345703125
18.319 0.1804351806640625 -0.02927398681640625 4.630126953125 -1.131103515625 -0.00022995471954345703 -0.0009734630584716797 0.026462554931640625 0.0865325927734375
18.32875 0.1805267333984375 -0.033447265625 4.511474609375 -1.47900390625 -9.402632713317871e-05 0.0002391412854194641 0.034305572509765625 0.08616256713867188
18.3385 0.1789398193359375 -0.04447174072265625 4.3564453125 -1.803466796875 0.00018905848264694214 -8.019804954528809e-05 0.04221343994140625 0.08583831787109375
18.34825 0.1768035888671875 -0.05175018310546875 4.206787109375 -2.123291015625 0.0015025734901428223 -0.0002942681312561035 0.04663848876953125 0.08501434326171875
18.358 0.17472076416015625 -0.05872344970703125 4.034912109375 -2.424560546875 -0.0006183087825775146 0.00048220157623291016 0.05670166015625 0.081268310546875
18.36775 0.17284393310546875 -0.0654296875 3.8304443359375 -2.7286376953125 0.001085817813873291 -0.00047022104263305664 0.06166839599609375 0.07958984375
18.3775 0.1689453125 -0.07192230224609375 3.6202392578125 -3.0174560546875 -0.00017967820167541504 0.0005497336387634277 0.06700897216796875 0.07654571533203125
18.38725 0.16533660888671875 -0.079132080078125 3.3634033203125 -3.2974853515625 -0.0007635951042175293 -0.0006719231605529785 0.074859619140625 0.0742950439453125
18.397 0.1619720458984375 -0.085540771484375 3.0732421875 -3.547119140625 -2.4497509002685547e-05 -0.0007063746452331543 0.0786895751953125 0.0693511962890625
18.40675 0.15753173828125 -0.0916290283203125 2.764404296875 -3.779052734375 0.0007535219192504883 -0.00012856721878051758 0.085205078125 0.0638275146484375
18.4165 0.15250396728515625 -0.09838104248046875 2.438232421875 -3.9493408203125 -0.00015872716903686523 0.0005844533443450928 0.09095001220703125 0.0587615966796875
18.42625 0.14908599853515625 -0.1058502197265625 2.1103515625 -4.0927734375 -0.00014665722846984863 -0.000568002462387085 0.09581756591796875 0.052734375
18.436 0.14293670654296875 -0.1092681884765625 1.790771484375 -4.202392578125 0.0004133880138397217 9.40859317779541e-05 0.102752685546875 0.04720306396484375
18.44575 0.13680267333984375 -0.1138458251953125 1.471923828125 -4.30078125 0.0004594773054122925 -5.035102367401123e-05 0.10323333740234375 0.03945159912109375
18.4555 0.1307830810546875 -0.11998748779296875 1.150634765625 -4.38232421875 0.0012221336364746094 0.00034427642822265625 0.10799407958984375 0.0338897705078125
18.46525 0.12664794921875 -0.12532806396484375 0.82421875 -4.46435546875 0.0016805529594421387 -0.0005565285682678223 0.1103363037109375 0.024932861328125
18.475 0.1185760498046875 -0.1307525634765625 0.482666015625 -4.521728515625 -0.000591576099395752 -0.0007940530776977539 0.1157379150390625 0.01784515380859375
18.48475 0.11450958251953125 -0.13521575927734375 0.11962890625 -4.535888671875 4.9233436584472656e-05 -0.0009150505065917969 0.11571502685546875 0.01044464111328125
18.4945 0.10674285888671875 -0.13924407958984375 -0.250732421875 -4.5244140625 0.0009161829948425293 0.0003666877746582031 0.11645126342773438 0.001605987548828125
18.50425 0.100372314453125 -0.14263916015625 -0.61962890625 -4.4619140625 0.0008410811424255371 -0.0002887248992919922 0.1173553466796875 -0.00586700439453125
18.514 0.0942840576171875 -0.146026611328125 -0.96728515625 -4.361328125 -0.00037801265716552734 -0.00043278932571411133 0.117889404296875 -0.01340484619140625
18.52375 0.0867919921875 -0.14771270751953125 -1.2880859375 -4.220947265625 -0.0005429983139038086 -0.0005676746368408203 0.11603546142578125 -0.021404266357421875
18.5335 0.08153533935546875 -0.15357208251953125 -1.57958984375 -4.074462890625 -1.1771917343139648e-05 -0.0004935264587402344 0.11809158325195312 -0.028064727783203125
18.54325 0.07598114013671875 -0.15633392333984375 -1.844482421875 -3.917724609375 -0.001107335090637207 -0.0018230676651000977 0.11412429809570312 -0.036102294921875
18.553 0.06744384765625 -0.15833282470703125 -2.103271484375 -3.75 3.224611282348633e-05 -0.00012576580047607422 0.1098785400390625 -0.041126251220703125
18.56275 0.06021881103515625 -0.15860748291015625 -2.357177734375 -3.583740234375 0.00036519765853881836 0.0007812976837158203 0.10648727416992188 -0.046688079833984375
18.5725 0.05359649658203125 -0.16015625 -2.60400390625 -3.39501953125 0.0004359930753707886 -4.054605960845947e-05 0.1029205322265625 -0.055339813232421875
18.58225 0.04595947265625 -0.1617431640625 -2.84423828125 -3.184326171875 -0.00010180473327636719 -3.9204955101013184e-05 0.099365234375 -0.062957763671875
18.592 0.0387420654296875 -0.163330078125 -3.079345703125 -2.945068359375 0.00010445713996887207 -0.0001239180564880371 0.09234619140625 -0.067901611328125
18.60175 0.031646728515625 -0.16131591796875 -3.28369140625 -2.68310546875 -0.0004024505615234375 -0.0006680488586425781 0.0878753662109375 -0.07111358642578125
18.6115 0.0254669189453125 -0.16236114501953125 -3.449951171875 -2.39990234375 -0.00017851591110229492 -0.0010957717895507812 0.08314895629882812 -0.07772445678710938
18.62125 0.01763916015625 -0.16272735595703125 -3.581787109375 -2.112060546875 -0.0007373988628387451 0.0006485879421234131 0.07617950439453125 -0.08147811889648438
18.631 0.00872802734375 -0.16173553466796875 -3.6826171875 -1.84130859375 0.0005050003528594971 -0.0005404949188232422 0.0713043212890625 -0.08463668823242188
18.64075 0.00139617919921875 -0.1620635986328125 -3.766357421875 -1.56494140625 0.00021191686391830444 -8.305907249450684e-05 0.06548690795898438 -0.0877685546875
18.6505 -0.00359344482421875 -0.16089630126953125 -3.84326171875 -1.29931640625 0.00021386146545410156 -0.0016621947288513184 0.0590362548828125 -0.0900421142578125
18.66025 -0.01265716552734375 -0.1590118408203125 -3.90771484375 -1.034912109375 0.0006974935531616211 -0.00030472874641418457 0.05255126953125 -0.09079742431640625
18.67 -0.0183258056640625 -0.156463623046875 -3.96435546875 -0.7587890625 -0.00038129091262817383 -0.00044104456901550293 0.04827117919921875 -0.09186935424804688
18.67975 -0.0276031494140625 -0.15444183349609375 -4.00732421875 -0.472900390625 -6.51925802230835e-05 0.0004834085702896118 0.039676666259765625 -0.0943145751953125
18.6895 -0.0342559814453125 -0.15181732177734375 -4.020751953125 -0.171630859375 0.0007736384868621826 -0.0008863508701324463 0.034122467041015625 -0.09251785278320312
