!Created with skrf (http://scikit-rf.org).
# GHz S RI R 50.0 
!freq ReS11 ImS11 ReS21 ImS21 ReS12 ImS12 ReS22 ImS22
17.5 0.01806640625 -0.14638519287109375 1.38720703125 4.501220703125 -0.0009857416152954102 0.0008775591850280762 0.09913253784179688 0.0138702392578125
17.50975 0.0086669921875 -0.143646240234375 1.750244140625 4.364990234375 -0.0025751590728759766 0.0011745691299438477 0.10324859619140625 0.01212310791015625
17.5195 0.000335693359375 -0.14007568359375 2.090087890625 4.193115234375 -0.0019283294677734375 0.001087784767150879 0.10767745971679688 0.010242462158203125
17.52925 -0.00952911376953125 -0.13726043701171875 2.418212890625 4.00927734375 -0.0019540786743164062 0.0007491111755371094 0.11167144775390625 0.00518798828125
17.539 -0.014923095703125 -0.1324005126953125 2.716796875 3.7958984375 -0.0018137693405151367 0.0015709400177001953 0.1139068603515625 0.0017242431640625
17.54875 -0.024017333984375 -0.12944793701171875 2.987060546875 3.562744140625 -0.0013598203659057617 -0.0004096031188964844 0.11473464965820312 -0.002185821533203125
17.5585 -0.03421783447265625 -0.12518310546875 3.25439453125 3.322998046875 -0.0004413723945617676 0.0010250210762023926 0.12010574340820312 -0.0063018798828125
17.56825 -0.0400543212890625 -0.1215667724609375 3.497314453125 3.07666015625 -0.0010399222373962402 0.0008841753005981445 0.1215972900390625 -0.010967254638671875
17.578 -0.047698974609375 -0.11647796630859375 3.73876953125 2.79248046875 -0.0008549690246582031 0.00012165307998657227 0.121734619140625 -0.014293670654296875
17.58775 -0.0549163818359375 -0.11190032958984375 3.9619140625 2.481689453125 -0.0009075403213500977 0.001357734203338623 0.12345123291015625 -0.0199432373046875
17.5975 -0.05853271484375 -0.10515594482421875 4.15625 2.140380859375 -0.0007461905479431152 0.0018121600151062012 0.12456512451171875 -0.02512359619140625
17.60725 -0.06601715087890625 -0.1010589599609375 4.302734375 1.783935546875 -0.0007635951042175293 0.0015193819999694824 0.124755859375 -0.03014373779296875
17.617 -0.07209014892578125 -0.09339141845703125 4.408447265625 1.41650390625 -0.0011832118034362793 0.0005086064338684082 0.12469482421875 -0.03534698486328125
17.62675 -0.07791900634765625 -0.08666229248046875 4.467529296875 1.04931640625 -0.0004916191101074219 0.0003217458724975586 0.12622833251953125 -0.03974151611328125
17.6365 -0.0821380615234375 -0.07989501953125 4.5 0.70068359375 -0.0001251697540283203 0.0007660984992980957 0.12479400634765625 -0.0476531982421875
17.64625 -0.08551788330078125 -0.07149505615234375 4.5009765625 0.373046875 -2.0444393157958984e-05 0.0011910796165466309 0.12406158447265625 -0.050811767578125
17.656 -0.090087890625 -0.0652618408203125 4.49853515625 0.05810546875 -0.0004564523696899414 0.0010479092597961426 0.11948394775390625 -0.058002471923828125
17.66575 -0.092559814453125 -0.05554962158203125 4.498046875 -0.2509765625 -0.00025784969329833984 0.001522064208984375 0.1194305419921875 -0.06390762329101562
17.6755 -0.09508514404296875 -0.04906463623046875 4.481689453125 -0.568603515625 -0.0010460615158081055 0.0002905130386352539 0.11529159545898438 -0.0679779052734375
17.68525 -0.0993804931640625 -0.04077911376953125 4.463134765625 -0.901123046875 -0.0008158087730407715 0.0013030767440795898 0.11229705810546875 -0.0738525390625
17.695 -0.1022186279296875 -0.03180694580078125 4.415283203125 -1.26025390625 -0.0007418990135192871 0.0016935467720031738 0.11090087890625 -0.08028030395507812
17.70475 -0.10326385498046875 -0.02256011962890625 4.31396484375 -1.633056640625 -0.0007791519165039062 0.0013253092765808105 0.1060791015625 -0.08356094360351562
17.7145 -0.105255126953125 -0.015277862548828125 4.171142578125 -2.005126953125 -0.001087963581085205 0.0013779401779174805 0.10189056396484375 -0.08931732177734375
17.72425 -0.10712432861328125 -0.007526397705078125 3.9661865234375 -2.3477783203125 0.0001946091651916504 0.0003234446048736572 0.09620285034179688 -0.09430694580078125
17.734 -0.108489990234375 0.0009002685546875 3.7308349609375 -2.6485595703125 3.74913215637207e-05 0.001227259635925293 0.0910491943359375 -0.0969390869140625
17.74375 -0.108978271484375 0.00943756103515625 3.469970703125 -2.897216796875 -0.000819087028503418 0.0014026165008544922 0.08606719970703125 -0.1040191650390625
17.7535 -0.10583114624023438 0.017131805419921875 3.2183837890625 -3.1171875 -0.001505732536315918 0.002060532569885254 0.0822296142578125 -0.10793685913085938
17.76325 -0.10683441162109375 0.027088165283203125 2.97998046875 -3.3114013671875 0.0010541677474975586 0.0008012056350708008 0.07488250732421875 -0.108917236328125
17.773 -0.10557937622070312 0.034114837646484375 2.7459716796875 -3.4962158203125 -0.000914454460144043 0.0010229945182800293 0.07027435302734375 -0.11204147338867188
17.78275 -0.10243606567382812 0.041202545166015625 2.499267578125 -3.67529296875 -0.00033658742904663086 -0.00033092498779296875 0.06487655639648438 -0.11326217651367188
17.7925 -0.100982666015625 0.04904937744140625 2.241943359375 -3.86474609375 -0.000436246395111084 0.0018262267112731934 0.060901641845703125 -0.11620712280273438
17.80225 -0.09746932983398438 0.056430816650390625 1.954345703125 -4.05859375 -0.0009931325912475586 -0.00021159648895263672 0.054691314697265625 -0.11737823486328125
17.812 -0.09542083740234375 0.06485366821289062 1.63330078125 -4.221435546875 0.0003802776336669922 0.0017769336700439453 0.04540252685546875 -0.11988067626953125
17.82175 -0.09032821655273438 0.07182693481445312 1.286865234375 -4.348388671875 0.0003135800361633301 0.0002783238887786865 0.039798736572265625 -0.11960220336914062
17.8315 -0.08560562133789062 0.081085205078125 0.923095703125 -4.438720703125 0.00043892860412597656 0.0013977885246276855 0.032588958740234375 -0.120086669921875
17.84125 -0.0820465087890625 0.0876617431640625 0.5634765625 -4.4794921875 -0.0005658864974975586 0.001720428466796875 0.02642059326171875 -0.1203765869140625
17.851 -0.07724380493164062 0.0958099365234375 0.214111328125 -4.47412109375 0.0009124875068664551 0.0006465911865234375 0.022388458251953125 -0.11917877197265625
17.86075 -0.07291030883789062 0.09989547729492188 -0.109375 -4.454345703125 0.0006859302520751953 0.0019565820693969727 0.013492584228515625 -0.11808395385742188
17.8705 -0.06760406494140625 0.10793685913085938 -0.420166015625 -4.421142578125 0.0017718076705932617 0.001269698143005371 0.006786346435546875 -0.11706924438476562
17.88025 -0.06156158447265625 0.11449813842773438 -0.72900390625 -4.3828125 0.0010423660278320312 0.0009908676147460938 -2.6702880859375e-05 -0.11747360229492188
17.89 -0.054866790771484375 0.11932373046875 -1.03564453125 -4.3427734375 0.0007671117782592773 0.0010697245597839355 -0.005626678466796875 -0.11572647094726562
17.89975 -0.05059814453125 0.12627410888671875 -1.367919921875 -4.26806640625 0.0005505084991455078 0.0014848709106445312 -0.01003265380859375 -0.113739013671875
17.9095 -0.04449462890625 0.129638671875 -1.709716796875 -4.17919921875 -0.0007910728454589844 0.0010583996772766113 -0.01735687255859375 -0.11092376708984375
17.91925 -0.03658294677734375 0.1350250244140625 -2.037841796875 -4.03662109375 0.0008566975593566895 0.0010218024253845215 -0.02202606201171875 -0.10878753662109375
17.929 -0.0296630859375 0.1385955810546875 -2.3623046875 -3.8701171875 0.0019071102142333984 0.0011692047119140625 -0.030120849609375 -0.1053924560546875
17.93875 -0.02191925048828125 0.14139556884765625 -2.661376953125 -3.652587890625 0.0007433891296386719 0.0004494786262512207 -0.0340118408203125 -0.10347747802734375
17.9485 -0.01409912109375 0.14394378662109375 -2.916015625 -3.424072265625 0.00018101930618286133 0.0012667179107666016 -0.039154052734375 -0.09888458251953125
17.95825 -0.0061187744140625 0.14620208740234375 -3.151611328125 -3.182373046875 9.274482727050781e-05 0.0006548464298248291 -0.043548583984375 -0.096160888671875
17.968 0.00186920166015625 0.149444580078125 -3.359130859375 -2.93701171875 -0.0006000399589538574 0.0013524293899536133 -0.048492431640625 -0.09096527099609375
17.97775 0.00939178466796875 0.15184783935546875 -3.552734375 -2.6962890625 -8.279085159301758e-05 0.0010689496994018555 -0.05440521240234375 -0.0841064453125
17.9875 0.01944732666015625 0.15345001220703125 -3.751220703125 -2.442138671875 0.0008640587329864502 -9.113550186157227e-05 -0.05621337890625 -0.08164215087890625
17.99725 0.0278778076171875 0.15381622314453125 -3.947021484375 -2.175048828125 0.0004214048385620117 0.0008364319801330566 -0.0610504150390625 -0.07625579833984375
18.007 0.03525543212890625 0.15456390380859375 -4.130126953125 -1.877197265625 0.0007394552230834961 0.0009573101997375488 -0.067779541015625 -0.06960296630859375
18.01675 0.04604339599609375 0.15431976318359375 -4.284912109375 -1.552001953125 0.0006628632545471191 0.00046378374099731445 -0.0701446533203125 -0.0666961669921875
18.0265 0.05401611328125 0.15325927734375 -4.41015625 -1.20361328125 0.0019387006759643555 -0.00036454200744628906 -0.074798583984375 -0.0589599609375
18.03625 0.061981201171875 0.1554412841796875 -4.4853515625 -0.83935546875 0.0016751289367675781 -0.00039708614349365234 -0.077972412109375 -0.0539703369140625
18.046 0.0703125 0.15297698974609375 -4.52685546875 -0.47021484375 0.0009022951126098633 0.00046825408935546875 -0.0784912109375 -0.046875
18.05575 0.07909393310546875 0.14937591552734375 -4.529296875 -0.12890625 0.0001086890697479248 -0.0003088265657424927 -0.08257293701171875 -0.042102813720703125
18.0655 0.08811187744140625 0.14937591552734375 -4.505859375 0.2060546875 0.0006442368030548096 0.0002307295799255371 -0.08616256713867188 -0.034709930419921875
18.07525 0.09604644775390625 0.1449127197265625 -4.468017578125 0.535400390625 0.0015527606010437012 0.00031054019927978516 -0.08625411987304688 -0.025604248046875
18.085 0.1039886474609375 0.1429443359375 -4.423095703125 0.861572265625 0.0010090470314025879 0.0003998875617980957 -0.08731842041015625 -0.019794464111328125
18.09475 0.111175537109375 0.13885498046875 -4.356689453125 1.188720703125 0.00020945817232131958 -4.3779611587524414e-05 -0.0866851806640625 -0.014980316162109375
18.1045 0.119964599609375 0.133453369140625 -4.2734375 1.51708984375 0.0005386471748352051 0.0001804828643798828 -0.08811187744140625 -0.00702667236328125
18.11425 0.1262359619140625 0.131195068359375 -4.150146484375 1.851318359375 0.0007652640342712402 -0.00018355250358581543 -0.08762359619140625 -0.002674102783203125
18.124 0.13250732421875 0.126220703125 -4.0009765625 2.174072265625 -3.9696693420410156e-05 0.0010793209075927734 -0.08620452880859375 0.00713348388671875
18.13375 0.1403350830078125 0.11981201171875 -3.822265625 2.4775390625 0.0008274614810943604 -0.0008508265018463135 -0.08358383178710938 0.01361083984375
18.1435 0.1459808349609375 0.1134185791015625 -3.612060546875 2.7646484375 0.0014306902885437012 0.0003103017807006836 -0.08391571044921875 0.022678375244140625
18.15325 0.151824951171875 0.1063995361328125 -3.384765625 3.0341796875 0.00029605627059936523 0.0009208917617797852 -0.0815277099609375 0.0277862548828125
18.163 0.15911865234375 0.10113525390625 -3.139892578125 3.2740478515625 0.00039605796337127686 -5.7384371757507324e-05 -0.07772064208984375 0.0355072021484375
18.17275 0.1643218994140625 0.092987060546875 -2.8800048828125 3.5001220703125 0.0016515254974365234 -0.0007365942001342773 -0.07440567016601562 0.04265594482421875
18.1825 0.1699981689453125 0.08587646484375 -2.6136474609375 3.71240234375 0.00042688846588134766 -0.0013282299041748047 -0.0703887939453125 0.051483154296875
18.19225 0.1734771728515625 0.0791168212890625 -2.3272705078125 3.915283203125 -0.0005999207496643066 -0.0012926459312438965 -0.06869125366210938 0.055667877197265625
18.202 0.1796875 0.0719146728515625 -2.02734375 4.0888671875 6.121397018432617e-05 0.0007846355438232422 -0.06424713134765625 0.0628509521484375
18.21175 0.182464599609375 0.063812255859375 -1.6943359375 4.2353515625 0.0006362199783325195 -0.0004652738571166992 -0.058807373046875 0.07036590576171875
18.2215 0.1888427734375 0.05590057373046875 -1.3515625 4.35205078125 0.0010305047035217285 0.0008222460746765137 -0.052715301513671875 0.07285308837890625
18.23125 0.19112396240234375 0.04747772216796875 -1.013916015625 4.436279296875 0.00035005807876586914 -0.0007195472717285156 -0.04755401611328125 0.07834243774414062
18.241 0.1926727294921875 0.03978729248046875 -0.671875 4.4873046875 0.0001074075698852539 -0.0007392764091491699 -0.041660308837890625 0.08554458618164062
18.25075 0.19384765625 0.030792236328125 -0.33544921875 4.515625 -0.00015343725681304932 -0.00020229816436767578 -0.034961700439453125 0.0881805419921875
18.2605 0.19641876220703125 0.0226593017578125 0.001708984375 4.5185546875 -0.00030881166458129883 -0.0006271004676818848 -0.0276641845703125 0.09117507934570312
18.27025 0.19715118408203125 0.0135040283203125 0.336669921875 4.513671875 0.0003542304039001465 -0.00031560659408569336 -0.02039337158203125 0.09564590454101562
18.28 0.1968841552734375 0.0021209716796875 0.688720703125 4.493408203125 -0.00015735626220703125 -0.001134634017944336 -0.01450347900390625 0.09514236450195312
18.28975 0.1999359130859375 -0.0067596435546875 1.030029296875 4.4365234375 -0.00036138296127319336 -0.00021255016326904297 -0.00514984130859375 0.10087966918945312
18.2995 0.1976165771484375 -0.01438140869140625 1.381103515625 4.342529296875 0.0006029605865478516 0.0004032254219055176 0.00341033935546875 0.099456787109375
18.30925 0.196929931640625 -0.023712158203125 1.724609375 4.21533203125 0.0016161203384399414 -0.0012084245681762695 0.01165771484375 0.0998687744140625
18.319 0.1941680908203125 -0.03392791748046875 2.045166015625 4.051025390625 0.0004181712865829468 -0.00026698410511016846 0.020008087158203125 0.10311508178710938
18.32875 0.19055938720703125 -0.03911590576171875 2.34228515625 3.865478515625 0.0009966492652893066 -0.00022411346435546875 0.0287628173828125 0.10207366943359375
18.3385 0.18943023681640625 -0.05045318603515625 2.6083984375 3.6572265625 0.0009233653545379639 -0.0005725622177124023 0.03849029541015625 0.10306549072265625
18.34825 0.18924713134765625 -0.059326171875 2.867919921875 3.455810546875 -0.0004108250141143799 -0.000567018985748291 0.0463409423828125 0.10276031494140625
18.358 0.18605804443359375 -0.0662689208984375 3.114013671875 3.2412109375 -0.0003692507743835449 -0.00037920475006103516 0.054901123046875 0.098724365234375
18.36775 0.180450439453125 -0.0749359130859375 3.360107421875 2.998779296875 0.001054525375366211 -0.0003223419189453125 0.0621490478515625 0.09622955322265625
18.3775 0.1779022216796875 -0.0816802978515625 3.58544921875 2.747314453125 -0.0010280609130859375 -0.000519871711730957 0.0713958740234375 0.09299468994140625
18.38725 0.173583984375 -0.09035491943359375 3.8046875 2.456787109375 -0.0002872347831726074 0.0003946274518966675 0.077178955078125 0.091339111328125
18.397 0.1692352294921875 -0.0971527099609375 3.99072265625 2.138671875 0.0004988908767700195 0.0009583234786987305 0.085784912109375 0.084381103515625
18.40675 0.163726806640625 -0.1035614013671875 4.1494140625 1.798828125 -0.0003300309181213379 -0.0005586743354797363 0.09149169921875 0.0788116455078125
18.4165 0.15875244140625 -0.11026763916015625 4.250732421875 1.45751953125 0.0006638765335083008 -0.0010409355163574219 0.09868621826171875 0.07552337646484375
18.42625 0.151519775390625 -0.1167449951171875 4.311767578125 1.11328125 0.0003024935722351074 8.212029933929443e-05 0.1058349609375 0.06873321533203125
18.436 0.14382171630859375 -0.1222076416015625 4.348876953125 0.787841796875 0.00048013031482696533 -0.0004665255546569824 0.1126708984375 0.0625762939453125
18.44575 0.1378326416015625 -0.12778472900390625 4.372314453125 0.473876953125 0.000655829906463623 -0.000122755765914917 0.11544036865234375 0.05376434326171875
18.4555 0.13115692138671875 -0.13274383544921875 4.3828125 0.162109375 -0.00041274726390838623 0.00013720989227294922 0.1188201904296875 0.04486083984375
18.46525 0.12516021728515625 -0.1382598876953125 4.3974609375 -0.153076171875 -0.00016194581985473633 -0.001076340675354004 0.12503814697265625 0.0358428955078125
18.475 0.1175994873046875 -0.14199066162109375 4.3857421875 -0.4814453125 0.00026741623878479004 -5.1856040954589844e-05 0.12889862060546875 0.027252197265625
18.48475 0.11191558837890625 -0.14673614501953125 4.344970703125 -0.825439453125 2.460181713104248e-05 -0.00046662986278533936 0.12972259521484375 0.01857757568359375
18.4945 0.102630615234375 -0.1486053466796875 4.25927734375 -1.179443359375 0.0004144906997680664 -9.605288505554199e-05 0.13368988037109375 0.0093841552734375
18.50425 0.0943603515625 -0.1538848876953125 4.14208984375 -1.52587890625 -0.0008210539817810059 5.549192428588867e-05 0.1333465576171875 0.0020599365234375
18.514 0.08748626708984375 -0.156951904296875 3.97314453125 -1.8408203125 0.00043955445289611816 -0.0005037486553192139 0.13489532470703125 -0.00818634033203125
18.52375 0.0794830322265625 -0.15776824951171875 3.782958984375 -2.11962890625 0.0008994936943054199 -0.0006074607372283936 0.1328125 -0.01805877685546875
18.5335 0.07305145263671875 -0.1594085693359375 3.5797119140625 -2.3687744140625 0.00037798285484313965 -0.0008265972137451172 0.13336181640625 -0.02732086181640625
18.54325 0.065399169921875 -0.16327667236328125 3.3787841796875 -2.5911865234375 -0.0007176101207733154 -4.45246696472168e-05 0.1311492919921875 -0.035186767578125
18.553 0.0597076416015625 -0.1640625 3.173828125 -2.8033447265625 0.0007077455520629883 -0.00030663609504699707 0.12722015380859375 -0.04186248779296875
18.56275 0.05165863037109375 -0.16375732421875 2.9698486328125 -3.0084228515625 -0.0004023611545562744 -0.00024765729904174805 0.125885009765625 -0.05055999755859375
18.5725 0.0431060791015625 -0.1649169921875 2.7489013671875 -3.2105712890625 -0.0007023811340332031 -0.0002986788749694824 0.11875534057617188 -0.059329986572265625
18.58225 0.0368499755859375 -0.16413116455078125 2.50439453125 -3.407958984375 0.0009160637855529785 0.00046747922897338867 0.115020751953125 -0.06557083129882812
18.592 0.028961181640625 -0.16562652587890625 2.2281494140625 -3.5865478515625 -0.00040847063064575195 -0.000951230525970459 0.110443115234375 -0.07340240478515625
18.60175 0.023101806640625 -0.1645050048828125 1.940185546875 -3.74462890625 0.0009480714797973633 -0.00040024518966674805 0.10347747802734375 -0.0792083740234375
18.6115 0.0148162841796875 -0.161468505859375 1.6341552734375 -3.8533935546875 0.0007535815238952637 -0.0013734698295593262 0.09801483154296875 -0.0860137939453125
18.62125 0.00673675537109375 -0.161590576171875 1.3333740234375 -3.9322509765625 0.0002871304750442505 -0.0003029555082321167 0.09039688110351562 -0.09073257446289062
18.631 -0.00093841552734375 -0.16045379638671875 1.0518798828125 -3.9761962890625 0.0002815425395965576 -0.0007984638214111328 0.08359146118164062 -0.09511184692382812
18.64075 -0.0057373046875 -0.1587982177734375 0.771728515625 -4.006591796875 0.0009331107139587402 0.0006905794143676758 0.0772857666015625 -0.09825515747070312
18.6505 -0.013336181640625 -0.158447265625 0.504638671875 -4.032470703125 0.00024396181106567383 -0.0007253587245941162 0.07000350952148438 -0.1024169921875
18.66025 -0.0208587646484375 -0.1552581787109375 0.242431640625 -4.0537109375 0.00033479928970336914 -0.0011470317840576172 0.06369400024414062 -0.10361480712890625
18.67 -0.02605438232421875 -0.15316009521484375 -0.0341796875 -4.06591796875 0.0004302859306335449 -0.0004435926675796509 0.056301116943359375 -0.1050872802734375
18.67975 -0.03377532958984375 -0.15105438232421875 -0.318359375 -4.06689453125 0.00015535950660705566 -0.0008111298084259033 0.048046112060546875 -0.10715484619140625
18.6895 -0.040069580078125 -0.14765167236328125 -0.61767578125 -4.033203125 0.00013256072998046875 -0.0015850663185119629 0.04050445556640625 -0.10474777221679688
