!Created with skrf (http://scikit-rf.org).
# GHz S RI R 50.0 
!freq ReS11 ImS11 ReS21 ImS21 ReS12 ImS12 ReS22 ImS22
17.5 -0.00255584716796875 -0.14810943603515625 1.915771484375 -4.640869140625 -0.0018709897994995117 0.00010716915130615234 0.10649490356445312 -0.01198577880859375
17.50975 -0.01131439208984375 -0.14359283447265625 1.5537109375 -4.768310546875 -0.0017690062522888184 0.0010690689086914062 0.10725784301757812 -0.013370513916015625
17.5195 -0.0198516845703125 -0.1380157470703125 1.182861328125 -4.859130859375 -0.0011557340621948242 0.0003692507743835449 0.11030960083007812 -0.0149383544921875
17.52925 -0.0289154052734375 -0.1331329345703125 0.8125 -4.94091796875 -0.0005557537078857422 4.9054622650146484e-05 0.11038970947265625 -0.01947021484375
17.539 -0.034454345703125 -0.126434326171875 0.443359375 -4.9775390625 -0.00040838122367858887 0.0002887248992919922 0.10951995849609375 -0.0216522216796875
17.54875 -0.0434722900390625 -0.122711181640625 0.073974609375 -4.989990234375 -0.0006287097930908203 0.00090065598487854 0.11209487915039062 -0.02594757080078125
17.5585 -0.052734375 -0.11779022216796875 -0.293212890625 -4.99267578125 -0.001746833324432373 0.0006200075149536133 0.11200714111328125 -0.03060150146484375
17.56825 -0.0576629638671875 -0.113037109375 -0.649658203125 -4.971923828125 -0.0022194385528564453 0.000554203987121582 0.1129302978515625 -0.034114837646484375
17.578 -0.063873291015625 -0.10431671142578125 -1.035888671875 -4.918701171875 -0.0008528232574462891 0.001374959945678711 0.11161422729492188 -0.038478851318359375
17.58775 -0.0701751708984375 -0.09960174560546875 -1.41845703125 -4.835205078125 -0.0013012886047363281 0.0018300414085388184 0.1105804443359375 -0.0411224365234375
17.5975 -0.073822021484375 -0.09268951416015625 -1.803466796875 -4.708984375 -0.001331627368927002 0.0003523826599121094 0.1109466552734375 -0.046199798583984375
17.60725 -0.079315185546875 -0.08707427978515625 -2.163330078125 -4.54833984375 -0.0011301636695861816 0.0005688071250915527 0.10780715942382812 -0.048793792724609375
17.617 -0.08417510986328125 -0.07694244384765625 -2.497802734375 -4.349365234375 -0.000988006591796875 0.00032061338424682617 0.10760498046875 -0.05324554443359375
17.62675 -0.0891876220703125 -0.0698089599609375 -2.8095703125 -4.13427734375 -0.0007729530334472656 0.000842750072479248 0.10526275634765625 -0.05633544921875
17.6365 -0.0918426513671875 -0.06170654296875 -3.09228515625 -3.89990234375 -0.0003460049629211426 0.00010988116264343262 0.10425567626953125 -0.06099700927734375
17.64625 -0.09563446044921875 -0.05255889892578125 -3.346435546875 -3.666259765625 -0.0015731453895568848 0.0008578896522521973 0.10091781616210938 -0.06449508666992188
17.656 -0.09751129150390625 -0.0463714599609375 -3.589111328125 -3.4287109375 -0.0002912282943725586 0.002561330795288086 0.09707260131835938 -0.06911849975585938
17.66575 -0.0989990234375 -0.0362548828125 -3.836181640625 -3.192626953125 -5.462765693664551e-05 0.00072479248046875 0.09619903564453125 -0.0724029541015625
17.6755 -0.100616455078125 -0.0295867919921875 -4.072509765625 -2.930908203125 -0.00012502074241638184 -0.0003362894058227539 0.09255218505859375 -0.07773208618164062
17.68525 -0.10247802734375 -0.019744873046875 -4.320556640625 -2.657470703125 -0.000979602336883545 0.0011141300201416016 0.08633041381835938 -0.08068084716796875
17.695 -0.10279464721679688 -0.010990142822265625 -4.550537109375 -2.334716796875 -0.0007525086402893066 0.001712203025817871 0.0849761962890625 -0.08282852172851562
17.70475 -0.10260772705078125 -0.0022735595703125 -4.760009765625 -1.9697265625 0.00023496150970458984 0.002026796340942383 0.08028411865234375 -0.08463287353515625
17.7145 -0.10420989990234375 0.005916595458984375 -4.927978515625 -1.5703125 -0.0007075667381286621 0.0010328292846679688 0.0750274658203125 -0.0883331298828125
17.72425 -0.1025543212890625 0.015472412109375 -5.037841796875 -1.161376953125 -0.0005984306335449219 0.000519096851348877 0.07200241088867188 -0.091400146484375
17.734 -0.10318756103515625 0.021697998046875 -5.09814453125 -0.75048828125 -0.0009895563125610352 0.0012935400009155273 0.06803131103515625 -0.09282684326171875
17.74375 -0.1014251708984375 0.02994537353515625 -5.103515625 -0.35986328125 -0.0007455646991729736 0.0008719563484191895 0.062488555908203125 -0.09677886962890625
17.7535 -0.098419189453125 0.03673553466796875 -5.099365234375 0.01220703125 0.00043213367462158203 0.001547396183013916 0.058467864990234375 -0.09758377075195312
17.76325 -0.09551239013671875 0.0458526611328125 -5.0888671875 0.362548828125 3.129243850708008e-06 0.00030997395515441895 0.053180694580078125 -0.09871292114257812
17.773 -0.0936279296875 0.05223846435546875 -5.060791015625 0.7099609375 -0.0003789067268371582 0.0016358494758605957 0.04940032958984375 -0.10053634643554688
17.78275 -0.09099578857421875 0.060150146484375 -5.01806640625 1.06884765625 0.0004856586456298828 0.0012662410736083984 0.043666839599609375 -0.10042572021484375
17.7925 -0.0851287841796875 0.06517410278320312 -4.97021484375 1.4384765625 0.0011537671089172363 0.0005079507827758789 0.0382232666015625 -0.10021591186523438
17.80225 -0.08266448974609375 0.0701751708984375 -4.891845703125 1.83154296875 0.0008662939071655273 0.00037682056427001953 0.03527069091796875 -0.10090255737304688
17.812 -0.0760955810546875 0.07950210571289062 -4.77197265625 2.22802734375 0.0004731416702270508 0.0008916854858398438 0.02801513671875 -0.10041427612304688
17.82175 -0.0716552734375 0.08489227294921875 -4.603759765625 2.6181640625 -0.00023469328880310059 0.0006328225135803223 0.025173187255859375 -0.0995330810546875
17.8315 -0.06690216064453125 0.09119415283203125 -4.389892578125 2.991455078125 -0.0012565851211547852 0.0012101531028747559 0.019016265869140625 -0.09961700439453125
17.84125 -0.06177520751953125 0.09615325927734375 -4.150390625 3.330078125 0.000888824462890625 0.0014798641204833984 0.01470184326171875 -0.0975799560546875
17.851 -0.054821014404296875 0.10354995727539062 -3.8660888671875 3.6336669921875 0.0004012584686279297 0.0006082057952880859 0.011180877685546875 -0.097808837890625
17.86075 -0.050159454345703125 0.10615921020507812 -3.5926513671875 3.9129638671875 -0.00048738718032836914 0.0009059011936187744 0.00418853759765625 -0.09511566162109375
17.8705 -0.045379638671875 0.11084747314453125 -3.299560546875 4.174072265625 -0.00029730796813964844 0.0011376738548278809 0.00135040283203125 -0.09407806396484375
17.88025 -0.037933349609375 0.11474990844726562 -3.0 4.4267578125 0.0003623366355895996 0.00043466687202453613 -0.005130767822265625 -0.0933074951171875
17.89 -0.03183746337890625 0.12023162841796875 -2.689697265625 4.66650390625 0.0004087388515472412 -0.00020609796047210693 -0.009021759033203125 -0.09085845947265625
17.89975 -0.025730133056640625 0.12252426147460938 -2.332275390625 4.89697265625 0.0004048943519592285 0.0008077025413513184 -0.0120849609375 -0.08848953247070312
17.9095 -0.02034759521484375 0.12479400634765625 -1.958984375 5.110595703125 1.3470649719238281e-05 0.0004219561815261841 -0.01723480224609375 -0.08682632446289062
17.91925 -0.0124359130859375 0.12773895263671875 -1.551025390625 5.276611328125 0.0008221268653869629 0.00024110078811645508 -0.019634246826171875 -0.08366012573242188
17.929 -0.006683349609375 0.129425048828125 -1.12939453125 5.41455078125 0.0015671253204345703 0.0015306472778320312 -0.02447509765625 -0.080963134765625
17.93875 5.340576171875e-05 0.1316986083984375 -0.689697265625 5.4970703125 0.0012306571006774902 0.000321805477142334 -0.027256011962890625 -0.0773162841796875
17.9485 0.00572967529296875 0.13045501708984375 -0.261962890625 5.54248046875 0.0005327463150024414 0.00039005279541015625 -0.03035736083984375 -0.07398605346679688
17.95825 0.01407623291015625 0.13233184814453125 0.1728515625 5.555908203125 0.0012308955192565918 -0.00034117698669433594 -0.03192901611328125 -0.07054901123046875
17.968 0.0192413330078125 0.1342926025390625 0.59326171875 5.543701171875 0.0008437633514404297 0.0004379749298095703 -0.036228179931640625 -0.06977462768554688
17.97775 0.02691650390625 0.13295745849609375 1.013671875 5.5009765625 0.001529097557067871 0.0007340908050537109 -0.04053497314453125 -0.06320571899414062
17.9875 0.035736083984375 0.13336944580078125 1.452392578125 5.436279296875 -0.0005150437355041504 0.0009906291961669922 -0.04034423828125 -0.060695648193359375
17.99725 0.041717529296875 0.13292694091796875 1.8896484375 5.347900390625 0.0005443692207336426 0.0009734630584716797 -0.04465484619140625 -0.056774139404296875
18.007 0.04813385009765625 0.1319122314453125 2.334716796875 5.21435546875 0.000545799732208252 0.00034949183464050293 -0.048152923583984375 -0.052654266357421875
18.01675 0.05548858642578125 0.1309814453125 2.7626953125 5.02783203125 0.001752614974975586 0.001145482063293457 -0.049182891845703125 -0.048419952392578125
18.0265 0.0611572265625 0.12939453125 3.18994140625 4.79931640625 0.0006765127182006836 0.0002612471580505371 -0.05278778076171875 -0.04390716552734375
18.03625 0.06894683837890625 0.12993621826171875 3.5859375 4.52783203125 0.0012433528900146484 0.0011752843856811523 -0.0535888671875 -0.0392303466796875
18.046 0.07364654541015625 0.128021240234375 3.9541015625 4.21533203125 0.0022014379501342773 0.0011048316955566406 -0.054290771484375 -0.03443145751953125
18.05575 0.080291748046875 0.12358856201171875 4.27490234375 3.89013671875 0.0009278655052185059 0.0003636479377746582 -0.057895660400390625 -0.03033447265625
18.0655 0.084747314453125 0.12310028076171875 4.56298828125 3.53857421875 0.0003719627857208252 0.00010469555854797363 -0.058277130126953125 -0.025218963623046875
18.07525 0.0931549072265625 0.1197357177734375 4.8330078125 3.16796875 0.0015211701393127441 -0.00026023387908935547 -0.05910491943359375 -0.0216522216796875
18.085 0.0976409912109375 0.11733245849609375 5.08349609375 2.77880859375 0.00027507543563842773 -0.0011568069458007812 -0.0607147216796875 -0.0167694091796875
18.09475 0.10340118408203125 0.11412811279296875 5.309814453125 2.37158203125 0.0004845857620239258 0.000735938549041748 -0.059352874755859375 -0.01214599609375
18.1045 0.1083984375 0.11041259765625 5.50830078125 1.941650390625 0.0003973245620727539 -0.0002595484256744385 -0.060352325439453125 -0.007762908935546875
18.11425 0.113006591796875 0.107940673828125 5.65625 1.47216796875 6.51627779006958e-05 -0.00015778839588165283 -0.059619903564453125 -0.0047760009765625
18.124 0.11767578125 0.1042633056640625 5.767578125 0.9990234375 0.0001366734504699707 0.0006927251815795898 -0.059906005859375 0.001983642578125
18.13375 0.1233978271484375 0.1004180908203125 5.8251953125 0.523681640625 0.0003418922424316406 0.0002849400043487549 -0.056331634521484375 0.008604049682617188
18.1435 0.12729644775390625 0.09515380859375 5.844482421875 0.045166015625 0.00018966197967529297 0.000626981258392334 -0.05739784240722656 0.014007568359375
18.15325 0.133453369140625 0.0890350341796875 5.819091796875 -0.43603515625 -0.00025731325149536133 -0.00045689940452575684 -0.05806541442871094 0.018291473388671875
18.163 0.1376953125 0.0855560302734375 5.76123046875 -0.898681640625 0.0010500550270080566 -0.0001971125602722168 -0.05377006530761719 0.023866653442382812
18.17275 0.14136505126953125 0.0806732177734375 5.661376953125 -1.35302734375 0.000541985034942627 0.000751197338104248 -0.05059623718261719 0.026338577270507812
18.1825 0.1478729248046875 0.0754852294921875 5.54296875 -1.8037109375 0.0003254711627960205 0.0002938508987426758 -0.049526214599609375 0.03363800048828125
18.19225 0.149078369140625 0.07021331787109375 5.38232421875 -2.253662109375 0.0011454224586486816 -0.0015867948532104492 -0.046680450439453125 0.038036346435546875
18.202 0.154388427734375 0.0669097900390625 5.18798828125 -2.67919921875 0.00034242868423461914 -0.000629723072052002 -0.04409027099609375 0.043521881103515625
18.21175 0.1594390869140625 0.060394287109375 4.947265625 -3.10546875 0.0003705918788909912 -0.00017777085304260254 -0.0404510498046875 0.046604156494140625
18.2215 0.16275787353515625 0.05408477783203125 4.658447265625 -3.501708984375 0.0017015337944030762 -0.0006990432739257812 -0.03673553466796875 0.049373626708984375
18.23125 0.16542816162109375 0.04833984375 4.341796875 -3.857666015625 0.0004401206970214844 0.0003909468650817871 -0.03466606140136719 0.05216407775878906
18.241 0.16849517822265625 0.04175567626953125 4.0 -4.181640625 0.0006235241889953613 -0.0004570186138153076 -0.03094482421875 0.058048248291015625
18.25075 0.1705322265625 0.03603363037109375 3.634765625 -4.46533203125 0.0008384585380554199 -0.001025378704071045 -0.026447296142578125 0.06095314025878906
18.2605 0.1722564697265625 0.0286712646484375 3.257568359375 -4.71630859375 -0.00033536553382873535 0.0004979074001312256 -0.0207366943359375 0.06290435791015625
18.27025 0.174468994140625 0.02298736572265625 2.8720703125 -4.946533203125 -0.0008523166179656982 0.00015741586685180664 -0.01532745361328125 0.06730270385742188
18.28 0.17700958251953125 0.014892578125 2.46728515625 -5.1650390625 0.0004856586456298828 3.355741500854492e-05 -0.010234832763671875 0.06703567504882812
18.28975 0.179229736328125 0.0071868896484375 2.05517578125 -5.34130859375 0.0009794235229492188 -0.0002301335334777832 -0.005252838134765625 0.07085418701171875
18.2995 0.1785888671875 0.00074005126953125 1.612548828125 -5.490478515625 0.00029349327087402344 -0.00023330748081207275 0.0024261474609375 0.069244384765625
18.30925 0.1792449951171875 -0.0069580078125 1.15234375 -5.58544921875 -0.00045013427734375 -0.00017750263214111328 0.00714874267578125 0.072906494140625
18.319 0.1786651611328125 -0.01451873779296875 0.689208984375 -5.646240234375 0.00026729702949523926 0.0003307759761810303 0.012786865234375 0.07445526123046875
18.32875 0.1792144775390625 -0.0208587646484375 0.2275390625 -5.650390625 0.00023777782917022705 0.00023245811462402344 0.020534515380859375 0.07596588134765625
18.3385 0.1780242919921875 -0.02941131591796875 -0.219482421875 -5.62060546875 -0.00031882524490356445 -0.0010322928428649902 0.027923583984375 0.07623291015625
18.34825 0.17914581298828125 -0.03870391845703125 -0.65625 -5.571044921875 -0.00041472911834716797 -0.0018142461776733398 0.0333709716796875 0.0753021240234375
18.358 0.177001953125 -0.04402923583984375 -1.08203125 -5.48974609375 1.5050172805786133e-05 -0.000539630651473999 0.039478302001953125 0.07262420654296875
18.36775 0.17598724365234375 -0.05245208740234375 -1.51220703125 -5.369384765625 0.0024148225784301758 0.0001952648162841797 0.04468536376953125 0.07284164428710938
18.3775 0.17429351806640625 -0.0585479736328125 -1.924560546875 -5.239501953125 0.0007602870464324951 -0.0004514455795288086 0.049896240234375 0.07257843017578125
18.38725 0.1719207763671875 -0.06696319580078125 -2.34375 -5.050048828125 3.9011240005493164e-05 -0.0003515183925628662 0.0554351806640625 0.0702667236328125
18.397 0.1695709228515625 -0.073822021484375 -2.740234375 -4.828125 0.0009028315544128418 -4.3451786041259766e-05 0.0613250732421875 0.067413330078125
18.40675 0.167449951171875 -0.0806121826171875 -3.123046875 -4.56201171875 0.00014138221740722656 -0.0011502504348754883 0.0687255859375 0.06256103515625
18.4165 0.16179656982421875 -0.0878143310546875 -3.458984375 -4.271484375 0.0005469024181365967 0.0003193318843841553 0.07205963134765625 0.059783935546875
18.42625 0.1585540771484375 -0.0948486328125 -3.7587890625 -3.950439453125 0.00030834972858428955 -7.018446922302246e-05 0.0771636962890625 0.05701446533203125
18.436 0.1531219482421875 -0.10126495361328125 -4.02685546875 -3.621826171875 0.00060310959815979 0.00012937188148498535 0.08319091796875 0.0516204833984375
18.44575 0.14933013916015625 -0.1100616455078125 -4.266357421875 -3.28369140625 -0.00024020671844482422 -0.000873267650604248 0.086456298828125 0.0465850830078125
18.4555 0.14202880859375 -0.11551666259765625 -4.484619140625 -2.934814453125 -0.00019472837448120117 -0.0007495284080505371 0.0888824462890625 0.04085540771484375
18.46525 0.13906097412109375 -0.12131500244140625 -4.69189453125 -2.582275390625 -0.0008275806903839111 0.0005863010883331299 0.093414306640625 0.03302764892578125
18.475 0.13202667236328125 -0.12725067138671875 -4.875 -2.20947265625 0.0004088878631591797 0.0006860494613647461 0.09859466552734375 0.02709197998046875
18.48475 0.1263885498046875 -0.1334075927734375 -5.0283203125 -1.803955078125 -6.67572021484375e-05 0.00031714141368865967 0.10282516479492188 0.021045684814453125
18.4945 0.11993408203125 -0.13837432861328125 -5.140869140625 -1.37353515625 -0.0003787130117416382 -8.472800254821777e-05 0.103759765625 0.01308441162109375
18.50425 0.11151123046875 -0.14447021484375 -5.21240234375 -0.93359375 0.0010317564010620117 0.00022327899932861328 0.10456085205078125 0.00762176513671875
18.514 0.1072235107421875 -0.1478729248046875 -5.22998046875 -0.49609375 -0.0001640915870666504 0.0003470182418823242 0.1054229736328125 0.000579833984375
18.52375 0.09889984130859375 -0.15082550048828125 -5.190185546875 -0.07373046875 0.00022983551025390625 0.0005874931812286377 0.10581207275390625 -0.005077362060546875
18.5335 0.092987060546875 -0.15584564208984375 -5.126708984375 0.322265625 0.0002968907356262207 0.0008515715599060059 0.1068572998046875 -0.010936737060546875
18.54325 0.0851593017578125 -0.16165924072265625 -5.03271484375 0.6943359375 0.00015166401863098145 -0.0005790293216705322 0.10673904418945312 -0.02057647705078125
18.553 0.0775299072265625 -0.16394805908203125 -4.928955078125 1.053955078125 0.0007689595222473145 -0.0009052157402038574 0.10491180419921875 -0.02535247802734375
18.56275 0.0695343017578125 -0.16526031494140625 -4.818359375 1.4052734375 0.0007999539375305176 -0.0007268786430358887 0.10494232177734375 -0.031185150146484375
18.5725 0.06203460693359375 -0.16851043701171875 -4.6806640625 1.755126953125 0.0009249746799468994 -0.0002830028533935547 0.10076141357421875 -0.037784576416015625
18.58225 0.05306243896484375 -0.1680450439453125 -4.51806640625 2.102783203125 0.00017565488815307617 -0.0013538002967834473 0.09796524047851562 -0.04526519775390625
18.592 0.04503631591796875 -0.17122650146484375 -4.317626953125 2.44580078125 0.00021600723266601562 0.0002708137035369873 0.09424209594726562 -0.0504608154296875
18.60175 0.035858154296875 -0.1704864501953125 -4.087890625 2.767578125 -0.00010651350021362305 -0.0007562041282653809 0.0901641845703125 -0.05423736572265625
18.6115 0.02898406982421875 -0.17197418212890625 -3.81640625 3.0548095703125 2.5331974029541016e-05 -0.001019299030303955 0.08720016479492188 -0.059635162353515625
18.62125 0.020904541015625 -0.1724853515625 -3.5306396484375 3.3077392578125 9.465217590332031e-05 -0.002015829086303711 0.08158111572265625 -0.06493759155273438
18.631 0.011627197265625 -0.17296600341796875 -3.2469482421875 3.514404296875 0.00028526782989501953 -0.001166999340057373 0.07715988159179688 -0.07061004638671875
18.64075 0.002593994140625 -0.17137908935546875 -2.9510498046875 3.702392578125 0.0005036592483520508 -0.002025127410888672 0.070770263671875 -0.07212448120117188
18.6505 -0.00452423095703125 -0.17014312744140625 -2.663330078125 3.8721923828125 0.0003539770841598511 -0.0004762411117553711 0.06776809692382812 -0.07413864135742188
18.66025 -0.0135345458984375 -0.168121337890625 -2.373046875 4.02685546875 0.0005538463592529297 -0.0008227825164794922 0.061077117919921875 -0.07857513427734375
18.67 -0.01955413818359375 -0.16584014892578125 -2.07373046875 4.17431640625 -3.46209853887558e-05 -9.369105100631714e-06 0.058319091796875 -0.0789947509765625
18.67975 -0.03009796142578125 -0.1640625 -1.758056640625 4.3076171875 0.0006864070892333984 -0.0008223354816436768 0.05147552490234375 -0.08149337768554688
18.6895 -0.03617095947265625 -0.16002655029296875 -1.413330078125 4.414794921875 -0.0006580948829650879 -0.0009301900863647461 0.047115325927734375 -0.080902099609375
