!Created with skrf (http://scikit-rf.org).
# GHz S RI R 50.0 
!freq ReS11 ImS11 ReS21 ImS21 ReS12 ImS12 ReS22 ImS22
17.5 0.00208282470703125 -0.14919281005859375 2.428466796875 -3.1180419921875 -0.001106858253479004 0.0009582042694091797 0.105682373046875 -0.006946563720703125
17.50975 -0.0081634521484375 -0.14456939697265625 2.18017578125 -3.295654296875 -3.676861524581909e-05 0.00016307085752487183 0.10824966430664062 -0.0099334716796875
17.5195 -0.01607513427734375 -0.140350341796875 1.918701171875 -3.4422607421875 -0.0016911625862121582 -0.0001519322395324707 0.11189651489257812 -0.0105133056640625
17.52925 -0.023590087890625 -0.1357879638671875 1.6527099609375 -3.580322265625 -0.00024014711380004883 0.0008443593978881836 0.11203384399414062 -0.015796661376953125
17.539 -0.0309295654296875 -0.1288299560546875 1.379638671875 -3.689697265625 -0.000856935977935791 0.00048166513442993164 0.11322021484375 -0.01821136474609375
17.54875 -0.04080963134765625 -0.125732421875 1.10205078125 -3.773193359375 -0.001560509204864502 0.0005912184715270996 0.11376953125 -0.023036956787109375
17.5585 -0.05014801025390625 -0.12001800537109375 0.8218994140625 -3.855224609375 -0.0008180141448974609 0.0017721056938171387 0.11548995971679688 -0.027500152587890625
17.56825 -0.05580902099609375 -0.11307525634765625 0.5445556640625 -3.9212646484375 -0.0009954571723937988 0.0013495683670043945 0.11554718017578125 -0.031208038330078125
17.578 -0.0628662109375 -0.10797119140625 0.2384033203125 -3.9627685546875 -0.0006591081619262695 0.0019366145133972168 0.11673736572265625 -0.035068511962890625
17.58775 -0.06784820556640625 -0.10292816162109375 -0.071044921875 -3.977783203125 -0.00024080276489257812 0.0019397735595703125 0.11430740356445312 -0.039310455322265625
17.5975 -0.07219696044921875 -0.0947113037109375 -0.394775390625 -3.96630859375 -0.0008738040924072266 0.0008543431758880615 0.11426925659179688 -0.043529510498046875
17.60725 -0.0781097412109375 -0.08884429931640625 -0.703857421875 -3.91943359375 -0.00021016597747802734 0.0019458532333374023 0.1122894287109375 -0.046070098876953125
17.617 -0.0833740234375 -0.08115386962890625 -1.002685546875 -3.837158203125 -0.0008961856365203857 0.0008788406848907471 0.11098861694335938 -0.05152130126953125
17.62675 -0.087738037109375 -0.071563720703125 -1.28662109375 -3.732421875 6.252527236938477e-05 0.0006666183471679688 0.11055755615234375 -0.0543212890625
17.6365 -0.0921173095703125 -0.065216064453125 -1.5517578125 -3.6103515625 -0.0007154941558837891 0.0023779869079589844 0.10784912109375 -0.060546875
17.64625 -0.09403228759765625 -0.05640411376953125 -1.795166015625 -3.484130859375 -0.0010054707527160645 0.0018765926361083984 0.10443115234375 -0.06391525268554688
17.656 -0.0978240966796875 -0.04863739013671875 -2.03369140625 -3.35498046875 -0.0007908940315246582 0.0009230077266693115 0.10214614868164062 -0.06674957275390625
17.66575 -0.09885406494140625 -0.0393218994140625 -2.26806640625 -3.225830078125 0.00052642822265625 -0.00036072731018066406 0.09967041015625 -0.0714874267578125
17.6755 -0.10144805908203125 -0.03137969970703125 -2.501708984375 -3.075439453125 0.0001512765884399414 0.002956390380859375 0.09549713134765625 -0.07728958129882812
17.68525 -0.10330963134765625 -0.02320098876953125 -2.74853515625 -2.91796875 -0.0008969306945800781 0.0018284916877746582 0.09156417846679688 -0.08023452758789062
17.695 -0.10449981689453125 -0.0140380859375 -2.996337890625 -2.71533203125 -0.00025156140327453613 0.000809401273727417 0.08872604370117188 -0.08404541015625
17.70475 -0.10499954223632812 -0.00620269775390625 -3.23193359375 -2.47705078125 -0.0010657310485839844 0.001517951488494873 0.08490753173828125 -0.08577728271484375
17.7145 -0.10479354858398438 0.0023956298828125 -3.44482421875 -2.206787109375 -0.00016808509826660156 0.001390218734741211 0.079681396484375 -0.08901214599609375
17.72425 -0.10515594482421875 0.011203765869140625 -3.614501953125 -1.91162109375 -7.474422454833984e-05 0.002480626106262207 0.07533645629882812 -0.09382247924804688
17.734 -0.1044921875 0.0190887451171875 -3.7451171875 -1.60986328125 -0.0009824037551879883 0.0016847848892211914 0.070953369140625 -0.09484100341796875
17.74375 -0.10443496704101562 0.027347564697265625 -3.83056640625 -1.30859375 -0.0001917630434036255 0.00048732757568359375 0.06573486328125 -0.10007858276367188
17.7535 -0.09994888305664062 0.03347015380859375 -3.8984375 -1.023193359375 -0.0013679265975952148 -8.761882781982422e-06 0.06064605712890625 -0.10140609741210938
17.76325 -0.09812164306640625 0.0419464111328125 -3.960205078125 -0.751708984375 -0.0012841224670410156 0.0014395713806152344 0.054607391357421875 -0.10280227661132812
17.773 -0.09702682495117188 0.04930877685546875 -4.00830078125 -0.481201171875 0.0002288818359375 0.001049041748046875 0.050140380859375 -0.10318374633789062
17.78275 -0.09348678588867188 0.056488037109375 -4.05126953125 -0.1953125 -0.0001004636287689209 -0.00017818808555603027 0.046733856201171875 -0.10376739501953125
17.7925 -0.08948898315429688 0.061504364013671875 -4.087890625 0.099609375 -0.0004566460847854614 0.0003879070281982422 0.040317535400390625 -0.10595703125
17.80225 -0.08416748046875 0.07072830200195312 -4.110107421875 0.4208984375 1.0609626770019531e-05 0.00243532657623291 0.03558349609375 -0.10358047485351562
17.812 -0.07988357543945312 0.0764007568359375 -4.087890625 0.751220703125 0.0004267692565917969 0.0006145834922790527 0.029266357421875 -0.10315704345703125
17.82175 -0.07450103759765625 0.08449172973632812 -4.040771484375 1.0830078125 0.00031250715255737305 0.000943601131439209 0.026275634765625 -0.10275650024414062
17.8315 -0.07142257690429688 0.08906936645507812 -3.946044921875 1.415283203125 0.0005998015403747559 0.0006678104400634766 0.0209503173828125 -0.10204696655273438
17.84125 -0.06624603271484375 0.095703125 -3.826904296875 1.723876953125 -1.3589859008789062e-05 0.0004927515983581543 0.01312255859375 -0.10198211669921875
17.851 -0.059299468994140625 0.10455322265625 -3.6651611328125 2.012939453125 0.0003338456153869629 0.0009039044380187988 0.011566162109375 -0.100799560546875
17.86075 -0.055126190185546875 0.10722732543945312 -3.51416015625 2.279052734375 0.0014900565147399902 2.6464462280273438e-05 0.003406524658203125 -0.09888458251953125
17.8705 -0.049015045166015625 0.11231231689453125 -3.339111328125 2.537109375 0.00018328428268432617 0.0007277131080627441 0.002132415771484375 -0.09827041625976562
17.88025 -0.041812896728515625 0.1166534423828125 -3.1568603515625 2.7860107421875 0.0005190372467041016 0.000825047492980957 -0.00510406494140625 -0.09656906127929688
17.89 -0.03607940673828125 0.12127304077148438 -2.9677734375 3.0355224609375 0.0009191036224365234 0.0013254880905151367 -0.008754730224609375 -0.09328842163085938
17.89975 -0.03072357177734375 0.12416839599609375 -2.7388916015625 3.27734375 0.0010027885437011719 0.0006795525550842285 -0.013874053955078125 -0.09327316284179688
17.9095 -0.025634765625 0.127655029296875 -2.4881591796875 3.5172119140625 -0.0010672211647033691 0.0004044175148010254 -0.018463134765625 -0.09125518798828125
17.91925 -0.01683807373046875 0.130340576171875 -2.2052001953125 3.7205810546875 0.00041091442108154297 0.002246856689453125 -0.0216827392578125 -0.08784866333007812
17.929 -0.0101165771484375 0.133209228515625 -1.904052734375 3.911376953125 0.0002893209457397461 0.0006170272827148438 -0.02793121337890625 -0.0848236083984375
17.93875 -0.00453948974609375 0.134613037109375 -1.580322265625 4.055419921875 0.0005401372909545898 0.0010148286819458008 -0.030628204345703125 -0.08097076416015625
17.9485 0.0040740966796875 0.135650634765625 -1.258056640625 4.1708984375 0.00026854872703552246 0.00037217140197753906 -0.03399658203125 -0.0778045654296875
17.95825 0.0106048583984375 0.13686370849609375 -0.9287109375 4.258544921875 -0.0002164393663406372 0.00029759109020233154 -0.034912109375 -0.0738677978515625
17.968 0.01790618896484375 0.13726043701171875 -0.604736328125 4.325927734375 0.0014327168464660645 0.00010627508163452148 -0.040096282958984375 -0.0716400146484375
17.97775 0.025604248046875 0.13703155517578125 -0.276123046875 4.370849609375 0.0010954737663269043 0.0001323223114013672 -0.042652130126953125 -0.06731033325195312
17.9875 0.0343170166015625 0.1373138427734375 0.06640625 4.406982421875 0.0007066130638122559 0.0005066394805908203 -0.04447174072265625 -0.0636749267578125
17.99725 0.04007720947265625 0.13864898681640625 0.4169921875 4.421630859375 0.001093447208404541 -0.00033164024353027344 -0.048980712890625 -0.058689117431640625
18.007 0.047149658203125 0.1368408203125 0.7841796875 4.39990234375 0.0013433098793029785 -0.00011175870895385742 -0.050968170166015625 -0.054859161376953125
18.01675 0.0548248291015625 0.13591766357421875 1.1513671875 4.338134765625 0.00022557377815246582 0.0006259679794311523 -0.054901123046875 -0.05072021484375
18.0265 0.060882568359375 0.1346588134765625 1.52001953125 4.24267578125 0.0006155967712402344 0.0005420446395874023 -0.0582122802734375 -0.04543304443359375
18.03625 0.0684814453125 0.13531494140625 1.8720703125 4.098876953125 0.0008626580238342285 -0.0003338456153869629 -0.058307647705078125 -0.039379119873046875
18.046 0.07503509521484375 0.13237762451171875 2.20849609375 3.923095703125 0.00025391578674316406 0.000444561243057251 -0.05959320068359375 -0.034015655517578125
18.05575 0.081634521484375 0.12914276123046875 2.5107421875 3.730712890625 0.0009976625442504883 0.0005724430084228516 -0.062129974365234375 -0.031826019287109375
18.0655 0.0874786376953125 0.127227783203125 2.792236328125 3.517822265625 0.0017944574356079102 0.0007511377334594727 -0.0641937255859375 -0.0259857177734375
18.07525 0.09476470947265625 0.1238861083984375 3.06103515625 3.283447265625 -0.00016880035400390625 -0.001346290111541748 -0.06449508666992188 -0.021717071533203125
18.085 0.1005401611328125 0.1215972900390625 3.31982421875 3.034423828125 0.0008113980293273926 0.0005261898040771484 -0.06538009643554688 -0.016361236572265625
18.09475 0.105255126953125 0.1186676025390625 3.560791015625 2.764404296875 0.0021643638610839844 -0.0010151863098144531 -0.0623016357421875 -0.0114593505859375
18.1045 0.11244964599609375 0.1134796142578125 3.787109375 2.4755859375 0.0015968084335327148 0.0018030405044555664 -0.06503677368164062 -0.005435943603515625
18.11425 0.11682891845703125 0.1116180419921875 3.98388671875 2.148681640625 0.00087738037109375 0.0001399517059326172 -0.06396865844726562 -0.00193023681640625
18.124 0.12200927734375 0.1073760986328125 4.15234375 1.8095703125 0.0001900792121887207 0.0005374550819396973 -0.0637359619140625 0.00594329833984375
18.13375 0.126129150390625 0.10303497314453125 4.285400390625 1.466796875 0.00011428818106651306 -3.603845834732056e-05 -0.06131172180175781 0.009626388549804688
18.1435 0.13164520263671875 0.09845733642578125 4.381591796875 1.10595703125 0.0011078715324401855 -0.00018858909606933594 -0.06200408935546875 0.016492843627929688
18.15325 0.13738250732421875 0.09239959716796875 4.445068359375 0.740478515625 -0.0007292628288269043 -0.0008168220520019531 -0.0603179931640625 0.02118682861328125
18.163 0.142578125 0.0871124267578125 4.478759765625 0.379638671875 0.00018625706434249878 -3.384053707122803e-05 -0.05780220031738281 0.027099609375
18.17275 0.14681243896484375 0.0821075439453125 4.483642578125 0.020751953125 0.00016987323760986328 -0.0014285445213317871 -0.05411529541015625 0.03243064880371094
18.1825 0.15161895751953125 0.07703399658203125 4.47216796875 -0.333740234375 0.0004876554012298584 -0.0003790855407714844 -0.05107879638671875 0.038684844970703125
18.19225 0.15467071533203125 0.07042694091796875 4.43212890625 -0.69873046875 0.0008091628551483154 -0.0007466673851013184 -0.0484771728515625 0.04224586486816406
18.202 0.1590728759765625 0.06500244140625 4.361328125 -1.0498046875 0.00030291080474853516 -0.0010046958923339844 -0.047229766845703125 0.047328948974609375
18.21175 0.162322998046875 0.058990478515625 4.24951171875 -1.4091796875 0.0012969970703125 -0.0013965368270874023 -0.042125701904296875 0.05251312255859375
18.2215 0.16744232177734375 0.0527496337890625 4.104736328125 -1.75146484375 0.0009933114051818848 -0.00021594762802124023 -0.03799247741699219 0.053829193115234375
18.23125 0.1702423095703125 0.04691314697265625 3.9334716796875 -2.0709228515625 0.0003725290298461914 -0.0008861720561981201 -0.03503608703613281 0.05889129638671875
18.241 0.1719970703125 0.03971099853515625 3.7349853515625 -2.3695068359375 0.0008527934551239014 -0.00034669041633605957 -0.030988693237304688 0.061939239501953125
18.25075 0.17540740966796875 0.03487396240234375 3.5179443359375 -2.6455078125 0.0005157589912414551 -0.0004691481590270996 -0.026050567626953125 0.066131591796875
18.2605 0.17645263671875 0.02725982666015625 3.283203125 -2.8958740234375 0.0009217262268066406 -0.00040480494499206543 -0.020641326904296875 0.06837844848632812
18.27025 0.17783355712890625 0.020660400390625 3.041259765625 -3.13623046875 -0.0002567768096923828 -0.0005302727222442627 -0.0147857666015625 0.07112503051757812
18.28 0.17908477783203125 0.012603759765625 2.7845458984375 -3.37158203125 -0.0008376836776733398 -0.0017203092575073242 -0.009227752685546875 0.07410049438476562
18.28975 0.18100738525390625 0.00437164306640625 2.510498046875 -3.575439453125 -2.2679567337036133e-05 -0.000713735818862915 -0.001865386962890625 0.0759124755859375
18.2995 0.18132781982421875 -0.0019378662109375 2.2064208984375 -3.759033203125 0.00029480457305908203 -0.0007201433181762695 0.003326416015625 0.07663726806640625
18.30925 0.1816864013671875 -0.01123046875 1.882568359375 -3.91015625 0.0003465414047241211 0.000461578369140625 0.010467529296875 0.07799530029296875
18.319 0.1806640625 -0.01935577392578125 1.553466796875 -4.03173828125 2.168118953704834e-05 -0.00046327710151672363 0.01462554931640625 0.078857421875
18.32875 0.17999267578125 -0.0244903564453125 1.218505859375 -4.117919921875 0.0011020302772521973 -0.00017642974853515625 0.024188995361328125 0.07886505126953125
18.3385 0.17794036865234375 -0.0335693359375 0.886474609375 -4.17626953125 -0.00014007091522216797 -0.00029090046882629395 0.031620025634765625 0.08010482788085938
18.34825 0.179534912109375 -0.0420074462890625 0.560302734375 -4.21923828125 -0.00014775991439819336 5.050003528594971e-05 0.036838531494140625 0.08030319213867188
18.358 0.17734527587890625 -0.0491180419921875 0.2353515625 -4.240966796875 0.0005916953086853027 -0.0005295276641845703 0.0438995361328125 0.07603073120117188
18.36775 0.17620086669921875 -0.05670928955078125 -0.1025390625 -4.232177734375 -0.0006422698497772217 -9.509921073913574e-05 0.0501708984375 0.07506561279296875
18.3775 0.173492431640625 -0.0633697509765625 -0.42822265625 -4.209716796875 0.0007651448249816895 -1.189112663269043e-05 0.05519866943359375 0.0740203857421875
18.38725 0.17147064208984375 -0.07109832763671875 -0.76953125 -4.1513671875 -5.7071447372436523e-05 -0.0007599294185638428 0.06125640869140625 0.07143402099609375
18.397 0.16778564453125 -0.0770111083984375 -1.10205078125 -4.0625 1.1920928955078125e-06 -0.0011737346649169922 0.066650390625 0.069000244140625
18.40675 0.164093017578125 -0.0849456787109375 -1.431640625 -3.93701171875 0.0006126165390014648 -0.0007863640785217285 0.0735626220703125 0.0649566650390625
18.4165 0.16037750244140625 -0.091278076171875 -1.729248046875 -3.786376953125 0.00030037760734558105 0.00020524859428405762 0.07718658447265625 0.060882568359375
18.42625 0.156219482421875 -0.0984039306640625 -2.005859375 -3.605712890625 -0.00014641880989074707 -0.00048732757568359375 0.08293914794921875 0.05619049072265625
18.436 0.14971160888671875 -0.103759765625 -2.2548828125 -3.413330078125 -0.0009016990661621094 -0.0004951357841491699 0.0899200439453125 0.051055908203125
18.44575 0.14481353759765625 -0.11170196533203125 -2.491943359375 -3.213623046875 -0.00014507770538330078 -0.0006136894226074219 0.0922393798828125 0.0432891845703125
18.4555 0.1392974853515625 -0.1167755126953125 -2.71435546875 -3.0009765625 -0.0002818107604980469 0.00017303228378295898 0.0958251953125 0.0399169921875
18.46525 0.1359100341796875 -0.12384796142578125 -2.92919921875 -2.786376953125 1.8328428268432617e-06 -0.0003037452697753906 0.0991668701171875 0.03084564208984375
18.475 0.1283416748046875 -0.12950897216796875 -3.135986328125 -2.550048828125 3.065913915634155e-05 0.0001375153660774231 0.10370635986328125 0.02679443359375
18.48475 0.12342071533203125 -0.1349945068359375 -3.328369140625 -2.285888671875 0.0005414485931396484 -0.0016501545906066895 0.10546493530273438 0.017364501953125
18.4945 0.1153411865234375 -0.13852691650390625 -3.4912109375 -1.99169921875 0.0005405545234680176 -0.0008597075939178467 0.10889434814453125 0.011260986328125
18.50425 0.108978271484375 -0.14422607421875 -3.62646484375 -1.68408203125 0.0009731650352478027 -0.0008919239044189453 0.10918426513671875 0.00565338134765625
18.514 0.102874755859375 -0.1486663818359375 -3.7197265625 -1.3681640625 0.0006070733070373535 -0.0008180737495422363 0.110107421875 -0.00177001953125
18.52375 0.0949554443359375 -0.1516265869140625 -3.772216796875 -1.05322265625 -0.00013428926467895508 -0.00037103891372680664 0.11046981811523438 -0.009609222412109375
18.5335 0.08951568603515625 -0.156768798828125 -3.798828125 -0.756591796875 -0.0003713071346282959 -0.00043576955795288086 0.1115875244140625 -0.01680755615234375
18.54325 0.0821533203125 -0.1593017578125 -3.803466796875 -0.471923828125 -0.0007210373878479004 -0.00014296174049377441 0.10966873168945312 -0.024200439453125
18.553 0.0741119384765625 -0.16388702392578125 -3.7952880859375 -0.1925048828125 5.59687614440918e-05 -0.0011277198791503906 0.10662460327148438 -0.029842376708984375
18.56275 0.06647491455078125 -0.16292572021484375 -3.781982421875 0.079833984375 0.0003237873315811157 -0.00022105872631072998 0.104949951171875 -0.035945892333984375
18.5725 0.05928802490234375 -0.1658935546875 -3.7469482421875 0.361328125 9.34898853302002e-05 -0.00041504204273223877 0.10187149047851562 -0.041912078857421875
18.58225 0.05199432373046875 -0.16837310791015625 -3.697509765625 0.645751953125 0.0004158318042755127 -0.0005621910095214844 0.09931564331054688 -0.0484771728515625
18.592 0.04315185546875 -0.1700439453125 -3.6185302734375 0.9312744140625 0.0007495284080505371 0.00011390447616577148 0.0955352783203125 -0.05402374267578125
18.60175 0.0347442626953125 -0.1696624755859375 -3.509765625 1.208740234375 9.894371032714844e-06 -0.0013630390167236328 0.0906829833984375 -0.0592498779296875
18.6115 0.027496337890625 -0.17040252685546875 -3.37548828125 1.468505859375 -0.0005821585655212402 -0.0011484622955322266 0.087158203125 -0.0648345947265625
18.62125 0.0198211669921875 -0.1685638427734375 -3.2158203125 1.705078125 -9.238719940185547e-06 -0.0008225142955780029 0.08112716674804688 -0.0694580078125
18.631 0.0106964111328125 -0.16942596435546875 -3.0501708984375 1.9100341796875 -0.00025898218154907227 0.00047028064727783203 0.07483291625976562 -0.07383346557617188
18.64075 0.0024566650390625 -0.16782379150390625 -2.87109375 2.100830078125 -0.0006090998649597168 -0.0001131296157836914 0.07209396362304688 -0.07708740234375
18.6505 -0.00527191162109375 -0.16771697998046875 -2.69873046875 2.2784423828125 0.0009371042251586914 -0.002259492874145508 0.06659698486328125 -0.08060836791992188
18.66025 -0.0144500732421875 -0.16466522216796875 -2.51806640625 2.447021484375 -0.00039207935333251953 -0.0010598301887512207 0.05954742431640625 -0.08262252807617188
18.67 -0.02008056640625 -0.16255950927734375 -2.3316650390625 2.61083984375 -0.00018277764320373535 -0.00034174323081970215 0.0559844970703125 -0.08275222778320312
18.67975 -0.0290069580078125 -0.1601104736328125 -2.1287841796875 2.77001953125 -0.0015592575073242188 -0.00011146068572998047 0.048870086669921875 -0.08456802368164062
