!Created with skrf (http://scikit-rf.org).
# GHz S RI R 50.0 
!freq ReS11 ImS11 ReS21 ImS21 ReS12 ImS12 ReS22 ImS22
17.5 0.014617919921875 -0.1364593505859375 -3.188720703125 2.7786865234375 -0.0019996166229248047 -0.0003142356872558594 0.08828353881835938 0.006458282470703125
17.50975 0.00522613525390625 -0.13330841064453125 -2.947265625 3.0216064453125 -0.0011921525001525879 1.5616416931152344e-05 0.09295272827148438 0.005092620849609375
17.5195 -0.00164794921875 -0.1292572021484375 -2.6864013671875 3.239013671875 -0.0007725954055786133 0.001137375831604004 0.0954437255859375 0.00507354736328125
17.52925 -0.010223388671875 -0.12591552734375 -2.416259765625 3.435302734375 -0.00048357248306274414 0.001159369945526123 0.09878921508789062 0.00173187255859375
17.539 -0.015960693359375 -0.121002197265625 -2.137939453125 3.6044921875 -0.0009479522705078125 0.0011571645736694336 0.10019683837890625 -0.00078582763671875
17.54875 -0.02445220947265625 -0.118072509765625 -1.84619140625 3.7371826171875 -0.0010983943939208984 0.0006014704704284668 0.1029052734375 -0.003490447998046875
17.5585 -0.03287506103515625 -0.11397552490234375 -1.5572509765625 3.8656005859375 -0.00107496976852417 0.0019165873527526855 0.10550308227539062 -0.00618743896484375
17.56825 -0.0374603271484375 -0.11212921142578125 -1.270751953125 3.9752197265625 -0.0006527900695800781 0.0016452670097351074 0.10686492919921875 -0.009754180908203125
17.578 -0.04457855224609375 -0.10577392578125 -0.9580078125 4.06591796875 -0.0012167692184448242 0.0003902316093444824 0.10890579223632812 -0.013736724853515625
17.58775 -0.0503387451171875 -0.10103607177734375 -0.6298828125 4.135986328125 -0.0010876059532165527 0.0011638998985290527 0.110260009765625 -0.0158843994140625
17.5975 -0.05516815185546875 -0.09552001953125 -0.287353515625 4.169677734375 -0.0017191767692565918 0.0012485384941101074 0.11386489868164062 -0.0206146240234375
17.60725 -0.06009674072265625 -0.091033935546875 0.049560546875 4.16650390625 -0.002486586570739746 0.0001722574234008789 0.111602783203125 -0.0236968994140625
17.617 -0.06710052490234375 -0.08351898193359375 0.382080078125 4.130126953125 -0.0006647408008575439 4.312396049499512e-05 0.112701416015625 -0.028842926025390625
17.62675 -0.06990814208984375 -0.07717132568359375 0.703125 4.0576171875 -0.0007791519165039062 0.0016971230506896973 0.11573028564453125 -0.033008575439453125
17.6365 -0.074005126953125 -0.0718536376953125 1.00390625 3.9580078125 -0.0011799335479736328 0.0014379024505615234 0.11357879638671875 -0.03939056396484375
17.64625 -0.07861328125 -0.06200408935546875 1.275634765625 3.850341796875 -0.0008152425289154053 0.0005893409252166748 0.11283111572265625 -0.04319000244140625
17.656 -0.08263397216796875 -0.05771636962890625 1.535400390625 3.73779296875 -0.0018050074577331543 0.0012786388397216797 0.11048507690429688 -0.0488433837890625
17.66575 -0.0845947265625 -0.050201416015625 1.785888671875 3.628662109375 -0.0002868771553039551 0.001103520393371582 0.1108856201171875 -0.053539276123046875
17.6755 -0.0881805419921875 -0.04340362548828125 2.0380859375 3.497802734375 -0.0007164478302001953 0.0010734200477600098 0.10693740844726562 -0.056812286376953125
17.68525 -0.089447021484375 -0.03543853759765625 2.29541015625 3.372802734375 0.00014343857765197754 0.0008217692375183105 0.105682373046875 -0.062404632568359375
17.695 -0.09165573120117188 -0.02849578857421875 2.566650390625 3.207275390625 0.0004437565803527832 0.0009146332740783691 0.10417938232421875 -0.06613922119140625
17.70475 -0.09273147583007812 -0.020336151123046875 2.835205078125 3.00634765625 -7.107853889465332e-05 0.0005842745304107666 0.100921630859375 -0.07079315185546875
17.7145 -0.09501266479492188 -0.012172698974609375 3.088134765625 2.76513671875 -0.0003243088722229004 -0.00022205710411071777 0.0969390869140625 -0.07476043701171875
17.72425 -0.09477615356445312 -0.00487518310546875 3.30224609375 2.49072265625 -0.0007919073104858398 0.0014803409576416016 0.09404373168945312 -0.08028793334960938
17.734 -0.09704971313476562 -0.000102996826171875 3.4765625 2.19970703125 -0.0010563135147094727 0.0004520416259765625 0.09081649780273438 -0.0843963623046875
17.74375 -0.0968017578125 0.00908660888671875 3.59716796875 1.90185546875 -0.0001677870750427246 0.00034052133560180664 0.08692169189453125 -0.0900726318359375
17.7535 -0.0953369140625 0.015201568603515625 3.695556640625 1.61962890625 -7.897615432739258e-05 0.0009118020534515381 0.08160018920898438 -0.09506988525390625
17.76325 -0.09469985961914062 0.023159027099609375 3.781005859375 1.3583984375 0.0002446174621582031 0.0012554526329040527 0.07707977294921875 -0.09483718872070312
17.773 -0.0934295654296875 0.02993011474609375 3.853515625 1.10400390625 -0.0003104209899902344 0.0014576315879821777 0.07230758666992188 -0.09843826293945312
17.78275 -0.0925140380859375 0.03789520263671875 3.919189453125 0.841064453125 -0.0005499720573425293 -1.0699033737182617e-05 0.06763076782226562 -0.10066986083984375
17.7925 -0.09061431884765625 0.043155670166015625 3.987060546875 0.5654296875 -0.0008901357650756836 0.0011072754859924316 0.06386566162109375 -0.10254287719726562
17.80225 -0.08861923217773438 0.05040740966796875 4.049560546875 0.272216796875 -0.00035196542739868164 0.0008480250835418701 0.05912017822265625 -0.10575485229492188
17.812 -0.08519363403320312 0.059513092041015625 4.08349609375 -0.03955078125 0.0007880926132202148 0.0018744468688964844 0.052959442138671875 -0.10737991333007812
17.82175 -0.08182525634765625 0.06589508056640625 4.091064453125 -0.364501953125 -0.0006733238697052002 0.0003046393394470215 0.048870086669921875 -0.10691070556640625
17.8315 -0.0785369873046875 0.07348251342773438 4.046875 -0.694091796875 0.0011351704597473145 -0.0010617971420288086 0.042049407958984375 -0.10968780517578125
17.84125 -0.0745391845703125 0.07784271240234375 3.974365234375 -1.009521484375 0.0004489421844482422 0.0008567571640014648 0.03604888916015625 -0.11037445068359375
17.851 -0.07040023803710938 0.08556747436523438 3.853271484375 -1.3043212890625 -0.0003860741853713989 0.00038439035415649414 0.031429290771484375 -0.11091232299804688
17.86075 -0.06815338134765625 0.09067535400390625 3.738525390625 -1.5733642578125 -0.0005643367767333984 0.0008984208106994629 0.024959564208984375 -0.10985565185546875
17.8705 -0.0615386962890625 0.09689712524414062 3.6085205078125 -1.82568359375 -0.0005551278591156006 0.0006974339485168457 0.019756317138671875 -0.11153793334960938
17.88025 -0.058353424072265625 0.10444259643554688 3.477783203125 -2.0738525390625 0.0009914636611938477 0.000148773193359375 0.011562347412109375 -0.1096038818359375
17.89 -0.051845550537109375 0.10868453979492188 3.3458251953125 -2.31396484375 0.0003943145275115967 9.480118751525879e-05 0.007740020751953125 -0.11030960083007812
17.89975 -0.047847747802734375 0.11286544799804688 3.1845703125 -2.569091796875 0.0004284381866455078 0.0006900429725646973 0.001190185546875 -0.10898971557617188
17.9095 -0.04372406005859375 0.11737060546875 3.00537109375 -2.82275390625 -0.0005476772785186768 0.0004698336124420166 -0.004405975341796875 -0.108245849609375
17.91925 -0.036487579345703125 0.12177276611328125 2.7928466796875 -3.061279296875 -6.085634231567383e-05 0.0009073019027709961 -0.009105682373046875 -0.10612869262695312
17.929 -0.0302276611328125 0.1256561279296875 2.558837890625 -3.291259765625 0.0011172294616699219 0.0008521080017089844 -0.0157928466796875 -0.10590362548828125
17.93875 -0.02337646484375 0.12999725341796875 2.2891845703125 -3.487060546875 0.0007331371307373047 0.0013058185577392578 -0.0216217041015625 -0.10321807861328125
17.9485 -0.0170440673828125 0.13278961181640625 2.013916015625 -3.64453125 0.0006303787231445312 0.0008578300476074219 -0.026824951171875 -0.09969329833984375
17.95825 -0.00933074951171875 0.13671875 1.73291015625 -3.7779541015625 0.0005528926849365234 0.00029158592224121094 -0.029064178466796875 -0.09615325927734375
17.968 -0.00437164306640625 0.13771820068359375 1.4580078125 -3.89208984375 0.0005057752132415771 0.00013521313667297363 -0.03583526611328125 -0.0942840576171875
17.97775 0.00359344482421875 0.14020538330078125 1.18310546875 -3.9833984375 -0.0001455843448638916 0.000804603099822998 -0.04227447509765625 -0.08895111083984375
17.9875 0.012481689453125 0.14394378662109375 0.89794921875 -4.075439453125 0.0010800361633300781 0.00035268068313598633 -0.0438079833984375 -0.0864715576171875
17.99725 0.01934814453125 0.14441680908203125 0.6083984375 -4.16357421875 0.0007674098014831543 0.0006514191627502441 -0.050048828125 -0.083160400390625
18.007 0.02610015869140625 0.1450653076171875 0.296142578125 -4.23193359375 -0.00018405914306640625 0.001092374324798584 -0.05474853515625 -0.07839202880859375
18.01675 0.03467559814453125 0.14752197265625 -0.033203125 -4.27587890625 0.0006433725357055664 0.00021880865097045898 -0.0607757568359375 -0.073211669921875
18.0265 0.04322052001953125 0.14785003662109375 -0.378173828125 -4.2900390625 0.000961601734161377 -8.58306884765625e-06 -0.0638885498046875 -0.067718505859375
18.03625 0.05084228515625 0.149566650390625 -0.7265625 -4.25927734375 0.0009930133819580078 0.0006593465805053711 -0.068084716796875 -0.0633392333984375
18.046 0.05904388427734375 0.1481170654296875 -1.072998046875 -4.192138671875 -0.00031951069831848145 0.0002254098653793335 -0.0706329345703125 -0.05695343017578125
18.05575 0.06780242919921875 0.1460723876953125 -1.390380859375 -4.0966796875 -0.0003588944673538208 -0.00012220442295074463 -0.0752716064453125 -0.0525665283203125
18.0655 0.07421875 0.14626312255859375 -1.688720703125 -3.975341796875 0.000972747802734375 -0.0008063316345214844 -0.0790557861328125 -0.04616546630859375
18.07525 0.08298492431640625 0.1445770263671875 -1.985107421875 -3.83935546875 0.0013831853866577148 -0.00019097328186035156 -0.07979965209960938 -0.04076385498046875
18.085 0.090423583984375 0.1427764892578125 -2.27490234375 -3.6923828125 -3.843754529953003e-05 0.00018968433141708374 -0.08245468139648438 -0.033893585205078125
18.09475 0.09847259521484375 0.1396636962890625 -2.55517578125 -3.5283203125 -1.5854835510253906e-05 0.0008496940135955811 -0.08241653442382812 -0.028751373291015625
18.1045 0.10681915283203125 0.1358642578125 -2.8330078125 -3.343505859375 0.0007264316082000732 -4.029273986816406e-05 -0.08464813232421875 -0.020595550537109375
18.11425 0.1148529052734375 0.1344146728515625 -3.10595703125 -3.1259765625 0.0019930601119995117 0.00024771690368652344 -0.08434295654296875 -0.01424407958984375
18.124 0.12103271484375 0.1300048828125 -3.35791015625 -2.88330078125 9.384751319885254e-05 -0.0003680884838104248 -0.0848541259765625 -0.00577545166015625
18.13375 0.1285858154296875 0.126373291015625 -3.588623046875 -2.620849609375 0.0013551712036132812 -0.0002449154853820801 -0.08443832397460938 -4.1961669921875e-05
18.1435 0.1352386474609375 0.121002197265625 -3.790283203125 -2.329345703125 0.0009097158908843994 -0.0007575750350952148 -0.085235595703125 0.010028839111328125
18.15325 0.1419219970703125 0.114227294921875 -3.97412109375 -2.023681640625 0.0008615255355834961 0.0017452239990234375 -0.08551788330078125 0.014324188232421875
18.163 0.1493377685546875 0.10955810546875 -4.12548828125 -1.71240234375 0.0006515383720397949 -0.0013512969017028809 -0.08300399780273438 0.023914337158203125
18.17275 0.1544342041015625 0.10284423828125 -4.255126953125 -1.390380859375 0.0003916025161743164 -0.0007751882076263428 -0.07982254028320312 0.029510498046875
18.1825 0.1620330810546875 0.09600830078125 -4.365478515625 -1.061279296875 0.0012073516845703125 -0.000573277473449707 -0.0769500732421875 0.03765869140625
18.19225 0.1668701171875 0.0897369384765625 -4.462646484375 -0.71240234375 0.0005237758159637451 -0.0004461705684661865 -0.07411575317382812 0.04535675048828125
18.202 0.1724395751953125 0.083587646484375 -4.519287109375 -0.360595703125 0.00034174323081970215 -0.000899970531463623 -0.0732574462890625 0.05101776123046875
18.21175 0.1784820556640625 0.075103759765625 -4.546875 0.013671875 0.0013277530670166016 -0.0003534555435180664 -0.0664825439453125 0.05796051025390625
18.2215 0.183349609375 0.0668487548828125 -4.52880859375 0.3876953125 -2.931058406829834e-05 -0.0002840012311935425 -0.0630645751953125 0.06376266479492188
18.23125 0.18869781494140625 0.0596160888671875 -4.48095703125 0.74658203125 0.0011708736419677734 -0.0011152029037475586 -0.0585479736328125 0.06890487670898438
18.241 0.1915283203125 0.05104827880859375 -4.398681640625 1.094970703125 0.00048404932022094727 -0.0007963776588439941 -0.053661346435546875 0.07496261596679688
18.25075 0.19295501708984375 0.04367828369140625 -4.299072265625 1.4306640625 -0.0002611875534057617 -0.001383960247039795 -0.047611236572265625 0.080657958984375
18.2605 0.197174072265625 0.0343475341796875 -4.16943359375 1.753662109375 0.0007388591766357422 -0.0013887882232666016 -0.041469573974609375 0.0857696533203125
18.27025 0.1974639892578125 0.0239410400390625 -4.033203125 2.06982421875 0.0005412101745605469 -0.00017002224922180176 -0.032863616943359375 0.08927154541015625
18.28 0.20082855224609375 0.01519775390625 -3.874267578125 2.3970947265625 0.0009290575981140137 -0.000418245792388916 -0.025760650634765625 0.09203720092773438
18.28975 0.2043609619140625 0.00444793701171875 -3.6864013671875 2.700927734375 0.00021985173225402832 -0.0007368624210357666 -0.019954681396484375 0.09658432006835938
18.2995 0.2042388916015625 -0.00244140625 -3.4593505859375 3.0020751953125 0.000979602336883545 0.00015527009963989258 -0.0108642578125 0.0985565185546875
18.30925 0.2022857666015625 -0.01385498046875 -3.1953125 3.2802734375 0.0002719759941101074 -0.0008022189140319824 -0.0009613037109375 0.0996856689453125
18.319 0.20067596435546875 -0.02475738525390625 -2.9027099609375 3.5242919921875 0.0006453394889831543 -0.0012822151184082031 0.00513458251953125 0.10353469848632812
18.32875 0.2005615234375 -0.0310516357421875 -2.60107421875 3.731689453125 0.0006165206432342529 -8.568167686462402e-05 0.01525115966796875 0.10400009155273438
18.3385 0.197723388671875 -0.0418853759765625 -2.2906494140625 3.9013671875 0.00019179284572601318 7.174909114837646e-05 0.02411651611328125 0.10424041748046875
18.34825 0.19725799560546875 -0.05113983154296875 -1.98291015625 4.057373046875 0.0007100105285644531 -0.001065373420715332 0.03049468994140625 0.10463714599609375
18.358 0.19426727294921875 -0.0608673095703125 -1.675537109375 4.1923828125 -0.0014613866806030273 -0.0010027885437011719 0.041473388671875 0.10266876220703125
18.36775 0.19113922119140625 -0.069305419921875 -1.348388671875 4.309326171875 0.0011222362518310547 5.346536636352539e-05 0.04871368408203125 0.101837158203125
18.3775 0.18837738037109375 -0.077484130859375 -1.01953125 4.41552734375 0.001135706901550293 -0.0009905695915222168 0.05699920654296875 0.09889984130859375
18.38725 0.18487548828125 -0.08698272705078125 -0.655029296875 4.4951171875 -0.00038191676139831543 -0.00036087632179260254 0.065093994140625 0.0975189208984375
18.397 0.1798095703125 -0.0952606201171875 -0.28271484375 4.53173828125 0.0006101727485656738 -0.0003458857536315918 0.07196044921875 0.09423828125
18.40675 0.1739654541015625 -0.1024627685546875 0.10400390625 4.53662109375 2.6673078536987305e-05 -0.00012806057929992676 0.0805816650390625 0.0889739990234375
18.4165 0.16808319091796875 -0.1106414794921875 0.47021484375 4.486083984375 0.0005516707897186279 -0.0005349218845367432 0.0875396728515625 0.08475494384765625
18.42625 0.16207122802734375 -0.11792755126953125 0.8212890625 4.39892578125 -9.000301361083984e-06 -0.0015153288841247559 0.09522247314453125 0.07971954345703125
18.436 0.1559906005859375 -0.12288665771484375 1.14208984375 4.29248046875 -0.0003985762596130371 -0.0001488327980041504 0.1040802001953125 0.0742034912109375
18.44575 0.1483612060546875 -0.1303863525390625 1.448974609375 4.170166015625 4.789233207702637e-05 -0.0009239912033081055 0.10886383056640625 0.066253662109375
18.4555 0.1410064697265625 -0.13643646240234375 1.740966796875 4.040283203125 -0.0007748603820800781 -0.0014302730560302734 0.114776611328125 0.05991363525390625
18.46525 0.13405609130859375 -0.143798828125 2.035888671875 3.91259765625 -0.0006296336650848389 0.0006818771362304688 0.1177978515625 0.050323486328125
18.475 0.1263580322265625 -0.1467132568359375 2.331787109375 3.76025390625 -3.5896897315979004e-05 -0.000417560338973999 0.1248626708984375 0.04156494140625
18.48475 0.1193084716796875 -0.1530609130859375 2.62646484375 3.567138671875 -0.0005158782005310059 -0.001000821590423584 0.12841033935546875 0.033355712890625
18.4945 0.10979461669921875 -0.1559906005859375 2.910888671875 3.33544921875 0.00037860870361328125 0.0008497834205627441 0.13176727294921875 0.022796630859375
18.50425 0.1001739501953125 -0.1612701416015625 3.1767578125 3.07470703125 0.0006885528564453125 -0.001088261604309082 0.1324615478515625 0.015228271484375
18.514 0.09393310546875 -0.16265869140625 3.3984375 2.7822265625 0.0005102753639221191 -0.0002944469451904297 0.1343841552734375 0.0066680908203125
18.52375 0.08495330810546875 -0.16558074951171875 3.572998046875 2.474853515625 0.000956118106842041 0.0002830028533935547 0.13513946533203125 -0.00347900390625
18.5335 0.07704925537109375 -0.16855621337890625 3.7138671875 2.17333984375 -0.00042432546615600586 -0.0012319087982177734 0.13721466064453125 -0.011199951171875
18.54325 0.06864166259765625 -0.17166900634765625 3.822021484375 1.886962890625 0.0004970729351043701 -0.00029331445693969727 0.1340179443359375 -0.02130889892578125
18.553 0.06157684326171875 -0.17311859130859375 3.921630859375 1.598388671875 -0.00045643746852874756 0.00029130280017852783 0.13323974609375 -0.0295562744140625
18.56275 0.05229949951171875 -0.1729888916015625 4.01708984375 1.315673828125 0.0005193054676055908 0.00044476985931396484 0.131317138671875 -0.03821563720703125
18.5725 0.0436553955078125 -0.1732177734375 4.101318359375 1.021484375 0.0005970299243927002 -0.00038045644760131836 0.12813568115234375 -0.0472869873046875
18.58225 0.036346435546875 -0.173187255859375 4.1669921875 0.710205078125 8.422136306762695e-05 -0.0010138750076293945 0.123809814453125 -0.05571746826171875
18.592 0.028045654296875 -0.17378997802734375 4.20703125 0.382568359375 0.0009100139141082764 -0.0002454519271850586 0.11857986450195312 -0.062465667724609375
18.60175 0.0200653076171875 -0.1718292236328125 4.2158203125 0.046875 -8.64267349243164e-06 -0.0003395676612854004 0.1129302978515625 -0.070159912109375
18.6115 0.01181793212890625 -0.17011260986328125 4.17431640625 -0.2822265625 -0.0005177855491638184 -0.00047206878662109375 0.10879135131835938 -0.07769775390625
18.62125 0.0045623779296875 -0.16909027099609375 4.104736328125 -0.59423828125 0.001121222972869873 -0.0008954405784606934 0.10170364379882812 -0.08318710327148438
18.631 -0.00528717041015625 -0.16717529296875 4.0126953125 -0.87255859375 0.0005589425563812256 -0.0004954338073730469 0.09548568725585938 -0.08929061889648438
18.64075 -0.01139068603515625 -0.1652069091796875 3.9068603515625 -1.139404296875 0.0001179128885269165 -0.00038211047649383545 0.08989715576171875 -0.092529296875
18.6505 -0.01674652099609375 -0.16350555419921875 3.80517578125 -1.3935546875 -0.0005011558532714844 -0.001444995403289795 0.08238601684570312 -0.09540939331054688
18.66025 -0.02556610107421875 -0.16080474853515625 3.6966552734375 -1.641845703125 0.0002276599407196045 -0.0006088912487030029 0.07367324829101562 -0.09963607788085938
18.67 -0.0318145751953125 -0.15670013427734375 3.5811767578125 -1.8924560546875 0.0007759034633636475 -0.0005037784576416016 0.06818771362304688 -0.10203170776367188
18.67975 -0.04034423828125 -0.1537017822265625 3.4473876953125 -2.150634765625 -0.00041168928146362305 -0.000589907169342041 0.062320709228515625 -0.1042633056640625
