!Created with skrf (http://scikit-rf.org).
# GHz S RI R 50.0 
!freq ReS11 ImS11 ReS21 ImS21 ReS12 ImS12 ReS22 ImS22
17.5 0.01183319091796875 -0.1520233154296875 4.418212890625 1.80712890625 -0.0011630654335021973 0.0001093745231628418 0.10817337036132812 0.00753021240234375
17.50975 0.0015411376953125 -0.1497802734375 4.542724609375 1.445068359375 -0.0016828179359436035 0.0007598400115966797 0.1126251220703125 0.00455474853515625
17.5195 -0.005706787109375 -0.14603424072265625 4.6298828125 1.0751953125 -0.0011654496192932129 0.0012721419334411621 0.1157684326171875 0.002826690673828125
17.52925 -0.016143798828125 -0.14342498779296875 4.6962890625 0.708984375 -0.0006552934646606445 0.0008720457553863525 0.11809539794921875 -0.002658843994140625
17.539 -0.022552490234375 -0.1364288330078125 4.7275390625 0.34228515625 -0.0017453432083129883 0.0006641149520874023 0.11951446533203125 -0.0063323974609375
17.54875 -0.032745361328125 -0.1340789794921875 4.731689453125 -0.016357421875 -0.001622915267944336 0.0008361339569091797 0.12140655517578125 -0.008823394775390625
17.5585 -0.04205322265625 -0.1286468505859375 4.7197265625 -0.37548828125 -0.0019712448120117188 0.00027239322662353516 0.1249542236328125 -0.0154876708984375
17.56825 -0.047454833984375 -0.12464141845703125 4.69189453125 -0.722900390625 -0.0007966756820678711 -0.00011676549911499023 0.12484359741210938 -0.02213287353515625
17.578 -0.05496978759765625 -0.1183013916015625 4.630126953125 -1.096435546875 -0.0012779831886291504 0.0006467103958129883 0.1275177001953125 -0.02557373046875
17.58775 -0.063934326171875 -0.112274169921875 4.537841796875 -1.47119140625 -0.0007124841213226318 0.0006041526794433594 0.12749481201171875 -0.03021240234375
17.5975 -0.068389892578125 -0.106201171875 4.399169921875 -1.85009765625 -0.0017334818840026855 7.31348991394043e-05 0.12847137451171875 -0.035675048828125
17.60725 -0.0746002197265625 -0.1002044677734375 4.215087890625 -2.19384765625 0.00014531612396240234 0.0013110637664794922 0.1248931884765625 -0.04058837890625
17.617 -0.0806732177734375 -0.09329986572265625 4.002685546875 -2.5087890625 -0.00022685527801513672 0.0006473064422607422 0.1259918212890625 -0.046417236328125
17.62675 -0.08592987060546875 -0.08481597900390625 3.7698974609375 -2.798095703125 -0.0014464259147644043 0.0006690621376037598 0.12584686279296875 -0.051666259765625
17.6365 -0.091461181640625 -0.0770111083984375 3.51806640625 -3.050048828125 -0.0008252859115600586 0.001057267189025879 0.123992919921875 -0.05666351318359375
17.64625 -0.093353271484375 -0.06801605224609375 3.2757568359375 -3.2742919921875 -0.0012035965919494629 0.0012884736061096191 0.12060165405273438 -0.062221527099609375
17.656 -0.0967559814453125 -0.06313323974609375 3.0338134765625 -3.483642578125 -0.0018821954727172852 0.001873791217803955 0.1159515380859375 -0.06752777099609375
17.66575 -0.0995025634765625 -0.05187225341796875 2.7958984375 -3.6939697265625 -0.00010460615158081055 0.0008186101913452148 0.11410140991210938 -0.07173919677734375
17.6755 -0.10608673095703125 -0.04441070556640625 2.5357666015625 -3.90185546875 -0.0002512037754058838 0.0009052753448486328 0.1089019775390625 -0.07793426513671875
17.68525 -0.1074371337890625 -0.03528594970703125 2.26953125 -4.11865234375 -0.0013133883476257324 0.0008701086044311523 0.107452392578125 -0.08340835571289062
17.695 -0.11017608642578125 -0.0254058837890625 1.947265625 -4.320556640625 0.00048089027404785156 0.0024995803833007812 0.103271484375 -0.08728408813476562
17.70475 -0.11055755615234375 -0.01514434814453125 1.58935546875 -4.497314453125 0.0004076957702636719 0.0020221471786499023 0.09859085083007812 -0.09187698364257812
17.7145 -0.11199951171875 -0.00862884521484375 1.19580078125 -4.627197265625 8.082389831542969e-05 0.001914381980895996 0.09212493896484375 -0.09766387939453125
17.72425 -0.11043930053710938 0.001560211181640625 0.7958984375 -4.69677734375 -0.0004988312721252441 0.0011923909187316895 0.088104248046875 -0.10118484497070312
17.734 -0.11225128173828125 0.00849151611328125 0.40380859375 -4.71484375 -0.0007700920104980469 0.0005715489387512207 0.08350372314453125 -0.1049652099609375
17.74375 -0.1126251220703125 0.01811981201171875 0.03857421875 -4.68017578125 -0.000610649585723877 0.0008962154388427734 0.07634735107421875 -0.10984039306640625
17.7535 -0.11004638671875 0.026462554931640625 -0.30224609375 -4.6357421875 0.0007638335227966309 0.0007489919662475586 0.07331085205078125 -0.11063766479492188
17.76325 -0.10973739624023438 0.03592681884765625 -0.61865234375 -4.589111328125 -0.0003790557384490967 0.0005871355533599854 0.06443405151367188 -0.11177444458007812
17.773 -0.10788726806640625 0.042720794677734375 -0.92431640625 -4.534423828125 -0.0012465119361877441 0.00044083595275878906 0.062198638916015625 -0.11486434936523438
17.78275 -0.10530853271484375 0.050968170166015625 -1.243896484375 -4.470703125 -0.000288546085357666 0.0012976527214050293 0.05358123779296875 -0.1173248291015625
17.7925 -0.10150909423828125 0.059474945068359375 -1.572998046875 -4.39208984375 0.00037413835525512695 0.0012638568878173828 0.04766845703125 -0.11804962158203125
17.80225 -0.09847259521484375 0.06612777709960938 -1.92724609375 -4.296142578125 -0.00010779500007629395 0.0006013810634613037 0.043903350830078125 -0.11956024169921875
17.812 -0.09382247924804688 0.0735321044921875 -2.279541015625 -4.1484375 -0.0007703900337219238 0.0009860396385192871 0.034908294677734375 -0.11828994750976562
17.82175 -0.08667755126953125 0.08266448974609375 -2.619384765625 -3.963134765625 -1.1026859283447266e-05 0.0012069344520568848 0.028995513916015625 -0.11713409423828125
17.8315 -0.08416748046875 0.08929824829101562 -2.935546875 -3.727783203125 0.0005879402160644531 0.0016489028930664062 0.02133941650390625 -0.11728286743164062
17.84125 -0.07991790771484375 0.09662628173828125 -3.2138671875 -3.4755859375 0.0016014575958251953 0.0018889904022216797 0.016845703125 -0.1153564453125
17.851 -0.07324600219726562 0.10437393188476562 -3.449951171875 -3.193115234375 0.00023192167282104492 -0.0005027651786804199 0.01137542724609375 -0.11605072021484375
17.86075 -0.06846237182617188 0.10943603515625 -3.66162109375 -2.924560546875 -0.0007574856281280518 0.00020751357078552246 0.002979278564453125 -0.11412429809570312
17.8705 -0.0610504150390625 0.11580276489257812 -3.855224609375 -2.650634765625 0.0008564591407775879 0.0005491375923156738 -0.00208282470703125 -0.11145401000976562
17.88025 -0.05538177490234375 0.12178802490234375 -4.047119140625 -2.373291015625 0.0009515881538391113 0.0008330941200256348 -0.006839752197265625 -0.10945510864257812
17.89 -0.04825592041015625 0.1278839111328125 -4.2275390625 -2.08642578125 0.0004502534866333008 0.0019224882125854492 -0.01525115966796875 -0.10821914672851562
17.89975 -0.04158782958984375 0.13147735595703125 -4.39892578125 -1.76220703125 0.00016957521438598633 0.00041815638542175293 -0.01865386962890625 -0.10674285888671875
17.9095 -0.03580474853515625 0.1365203857421875 -4.554443359375 -1.41455078125 0.0006631612777709961 0.0016361474990844727 -0.025177001953125 -0.104339599609375
17.91925 -0.027618408203125 0.13974761962890625 -4.666015625 -1.04150390625 0.0003822445869445801 0.0010773539543151855 -0.03008270263671875 -0.1009063720703125
17.929 -0.019683837890625 0.1428375244140625 -4.74609375 -0.6591796875 0.0009096860885620117 0.000423431396484375 -0.0359954833984375 -0.097991943359375
17.93875 -0.01232147216796875 0.1452178955078125 -4.772216796875 -0.27197265625 0.0014282464981079102 0.0012974739074707031 -0.04030609130859375 -0.0941925048828125
17.9485 -0.005462646484375 0.14733123779296875 -4.76220703125 0.093017578125 0.0006044209003448486 9.498000144958496e-05 -0.04280853271484375 -0.08928680419921875
17.95825 0.00333404541015625 0.14995574951171875 -4.729736328125 0.452880859375 -0.0005781352519989014 0.00029662251472473145 -0.0465545654296875 -0.08470916748046875
17.968 0.0122222900390625 0.15105438232421875 -4.676025390625 0.796875 0.0006197094917297363 -2.250075340270996e-05 -0.05187225341796875 -0.08115386962890625
17.97775 0.0201263427734375 0.151611328125 -4.60595703125 1.13134765625 0.0006195902824401855 -1.4007091522216797e-05 -0.05521392822265625 -0.07353973388671875
17.9875 0.02922821044921875 0.1531982421875 -4.5244140625 1.481201171875 0.0004571378231048584 0.00046700239181518555 -0.05808258056640625 -0.0712432861328125
17.99725 0.0376129150390625 0.15204620361328125 -4.42626953125 1.833984375 -2.866983413696289e-05 0.0010249614715576172 -0.06235504150390625 -0.06594085693359375
18.007 0.04772186279296875 0.15163421630859375 -4.2900390625 2.1904296875 0.0016859769821166992 0.0003656148910522461 -0.0651092529296875 -0.0597076416015625
18.01675 0.0546417236328125 0.15056610107421875 -4.11328125 2.54150390625 0.0012080073356628418 -3.129243850708008e-05 -0.06885147094726562 -0.054088592529296875
18.0265 0.06292724609375 0.1508026123046875 -3.89208984375 2.879638671875 0.0009236335754394531 -0.0003682374954223633 -0.07220458984375 -0.0480499267578125
18.03625 0.0706024169921875 0.15027618408203125 -3.6331787109375 3.185791015625 0.0014787912368774414 -4.231929779052734e-06 -0.07389450073242188 -0.042911529541015625
18.046 0.0787811279296875 0.14697265625 -3.346923828125 3.4600830078125 0.0008032917976379395 0.00028187036514282227 -0.0752716064453125 -0.03722381591796875
18.05575 0.08739471435546875 0.14284515380859375 -3.0584716796875 3.690185546875 0.0010170340538024902 0.0006355643272399902 -0.07809066772460938 -0.0305328369140625
18.0655 0.0946197509765625 0.14211273193359375 -2.75732421875 3.8890380859375 0.0009863972663879395 -0.000606536865234375 -0.080230712890625 -0.023529052734375
18.07525 0.101654052734375 0.13657379150390625 -2.453857421875 4.07568359375 -1.8194317817687988e-05 -0.00018896162509918213 -0.08028030395507812 -0.019680023193359375
18.085 0.10926055908203125 0.13323974609375 -2.1376953125 4.251708984375 0.0007214546203613281 0.00034695863723754883 -0.08087158203125 -0.012783050537109375
18.09475 0.11566925048828125 0.12923431396484375 -1.8154296875 4.412353515625 0.0004969239234924316 -0.0013103485107421875 -0.07756805419921875 -0.005985260009765625
18.1045 0.1230010986328125 0.12422943115234375 -1.473388671875 4.549072265625 0.0007499456405639648 0.001187443733215332 -0.07967758178710938 0.002315521240234375
18.11425 0.1294708251953125 0.120819091796875 -1.1044921875 4.659423828125 0.0006787776947021484 0.00020417571067810059 -0.07837677001953125 0.0063629150390625
18.124 0.1348419189453125 0.1148834228515625 -0.7265625 4.73046875 0.00029915571212768555 -0.0007789731025695801 -0.07696533203125 0.0139007568359375
18.13375 0.140472412109375 0.1112213134765625 -0.3515625 4.767578125 0.0003171563148498535 0.000949859619140625 -0.07484054565429688 0.020534515380859375
18.1435 0.145843505859375 0.10302734375 0.028564453125 4.761474609375 0.0003681778907775879 -0.0004628896713256836 -0.07306289672851562 0.028789520263671875
18.15325 0.1530914306640625 0.0959625244140625 0.40234375 4.7314453125 0.0005948841571807861 0.00030115246772766113 -0.0716552734375 0.03388214111328125
18.163 0.157928466796875 0.0899810791015625 0.756103515625 4.67333984375 0.0009517073631286621 5.3882598876953125e-05 -0.06667709350585938 0.0400390625
18.17275 0.16168212890625 0.084564208984375 1.10546875 4.5859375 0.00023880600929260254 -0.0007081031799316406 -0.06262969970703125 0.045116424560546875
18.1825 0.16732025146484375 0.07723236083984375 1.453125 4.490234375 0.0003713369369506836 0.0012464523315429688 -0.058971405029296875 0.054569244384765625
18.19225 0.16983795166015625 0.0685882568359375 1.799072265625 4.368408203125 6.842613220214844e-05 -0.0006366968154907227 -0.055450439453125 0.05884552001953125
18.202 0.1729888916015625 0.063232421875 2.126953125 4.216796875 0.0010023117065429688 -0.00017964839935302734 -0.05147552490234375 0.06221771240234375
18.21175 0.17791748046875 0.05615234375 2.45556640625 4.03173828125 -6.266683340072632e-05 -4.05237078666687e-05 -0.04595947265625 0.06685638427734375
18.2215 0.181121826171875 0.048095703125 2.762939453125 3.811767578125 0.00015559792518615723 0.00010018050670623779 -0.040927886962890625 0.07080459594726562
18.23125 0.18173980712890625 0.0406494140625 3.03662109375 3.57666015625 0.0013979077339172363 8.45193862915039e-05 -0.036815643310546875 0.07456588745117188
18.241 0.18572235107421875 0.03285980224609375 3.2890625 3.319580078125 -9.948015213012695e-05 -0.0012947916984558105 -0.0314178466796875 0.07957077026367188
18.25075 0.18720245361328125 0.02497100830078125 3.5166015625 3.0498046875 1.0848045349121094e-05 -0.0002749711275100708 -0.024509429931640625 0.08267974853515625
18.2605 0.18671417236328125 0.018280029296875 3.72509765625 2.77001953125 2.7954578399658203e-05 -0.0015319585800170898 -0.0182647705078125 0.086212158203125
18.27025 0.18677520751953125 0.0098419189453125 3.91748046875 2.481201171875 -0.000466078519821167 -0.00031185150146484375 -0.010295867919921875 0.08937454223632812
18.28 0.18798828125 0.001708984375 4.10009765625 2.1748046875 0.0013567209243774414 0.00031894445419311523 -0.00508880615234375 0.08958816528320312
18.28975 0.1895294189453125 -0.00750732421875 4.25634765625 1.858154296875 -0.0007648468017578125 -0.0005719661712646484 0.003345489501953125 0.09170913696289062
18.2995 0.187225341796875 -0.01447296142578125 4.383056640625 1.51318359375 0.0009900331497192383 -0.0008757710456848145 0.012058258056640625 0.08983612060546875
18.30925 0.1863555908203125 -0.0237274169921875 4.47607421875 1.15478515625 -2.0712614059448242e-06 -0.00019487738609313965 0.01937103271484375 0.09241485595703125
18.319 0.18454742431640625 -0.03229522705078125 4.531494140625 0.800048828125 0.00039449334144592285 -0.0003878474235534668 0.026584625244140625 0.09362411499023438
18.32875 0.18308258056640625 -0.0369415283203125 4.557373046875 0.44873046875 0.0006966590881347656 -0.0009063780307769775 0.03580474853515625 0.092620849609375
18.3385 0.18190765380859375 -0.04767608642578125 4.56005859375 0.10546875 -0.00030243396759033203 -0.0010602474212646484 0.04311370849609375 0.09063720703125
18.34825 0.17861175537109375 -0.05536651611328125 4.546875 -0.22998046875 0.0010266900062561035 0.00042957067489624023 0.049041748046875 0.09002685546875
18.358 0.17728424072265625 -0.06209564208984375 4.519775390625 -0.56005859375 -0.00017282366752624512 0.00032670795917510986 0.05852508544921875 0.08672332763671875
18.36775 0.17364501953125 -0.0699462890625 4.469482421875 -0.906494140625 0.0002377033233642578 -0.0012283921241760254 0.0645751953125 0.084503173828125
18.3775 0.17063140869140625 -0.07674407958984375 4.40087890625 -1.24267578125 -0.0006785392761230469 0.0002022087574005127 0.07220458984375 0.081695556640625
18.38725 0.167449951171875 -0.08269500732421875 4.280517578125 -1.594970703125 -6.226450204849243e-05 0.00016066431999206543 0.077728271484375 0.0778045654296875
18.397 0.16357421875 -0.0893402099609375 4.1318359375 -1.92578125 -0.0006672143936157227 -0.0005626678466796875 0.0825653076171875 0.0733642578125
18.40675 0.1597747802734375 -0.095062255859375 3.944580078125 -2.25390625 0.00020563602447509766 -0.0009913444519042969 0.0897064208984375 0.066986083984375
18.4165 0.1523590087890625 -0.102996826171875 3.7332763671875 -2.5419921875 0.0014963150024414062 -0.0007914900779724121 0.094635009765625 0.0627288818359375
18.42625 0.14868927001953125 -0.1084136962890625 3.4979248046875 -2.7947998046875 0.0004163980484008789 -0.0006590783596038818 0.0995635986328125 0.0562744140625
18.436 0.14211273193359375 -0.1128997802734375 3.2626953125 -3.022216796875 -0.0006496906280517578 -0.0007701516151428223 0.10695648193359375 0.05043792724609375
18.44575 0.1358489990234375 -0.11949920654296875 3.017578125 -3.2293701171875 6.382167339324951e-05 -0.00045421719551086426 0.10927581787109375 0.04279327392578125
18.4555 0.13080596923828125 -0.123382568359375 2.7708740234375 -3.4287109375 0.0005063712596893311 -0.0004718899726867676 0.112548828125 0.0351104736328125
18.46525 0.12364959716796875 -0.12914276123046875 2.5177001953125 -3.62890625 0.00015288591384887695 -0.0008344054222106934 0.1155853271484375 0.02552032470703125
18.475 0.11658477783203125 -0.1332855224609375 2.2430419921875 -3.8167724609375 0.00018957257270812988 0.0005951821804046631 0.11916351318359375 0.01871490478515625
18.48475 0.11135101318359375 -0.1391143798828125 1.93408203125 -3.982666015625 0.0008434057235717773 0.00012058019638061523 0.1216888427734375 0.00937652587890625
18.4945 0.10349273681640625 -0.14171600341796875 1.59912109375 -4.119140625 0.0002079606056213379 -0.0005246102809906006 0.124420166015625 0.001491546630859375
18.50425 0.09625244140625 -0.145172119140625 1.24951171875 -4.2216796875 0.001290440559387207 0.0002701282501220703 0.1233367919921875 -0.006622314453125
18.514 0.0900421142578125 -0.1495819091796875 0.89892578125 -4.2724609375 0.0006178021430969238 3.838539123535156e-05 0.12346649169921875 -0.01386260986328125
18.52375 0.084625244140625 -0.1503753662109375 0.562744140625 -4.27783203125 0.00047716498374938965 -0.000478401780128479 0.121612548828125 -0.02210235595703125
18.5335 0.07801055908203125 -0.15537261962890625 0.2451171875 -4.264404296875 0.00032705068588256836 -0.00048632919788360596 0.12157440185546875 -0.029819488525390625
18.54325 0.07076263427734375 -0.1565399169921875 -0.0537109375 -4.232421875 0.0008499324321746826 -0.00015085935592651367 0.11952972412109375 -0.037044525146484375
18.553 0.06360626220703125 -0.1590423583984375 -0.34521484375 -4.193115234375 -5.0634145736694336e-05 0.0007331669330596924 0.11518096923828125 -0.044628143310546875
18.56275 0.05743408203125 -0.15915679931640625 -0.63427734375 -4.149169921875 0.00033164024353027344 -0.0005997121334075928 0.112060546875 -0.05199432373046875
18.5725 0.05095672607421875 -0.16036224365234375 -0.928466796875 -4.089111328125 8.910894393920898e-05 -0.0007309317588806152 0.10686874389648438 -0.059444427490234375
18.58225 0.0436248779296875 -0.16095733642578125 -1.230712890625 -4.003173828125 0.0007725059986114502 -0.000690460205078125 0.10396575927734375 -0.0658111572265625
18.592 0.0362396240234375 -0.1622161865234375 -1.533447265625 -3.88916015625 4.5046210289001465e-05 -0.0002987980842590332 0.09730148315429688 -0.07081985473632812
18.60175 0.029083251953125 -0.1616058349609375 -1.8251953125 -3.7421875 8.559226989746094e-05 0.0005145668983459473 0.09239959716796875 -0.07534027099609375
18.6115 0.0208740234375 -0.16107940673828125 -2.088134765625 -3.562255859375 0.00048595666885375977 -0.0011454224586486816 0.08698654174804688 -0.08060836791992188
18.62125 0.01305389404296875 -0.16138458251953125 -2.32568359375 -3.368408203125 0.000451892614364624 -0.0004513561725616455 0.07960128784179688 -0.08544158935546875
18.631 0.00577545166015625 -0.16046142578125 -2.524658203125 -3.166748046875 0.0003937035799026489 -0.0004852116107940674 0.07270431518554688 -0.09028244018554688
18.64075 -0.000823974609375 -0.16068267822265625 -2.712890625 -2.961181640625 -8.463859558105469e-05 -0.0006568729877471924 0.06701278686523438 -0.09193801879882812
18.6505 -0.00609588623046875 -0.15990447998046875 -2.890869140625 -2.761474609375 -9.784102439880371e-05 -0.0005619525909423828 0.061016082763671875 -0.09481430053710938
18.66025 -0.0150604248046875 -0.1570587158203125 -3.057373046875 -2.5556640625 0.0005873441696166992 -0.0011865496635437012 0.055629730224609375 -0.09549713134765625
18.67 -0.0208740234375 -0.1556854248046875 -3.2255859375 -2.340087890625 0.00029553472995758057 -0.0004556030035018921 0.04917144775390625 -0.09747314453125
18.67975 -0.02884674072265625 -0.15259552001953125 -3.38671875 -2.107666015625 -0.0006188750267028809 -0.0012722015380859375 0.04047393798828125 -0.09882354736328125
18.6895 -0.0354766845703125 -0.15081787109375 -3.525634765625 -1.846923828125 0.00017771124839782715 -0.0005826950073242188 0.0349578857421875 -0.09735870361328125
