!Created with skrf (http://scikit-rf.org).
# GHz S RI R 50.0 
!freq ReS11 ImS11 ReS21 ImS21 ReS12 ImS12 ReS22 ImS22
17.5 0.0149383544921875 -0.13784027099609375 -2.5009765625 3.2506103515625 -0.0011899471282958984 -0.0006271600723266602 0.09012985229492188 0.008026123046875
17.50975 0.0058135986328125 -0.135711669921875 -2.22509765625 3.436767578125 -0.0010766386985778809 0.00022709369659423828 0.09276199340820312 0.00771331787109375
17.5195 -0.00113677978515625 -0.1313018798828125 -1.932373046875 3.589111328125 -0.0011107325553894043 0.0007885098457336426 0.0964813232421875 0.007350921630859375
17.52925 -0.0104217529296875 -0.12917327880859375 -1.6368408203125 3.7279052734375 -0.0009177923202514648 5.0067901611328125e-06 0.09957504272460938 0.00274658203125
17.539 -0.0157470703125 -0.1230316162109375 -1.3388671875 3.83447265625 -0.0012238025665283203 0.00037932395935058594 0.101104736328125 0.00058746337890625
17.54875 -0.02509307861328125 -0.12041473388671875 -1.0360107421875 3.90771484375 -0.0028302669525146484 0.001321554183959961 0.10426712036132812 -0.00234222412109375
17.5585 -0.03296661376953125 -0.11536407470703125 -0.7362060546875 3.97412109375 -0.001664876937866211 0.0010634660720825195 0.10718536376953125 -0.003971099853515625
17.56825 -0.037994384765625 -0.1123809814453125 -0.4404296875 4.019287109375 -0.0015155673027038574 0.001348257064819336 0.10878372192382812 -0.009159088134765625
17.578 -0.0451812744140625 -0.106231689453125 -0.12158203125 4.04638671875 -0.00044083595275878906 0.0010938048362731934 0.11111068725585938 -0.013423919677734375
17.58775 -0.05097198486328125 -0.10399627685546875 0.203369140625 4.045654296875 -0.0011571645736694336 0.0013639330863952637 0.11226272583007812 -0.016185760498046875
17.5975 -0.05457305908203125 -0.0968780517578125 0.5361328125 4.013427734375 -0.0009920001029968262 0.0005655884742736816 0.11500930786132812 -0.021595001220703125
17.60725 -0.0606842041015625 -0.0929107666015625 0.860107421875 3.943603515625 -0.0012867450714111328 6.330013275146484e-05 0.115020751953125 -0.025482177734375
17.617 -0.0664520263671875 -0.0849761962890625 1.168212890625 3.841064453125 -0.001442551612854004 0.0016720890998840332 0.11571121215820312 -0.028278350830078125
17.62675 -0.0726165771484375 -0.07918548583984375 1.45947265625 3.7109375 -0.000997781753540039 0.00019788742065429688 0.11652755737304688 -0.0341339111328125
17.6365 -0.075286865234375 -0.073455810546875 1.72412109375 3.55517578125 -0.0005890130996704102 0.0008338093757629395 0.11661529541015625 -0.0395355224609375
17.64625 -0.07872772216796875 -0.064971923828125 1.959228515625 3.39599609375 0.0006173849105834961 0.0007301568984985352 0.11460494995117188 -0.043243408203125
17.656 -0.08301544189453125 -0.060302734375 2.1845703125 3.239501953125 5.4955482482910156e-05 0.002337932586669922 0.112945556640625 -0.048900604248046875
17.66575 -0.0859527587890625 -0.0496826171875 2.397705078125 3.083740234375 -0.0003135502338409424 0.000835418701171875 0.11202621459960938 -0.0531463623046875
17.6755 -0.08977508544921875 -0.0448150634765625 2.61328125 2.915283203125 -0.0006575286388397217 0.0007770359516143799 0.10854721069335938 -0.060260772705078125
17.68525 -0.0914459228515625 -0.0377960205078125 2.8330078125 2.741455078125 -0.0011234283447265625 0.0010276436805725098 0.10886764526367188 -0.06344223022460938
17.695 -0.0931243896484375 -0.02909088134765625 3.0576171875 2.531005859375 -0.000529170036315918 0.001468658447265625 0.10587692260742188 -0.06910324096679688
17.70475 -0.09457778930664062 -0.0220489501953125 3.270263671875 2.283447265625 -0.0007230043411254883 0.001130819320678711 0.10288238525390625 -0.07295608520507812
17.7145 -0.09695053100585938 -0.013988494873046875 3.4638671875 2.006591796875 -0.00103074312210083 0.00080108642578125 0.09895706176757812 -0.07717514038085938
17.72425 -0.09711837768554688 -0.00682830810546875 3.610107421875 1.702880859375 -0.000796884298324585 0.0008684396743774414 0.09415435791015625 -0.08264923095703125
17.734 -0.098968505859375 0.000492095947265625 3.71435546875 1.390625 -0.000565648078918457 0.0007937848567962646 0.09020614624023438 -0.08629989624023438
17.74375 -0.10012054443359375 0.00968170166015625 3.76953125 1.0869140625 -0.001012563705444336 0.0019865036010742188 0.088134765625 -0.0938262939453125
17.7535 -0.09756851196289062 0.015911102294921875 3.806884765625 0.80126953125 0.001518845558166504 0.001450657844543457 0.08278656005859375 -0.09621810913085938
17.76325 -0.09885787963867188 0.024868011474609375 3.837646484375 0.535400390625 -0.0007340013980865479 0.0008523762226104736 0.07464599609375 -0.0985565185546875
17.773 -0.095489501953125 0.030925750732421875 3.84716796875 0.27978515625 0.0008809566497802734 0.0024890899658203125 0.07458877563476562 -0.10021591186523438
17.78275 -0.09504318237304688 0.03833770751953125 3.8572998046875 0.0186767578125 -0.0005425214767456055 0.001023411750793457 0.06787109375 -0.10290145874023438
17.7925 -0.09238815307617188 0.04390716552734375 3.8704833984375 -0.2513427734375 0.0006748437881469727 0.0015703439712524414 0.0639190673828125 -0.10669326782226562
17.80225 -0.09113311767578125 0.051059722900390625 3.867431640625 -0.5419921875 -0.00028070807456970215 0.0008095204830169678 0.05873870849609375 -0.10671234130859375
17.812 -0.0870208740234375 0.059261322021484375 3.8350830078125 -0.8446044921875 0.0004904866218566895 0.0005491971969604492 0.052768707275390625 -0.10936355590820312
17.82175 -0.08314132690429688 0.066436767578125 3.7694091796875 -1.1492919921875 0.0008240044116973877 -0.00020647048950195312 0.04773712158203125 -0.10886383056640625
17.8315 -0.08104705810546875 0.07327651977539062 3.6651611328125 -1.4549560546875 0.0017815828323364258 0.0009301900863647461 0.039958953857421875 -0.11292648315429688
17.84125 -0.076812744140625 0.07942962646484375 3.532470703125 -1.7353515625 0.00013017654418945312 0.002187013626098633 0.035400390625 -0.113433837890625
17.851 -0.07204818725585938 0.08691787719726562 3.361572265625 -1.9876708984375 0.0010281801223754883 0.0012822151184082031 0.02927398681640625 -0.11333847045898438
17.86075 -0.0687408447265625 0.09295654296875 3.1951904296875 -2.211669921875 -0.00019630789756774902 0.0008395016193389893 0.021610260009765625 -0.11259078979492188
17.8705 -0.062358856201171875 0.09859848022460938 3.0250244140625 -2.422119140625 0.0003838539123535156 0.0018123388290405273 0.016887664794921875 -0.1124420166015625
17.88025 -0.05913543701171875 0.10402297973632812 2.8511962890625 -2.625 -0.0002594590187072754 0.0003122389316558838 0.00986480712890625 -0.11283111572265625
17.89 -0.05368804931640625 0.11082839965820312 2.6798095703125 -2.8265380859375 0.0009113550186157227 0.0013706684112548828 0.006256103515625 -0.11070632934570312
17.89975 -0.047954559326171875 0.11555862426757812 2.4776611328125 -3.031005859375 -0.0005178451538085938 0.0006270110607147217 -0.000759124755859375 -0.11117935180664062
17.9095 -0.04312896728515625 0.1199798583984375 2.2611083984375 -3.2373046875 0.0006195306777954102 8.0108642578125e-05 -0.006786346435546875 -0.10877227783203125
17.91925 -0.036327362060546875 0.12293243408203125 2.008056640625 -3.415283203125 0.0009363293647766113 0.0006832480430603027 -0.01107025146484375 -0.10594558715820312
17.929 -0.029388427734375 0.12725830078125 1.744140625 -3.580322265625 0.0003643035888671875 -0.00025787949562072754 -0.01622772216796875 -0.10746002197265625
17.93875 -0.02278900146484375 0.13182830810546875 1.4503173828125 -3.7042236328125 0.0014788508415222168 0.00029587745666503906 -0.02301788330078125 -0.10388946533203125
17.9485 -0.01683807373046875 0.13421630859375 1.1634521484375 -3.7906494140625 0.0007951855659484863 0.0011731982231140137 -0.027862548828125 -0.09906768798828125
17.95825 -0.01012420654296875 0.13764190673828125 0.874267578125 -3.859375 0.0006196498870849609 0.0005680322647094727 -0.031005859375 -0.0970458984375
17.968 -0.0027923583984375 0.1409912109375 0.5980224609375 -3.9078369140625 0.0003884434700012207 0.0013004541397094727 -0.03893280029296875 -0.0954132080078125
17.97775 0.0047454833984375 0.14220428466796875 0.32470703125 -3.936767578125 0.00028836727142333984 0.0008937716484069824 -0.04395294189453125 -0.09024810791015625
17.9875 0.01238250732421875 0.145111083984375 0.04541015625 -3.97021484375 0.0014138221740722656 0.0012122392654418945 -0.04717254638671875 -0.0865936279296875
17.99725 0.0201568603515625 0.1453704833984375 -0.242919921875 -3.992431640625 -0.0001188516616821289 0.0030019283294677734 -0.05240631103515625 -0.0804901123046875
18.007 0.0278472900390625 0.14646148681640625 -0.5439453125 -3.99462890625 0.0008576512336730957 -0.0009399354457855225 -0.0567169189453125 -0.07621002197265625
18.01675 0.03675079345703125 0.14716339111328125 -0.85791015625 -3.968505859375 0.0010640621185302734 0.00028574466705322266 -0.06165313720703125 -0.072021484375
18.0265 0.04410552978515625 0.1493377685546875 -1.17724609375 -3.91455078125 0.0006026029586791992 -0.0001125037670135498 -0.06645965576171875 -0.06745147705078125
18.03625 0.0536651611328125 0.150421142578125 -1.494140625 -3.81201171875 0.0011063814163208008 -0.00036132335662841797 -0.0681304931640625 -0.0611114501953125
18.046 0.0609283447265625 0.14847564697265625 -1.79833984375 -3.68310546875 0.0007624924182891846 0.00018286705017089844 -0.0726318359375 -0.057342529296875
18.05575 0.06932830810546875 0.14669036865234375 -2.070556640625 -3.53466796875 0.001066744327545166 -0.00013810396194458008 -0.07572174072265625 -0.05027008056640625
18.0655 0.076568603515625 0.14722442626953125 -2.325927734375 -3.363525390625 0.0001485198736190796 -2.3096799850463867e-05 -0.0811767578125 -0.0433502197265625
18.07525 0.08440399169921875 0.1453399658203125 -2.56787109375 -3.18359375 0.0009391903877258301 0.00013494491577148438 -0.08085250854492188 -0.037532806396484375
18.085 0.09342193603515625 0.143035888671875 -2.80712890625 -2.991943359375 0.00037436187267303467 1.9252300262451172e-05 -0.0848388671875 -0.032073974609375
18.09475 0.1007080078125 0.1394805908203125 -3.036865234375 -2.789306640625 0.0010821819305419922 -0.00018513202667236328 -0.08271026611328125 -0.02649688720703125
18.1045 0.1081695556640625 0.13674163818359375 -3.2548828125 -2.5673828125 0.0015388727188110352 9.578466415405273e-05 -0.08648681640625 -0.01799774169921875
18.11425 0.116455078125 0.133209228515625 -3.46484375 -2.31396484375 0.0008513927459716797 0.0009831786155700684 -0.08713531494140625 -0.011932373046875
18.124 0.122344970703125 0.128997802734375 -3.65234375 -2.04541015625 0.0005532503128051758 -0.001111149787902832 -0.085540771484375 -0.00415802001953125
18.13375 0.12969970703125 0.125457763671875 -3.81396484375 -1.760498046875 0.0009551346302032471 -0.000338822603225708 -0.08584976196289062 0.001781463623046875
18.1435 0.136962890625 0.1200103759765625 -3.9482421875 -1.456298828125 0.00021213293075561523 -4.89354133605957e-05 -0.08626556396484375 0.011386871337890625
18.15325 0.1429595947265625 0.1140594482421875 -4.061767578125 -1.14306640625 0.0004112720489501953 -0.0013143420219421387 -0.08514404296875 0.016262054443359375
18.163 0.1513671875 0.107208251953125 -4.14111328125 -0.827880859375 0.00048664212226867676 -0.0008957087993621826 -0.08257293701171875 0.025325775146484375
18.17275 0.155426025390625 0.1026611328125 -4.198486328125 -0.50390625 0.0014815330505371094 0.00017964839935302734 -0.08009719848632812 0.03287506103515625
18.1825 0.1640472412109375 0.0947265625 -4.237548828125 -0.182373046875 0.00027748942375183105 -7.264316082000732e-05 -0.076751708984375 0.041027069091796875
18.19225 0.168853759765625 0.08734130859375 -4.263427734375 0.156494140625 0.00047488510608673096 -1.831352710723877e-05 -0.07385635375976562 0.0478515625
18.202 0.1743011474609375 0.08062744140625 -4.2509765625 0.48779296875 0.0006014406681060791 -0.0008170604705810547 -0.07094573974609375 0.0543975830078125
18.21175 0.1792449951171875 0.0733642578125 -4.20556640625 0.83935546875 0.0001112818717956543 -0.0007985234260559082 -0.06528472900390625 0.060333251953125
18.2215 0.18453216552734375 0.06514739990234375 -4.127685546875 1.17822265625 -0.0004653036594390869 7.079541683197021e-05 -0.061061859130859375 0.06515121459960938
18.23125 0.18930816650390625 0.05768585205078125 -4.01806640625 1.5 0.0007832050323486328 -0.00046634674072265625 -0.057338714599609375 0.06995773315429688
18.241 0.1926116943359375 0.04946136474609375 -3.8824462890625 1.806396484375 0.000832676887512207 -0.0006134510040283203 -0.05173492431640625 0.076568603515625
18.25075 0.19452667236328125 0.04100799560546875 -3.73046875 2.0970458984375 0.0009834766387939453 -0.0004330277442932129 -0.046100616455078125 0.08081817626953125
18.2605 0.19789886474609375 0.03195953369140625 -3.5574951171875 2.370361328125 9.961426258087158e-05 -0.00045436620712280273 -0.0393524169921875 0.08664321899414062
18.27025 0.19910430908203125 0.02230072021484375 -3.3741455078125 2.6405029296875 0.00040733814239501953 0.00034493207931518555 -0.03197479248046875 0.090911865234375
18.28 0.20061492919921875 0.0132904052734375 -3.172119140625 2.9139404296875 0.0003736913204193115 0.00013449788093566895 -0.025096893310546875 0.09316635131835938
18.28975 0.202850341796875 0.00315093994140625 -2.9464111328125 3.166259765625 0.0003421902656555176 0.0006395578384399414 -0.01621246337890625 0.09738540649414062
18.2995 0.20263671875 -0.00496673583984375 -2.6817626953125 3.403564453125 0.0007246136665344238 0.0001722276210784912 -0.007801055908203125 0.09680557250976562
18.30925 0.2024383544921875 -0.015533447265625 -2.387939453125 3.61328125 0.0008133053779602051 5.692243576049805e-05 0.00063323974609375 0.1007232666015625
18.319 0.2000274658203125 -0.0258331298828125 -2.080810546875 3.7906494140625 -5.218386650085449e-05 0.0005851984024047852 0.008213043212890625 0.10242843627929688
18.32875 0.19891357421875 -0.03271484375 -1.764892578125 3.9244384765625 -0.00010034069418907166 -1.560896635055542e-06 0.018764495849609375 0.10408401489257812
18.3385 0.19649505615234375 -0.043304443359375 -1.448486328125 4.030029296875 -0.0003446340560913086 -0.0004335641860961914 0.02691650390625 0.105560302734375
18.34825 0.1954803466796875 -0.0537109375 -1.139892578125 4.12255859375 0.0006197690963745117 0.0006594061851501465 0.03363037109375 0.10520172119140625
18.358 0.19371795654296875 -0.061920166015625 -0.83203125 4.192626953125 -0.000844806432723999 0.0005664229393005371 0.04270172119140625 0.10320281982421875
18.36775 0.18984222412109375 -0.070648193359375 -0.5029296875 4.250244140625 0.00019240379333496094 -0.0002386048436164856 0.0513458251953125 0.10076904296875
18.3775 0.1867828369140625 -0.0785064697265625 -0.18310546875 4.292724609375 0.00014531612396240234 0.0004412233829498291 0.05919647216796875 0.0991668701171875
18.38725 0.1818389892578125 -0.08728790283203125 0.169677734375 4.300537109375 -0.000270843505859375 -0.0006396770477294922 0.0674896240234375 0.0970306396484375
18.397 0.1785736083984375 -0.0966796875 0.5234375 4.2744140625 3.49879264831543e-05 -0.0005927681922912598 0.0752716064453125 0.094024658203125
18.40675 0.1726531982421875 -0.101654052734375 0.88427734375 4.2109375 -0.0002453923225402832 -0.0005834698677062988 0.08306884765625 0.0883026123046875
18.4165 0.16667938232421875 -0.1107635498046875 1.21337890625 4.1025390625 -0.000398293137550354 -2.8267502784729004e-05 0.0894317626953125 0.08327484130859375
18.42625 0.1605224609375 -0.11792755126953125 1.528076171875 3.965087890625 0.0005478858947753906 5.754828453063965e-05 0.09777069091796875 0.07928466796875
18.436 0.1522064208984375 -0.1234130859375 1.80712890625 3.806884765625 -4.76837158203125e-05 -0.001165926456451416 0.105560302734375 0.0715179443359375
18.44575 0.14678192138671875 -0.13014984130859375 2.068603515625 3.645263671875 -0.00019937753677368164 -0.0007935166358947754 0.10982513427734375 0.06591796875
18.4555 0.1385040283203125 -0.13675689697265625 2.321533203125 3.47265625 -0.00010707974433898926 0.0005406439304351807 0.11476898193359375 0.0583648681640625
18.46525 0.1328125 -0.1419830322265625 2.572509765625 3.302490234375 1.1861324310302734e-05 -0.0011521577835083008 0.119537353515625 0.04729461669921875
18.475 0.12433624267578125 -0.146453857421875 2.821533203125 3.111572265625 -4.172325134277344e-05 -0.0008725821971893311 0.12646484375 0.04137420654296875
18.48475 0.117462158203125 -0.15238189697265625 3.065673828125 2.884765625 -0.00032323598861694336 -0.0002497434616088867 0.12825775146484375 0.03119659423828125
18.4945 0.1076812744140625 -0.1542205810546875 3.293212890625 2.61962890625 0.0003819465637207031 -0.0006534159183502197 0.13288116455078125 0.02121734619140625
18.50425 0.099273681640625 -0.1610107421875 3.49462890625 2.33056640625 0.00026214122772216797 -7.480382919311523e-05 0.1333465576171875 0.0121917724609375
18.514 0.093017578125 -0.16326904296875 3.65380859375 2.0234375 0.0006066560745239258 -0.0005701184272766113 0.13677978515625 0.00433349609375
18.52375 0.08446502685546875 -0.16394805908203125 3.764892578125 1.7080078125 0.0011688470840454102 -0.0008915066719055176 0.136566162109375 -0.00628662109375
18.5335 0.07636260986328125 -0.1670379638671875 3.84521484375 1.406982421875 0.00014857947826385498 -0.0004517883062362671 0.13704681396484375 -0.01538848876953125
18.54325 0.0677490234375 -0.16965484619140625 3.901123046875 1.119384765625 0.0006918609142303467 -0.0002810359001159668 0.13567352294921875 -0.02452850341796875
18.553 0.0603179931640625 -0.17073822021484375 3.94677734375 0.835693359375 -0.001184701919555664 0.0003383755683898926 0.132415771484375 -0.03301239013671875
18.56275 0.05233001708984375 -0.1711883544921875 3.98779296875 0.55712890625 -0.0005731582641601562 9.918212890625e-05 0.13048553466796875 -0.04074859619140625
18.5725 0.0428009033203125 -0.17200469970703125 4.016845703125 0.266357421875 3.27378511428833e-05 0.0003409385681152344 0.12689971923828125 -0.04886627197265625
18.58225 0.03572845458984375 -0.170623779296875 4.029052734375 -0.037841796875 1.35861337184906e-05 2.35680490732193e-05 0.122100830078125 -0.05722808837890625
18.592 0.02663421630859375 -0.171844482421875 4.009521484375 -0.349609375 2.493336796760559e-05 8.62516462802887e-05 0.11742782592773438 -0.06467437744140625
18.60175 0.0198516845703125 -0.16998291015625 3.962646484375 -0.665771484375 -0.00011527538299560547 -0.00016137957572937012 0.1123504638671875 -0.0720367431640625
18.6115 0.0128631591796875 -0.16838836669921875 3.869140625 -0.966552734375 -0.00021153688430786133 -0.0009305477142333984 0.10791397094726562 -0.0789794921875
18.62125 0.00409698486328125 -0.167694091796875 3.755615234375 -1.2464599609375 0.0003445744514465332 -0.00012102723121643066 0.09899520874023438 -0.08366775512695312
18.631 -0.0028839111328125 -0.1670989990234375 3.6217041015625 -1.4912109375 0.0006093084812164307 -0.0005887150764465332 0.09337997436523438 -0.09081649780273438
18.64075 -0.0106048583984375 -0.1641998291015625 3.480712890625 -1.7237548828125 0.0003987550735473633 0.00021392107009887695 0.08699798583984375 -0.093994140625
18.6505 -0.017181396484375 -0.1625213623046875 3.3419189453125 -1.9429931640625 0.0004966557025909424 -0.00019890069961547852 0.08084487915039062 -0.09949493408203125
18.66025 -0.026153564453125 -0.15970611572265625 3.2022705078125 -2.1602783203125 -0.0007122159004211426 -0.000518798828125 0.07128524780273438 -0.10039520263671875
18.67 -0.029449462890625 -0.15587615966796875 3.050048828125 -2.375244140625 0.00013378262519836426 0.00020898878574371338 0.06673049926757812 -0.10284423828125
18.67975 -0.03859710693359375 -0.15346527099609375 2.8848876953125 -2.593994140625 0.0007943511009216309 -0.0005095005035400391 0.058307647705078125 -0.106109619140625
18.6895 -0.04512786865234375 -0.149688720703125 2.685302734375 -2.8062744140625 0.0007276535034179688 -0.0014649033546447754 0.053218841552734375 -0.10522079467773438
