!Created with skrf (http://scikit-rf.org).
# GHz S RI R 50.0 
!freq ReS11 ImS11 ReS21 ImS21 ReS12 ImS12 ReS22 ImS22
17.5 -0.001556396484375 -0.14544677734375 1.17822265625 -4.67578125 -0.0017070174217224121 -9.5367431640625e-07 0.10480117797851562 -0.012493133544921875
17.50975 -0.013427734375 -0.1408233642578125 0.820068359375 -4.744873046875 -0.0012376904487609863 0.0008375048637390137 0.10420989990234375 -0.012477874755859375
17.5195 -0.01894378662109375 -0.1358184814453125 0.45263671875 -4.7802734375 -0.0007112026214599609 -0.000298917293548584 0.10725784301757812 -0.0155792236328125
17.52925 -0.028411865234375 -0.132568359375 0.091796875 -4.80517578125 -0.0012475252151489258 0.00042378902435302734 0.1077117919921875 -0.0194854736328125
17.539 -0.034149169921875 -0.1258544921875 -0.26611328125 -4.794921875 -0.0014187097549438477 0.0004000663757324219 0.1081695556640625 -0.02236175537109375
17.54875 -0.042755126953125 -0.12204742431640625 -0.6171875 -4.75732421875 -0.0012807250022888184 0.0014597177505493164 0.10927200317382812 -0.025981903076171875
17.5585 -0.05229949951171875 -0.11519622802734375 -0.968505859375 -4.70458984375 -0.0010149478912353516 0.0005525350570678711 0.11008071899414062 -0.029994964599609375
17.56825 -0.05687713623046875 -0.110260009765625 -1.304443359375 -4.637939453125 -0.0006476342678070068 0.0006539523601531982 0.11018753051757812 -0.03475189208984375
17.578 -0.06450653076171875 -0.10353851318359375 -1.663818359375 -4.534912109375 -0.00125199556350708 0.001217961311340332 0.11045455932617188 -0.03842926025390625
17.58775 -0.06960296630859375 -0.09784698486328125 -2.01708984375 -4.405517578125 -0.0009217262268066406 0.0018768310546875 0.11002349853515625 -0.041561126708984375
17.5975 -0.0736541748046875 -0.09012603759765625 -2.363037109375 -4.23046875 -0.0004914700984954834 0.0004495084285736084 0.10889053344726562 -0.044315338134765625
17.60725 -0.0785675048828125 -0.0853729248046875 -2.681396484375 -4.027099609375 -0.00048220157623291016 0.0006094872951507568 0.10750198364257812 -0.0488739013671875
17.617 -0.08356475830078125 -0.0763397216796875 -2.974609375 -3.79296875 -0.0019919872283935547 0.0014200210571289062 0.10700225830078125 -0.05202484130859375
17.62675 -0.088134765625 -0.0688323974609375 -3.2392578125 -3.54638671875 -0.0009660124778747559 6.759166717529297e-05 0.10520172119140625 -0.0538177490234375
17.6365 -0.0915069580078125 -0.05975341796875 -3.47900390625 -3.2841796875 -0.0004284381866455078 0.001267552375793457 0.103546142578125 -0.0587615966796875
17.64625 -0.093505859375 -0.05229949951171875 -3.6875 -3.028076171875 -0.0010885000228881836 0.0011205673217773438 0.09937286376953125 -0.06251144409179688
17.656 -0.096405029296875 -0.04566192626953125 -3.88916015625 -2.7685546875 -0.0007262527942657471 0.0006557703018188477 0.09649658203125 -0.06701278686523438
17.66575 -0.096954345703125 -0.035247802734375 -4.088623046875 -2.5068359375 -0.0011134743690490723 0.0001404881477355957 0.09555816650390625 -0.07016754150390625
17.6755 -0.10157012939453125 -0.02788543701171875 -4.27783203125 -2.226318359375 -0.0019909143447875977 -0.00010395050048828125 0.09149551391601562 -0.07456588745117188
17.68525 -0.10157012939453125 -0.018428802490234375 -4.473388671875 -1.93505859375 -0.0012218952178955078 0.0018660426139831543 0.08819961547851562 -0.07761764526367188
17.695 -0.10152816772460938 -0.010730743408203125 -4.65185546875 -1.595703125 -0.00045990943908691406 0.0016475319862365723 0.08556365966796875 -0.08037567138671875
17.70475 -0.10232925415039062 -0.001346588134765625 -4.797607421875 -1.2216796875 -0.0013036727905273438 0.0009250044822692871 0.07883834838867188 -0.08165740966796875
17.7145 -0.10248565673828125 0.005687713623046875 -4.90966796875 -0.821044921875 -0.0005080103874206543 0.0014725923538208008 0.07487106323242188 -0.08658981323242188
17.72425 -0.10215377807617188 0.01480865478515625 -4.957763671875 -0.413330078125 0.0003209710121154785 0.001454472541809082 0.07165145874023438 -0.0900421142578125
17.734 -0.1005096435546875 0.02277374267578125 -4.96044921875 -0.01708984375 -0.0006613731384277344 0.0006264448165893555 0.0671539306640625 -0.09078216552734375
17.74375 -0.1005859375 0.02850341796875 -4.91064453125 0.35693359375 0.00033295154571533203 0.001031637191772461 0.06230926513671875 -0.09427642822265625
17.7535 -0.0969085693359375 0.03806304931640625 -4.857421875 0.711181640625 -0.0006875991821289062 0.001061856746673584 0.057342529296875 -0.09679031372070312
17.76325 -0.09227752685546875 0.04497528076171875 -4.79931640625 1.043701171875 8.413195610046387e-05 0.0006778240203857422 0.051364898681640625 -0.09719085693359375
17.773 -0.09285354614257812 0.05084228515625 -4.72802734375 1.37255859375 6.982684135437012e-05 0.0008405148983001709 0.047954559326171875 -0.09788894653320312
17.78275 -0.08786773681640625 0.058246612548828125 -4.636474609375 1.7080078125 0.0008209347724914551 0.0014228224754333496 0.04596710205078125 -0.0981903076171875
17.7925 -0.08416366577148438 0.06451797485351562 -4.5419921875 2.0556640625 0.00019109249114990234 0.0019894838333129883 0.0399627685546875 -0.10040283203125
17.80225 -0.0813140869140625 0.06975555419921875 -4.416748046875 2.42333984375 0.000798642635345459 0.0010448098182678223 0.0357208251953125 -0.1002197265625
17.812 -0.0749969482421875 0.07743072509765625 -4.23974609375 2.78076171875 0.0005239248275756836 0.0020914077758789062 0.029041290283203125 -0.09674072265625
17.82175 -0.06985092163085938 0.08446502685546875 -4.03076171875 3.126953125 -0.0007752180099487305 0.0014341473579406738 0.026592254638671875 -0.095794677734375
17.8315 -0.06576156616210938 0.08992385864257812 -3.77978515625 3.455322265625 0.0006797313690185547 0.0003121495246887207 0.021514892578125 -0.09606552124023438
17.84125 -0.0617828369140625 0.0946807861328125 -3.50244140625 3.752197265625 0.0016694068908691406 0.00115203857421875 0.01625823974609375 -0.09632110595703125
17.851 -0.055572509765625 0.10082244873046875 -3.189697265625 4.001953125 0.0006230473518371582 0.0004407167434692383 0.0129547119140625 -0.09809494018554688
17.86075 -0.050128936767578125 0.10424423217773438 -2.891845703125 4.23193359375 -0.0006325244903564453 0.0016399025917053223 0.00641632080078125 -0.09452438354492188
17.8705 -0.0439605712890625 0.1088714599609375 -2.575927734375 4.442626953125 -0.0011851191520690918 0.0006416440010070801 0.00109100341796875 -0.09299850463867188
17.88025 -0.037372589111328125 0.11399078369140625 -2.252197265625 4.639404296875 -3.4332275390625e-05 0.0005640685558319092 -0.001983642578125 -0.09317398071289062
17.89 -0.03281402587890625 0.119110107421875 -1.922607421875 4.82373046875 -0.0004611015319824219 0.0016532540321350098 -0.005451202392578125 -0.0902099609375
17.89975 -0.025775909423828125 0.12078094482421875 -1.550048828125 5.0 -0.00039637088775634766 0.0018059015274047852 -0.011993408203125 -0.08864212036132812
17.9095 -0.02021026611328125 0.1245880126953125 -1.160888671875 5.148681640625 0.0011470913887023926 0.00015169382095336914 -0.015289306640625 -0.0847930908203125
17.91925 -0.0135345458984375 0.12522125244140625 -0.75146484375 5.248779296875 0.0014139413833618164 0.0010703802108764648 -0.018459320068359375 -0.08376312255859375
17.929 -0.0070037841796875 0.1286163330078125 -0.32958984375 5.33056640625 0.0006324052810668945 0.0007441043853759766 -0.0229034423828125 -0.0816497802734375
17.93875 -0.00160980224609375 0.128692626953125 0.100830078125 5.35302734375 0.0010237693786621094 5.9723854064941406e-05 -0.026790618896484375 -0.07777786254882812
17.9485 0.0056304931640625 0.1316680908203125 0.517578125 5.33349609375 -0.0007688999176025391 0.00037357211112976074 -0.02745819091796875 -0.07405471801757812
17.95825 0.01116180419921875 0.13065338134765625 0.935302734375 5.291748046875 0.0006822943687438965 0.0008417367935180664 -0.031024932861328125 -0.07201766967773438
17.968 0.01816558837890625 0.132843017578125 1.34130859375 5.220703125 0.00048172473907470703 0.0005596280097961426 -0.0337982177734375 -0.07028961181640625
17.97775 0.0256195068359375 0.13195037841796875 1.73779296875 5.117431640625 -8.878111839294434e-05 0.0006270110607147217 -0.037342071533203125 -0.06406021118164062
17.9875 0.0325927734375 0.13208770751953125 2.146484375 5.0 -0.00015085935592651367 0.001003563404083252 -0.039127349853515625 -0.062191009521484375
17.99725 0.04041290283203125 0.1319732666015625 2.55419921875 4.85595703125 0.00031945109367370605 0.00043660402297973633 -0.042644500732421875 -0.057468414306640625
18.007 0.0465087890625 0.131591796875 2.958251953125 4.66015625 0.0014028549194335938 0.00023412704467773438 -0.044277191162109375 -0.05446624755859375
18.01675 0.05416107177734375 0.1315765380859375 3.346923828125 4.425537109375 0.000371396541595459 0.0011906027793884277 -0.04715728759765625 -0.0496368408203125
18.0265 0.0586090087890625 0.1302642822265625 3.72607421875 4.1572265625 0.0007712841033935547 0.00015479326248168945 -0.05173492431640625 -0.04541778564453125
18.03625 0.065765380859375 0.128875732421875 4.0634765625 3.83349609375 0.00010728836059570312 0.000607907772064209 -0.0519256591796875 -0.04151153564453125
18.046 0.07244110107421875 0.1282806396484375 4.377685546875 3.482666015625 0.0011383295059204102 1.049041748046875e-05 -0.053180694580078125 -0.037471771240234375
18.05575 0.07933807373046875 0.124359130859375 4.636474609375 3.123291015625 -0.00010412931442260742 0.00031134486198425293 -0.056362152099609375 -0.03313446044921875
18.0655 0.08458709716796875 0.1233367919921875 4.87109375 2.74755859375 0.0009576678276062012 0.00025910139083862305 -0.059452056884765625 -0.028247833251953125
18.07525 0.08989715576171875 0.11992645263671875 5.078857421875 2.352294921875 0.0012295842170715332 0.00038754940032958984 -0.058971405029296875 -0.024074554443359375
18.085 0.0959930419921875 0.11759185791015625 5.265380859375 1.94091796875 0.0008454322814941406 0.0006800293922424316 -0.059734344482421875 -0.01973724365234375
18.09475 0.1008758544921875 0.1144866943359375 5.425537109375 1.51904296875 0.0005362033843994141 0.00013059377670288086 -0.05902862548828125 -0.016529083251953125
18.1045 0.10703277587890625 0.11090087890625 5.552734375 1.076904296875 0.0002346336841583252 0.0001757591962814331 -0.061214447021484375 -0.01003265380859375
18.11425 0.112945556640625 0.109161376953125 5.635986328125 0.604736328125 0.0006507933139801025 -0.0005610287189483643 -0.060100555419921875 -0.005489349365234375
18.124 0.1162872314453125 0.1052703857421875 5.67724609375 0.1357421875 0.0012633800506591797 0.0015282630920410156 -0.058502197265625 -4.57763671875e-05
18.13375 0.122100830078125 0.1014862060546875 5.6689453125 -0.329345703125 0.0017179250717163086 0.0016303062438964844 -0.05841827392578125 0.005107879638671875
18.1435 0.1261749267578125 0.0980224609375 5.6181640625 -0.79638671875 0.0008608102798461914 0.00038164854049682617 -0.05853843688964844 0.01157379150390625
18.15325 0.13161468505859375 0.09346771240234375 5.52392578125 -1.2568359375 0.0016922950744628906 -0.00038748979568481445 -0.057331085205078125 0.015569686889648438
18.163 0.1371612548828125 0.08716583251953125 5.39599609375 -1.6923828125 0.000979006290435791 9.018182754516602e-05 -0.056499481201171875 0.022520065307617188
18.17275 0.1419525146484375 0.082794189453125 5.227783203125 -2.1142578125 0.0006144940853118896 0.00014069676399230957 -0.05126190185546875 0.024810791015625
18.1825 0.14643096923828125 0.077972412109375 5.056396484375 -2.53076171875 0.0007367432117462158 7.614493370056152e-05 -0.05005645751953125 0.031524658203125
18.19225 0.1489105224609375 0.071746826171875 4.83642578125 -2.94384765625 0.0005204677581787109 -0.0014635920524597168 -0.04815673828125 0.035404205322265625
18.202 0.154144287109375 0.0677032470703125 4.5849609375 -3.32275390625 9.083747863769531e-05 -0.0005133152008056641 -0.047565460205078125 0.0408935546875
18.21175 0.1580963134765625 0.0618896484375 4.2900390625 -3.70166015625 4.534423351287842e-05 0.00018355250358581543 -0.042011260986328125 0.045680999755859375
18.2215 0.16184234619140625 0.0550689697265625 3.954345703125 -4.045166015625 -0.0003363490104675293 -0.0011358261108398438 -0.03934288024902344 0.049625396728515625
18.23125 0.16637420654296875 0.04953765869140625 3.600830078125 -4.344482421875 0.0006347596645355225 -0.000284731388092041 -0.03745269775390625 0.052616119384765625
18.241 0.168914794921875 0.04351806640625 3.22509765625 -4.6044921875 -0.0001490563154220581 -6.546080112457275e-05 -0.031620025634765625 0.05599212646484375
18.25075 0.17049407958984375 0.03751373291015625 2.831298828125 -4.82373046875 0.0003147423267364502 0.0005742311477661133 -0.028898239135742188 0.05936241149902344
18.2605 0.1737823486328125 0.031890869140625 2.431884765625 -5.011962890625 0.001611173152923584 -0.0005091428756713867 -0.024227142333984375 0.06424713134765625
18.27025 0.17533111572265625 0.0247344970703125 2.025634765625 -5.18017578125 0.00014334917068481445 -0.0011981725692749023 -0.01830291748046875 0.06668853759765625
18.28 0.17708587646484375 0.0170745849609375 1.602294921875 -5.32958984375 0.0003483593463897705 -0.000587761402130127 -0.012874603271484375 0.06768417358398438
18.28975 0.18097686767578125 0.00860595703125 1.17529296875 -5.431640625 0.0001488327980041504 -0.001742243766784668 -0.0069732666015625 0.07112884521484375
18.2995 0.1800994873046875 0.00156402587890625 0.7294921875 -5.505126953125 -0.0006540417671203613 -0.0006805658340454102 -7.62939453125e-06 0.07094955444335938
18.30925 0.1807403564453125 -0.005889892578125 0.267578125 -5.52587890625 0.0009199380874633789 0.0001647472381591797 0.005035400390625 0.07230377197265625
18.319 0.18068695068359375 -0.014251708984375 -0.190185546875 -5.511474609375 -0.0004398822784423828 -0.00014910101890563965 0.01065826416015625 0.07579803466796875
18.32875 0.18093109130859375 -0.02060699462890625 -0.63134765625 -5.44921875 -3.361701965332031e-05 -0.0003265887498855591 0.017154693603515625 0.07584762573242188
18.3385 0.18094635009765625 -0.0294647216796875 -1.060546875 -5.350341796875 0.00014385581016540527 -6.665289402008057e-05 0.023345947265625 0.07712173461914062
18.34825 0.1798248291015625 -0.03771209716796875 -1.4716796875 -5.23974609375 0.0003268718719482422 0.00029397010803222656 0.030643463134765625 0.0779876708984375
18.358 0.17889404296875 -0.0435028076171875 -1.867431640625 -5.09130859375 0.0006749629974365234 0.0005412101745605469 0.0370941162109375 0.0756988525390625
18.36775 0.17906951904296875 -0.05242919921875 -2.26220703125 -4.912353515625 0.0003192424774169922 -0.0006109476089477539 0.04265594482421875 0.0739593505859375
18.3775 0.176422119140625 -0.05942535400390625 -2.638427734375 -4.724365234375 0.001114964485168457 -0.0005893111228942871 0.04767608642578125 0.07364654541015625
18.38725 0.1728057861328125 -0.06836700439453125 -3.016357421875 -4.485595703125 -0.00020806491374969482 -3.647059202194214e-05 0.05333709716796875 0.07183074951171875
18.397 0.1722412109375 -0.075469970703125 -3.359375 -4.2099609375 -6.580352783203125e-05 -0.000956416130065918 0.0604705810546875 0.0698394775390625
18.40675 0.1677093505859375 -0.0815582275390625 -3.69482421875 -3.8994140625 1.150369644165039e-05 -0.0005638003349304199 0.06695556640625 0.06634521484375
18.4165 0.16390228271484375 -0.08980560302734375 -3.97021484375 -3.561279296875 -8.830428123474121e-05 0.00026758015155792236 0.0700225830078125 0.0626983642578125
18.42625 0.15976715087890625 -0.09700775146484375 -4.207275390625 -3.203857421875 0.0005491971969604492 -0.0013121366500854492 0.0783843994140625 0.0580596923828125
18.436 0.1552886962890625 -0.10253143310546875 -4.407470703125 -2.8466796875 0.0007210373878479004 0.00021818280220031738 0.0839691162109375 0.054473876953125
18.44575 0.1500091552734375 -0.1091461181640625 -4.5849609375 -2.484375 -0.0005180239677429199 0.0004010796546936035 0.08559417724609375 0.0479888916015625
18.4555 0.143829345703125 -0.1161346435546875 -4.734375 -2.11572265625 -0.00011435151100158691 -0.00011999905109405518 0.08953094482421875 0.041961669921875
18.46525 0.14003753662109375 -0.12306976318359375 -4.877685546875 -1.745361328125 -0.0005771815776824951 -0.00036284327507019043 0.09329986572265625 0.03521728515625
18.475 0.131805419921875 -0.1291351318359375 -4.995849609375 -1.36181640625 0.0001670941710472107 2.8312206268310547e-06 0.09854888916015625 0.0301513671875
18.48475 0.128326416015625 -0.13520050048828125 -5.08056640625 -0.948974609375 0.00020645558834075928 0.0002685040235519409 0.1022796630859375 0.02429962158203125
18.4945 0.1194000244140625 -0.139251708984375 -5.122314453125 -0.518798828125 -0.00042822957038879395 -0.00012034177780151367 0.10442352294921875 0.016326904296875
18.50425 0.1125946044921875 -0.1459808349609375 -5.12158203125 -0.08349609375 0.001089930534362793 -0.0001780986785888672 0.1064453125 0.0105438232421875
18.514 0.10699462890625 -0.149688720703125 -5.07177734375 0.33203125 0.0005035400390625 0.0006113052368164062 0.1082763671875 0.00519561767578125
18.52375 0.09864044189453125 -0.1522216796875 -4.96875 0.732666015625 -0.0003160834312438965 -0.000841975212097168 0.10747909545898438 -0.003662109375
18.5335 0.093017578125 -0.158203125 -4.8447265625 1.104736328125 0.0014624595642089844 -0.0004494190216064453 0.11085891723632812 -0.010540008544921875
18.54325 0.08525848388671875 -0.16297149658203125 -4.6982421875 1.444091796875 -8.112192153930664e-05 -0.00035031139850616455 0.10827255249023438 -0.017177581787109375
18.553 0.07663726806640625 -0.16553497314453125 -4.535888671875 1.77294921875 -0.0001735985279083252 -0.0003074854612350464 0.1056365966796875 -0.020782470703125
18.56275 0.069732666015625 -0.16637420654296875 -4.3759765625 2.08984375 -0.00010639429092407227 -0.0008763372898101807 0.106109619140625 -0.0292205810546875
18.5725 0.0608978271484375 -0.16857147216796875 -4.190185546875 2.403076171875 -0.0004646182060241699 -0.0004818737506866455 0.10072708129882812 -0.03582763671875
18.58225 0.05338287353515625 -0.1703948974609375 -3.9786376953125 2.709228515625 -0.00047659873962402344 -5.5462121963500977e-05 0.09868240356445312 -0.04288482666015625
18.592 0.0438690185546875 -0.17267608642578125 -3.7318115234375 3.00341796875 -0.0002727806568145752 0.00023108720779418945 0.09607315063476562 -0.047389984130859375
18.60175 0.0358734130859375 -0.17364501953125 -3.4619140625 3.278564453125 -0.0007768869400024414 0.00025337934494018555 0.0931243896484375 -0.05188751220703125
18.6115 0.026947021484375 -0.1726531982421875 -3.16455078125 3.5107421875 0.00044220685958862305 -0.0017794370651245117 0.08871078491210938 -0.060100555419921875
18.62125 0.01900482177734375 -0.17281341552734375 -2.84814453125 3.7086181640625 0.0005550086498260498 -0.00041675567626953125 0.08547210693359375 -0.06433868408203125
18.631 0.01079559326171875 -0.17214202880859375 -2.5408935546875 3.8580322265625 0.0005398988723754883 -0.0007757842540740967 0.07901382446289062 -0.0693359375
18.64075 0.00334930419921875 -0.17128753662109375 -2.228759765625 3.989013671875 -0.0006080269813537598 -0.0005882978439331055 0.07602691650390625 -0.07185745239257812
18.6505 -0.0055694580078125 -0.17128753662109375 -1.92919921875 4.10498046875 0.0004184842109680176 -0.0014011859893798828 0.07018661499023438 -0.07627105712890625
18.66025 -0.0141754150390625 -0.167999267578125 -1.626220703125 4.20703125 0.00028631091117858887 -0.00015544891357421875 0.06491470336914062 -0.0774688720703125
18.67 -0.02099609375 -0.16577911376953125 -1.31640625 4.296630859375 -0.0006020069122314453 -0.0015499591827392578 0.059246063232421875 -0.0789337158203125
18.67975 -0.0308074951171875 -0.16297149658203125 -0.99462890625 4.37744140625 0.000799715518951416 -0.0007399916648864746 0.053203582763671875 -0.08252716064453125
18.6895 -0.03823089599609375 -0.16016387939453125 -0.652587890625 4.42431640625 -0.0004795193672180176 -0.0011303424835205078 0.048450469970703125 -0.08055496215820312
