!Created with skrf (http://scikit-rf.org).
# GHz S RI R 50.0 
!freq ReS11 ImS11 ReS21 ImS21 ReS12 ImS12 ReS22 ImS22
17.5 0.00205230712890625 -0.14925384521484375 2.84033203125 -2.8935546875 -0.000758826732635498 0.001037299633026123 0.106903076171875 -0.005886077880859375
17.50975 -0.0082550048828125 -0.14618682861328125 2.6046142578125 -3.1009521484375 -0.0019861459732055664 0.0005689859390258789 0.11058807373046875 -0.007419586181640625
17.5195 -0.01641845703125 -0.140716552734375 2.35595703125 -3.2825927734375 -0.0012398362159729004 0.000816047191619873 0.11088943481445312 -0.011165618896484375
17.52925 -0.0253753662109375 -0.13614654541015625 2.0997314453125 -3.453857421875 -0.0008113682270050049 0.00047576427459716797 0.11396026611328125 -0.0157318115234375
17.539 -0.0313720703125 -0.130035400390625 1.83544921875 -3.600341796875 -0.001287698745727539 0.0012707710266113281 0.113983154296875 -0.018798828125
17.54875 -0.04080963134765625 -0.126617431640625 1.559814453125 -3.720947265625 -0.001215219497680664 0.001376032829284668 0.11541748046875 -0.02262115478515625
17.5585 -0.05007171630859375 -0.12055206298828125 1.28515625 -3.83740234375 -0.0018428564071655273 0.0009175539016723633 0.11668777465820312 -0.026088714599609375
17.56825 -0.054779052734375 -0.11541748046875 1.008544921875 -3.9293212890625 -0.0004097670316696167 9.804964065551758e-06 0.11676406860351562 -0.032054901123046875
17.578 -0.06256866455078125 -0.1070709228515625 0.703125 -4.010986328125 -0.0018268823623657227 0.0006517171859741211 0.11656570434570312 -0.034793853759765625
17.58775 -0.0685272216796875 -0.103515625 0.384765625 -4.062744140625 -0.0017399191856384277 5.924701690673828e-05 0.11615753173828125 -0.03997802734375
17.5975 -0.07329559326171875 -0.0960540771484375 0.0537109375 -4.086181640625 -0.0009833574295043945 0.0006505846977233887 0.1155242919921875 -0.04387664794921875
17.60725 -0.0782623291015625 -0.09027099609375 -0.268798828125 -4.06884765625 -0.0002162456512451172 0.0005812942981719971 0.1133270263671875 -0.048175811767578125
17.617 -0.08454132080078125 -0.0821380615234375 -0.582763671875 -4.023193359375 -0.0002675056457519531 0.0021044015884399414 0.11351776123046875 -0.05237579345703125
17.62675 -0.088287353515625 -0.074615478515625 -0.88525390625 -3.94677734375 -0.0014088153839111328 0.0017766952514648438 0.113006591796875 -0.05370330810546875
17.6365 -0.0908966064453125 -0.065887451171875 -1.16748046875 -3.85498046875 -2.8252601623535156e-05 0.0012871026992797852 0.1100006103515625 -0.060089111328125
17.64625 -0.09458160400390625 -0.057586669921875 -1.42822265625 -3.75 -0.001092672348022461 0.002282381057739258 0.10733413696289062 -0.06518936157226562
17.656 -0.0976715087890625 -0.05120849609375 -1.682373046875 -3.646728515625 -0.0006507635116577148 0.0010221004486083984 0.10372161865234375 -0.06926345825195312
17.66575 -0.10019683837890625 -0.0417327880859375 -1.938720703125 -3.54052734375 -0.0007538795471191406 0.0015114545822143555 0.10172653198242188 -0.0731964111328125
17.6755 -0.102813720703125 -0.0347442626953125 -2.1982421875 -3.41650390625 -0.0014455914497375488 0.0017500519752502441 0.09702301025390625 -0.0780029296875
17.68525 -0.10454559326171875 -0.02567291259765625 -2.466796875 -3.27978515625 6.493926048278809e-05 0.0008543431758880615 0.09286880493164062 -0.08177947998046875
17.695 -0.10501480102539062 -0.014068603515625 -2.74072265625 -3.1083984375 -0.0023300647735595703 0.0008609294891357422 0.09177017211914062 -0.08523178100585938
17.70475 -0.1053466796875 -0.006130218505859375 -3.009033203125 -2.891357421875 -0.0006668567657470703 0.001395583152770996 0.08586883544921875 -0.08771896362304688
17.7145 -0.10647964477539062 0.00284576416015625 -3.257568359375 -2.638671875 -0.0002907216548919678 0.0008943378925323486 0.07993316650390625 -0.09216690063476562
17.72425 -0.10546875 0.010540008544921875 -3.459716796875 -2.351806640625 -0.0006603002548217773 0.0009076893329620361 0.07524490356445312 -0.09478759765625
17.734 -0.10509490966796875 0.0177154541015625 -3.62548828125 -2.05859375 0.0004622936248779297 0.001611948013305664 0.07120513916015625 -0.09612274169921875
17.74375 -0.10563278198242188 0.02582550048828125 -3.739501953125 -1.759521484375 -0.00048169493675231934 0.0003341883420944214 0.06549072265625 -0.10087203979492188
17.7535 -0.101409912109375 0.0331878662109375 -3.845458984375 -1.478271484375 0.000310361385345459 0.001221776008605957 0.06172943115234375 -0.1025238037109375
17.76325 -0.10037612915039062 0.043041229248046875 -3.938232421875 -1.20849609375 1.0728836059570312e-06 0.00033117830753326416 0.055538177490234375 -0.1038665771484375
17.773 -0.09886550903320312 0.0500335693359375 -4.018310546875 -0.9404296875 -0.00011467933654785156 0.0022749900817871094 0.0516510009765625 -0.10556411743164062
17.78275 -0.09538650512695312 0.055400848388671875 -4.093994140625 -0.6533203125 0.00038552284240722656 0.00045424699783325195 0.0460968017578125 -0.10442733764648438
17.7925 -0.09051132202148438 0.06349945068359375 -4.162109375 -0.359619140625 -0.0003185868263244629 3.890693187713623e-05 0.04056549072265625 -0.1072235107421875
17.80225 -0.08546066284179688 0.07040023803710938 -4.217529296875 -0.03515625 0.0019457340240478516 0.0010552406311035156 0.035961151123046875 -0.10586929321289062
17.812 -0.08299636840820312 0.077423095703125 -4.2373046875 0.3017578125 0.0007269978523254395 0.0006833076477050781 0.029705047607421875 -0.10561370849609375
17.82175 -0.07655715942382812 0.08495712280273438 -4.218994140625 0.646240234375 0.000760197639465332 0.00014516711235046387 0.0272369384765625 -0.10641098022460938
17.8315 -0.07275772094726562 0.09034347534179688 -4.166259765625 0.992919921875 -5.7250261306762695e-05 0.0007873475551605225 0.0188751220703125 -0.10451889038085938
17.84125 -0.06623077392578125 0.09584808349609375 -4.076171875 1.3203125 -0.0003374814987182617 0.0012450218200683594 0.01503753662109375 -0.10382843017578125
17.851 -0.061252593994140625 0.10326004028320312 -3.9466552734375 1.6285400390625 0.00024819374084472656 0.0011147856712341309 0.00904083251953125 -0.10129547119140625
17.86075 -0.054523468017578125 0.10721588134765625 -3.8135986328125 1.9163818359375 3.528594970703125e-05 0.0013593435287475586 0.003833770751953125 -0.09986114501953125
17.8705 -0.0502777099609375 0.11226654052734375 -3.6678466796875 2.196044921875 -0.00040534138679504395 0.00020708143711090088 -0.0009765625 -0.09852981567382812
17.88025 -0.043819427490234375 0.11757659912109375 -3.5146484375 2.470458984375 -0.00016885995864868164 0.0011510252952575684 -0.00662994384765625 -0.0973358154296875
17.89 -0.0381317138671875 0.12274169921875 -3.3447265625 2.73828125 -4.184246063232422e-05 0.0008237957954406738 -0.011592864990234375 -0.09440231323242188
17.89975 -0.031341552734375 0.12572479248046875 -3.1392822265625 3.0145263671875 -0.0012252330780029297 0.0014092326164245605 -0.01531982421875 -0.092864990234375
17.9095 -0.0248260498046875 0.1279144287109375 -2.9151611328125 3.2840576171875 0.001107335090637207 0.000942230224609375 -0.0211334228515625 -0.08999252319335938
17.91925 -0.0161285400390625 0.13031005859375 -2.6495361328125 3.52294921875 0.000807642936706543 0.0003916025161743164 -0.024799346923828125 -0.08793258666992188
17.929 -0.0095672607421875 0.133270263671875 -2.366943359375 3.7470703125 0.0008747577667236328 0.0011408329010009766 -0.02756500244140625 -0.08514404296875
17.93875 -0.0033721923828125 0.13642120361328125 -2.0533447265625 3.93017578125 0.0004854649305343628 -0.0003008991479873657 -0.031711578369140625 -0.08234786987304688
17.9485 0.00405120849609375 0.13642120361328125 -1.74267578125 4.078125 -0.0004673004150390625 -0.0001684427261352539 -0.03572845458984375 -0.07737350463867188
17.95825 0.01024627685546875 0.13748931884765625 -1.41748046875 4.20361328125 0.0004565715789794922 0.00029599666595458984 -0.037353515625 -0.07412338256835938
17.968 0.01798248291015625 0.13993072509765625 -1.09765625 4.30517578125 0.0003097355365753174 0.0003160536289215088 -0.04222869873046875 -0.07168197631835938
17.97775 0.02565765380859375 0.13951873779296875 -0.771484375 4.38720703125 0.001274406909942627 0.0004602670669555664 -0.04468536376953125 -0.06734848022460938
17.9875 0.035003662109375 0.138458251953125 -0.4306640625 4.466552734375 0.0011206865310668945 -0.00047320127487182617 -0.046306610107421875 -0.06334304809570312
17.99725 0.0409088134765625 0.13845062255859375 -0.075927734375 4.5166015625 0.0014690160751342773 0.0006823539733886719 -0.050395965576171875 -0.0589752197265625
18.007 0.04833221435546875 0.13831329345703125 0.293212890625 4.530029296875 0.0006510615348815918 0.000874936580657959 -0.0519866943359375 -0.053714752197265625
18.01675 0.05492401123046875 0.136993408203125 0.672119140625 4.516357421875 0.0014821290969848633 -0.0007061362266540527 -0.055606842041015625 -0.0498046875
18.0265 0.0632171630859375 0.1359710693359375 1.0556640625 4.46044921875 0.0010360479354858398 6.270408630371094e-05 -0.05806732177734375 -0.04541015625
18.03625 0.0703277587890625 0.13620758056640625 1.427490234375 4.35205078125 0.0005855560302734375 0.0007466673851013184 -0.05934906005859375 -0.03971099853515625
18.046 0.07546234130859375 0.13355255126953125 1.78662109375 4.21435546875 0.00011076033115386963 0.00033733248710632324 -0.060459136962890625 -0.033954620361328125
18.05575 0.08209991455078125 0.12827301025390625 2.10791015625 4.05029296875 0.000817030668258667 -8.618831634521484e-05 -0.06298446655273438 -0.030780792236328125
18.0655 0.0890960693359375 0.12839508056640625 2.416259765625 3.86669921875 0.0003565549850463867 0.0007103085517883301 -0.06680679321289062 -0.025112152099609375
18.07525 0.09603118896484375 0.12554168701171875 2.712890625 3.660888671875 0.0006236433982849121 0.00018793344497680664 -0.06568527221679688 -0.020233154296875
18.085 0.1015777587890625 0.1237945556640625 3.001953125 3.443603515625 0.0006386637687683105 -0.0007412135601043701 -0.06763839721679688 -0.014331817626953125
18.09475 0.10619354248046875 0.11811065673828125 3.273681640625 3.199951171875 0.0014797449111938477 -0.000755012035369873 -0.06444549560546875 -0.011096954345703125
18.1045 0.11334228515625 0.11346435546875 3.529052734375 2.9345703125 0.0007284879684448242 0.0009459853172302246 -0.0651397705078125 -0.004566192626953125
18.11425 0.1183319091796875 0.112457275390625 3.770263671875 2.630126953125 7.15404748916626e-05 -0.00030340254306793213 -0.06536102294921875 -5.7220458984375e-05
18.124 0.1246185302734375 0.1075439453125 3.97607421875 2.30859375 0.0012199878692626953 -0.00010979175567626953 -0.0646820068359375 0.00604248046875
18.13375 0.1293792724609375 0.10235595703125 4.14990234375 1.97509765625 0.00030069053173065186 0.00011989474296569824 -0.06214332580566406 0.011379241943359375
18.1435 0.13274383544921875 0.09731292724609375 4.280029296875 1.6201171875 -0.0003140568733215332 -0.0010055303573608398 -0.06314849853515625 0.0191192626953125
18.15325 0.1380157470703125 0.09206390380859375 4.393798828125 1.26123046875 0.001002192497253418 -0.0003139376640319824 -0.0616455078125 0.022993087768554688
18.163 0.14306640625 0.08666229248046875 4.4638671875 0.906005859375 0.0005140900611877441 -0.00010451674461364746 -0.05821418762207031 0.0283966064453125
18.17275 0.14772796630859375 0.0817413330078125 4.511474609375 0.5458984375 -2.5093555450439453e-05 -0.00046509504318237305 -0.05423927307128906 0.03439140319824219
18.1825 0.1528778076171875 0.0760955810546875 4.536865234375 0.189697265625 0.0006495416164398193 -0.0009289085865020752 -0.05169868469238281 0.03997230529785156
18.19225 0.1556549072265625 0.06969451904296875 4.543701171875 -0.180908203125 0.0011652112007141113 0.00027382373809814453 -0.048145294189453125 0.04444694519042969
18.202 0.1597442626953125 0.0647125244140625 4.5078125 -0.541015625 0.0003020763397216797 -0.0001379847526550293 -0.047016143798828125 0.04833984375
18.21175 0.162841796875 0.0583343505859375 4.4423828125 -0.916015625 0.0006129145622253418 0.00015282630920410156 -0.042186737060546875 0.054229736328125
18.2215 0.16710662841796875 0.05145263671875 4.3349609375 -1.275634765625 0.0009992718696594238 -0.0006886720657348633 -0.03672599792480469 0.05692863464355469
18.23125 0.16947174072265625 0.0462493896484375 4.2041015625 -1.614501953125 0.0006934106349945068 -0.00037974119186401367 -0.03345298767089844 0.059841156005859375
18.241 0.17180633544921875 0.04018402099609375 4.0390625 -1.937255859375 -5.081295967102051e-06 0.00020797550678253174 -0.03082275390625 0.06368255615234375
18.25075 0.17400360107421875 0.032135009765625 3.8564453125 -2.2386474609375 0.00043976306915283203 -0.0008577406406402588 -0.023036956787109375 0.06760787963867188
18.2605 0.17664337158203125 0.0260772705078125 3.6546630859375 -2.5186767578125 0.0008758902549743652 0.0002237558364868164 -0.01851654052734375 0.06903839111328125
18.27025 0.17726898193359375 0.01787567138671875 3.43994140625 -2.789306640625 0.001344442367553711 0.0007776021957397461 -0.012725830078125 0.07463455200195312
18.28 0.1793975830078125 0.01178741455078125 3.2052001953125 -3.0526123046875 0.00012755393981933594 -0.0006598532199859619 -0.0081024169921875 0.07385635375976562
18.28975 0.18079376220703125 0.0034332275390625 2.9552001953125 -3.291015625 0.0003058314323425293 0.00017568469047546387 -0.0012664794921875 0.07679367065429688
18.2995 0.18035125732421875 -0.00347900390625 2.671630859375 -3.511474609375 0.0009026527404785156 0.00020617246627807617 0.00554656982421875 0.07534408569335938
18.30925 0.1798095703125 -0.011962890625 2.370361328125 -3.703857421875 0.000719904899597168 0.0004292726516723633 0.01145172119140625 0.0780487060546875
18.319 0.1804656982421875 -0.01912689208984375 2.051025390625 -3.8643798828125 -0.0007845759391784668 -0.0005322694778442383 0.0184173583984375 0.08008956909179688
18.32875 0.1798858642578125 -0.02550506591796875 1.731689453125 -3.9935302734375 -0.0004313141107559204 0.00023601949214935303 0.025806427001953125 0.078887939453125
18.3385 0.1787567138671875 -0.0355072021484375 1.403564453125 -4.090576171875 0.0009717345237731934 -0.0009460747241973877 0.03203582763671875 0.07970046997070312
18.34825 0.17874908447265625 -0.0431060791015625 1.083251953125 -4.1748046875 0.00039121508598327637 -0.0002658367156982422 0.03673553466796875 0.07909393310546875
18.358 0.1765594482421875 -0.04970550537109375 0.7607421875 -4.234375 -0.0004438161849975586 3.6910176277160645e-05 0.044055938720703125 0.07754898071289062
18.36775 0.17401123046875 -0.05831146240234375 0.42431640625 -4.2734375 0.00021520256996154785 -0.0008119344711303711 0.0511627197265625 0.075592041015625
18.3775 0.17266082763671875 -0.06363677978515625 0.0927734375 -4.2939453125 -0.0002942979335784912 -0.0004546940326690674 0.05663299560546875 0.07318115234375
18.38725 0.16994476318359375 -0.0713348388671875 -0.258544921875 -4.2783203125 2.600252628326416e-05 0.0002935826778411865 0.0627593994140625 0.07149505615234375
18.397 0.1672821044921875 -0.0786895751953125 -0.6015625 -4.2275390625 -0.00048166513442993164 0.00021582841873168945 0.0688323974609375 0.0679473876953125
18.40675 0.162445068359375 -0.08502197265625 -0.951171875 -4.14501953125 0.001015305519104004 0.0003813505172729492 0.07415771484375 0.0625457763671875
18.4165 0.15956878662109375 -0.09113311767578125 -1.26806640625 -4.029052734375 0.001180112361907959 0.0003483295440673828 0.07842254638671875 0.05881500244140625
18.42625 0.1566162109375 -0.09745025634765625 -1.566650390625 -3.8837890625 -0.00011882185935974121 -0.0008273720741271973 0.0843963623046875 0.05458831787109375
18.436 0.14954376220703125 -0.104095458984375 -1.842529296875 -3.720703125 0.0003808736801147461 0.0003845393657684326 0.0894317626953125 0.04972076416015625
18.44575 0.14398956298828125 -0.11157989501953125 -2.105224609375 -3.551025390625 0.0011139512062072754 -0.0009923577308654785 0.09252166748046875 0.04366302490234375
18.4555 0.13912200927734375 -0.1172332763671875 -2.353759765625 -3.366455078125 0.000414431095123291 0.0005110204219818115 0.0969696044921875 0.038726806640625
18.46525 0.1342315673828125 -0.12274932861328125 -2.6025390625 -3.178955078125 -0.0005156397819519043 -0.0013592243194580078 0.10015869140625 0.030792236328125
18.475 0.12625885009765625 -0.12763214111328125 -2.837158203125 -2.966552734375 0.00014790892601013184 -0.00012661516666412354 0.1041717529296875 0.02465057373046875
18.48475 0.1225128173828125 -0.13414764404296875 -3.062255859375 -2.724609375 0.0009136199951171875 -0.0010676383972167969 0.10779571533203125 0.016521453857421875
18.4945 0.11534881591796875 -0.1375579833984375 -3.262451171875 -2.448486328125 -0.0008134841918945312 -0.0008466839790344238 0.1083221435546875 0.008892059326171875
18.50425 0.10821533203125 -0.1433563232421875 -3.439453125 -2.15673828125 -8.831918239593506e-05 9.830296039581299e-05 0.1086883544921875 0.00289154052734375
18.514 0.1016082763671875 -0.1475067138671875 -3.57275390625 -1.8515625 6.109476089477539e-06 9.160488843917847e-05 0.11121368408203125 -0.003875732421875
18.52375 0.0946807861328125 -0.15102386474609375 -3.6640625 -1.544921875 -0.00012642145156860352 -0.0006138086318969727 0.10987091064453125 -0.011089324951171875
18.5335 0.088775634765625 -0.1549224853515625 -3.726806640625 -1.25 7.918477058410645e-05 0.0006611347198486328 0.110137939453125 -0.017894744873046875
18.54325 0.081024169921875 -0.158111572265625 -3.768310546875 -0.964599609375 0.00024563074111938477 -0.000788271427154541 0.10942840576171875 -0.024993896484375
18.553 0.07364654541015625 -0.1616668701171875 -3.795166015625 -0.68017578125 -0.00035828351974487305 -0.000799715518951416 0.1064300537109375 -0.0308990478515625
18.56275 0.0666046142578125 -0.163299560546875 -3.818359375 -0.40478515625 0.00026410818099975586 -0.0017903447151184082 0.10577011108398438 -0.037570953369140625
18.5725 0.05829620361328125 -0.166290283203125 -3.822509765625 -0.117431640625 0.0007835030555725098 -0.0014027953147888184 0.10250091552734375 -0.04422760009765625
18.58225 0.04984283447265625 -0.16741180419921875 -3.8111572265625 0.170166015625 -0.0005026757717132568 9.045004844665527e-05 0.09880828857421875 -0.05176544189453125
18.592 0.04297637939453125 -0.16843414306640625 -3.7664794921875 0.4693603515625 0.0011023283004760742 6.031990051269531e-05 0.09511184692382812 -0.055461883544921875
18.60175 0.0347900390625 -0.1669158935546875 -3.69873046875 0.76611328125 0.0006049275398254395 -0.000934898853302002 0.088623046875 -0.059844970703125
18.6115 0.0278472900390625 -0.167266845703125 -3.5887451171875 1.04248046875 -7.927417755126953e-06 -0.0003187507390975952 0.08629608154296875 -0.0667877197265625
18.62125 0.0195770263671875 -0.16889190673828125 -3.4622802734375 1.29833984375 0.00032056868076324463 0.00012029707431793213 0.07973861694335938 -0.07073974609375
18.631 0.0102996826171875 -0.168792724609375 -3.3228759765625 1.5267333984375 5.513429641723633e-05 -0.001234292984008789 0.07583999633789062 -0.07387924194335938
18.64075 0.00445556640625 -0.16776275634765625 -3.173095703125 1.74365234375 0.0002923011779785156 -0.0009530186653137207 0.07175064086914062 -0.07769393920898438
18.6505 -0.003814697265625 -0.16658782958984375 -3.0224609375 1.942626953125 6.0051679611206055e-05 -0.0009209811687469482 0.06467819213867188 -0.08189773559570312
18.66025 -0.013092041015625 -0.16532135009765625 -2.8668212890625 2.13916015625 -0.00015044212341308594 -0.0012119412422180176 0.058887481689453125 -0.08275604248046875
18.67 -0.019073486328125 -0.1633148193359375 -2.694580078125 2.326416015625 0.0003166794776916504 -0.001224219799041748 0.053447723388671875 -0.08342361450195312
18.67975 -0.02783966064453125 -0.16022491455078125 -2.5150146484375 2.5157470703125 0.00011993944644927979 -0.00041931867599487305 0.04756927490234375 -0.08586502075195312
18.6895 -0.0351409912109375 -0.15740966796875 -2.3056640625 2.687744140625 -7.015466690063477e-05 -0.0006866157054901123 0.0432891845703125 -0.08508682250976562
