!Created with skrf (http://scikit-rf.org).
# GHz S RI R 50.0 
!freq ReS11 ImS11 ReS21 ImS21 ReS12 ImS12 ReS22 ImS22
17.5 0.0168914794921875 -0.14197540283203125 -0.865966796875 4.419921875 -0.0010494589805603027 0.0013437867164611816 0.0936737060546875 0.0124359130859375
17.50975 0.00846099853515625 -0.13899993896484375 -0.502685546875 4.469970703125 -0.0009569227695465088 0.0007079243659973145 0.09723663330078125 0.010791778564453125
17.5195 0.00095367431640625 -0.134521484375 -0.140869140625 4.482177734375 -0.0009955763816833496 0.0012102127075195312 0.10195541381835938 0.01047515869140625
17.52925 -0.00818634033203125 -0.1313323974609375 0.2216796875 4.47314453125 -0.0013499855995178223 0.000794827938079834 0.10379791259765625 0.005298614501953125
17.539 -0.013153076171875 -0.127105712890625 0.568359375 4.427734375 -0.002347707748413086 0.0010259151458740234 0.10723876953125 0.0037384033203125
17.54875 -0.02304840087890625 -0.12535858154296875 0.904541015625 4.34912109375 -0.0017453432083129883 0.0001118779182434082 0.11052322387695312 4.57763671875e-05
17.5585 -0.033416748046875 -0.12038421630859375 1.235107421875 4.266845703125 -0.0011734962463378906 0.0005995631217956543 0.11155319213867188 -0.004108428955078125
17.56825 -0.03734588623046875 -0.117645263671875 1.55419921875 4.17041015625 -0.0007610321044921875 0.0018459558486938477 0.114990234375 -0.007781982421875
17.578 -0.0447235107421875 -0.111572265625 1.882080078125 4.039306640625 -0.0017485618591308594 0.0019395947456359863 0.11650466918945312 -0.01351165771484375
17.58775 -0.0518951416015625 -0.10797119140625 2.203857421875 3.8779296875 -0.0007869303226470947 0.0006074607372283936 0.11918258666992188 -0.016277313232421875
17.5975 -0.0549468994140625 -0.10189056396484375 2.5234375 3.6787109375 -0.001427769660949707 0.0009613633155822754 0.11981582641601562 -0.02124786376953125
17.60725 -0.0621795654296875 -0.09835052490234375 2.803466796875 3.4453125 -0.001056671142578125 0.00038802623748779297 0.11922454833984375 -0.025165557861328125
17.617 -0.068267822265625 -0.09029388427734375 3.059326171875 3.1865234375 -0.00042176246643066406 0.0011270642280578613 0.1224365234375 -0.0293426513671875
17.62675 -0.07342529296875 -0.08422088623046875 3.2783203125 2.91015625 -0.00039389729499816895 0.0006685853004455566 0.1229705810546875 -0.0346221923828125
17.6365 -0.0766448974609375 -0.076385498046875 3.46240234375 2.62646484375 -0.0004655122756958008 0.0018055438995361328 0.121856689453125 -0.04099273681640625
17.64625 -0.081787109375 -0.06920623779296875 3.615966796875 2.353271484375 -0.0008373260498046875 0.0024628639221191406 0.12049484252929688 -0.046932220458984375
17.656 -0.0847930908203125 -0.0634613037109375 3.7568359375 2.08642578125 -0.00044268369674682617 0.0014204978942871094 0.11773300170898438 -0.05254364013671875
17.66575 -0.08762359619140625 -0.05313873291015625 3.896240234375 1.82470703125 -0.0022246837615966797 -0.0001518726348876953 0.11540985107421875 -0.056041717529296875
17.6755 -0.092193603515625 -0.047271728515625 4.017822265625 1.551513671875 0.0001399517059326172 0.0013489127159118652 0.11309814453125 -0.06191253662109375
17.68525 -0.09613800048828125 -0.04032135009765625 4.150634765625 1.2666015625 -0.0010864734649658203 0.0014559626579284668 0.11151123046875 -0.06826400756835938
17.695 -0.0960235595703125 -0.03188323974609375 4.27001953125 0.9462890625 -0.00112074613571167 0.0009960532188415527 0.11057281494140625 -0.072540283203125
17.70475 -0.097564697265625 -0.02471160888671875 4.355712890625 0.590576171875 -0.00010022521018981934 0.0009330213069915771 0.10489273071289062 -0.077362060546875
17.7145 -0.10000991821289062 -0.015167236328125 4.402587890625 0.21533203125 0.0002282857894897461 0.0016961097717285156 0.10170745849609375 -0.08286285400390625
17.72425 -0.10111618041992188 -0.007904052734375 4.388671875 -0.1591796875 -0.0009735226631164551 0.001191556453704834 0.09695816040039062 -0.0886993408203125
17.734 -0.10372543334960938 -0.000598907470703125 4.33349609375 -0.518310546875 -0.0009074211120605469 0.001123964786529541 0.0951995849609375 -0.09230422973632812
17.74375 -0.10465240478515625 0.00677490234375 4.22705078125 -0.8486328125 -0.0008586645126342773 0.0007883906364440918 0.0885009765625 -0.0966033935546875
17.7535 -0.10182952880859375 0.014446258544921875 4.111572265625 -1.142333984375 -0.0007061958312988281 0.0013346672058105469 0.08477020263671875 -0.10106277465820312
17.76325 -0.10184478759765625 0.021739959716796875 4.00341796875 -1.416259765625 -0.00033599138259887695 0.0014244914054870605 0.07730865478515625 -0.102874755859375
17.773 -0.10213470458984375 0.031681060791015625 3.8863525390625 -1.6739501953125 -0.00033220648765563965 0.0007676482200622559 0.07387161254882812 -0.10626983642578125
17.78275 -0.10011672973632812 0.03814697265625 3.7608642578125 -1.935791015625 -0.0003001689910888672 0.001535952091217041 0.06917572021484375 -0.10833358764648438
17.7925 -0.09693527221679688 0.045810699462890625 3.640380859375 -2.2095947265625 -0.0005898475646972656 0.0011473894119262695 0.062480926513671875 -0.11087417602539062
17.80225 -0.09392166137695312 0.05341339111328125 3.4852294921875 -2.49169921875 9.512901306152344e-05 0.0018634796142578125 0.05811309814453125 -0.11407470703125
17.812 -0.091583251953125 0.061069488525390625 3.294677734375 -2.7728271484375 0.000956416130065918 0.0007959604263305664 0.050121307373046875 -0.11500167846679688
17.82175 -0.087646484375 0.06988525390625 3.0723876953125 -3.041015625 0.0010362863540649414 0.0017254352569580078 0.04557037353515625 -0.11460494995117188
17.8315 -0.08485031127929688 0.07637786865234375 2.8121337890625 -3.2789306640625 0.0007290840148925781 0.001226186752319336 0.038238525390625 -0.11753463745117188
17.84125 -0.0803070068359375 0.0819244384765625 2.53173828125 -3.483642578125 -0.0001068115234375 0.0018465518951416016 0.03162384033203125 -0.11658477783203125
17.851 -0.07513809204101562 0.09028244018554688 2.2379150390625 -3.6356201171875 0.0010169148445129395 0.0002830624580383301 0.02703094482421875 -0.11779403686523438
17.86075 -0.07204818725585938 0.0954742431640625 1.959228515625 -3.7657470703125 0.0007292628288269043 0.0007143020629882812 0.019405364990234375 -0.1168670654296875
17.8705 -0.06669998168945312 0.10132217407226562 1.683837890625 -3.880126953125 -0.0005287528038024902 0.0015913844108581543 0.013286590576171875 -0.11688232421875
17.88025 -0.062160491943359375 0.1093292236328125 1.4088134765625 -3.98681640625 0.000272214412689209 0.0014882087707519531 0.0060577392578125 -0.11458587646484375
17.89 -0.055816650390625 0.11537933349609375 1.1396484375 -4.0908203125 -0.00031435489654541016 0.002112746238708496 0.000461578369140625 -0.11316299438476562
17.89975 -0.05150604248046875 0.12041473388671875 0.8359375 -4.182373046875 0.0002225041389465332 0.000978231430053711 -0.005523681640625 -0.11419677734375
17.9095 -0.0455322265625 0.12566375732421875 0.5166015625 -4.26708984375 0.0006471872329711914 0.0003980398178100586 -0.01053619384765625 -0.11328887939453125
17.91925 -0.0371246337890625 0.1295013427734375 0.1796875 -4.30712890625 0.00025394558906555176 -0.00012017786502838135 -0.01619720458984375 -0.11013031005859375
17.929 -0.0327301025390625 0.13330078125 -0.16259765625 -4.32177734375 0.00023114681243896484 0.0013470649719238281 -0.0240020751953125 -0.107757568359375
17.93875 -0.023590087890625 0.13750457763671875 -0.50830078125 -4.2861328125 0.0005189776420593262 0.0011949539184570312 -0.028228759765625 -0.105133056640625
17.9485 -0.01689910888671875 0.13840484619140625 -0.826904296875 -4.2216796875 -0.0006827116012573242 0.0004988908767700195 -0.0341033935546875 -0.1004791259765625
17.95825 -0.0096893310546875 0.14269256591796875 -1.1376953125 -4.1298828125 -6.55055046081543e-05 0.0005633234977722168 -0.03797149658203125 -0.09874725341796875
17.968 -0.002593994140625 0.14670562744140625 -1.42333984375 -4.02734375 0.00033214688301086426 -0.00013415515422821045 -0.043182373046875 -0.09506988525390625
17.97775 0.00582122802734375 0.14785003662109375 -1.69775390625 -3.916748046875 0.000561445951461792 -0.0001482069492340088 -0.04897308349609375 -0.08873748779296875
17.9875 0.014739990234375 0.14954376220703125 -1.982666015625 -3.799072265625 -0.0005782246589660645 0.001470029354095459 -0.0518035888671875 -0.08522796630859375
17.99725 0.02193450927734375 0.15088653564453125 -2.265869140625 -3.67041015625 0.0016062259674072266 0.0007120370864868164 -0.05750274658203125 -0.0804901123046875
18.007 0.03134918212890625 0.151947021484375 -2.553466796875 -3.512451171875 0.0009055137634277344 0.00017708539962768555 -0.06143951416015625 -0.0753326416015625
18.01675 0.03881072998046875 0.1535491943359375 -2.833984375 -3.321044921875 0.0012646913528442383 -0.0005589723587036133 -0.06517791748046875 -0.07073974609375
18.0265 0.047821044921875 0.15252685546875 -3.10595703125 -3.099609375 0.0013892650604248047 0.00030422210693359375 -0.07220458984375 -0.0655364990234375
18.03625 0.05706787109375 0.1548309326171875 -3.34765625 -2.8388671875 0.001302480697631836 0.0008292198181152344 -0.0740814208984375 -0.0585174560546875
18.046 0.06545257568359375 0.151580810546875 -3.560791015625 -2.555908203125 0.0004050135612487793 0.0012530684471130371 -0.07727813720703125 -0.052734375
18.05575 0.07208251953125 0.14987945556640625 -3.7373046875 -2.27392578125 -0.0005340278148651123 7.745623588562012e-05 -0.08086395263671875 -0.04746246337890625
18.0655 0.08202362060546875 0.15008544921875 -3.8828125 -1.987060546875 0.0008550286293029785 8.752942085266113e-05 -0.08452606201171875 -0.0403594970703125
18.07525 0.09056854248046875 0.14644622802734375 -4.015380859375 -1.696533203125 0.0008200705051422119 -0.0001494884490966797 -0.08512115478515625 -0.0334014892578125
18.085 0.09963226318359375 0.1436004638671875 -4.134521484375 -1.396728515625 0.0010970234870910645 0.00022792816162109375 -0.08679962158203125 -0.026641845703125
18.09475 0.10567474365234375 0.1409759521484375 -4.2421875 -1.095458984375 0.0005550682544708252 -0.0001602768898010254 -0.08782577514648438 -0.02024078369140625
18.1045 0.114532470703125 0.1359710693359375 -4.328369140625 -0.77685546875 -2.4512410163879395e-05 0.0003360956907272339 -0.08827590942382812 -0.01245880126953125
18.11425 0.122222900390625 0.13482666015625 -4.3935546875 -0.43896484375 0.00168609619140625 0.0007803440093994141 -0.08866500854492188 -0.008148193359375
18.124 0.1273193359375 0.128692626953125 -4.42822265625 -0.0947265625 0.00041475892066955566 7.158517837524414e-05 -0.08770751953125 0.0017242431640625
18.13375 0.134918212890625 0.12432861328125 -4.431640625 0.248291015625 0.0008272826671600342 2.6494264602661133e-05 -0.08729171752929688 0.007999420166015625
18.1435 0.1419677734375 0.1179046630859375 -4.399169921875 0.59326171875 0.00012451410293579102 -0.0017513632774353027 -0.08702468872070312 0.01564788818359375
18.15325 0.14898681640625 0.1119232177734375 -4.338623046875 0.93798828125 0.0005617737770080566 0.0006327629089355469 -0.08617019653320312 0.0235748291015625
18.163 0.15643310546875 0.1053466796875 -4.253662109375 1.265869140625 0.0008643865585327148 0.0013617277145385742 -0.08148193359375 0.030948638916015625
18.17275 0.1625823974609375 0.0992584228515625 -4.144775390625 1.585693359375 0.0010643601417541504 -0.000776827335357666 -0.077789306640625 0.037506103515625
18.1825 0.1684112548828125 0.092010498046875 -4.028564453125 1.8994140625 0.00019121170043945312 -0.0007697641849517822 -0.07579421997070312 0.0455780029296875
18.19225 0.172119140625 0.08416748046875 -3.8851318359375 2.2174072265625 0.0001411736011505127 -0.0007588565349578857 -0.07253646850585938 0.052875518798828125
18.202 0.1782989501953125 0.0771026611328125 -3.7099609375 2.51416015625 0.0013610124588012695 -0.00025844573974609375 -0.06965255737304688 0.05810546875
18.21175 0.1824798583984375 0.06927490234375 -3.504150390625 2.813232421875 7.450580596923828e-05 -0.0014933347702026367 -0.06298828125 0.0659942626953125
18.2215 0.187957763671875 0.06006622314453125 -3.26708984375 3.0858154296875 0.00021767616271972656 -0.0015186071395874023 -0.0572509765625 0.06998062133789062
18.23125 0.1906890869140625 0.05316162109375 -3.01806640625 3.3255615234375 -0.0017565488815307617 -0.00021463632583618164 -0.05388641357421875 0.0763702392578125
18.241 0.19437408447265625 0.04354095458984375 -2.743408203125 3.5379638671875 0.001800537109375 0.00018918514251708984 -0.050067901611328125 0.0809326171875
18.25075 0.19577789306640625 0.03537750244140625 -2.464599609375 3.729248046875 0.00026920437812805176 0.00040087103843688965 -0.041805267333984375 0.0861358642578125
18.2605 0.197723388671875 0.02767181396484375 -2.1788330078125 3.899658203125 0.00047591328620910645 0.00039261579513549805 -0.03310394287109375 0.09069442749023438
18.27025 0.198486328125 0.01796722412109375 -1.884521484375 4.0595703125 -0.00014309585094451904 -0.0003027021884918213 -0.0269317626953125 0.09362030029296875
18.28 0.1998138427734375 0.00861358642578125 -1.568115234375 4.213623046875 0.0004908144474029541 -0.0007168054580688477 -0.019184112548828125 0.09604263305664062
18.28975 0.2017059326171875 -0.001800537109375 -1.240478515625 4.3388671875 -0.00026994943618774414 -0.001156926155090332 -0.0121307373046875 0.10080337524414062
18.2995 0.2010650634765625 -0.009246826171875 -0.888916015625 4.42724609375 2.2009015083312988e-05 -0.00042128562927246094 -0.003513336181640625 0.10036468505859375
18.30925 0.200347900390625 -0.0198974609375 -0.52099609375 4.48583984375 -0.0003889799118041992 -0.00041353702545166016 0.00568389892578125 0.10144805908203125
18.319 0.19820404052734375 -0.02912139892578125 -0.159912109375 4.50048828125 -0.0005960464477539062 8.910894393920898e-06 0.012088775634765625 0.106170654296875
18.32875 0.19693756103515625 -0.03740692138671875 0.191162109375 4.4775390625 0.0011865496635437012 -0.0006271004676818848 0.0240325927734375 0.1041717529296875
18.3385 0.19499969482421875 -0.0488433837890625 0.531494140625 4.427490234375 3.528594970703125e-05 -0.0008201003074645996 0.033599853515625 0.105499267578125
18.34825 0.19329071044921875 -0.0558624267578125 0.855712890625 4.37841796875 -0.00033926963806152344 -0.0010805726051330566 0.0401458740234375 0.10565185546875
18.358 0.19048309326171875 -0.06574249267578125 1.170654296875 4.302490234375 -0.00015529990196228027 0.00010710954666137695 0.0499420166015625 0.102142333984375
18.36775 0.18631744384765625 -0.0752410888671875 1.50048828125 4.208251953125 0.0006988048553466797 -0.0004125237464904785 0.05696868896484375 0.10077667236328125
18.3775 0.18381500244140625 -0.08142852783203125 1.81689453125 4.095703125 0.00032085180282592773 -0.0010179877281188965 0.065093994140625 0.09807586669921875
18.38725 0.1782989501953125 -0.0903778076171875 2.1513671875 3.9443359375 0.0008309483528137207 -0.0003933906555175781 0.07268524169921875 0.09583282470703125
18.397 0.1732330322265625 -0.0978240966796875 2.46630859375 3.75390625 -0.00015467405319213867 -0.00013637542724609375 0.0803680419921875 0.0914459228515625
18.40675 0.16961669921875 -0.1032867431640625 2.7666015625 3.5302734375 0.00010436773300170898 0.00023362040519714355 0.0894622802734375 0.0866851806640625
18.4165 0.1622467041015625 -0.11116790771484375 3.0234375 3.277587890625 -0.0014388561248779297 -4.589557647705078e-05 0.0947265625 0.08072662353515625
18.42625 0.156219482421875 -0.1193695068359375 3.244873046875 3.00439453125 0.001031339168548584 -0.00010180473327636719 0.10305023193359375 0.07489776611328125
18.436 0.1492156982421875 -0.1231842041015625 3.43408203125 2.735107421875 -0.000574648380279541 0.00011527538299560547 0.11087799072265625 0.06916046142578125
18.44575 0.14206695556640625 -0.1309356689453125 3.60205078125 2.46923828125 -0.00028064846992492676 -0.00011783838272094727 0.1131591796875 0.0596771240234375
18.4555 0.13462066650390625 -0.13535308837890625 3.758544921875 2.197998046875 0.00010395050048828125 -0.00064849853515625 0.11858367919921875 0.053253173828125
18.46525 0.1292572021484375 -0.1415252685546875 3.918212890625 1.927734375 0.0007110536098480225 -0.0008722543716430664 0.12439727783203125 0.04326629638671875
18.475 0.11968994140625 -0.14568328857421875 4.06640625 1.638671875 0.00040934979915618896 -0.0004303157329559326 0.12895965576171875 0.03601837158203125
18.48475 0.11447906494140625 -0.15045166015625 4.194091796875 1.314208984375 -9.863078594207764e-05 -0.00018547475337982178 0.13011932373046875 0.02486419677734375
18.4945 0.1048736572265625 -0.15411376953125 4.28759765625 0.966064453125 0.0005428194999694824 -4.863739013671875e-05 0.1358795166015625 0.01534271240234375
18.50425 0.09515380859375 -0.1582489013671875 4.345703125 0.60107421875 -0.0005173683166503906 -0.0010955333709716797 0.1344146728515625 0.0070953369140625
18.514 0.0896759033203125 -0.15936279296875 4.34716796875 0.24658203125 7.557868957519531e-05 -0.0006821155548095703 0.137115478515625 -0.00201416015625
18.52375 0.0800628662109375 -0.161773681640625 4.309814453125 -0.09521484375 0.0005013942718505859 -0.0007038414478302002 0.13646697998046875 -0.01192474365234375
18.5335 0.07404327392578125 -0.16498565673828125 4.25048828125 -0.409912109375 0.0003011077642440796 -0.00034043192863464355 0.1353607177734375 -0.02252197265625
18.54325 0.0667572021484375 -0.16716766357421875 4.175537109375 -0.702880859375 0.0012115240097045898 -0.0012445449829101562 0.13430023193359375 -0.02898406982421875
18.553 0.05742645263671875 -0.16820526123046875 4.088134765625 -0.984375 0.001850724220275879 0.0001888275146484375 0.1309356689453125 -0.03815460205078125
18.56275 0.0509033203125 -0.16753387451171875 4.005615234375 -1.263916015625 0.0004959404468536377 8.368492126464844e-05 0.13016510009765625 -0.04559326171875
18.5725 0.04259490966796875 -0.16796875 3.9066162109375 -1.551025390625 2.948567271232605e-05 -5.939416587352753e-05 0.12418365478515625 -0.054775238037109375
18.58225 0.034210205078125 -0.16776275634765625 3.7816162109375 -1.833984375 0.00042742490768432617 3.190338611602783e-05 0.12029266357421875 -0.062061309814453125
18.592 0.02667236328125 -0.16922760009765625 3.624755859375 -2.118896484375 -0.00025978684425354004 -0.0006891787052154541 0.11463165283203125 -0.06949996948242188
18.60175 0.0192718505859375 -0.1674957275390625 3.439697265625 -2.39453125 0.0002607405185699463 6.881356239318848e-05 0.10866546630859375 -0.07549285888671875
18.6115 0.01282501220703125 -0.1651458740234375 3.224365234375 -2.6336669921875 0.0012192726135253906 -0.0010779500007629395 0.1036224365234375 -0.08330535888671875
18.62125 0.004547119140625 -0.16359710693359375 2.9921875 -2.845947265625 -0.0006560683250427246 -0.0009214878082275391 0.09756088256835938 -0.08993911743164062
18.631 -0.0029754638671875 -0.162689208984375 2.762939453125 -3.0157470703125 -0.0008237361907958984 -0.0010145306587219238 0.0886383056640625 -0.09366226196289062
18.64075 -0.00963592529296875 -0.16082763671875 2.53125 -3.172607421875 0.000856250524520874 -0.00036665797233581543 0.08457565307617188 -0.09698867797851562
18.6505 -0.0155792236328125 -0.15935516357421875 2.3040771484375 -3.3160400390625 0.000235632061958313 -0.00032933056354522705 0.077117919921875 -0.10171890258789062
18.66025 -0.02472686767578125 -0.157562255859375 2.080078125 -3.45751953125 -5.605816841125488e-05 -0.0004238933324813843 0.06792831420898438 -0.10432815551757812
18.67 -0.0295867919921875 -0.15328216552734375 1.8446044921875 -3.596923828125 0.0005123019218444824 -0.0008604526519775391 0.06195831298828125 -0.10573196411132812
18.67975 -0.0369720458984375 -0.1502227783203125 1.591064453125 -3.7335205078125 -7.897615432739258e-06 -0.0007213354110717773 0.054931640625 -0.10773086547851562
18.6895 -0.0423126220703125 -0.148345947265625 1.312255859375 -3.84521484375 0.00030541419982910156 -0.0012464523315429688 0.047328948974609375 -0.10787582397460938
