!Created with skrf (http://scikit-rf.org).
# GHz S RI R 50.0 
!freq ReS11 ImS11 ReS21 ImS21 ReS12 ImS12 ReS22 ImS22
17.5 0.00562286376953125 -0.13291168212890625 -4.750244140625 -0.613037109375 -0.0012889504432678223 0.0001556873321533203 0.086639404296875 -0.003101348876953125
17.50975 -0.00174713134765625 -0.130279541015625 -4.774169921875 -0.236328125 -0.0006146430969238281 0.0002708733081817627 0.08751296997070312 -0.002941131591796875
17.5195 -0.00814056396484375 -0.12587738037109375 -4.762939453125 0.137451171875 -0.0013481974601745605 0.0015480518341064453 0.09134292602539062 -0.003406524658203125
17.52925 -0.01715850830078125 -0.12201690673828125 -4.740478515625 0.505615234375 -0.001324772834777832 0.0006982088088989258 0.09260177612304688 -0.008514404296875
17.539 -0.0220947265625 -0.11578369140625 -4.67529296875 0.8642578125 -0.0007477998733520508 0.0012466907501220703 0.0944366455078125 -0.01082611083984375
17.54875 -0.02984619140625 -0.11328887939453125 -4.58740234375 1.207763671875 -0.0013872981071472168 0.0007997751235961914 0.096435546875 -0.010440826416015625
17.5585 -0.03903961181640625 -0.10765838623046875 -4.482421875 1.545654296875 -0.0026775598526000977 0.0005178451538085938 0.09824371337890625 -0.014339447021484375
17.56825 -0.04283905029296875 -0.104644775390625 -4.371826171875 1.868896484375 -0.0007478296756744385 0.0001957416534423828 0.10125350952148438 -0.017910003662109375
17.578 -0.04952239990234375 -0.097503662109375 -4.218017578125 2.203369140625 -0.001500546932220459 0.0009483695030212402 0.10052108764648438 -0.02008056640625
17.58775 -0.05431365966796875 -0.0938873291015625 -4.04736328125 2.529541015625 -4.57763671875e-05 0.0005246996879577637 0.10014724731445312 -0.022449493408203125
17.5975 -0.057830810546875 -0.0882110595703125 -3.8277587890625 2.8531494140625 -0.0007246434688568115 0.0009676814079284668 0.10245895385742188 -0.025646209716796875
17.60725 -0.06244659423828125 -0.08282470703125 -3.5848388671875 3.1380615234375 -0.0005245804786682129 0.0008137226104736328 0.1015777587890625 -0.028472900390625
17.617 -0.0687255859375 -0.07604217529296875 -3.3170166015625 3.3985595703125 -0.00123673677444458 0.00122833251953125 0.10384368896484375 -0.031879425048828125
17.62675 -0.07263946533203125 -0.0700225830078125 -3.030029296875 3.629638671875 -0.0009087622165679932 0.0005241334438323975 0.10381698608398438 -0.035091400146484375
17.6365 -0.07421875 -0.0623779296875 -2.730224609375 3.822998046875 -0.0006847977638244629 0.0003879666328430176 0.10400390625 -0.0402984619140625
17.64625 -0.0773773193359375 -0.05435943603515625 -2.4420166015625 3.9859619140625 -0.0005884170532226562 0.0016978979110717773 0.10168838500976562 -0.044300079345703125
17.656 -0.08090972900390625 -0.05092620849609375 -2.14892578125 4.133056640625 -0.0009378492832183838 0.0008693337440490723 0.10031890869140625 -0.047393798828125
17.66575 -0.0829620361328125 -0.040653228759765625 -1.8681640625 4.281982421875 -0.0017611384391784668 0.000894010066986084 0.09975433349609375 -0.05103302001953125
17.6755 -0.08555221557617188 -0.0370635986328125 -1.5712890625 4.41455078125 0.0006960034370422363 0.00036585330963134766 0.09805679321289062 -0.054744720458984375
17.68525 -0.0872344970703125 -0.0283203125 -1.26953125 4.5556640625 -9.563565254211426e-05 0.0008279085159301758 0.09599685668945312 -0.059459686279296875
17.695 -0.08858871459960938 -0.020595550537109375 -0.92822265625 4.674560546875 -7.158517837524414e-05 0.0010375380516052246 0.09363555908203125 -0.06280899047851562
17.70475 -0.08776473999023438 -0.013690948486328125 -0.5537109375 4.766357421875 -0.0006955564022064209 0.0007974803447723389 0.09131240844726562 -0.06662368774414062
17.7145 -0.08893585205078125 -0.005352020263671875 -0.161376953125 4.820556640625 -0.00035369396209716797 0.00044439733028411865 0.0887908935546875 -0.07107162475585938
17.72425 -0.08960723876953125 0.00162506103515625 0.23876953125 4.816650390625 0.00015115737915039062 0.0014494061470031738 0.086578369140625 -0.07334518432617188
17.734 -0.09096908569335938 0.009204864501953125 0.625244140625 4.76416015625 0.00017690658569335938 0.001381993293762207 0.082275390625 -0.07683563232421875
17.74375 -0.09063720703125 0.0149383544921875 0.98291015625 4.6640625 4.5180320739746094e-05 0.0005207061767578125 0.07952117919921875 -0.08286285400390625
17.7535 -0.0874786376953125 0.02115631103515625 1.315185546875 4.55419921875 -0.0013234615325927734 0.0014534592628479004 0.075225830078125 -0.08472061157226562
17.76325 -0.08812332153320312 0.027652740478515625 1.622314453125 4.4423828125 0.0005011558532714844 0.001002967357635498 0.06998443603515625 -0.08749771118164062
17.773 -0.08697891235351562 0.034519195556640625 1.9111328125 4.31884765625 0.00022363662719726562 0.0014851093292236328 0.06816482543945312 -0.089996337890625
17.78275 -0.08638763427734375 0.040691375732421875 2.20703125 4.18408203125 0.0003994405269622803 0.0004189610481262207 0.0628509521484375 -0.0924835205078125
17.7925 -0.08185195922851562 0.045124053955078125 2.51025390625 4.05029296875 0.00013583898544311523 0.0012445449829101562 0.059917449951171875 -0.09354019165039062
17.80225 -0.07969284057617188 0.05251312255859375 2.829345703125 3.8876953125 -0.0003173947334289551 0.001476287841796875 0.056507110595703125 -0.09566879272460938
17.812 -0.0763702392578125 0.059108734130859375 3.141845703125 3.68798828125 0.0007727146148681641 0.0024559497833251953 0.05117034912109375 -0.09736251831054688
17.82175 -0.071319580078125 0.066558837890625 3.444091796875 3.455078125 -0.0007744729518890381 0.00046637654304504395 0.04691314697265625 -0.09720230102539062
17.8315 -0.0706939697265625 0.07109832763671875 3.721923828125 3.17529296875 0.0005532503128051758 0.0016446113586425781 0.04131317138671875 -0.10040283203125
17.84125 -0.06634521484375 0.0768890380859375 3.97021484375 2.876953125 0.00029397010803222656 0.0019450187683105469 0.0361785888671875 -0.1003570556640625
17.851 -0.060955047607421875 0.08483123779296875 4.162109375 2.546875 0.0009872913360595703 0.0010747909545898438 0.031711578369140625 -0.10176849365234375
17.86075 -0.0584564208984375 0.08713531494140625 4.334716796875 2.235595703125 -9.198486804962158e-05 0.0003420710563659668 0.02585601806640625 -0.10037612915039062
17.8705 -0.054157257080078125 0.09321212768554688 4.481689453125 1.915283203125 0.0007431507110595703 0.0016037225723266602 0.020671844482421875 -0.1003570556640625
17.88025 -0.0484466552734375 0.09801864624023438 4.61474609375 1.599365234375 0.0012969970703125 0.0013343095779418945 0.014949798583984375 -0.10063552856445312
17.89 -0.046138763427734375 0.10464096069335938 4.739990234375 1.283447265625 0.0004610121250152588 -0.00017112493515014648 0.011142730712890625 -0.10044479370117188
17.89975 -0.0397796630859375 0.10881805419921875 4.854736328125 0.938720703125 0.0012001991271972656 0.00010633468627929688 0.005100250244140625 -0.09995269775390625
17.9095 -0.035602569580078125 0.11192703247070312 4.961669921875 0.573486328125 7.134675979614258e-05 0.0016255974769592285 0.001049041748046875 -0.09820175170898438
17.91925 -0.02915191650390625 0.11443710327148438 5.023681640625 0.187255859375 0.00033739209175109863 0.00025272369384765625 -0.002292633056640625 -0.09742355346679688
17.929 -0.02399444580078125 0.1178131103515625 5.06005859375 -0.21044921875 0.000888824462890625 0.0008521080017089844 -0.00949859619140625 -0.096221923828125
17.93875 -0.020320892333984375 0.12241363525390625 5.04150390625 -0.6201171875 0.0009846091270446777 0.0002605915069580078 -0.012969970703125 -0.0957794189453125
17.9485 -0.01361083984375 0.12285614013671875 4.982666015625 -1.008544921875 0.0007928311824798584 3.933906555175781e-05 -0.01824188232421875 -0.09202194213867188
17.95825 -0.007965087890625 0.12616729736328125 4.902099609375 -1.39111328125 0.000815272331237793 0.0015988349914550781 -0.020587921142578125 -0.09013748168945312
17.968 7.62939453125e-06 0.12873077392578125 4.7890625 -1.755126953125 0.0003471970558166504 0.0009676218032836914 -0.0261077880859375 -0.08997344970703125
17.97775 0.0053863525390625 0.13030242919921875 4.65771484375 -2.1015625 -0.0005670487880706787 0.00022289156913757324 -0.030887603759765625 -0.08346939086914062
17.9875 0.0125885009765625 0.13317108154296875 4.517822265625 -2.455078125 1.71661376953125e-05 0.0009630918502807617 -0.0349273681640625 -0.08358383178710938
17.99725 0.0197296142578125 0.13439178466796875 4.36279296875 -2.808837890625 0.0012146234512329102 0.00017213821411132812 -0.038654327392578125 -0.07873153686523438
18.007 0.02622222900390625 0.1351470947265625 4.16845703125 -3.1611328125 0.0007099509239196777 0.0006674528121948242 -0.043529510498046875 -0.07544708251953125
18.01675 0.03386688232421875 0.13713836669921875 3.94140625 -3.5091552734375 0.0008121132850646973 4.70280647277832e-05 -0.0489349365234375 -0.07259368896484375
18.0265 0.040496826171875 0.1385955810546875 3.6771240234375 -3.8507080078125 0.0012632012367248535 -0.000367581844329834 -0.05242156982421875 -0.06815719604492188
18.03625 0.0467071533203125 0.14019775390625 3.359375 -4.16015625 0.0016999244689941406 0.0010101795196533203 -0.05690765380859375 -0.06401824951171875
18.046 0.05431365966796875 0.1380157470703125 3.01123046875 -4.439697265625 3.314018249511719e-05 6.407871842384338e-05 -0.0601043701171875 -0.05821990966796875
18.05575 0.06200408935546875 0.137176513671875 2.658447265625 -4.6748046875 0.0008104145526885986 9.560585021972656e-05 -0.064178466796875 -0.05487823486328125
18.0655 0.0684051513671875 0.13751220703125 2.283203125 -4.86572265625 -2.4378299713134766e-05 -0.0004306584596633911 -0.06752777099609375 -0.04987335205078125
18.07525 0.0753631591796875 0.1361846923828125 1.902587890625 -5.039794921875 0.0007248818874359131 -2.5331974029541016e-05 -0.06841659545898438 -0.043125152587890625
18.085 0.08374786376953125 0.135040283203125 1.505859375 -5.189453125 0.0010903477668762207 0.00025153160095214844 -0.0722198486328125 -0.037815093994140625
18.09475 0.08985137939453125 0.13260650634765625 1.106689453125 -5.32373046875 0.001542508602142334 -0.0002461671829223633 -0.0730743408203125 -0.033344268798828125
18.1045 0.09789276123046875 0.1320343017578125 0.69091796875 -5.424072265625 0.0012513995170593262 -0.00019234418869018555 -0.07445144653320312 -0.0271453857421875
18.11425 0.10402679443359375 0.13116455078125 0.246337890625 -5.488037109375 0.0015469789505004883 0.00025153160095214844 -0.07720947265625 -0.021484375
18.124 0.111175537109375 0.125701904296875 -0.19873046875 -5.51513671875 0.0007574558258056641 -0.0002532005310058594 -0.0756378173828125 -0.01445770263671875
18.13375 0.1200103759765625 0.1224212646484375 -0.6474609375 -5.50341796875 0.00014437735080718994 -5.21540641784668e-05 -0.07666015625 -0.00803375244140625
18.1435 0.124359130859375 0.11843109130859375 -1.099609375 -5.435302734375 0.0008497536182403564 -0.0008418858051300049 -0.07942581176757812 -0.00115203857421875
18.15325 0.1309967041015625 0.114410400390625 -1.5419921875 -5.335693359375 0.0003727376461029053 0.0005175769329071045 -0.08034515380859375 0.004428863525390625
18.163 0.1390533447265625 0.1092529296875 -1.96435546875 -5.198974609375 0.0014356374740600586 -8.243322372436523e-05 -0.077056884765625 0.0126800537109375
18.17275 0.14447021484375 0.1044769287109375 -2.37744140625 -5.03125 0.0006451606750488281 -0.001019299030303955 -0.07418441772460938 0.01892852783203125
18.1825 0.1535186767578125 0.0977935791015625 -2.780029296875 -4.843505859375 0.0003134310245513916 8.945167064666748e-05 -0.07387161254882812 0.026226043701171875
18.19225 0.15814208984375 0.092010498046875 -3.184326171875 -4.625244140625 0.0006887912750244141 4.5359134674072266e-05 -0.07169723510742188 0.03324127197265625
18.202 0.163818359375 0.0889739990234375 -3.55419921875 -4.361083984375 0.0013124346733093262 -0.000488579273223877 -0.07010269165039062 0.039608001708984375
18.21175 0.1690216064453125 0.07977294921875 -3.92333984375 -4.0556640625 0.0007871389389038086 0.0002262592315673828 -0.06580352783203125 0.04619598388671875
18.2215 0.1758880615234375 0.073272705078125 -4.248291015625 -3.7080078125 0.0005556046962738037 -0.000636756420135498 -0.062374114990234375 0.052181243896484375
18.23125 0.1811370849609375 0.06629180908203125 -4.5390625 -3.344482421875 0.0009189248085021973 0.0008605122566223145 -0.05923271179199219 0.05608940124511719
18.241 0.18308258056640625 0.0582122802734375 -4.781005859375 -2.9541015625 -0.0001977086067199707 -0.0013645291328430176 -0.054462432861328125 0.063751220703125
18.25075 0.1879425048828125 0.04988861083984375 -4.99267578125 -2.561767578125 0.0007295012474060059 -0.0013052821159362793 -0.0496826171875 0.06847381591796875
18.2605 0.19045257568359375 0.0419769287109375 -5.1630859375 -2.155517578125 -0.00037616491317749023 -0.0007049441337585449 -0.045078277587890625 0.072723388671875
18.27025 0.1934051513671875 0.03284454345703125 -5.317138671875 -1.749755859375 0.0001779794692993164 -0.0005796551704406738 -0.0377044677734375 0.0781707763671875
18.28 0.19683074951171875 0.02411651611328125 -5.46044921875 -1.318115234375 -0.00032372772693634033 0.00022758543491363525 -0.03215789794921875 0.080810546875
18.28975 0.19837188720703125 0.01511383056640625 -5.55908203125 -0.8779296875 0.0012593269348144531 0.0007145404815673828 -0.025356292724609375 0.087677001953125
18.2995 0.199676513671875 0.00577545166015625 -5.6162109375 -0.41552734375 7.742643356323242e-05 -0.000901341438293457 -0.018367767333984375 0.0871124267578125
18.30925 0.2024078369140625 -0.0041046142578125 -5.62939453125 0.0654296875 0.0019398927688598633 -0.0003261566162109375 -0.0102386474609375 0.0924224853515625
18.319 0.2002716064453125 -0.01525115966796875 -5.58642578125 0.537841796875 0.0005933046340942383 -0.0007145702838897705 -0.002231597900390625 0.09521484375
18.32875 0.199798583984375 -0.022308349609375 -5.49560546875 0.988525390625 -0.00031822919845581055 -0.0003637373447418213 0.00458526611328125 0.0958404541015625
18.3385 0.19950103759765625 -0.03199005126953125 -5.361572265625 1.416015625 0.0002931952476501465 0.0004921853542327881 0.01470947265625 0.09887313842773438
18.34825 0.19890594482421875 -0.04302215576171875 -5.216064453125 1.825927734375 0.0006819963455200195 0.00040328502655029297 0.020778656005859375 0.099700927734375
18.358 0.19730377197265625 -0.05074310302734375 -5.05419921875 2.215087890625 0.00048679113388061523 -0.0008018314838409424 0.0306549072265625 0.0982666015625
18.36775 0.19455718994140625 -0.0613861083984375 -4.85693359375 2.603759765625 -0.0002259388566017151 2.253800630569458e-05 0.03691864013671875 0.09822845458984375
18.3775 0.19263458251953125 -0.0705718994140625 -4.656494140625 2.973876953125 0.0003254711627960205 -0.0009593367576599121 0.04450225830078125 0.09723663330078125
18.38725 0.18944549560546875 -0.07967376708984375 -4.395751953125 3.3466796875 -0.0003508031368255615 -0.0002630650997161865 0.05348968505859375 0.0955963134765625
18.397 0.1857147216796875 -0.0875091552734375 -4.1044921875 3.69580078125 -5.8770179748535156e-05 -0.0005518198013305664 0.0616912841796875 0.0924530029296875
18.40675 0.1800537109375 -0.0958709716796875 -3.7646484375 4.0361328125 0.00018556416034698486 -2.664327621459961e-05 0.06903076171875 0.0900726318359375
18.4165 0.17589569091796875 -0.10468292236328125 -3.401123046875 4.30859375 0.00010356307029724121 0.0005041360855102539 0.0755157470703125 0.085357666015625
18.42625 0.17024993896484375 -0.11263275146484375 -3.0107421875 4.53125 0.0012466907501220703 -0.000368654727935791 0.08382415771484375 0.08159637451171875
18.436 0.1630096435546875 -0.1190643310546875 -2.62890625 4.71044921875 0.0001865476369857788 -0.00043044984340667725 0.092742919921875 0.07622528076171875
18.44575 0.156585693359375 -0.12819671630859375 -2.24365234375 4.8603515625 0.0001748800277709961 -0.0006460845470428467 0.09766387939453125 0.0691680908203125
18.4555 0.1482086181640625 -0.1344757080078125 -1.865234375 4.9892578125 0.000537574291229248 0.00021371245384216309 0.10301971435546875 0.0644683837890625
18.46525 0.14348602294921875 -0.13957977294921875 -1.487060546875 5.114013671875 -0.0004006624221801758 -0.000692903995513916 0.108245849609375 0.0548858642578125
18.475 0.13323211669921875 -0.145904541015625 -1.097900390625 5.21826171875 0.0011202692985534668 0.000752568244934082 0.1149444580078125 0.04871368408203125
18.48475 0.12683868408203125 -0.15247344970703125 -0.678955078125 5.292724609375 0.000886082649230957 -0.0010135769844055176 0.1193389892578125 0.04099273681640625
18.4945 0.1177520751953125 -0.15631866455078125 -0.231689453125 5.3232421875 0.0001926422119140625 -0.0007610321044921875 0.12427520751953125 0.03095245361328125
18.50425 0.110198974609375 -0.16192626953125 0.216796875 5.31201171875 2.193450927734375e-05 0.00019618868827819824 0.1243896484375 0.02490234375
18.514 0.10308837890625 -0.166290283203125 0.65673828125 5.244140625 0.0002906322479248047 -0.0011764764785766602 0.1282958984375 0.0143585205078125
18.52375 0.0931243896484375 -0.1684722900390625 1.070556640625 5.115234375 0.00019749999046325684 -0.0007671117782592773 0.12958526611328125 0.005859375
18.5335 0.08404541015625 -0.17281341552734375 1.44873046875 4.962890625 0.0005204379558563232 -0.0003625154495239258 0.13243865966796875 -0.002288818359375
18.54325 0.07529449462890625 -0.1752166748046875 1.793701171875 4.792724609375 -0.00012031197547912598 -0.00044402480125427246 0.131011962890625 -0.0105133056640625
18.553 0.0672607421875 -0.177642822265625 2.119140625 4.607177734375 7.422268390655518e-05 0.00015901029109954834 0.12909698486328125 -0.01813507080078125
18.56275 0.0572509765625 -0.177032470703125 2.434326171875 4.427001953125 -0.00017219781875610352 -0.0014075040817260742 0.12786102294921875 -0.02730560302734375
18.5725 0.04878997802734375 -0.179443359375 2.7470703125 4.22265625 -4.7534704208374023e-05 0.0005384087562561035 0.125701904296875 -0.03668212890625
18.58225 0.04091644287109375 -0.17903900146484375 3.0546875 3.998046875 -0.0003002285957336426 0.00015491247177124023 0.12157058715820312 -0.04569244384765625
18.592 0.03003692626953125 -0.1794586181640625 3.353515625 3.732421875 0.0008164942264556885 -0.00029593706130981445 0.11958694458007812 -0.0521697998046875
18.60175 0.022369384765625 -0.17724609375 3.6298828125 3.43896484375 0.0007927417755126953 -0.0011219978332519531 0.1134185791015625 -0.0590057373046875
18.6115 0.0140228271484375 -0.17754364013671875 3.86083984375 3.1171875 0.00044605135917663574 0.0002516210079193115 0.11072540283203125 -0.06622314453125
18.62125 0.00531005859375 -0.17437744140625 4.053955078125 2.780517578125 -0.0005736052989959717 -0.0002879202365875244 0.10391998291015625 -0.07269668579101562
18.631 -0.0020599365234375 -0.1731719970703125 4.19677734375 2.456298828125 -6.645917892456055e-05 -0.0002392977476119995 0.09958648681640625 -0.0793304443359375
18.64075 -0.0109405517578125 -0.17115020751953125 4.31591796875 2.126953125 7.808208465576172e-05 -0.00033295154571533203 0.09344863891601562 -0.0830535888671875
18.6505 -0.01828765869140625 -0.1700897216796875 4.424560546875 1.81298828125 -0.0003809630870819092 -0.0005312561988830566 0.08761978149414062 -0.0875091552734375
18.66025 -0.02674102783203125 -0.1658935546875 4.523681640625 1.501708984375 0.00010251998901367188 -0.0009455680847167969 0.08072662353515625 -0.090545654296875
18.67 -0.0318450927734375 -0.16436767578125 4.614013671875 1.184814453125 -9.560585021972656e-05 -0.0007033050060272217 0.07440567016601562 -0.09337997436523438
18.67975 -0.04085540771484375 -0.1597442626953125 4.69384765625 0.848388671875 -0.00011965632438659668 -0.0005222856998443604 0.06705093383789062 -0.09759902954101562
18.6895 -0.04853057861328125 -0.1549530029296875 4.7431640625 0.488037109375 0.001255333423614502 -0.0005405545234680176 0.060863494873046875 -0.09818649291992188
