!Created with skrf (http://scikit-rf.org).
# GHz S RI R 50.0 
!freq ReS11 ImS11 ReS21 ImS21 ReS12 ImS12 ReS22 ImS22
17.5 0.007171630859375 -0.13260650634765625 -4.90087890625 0.00830078125 -0.001566767692565918 0.0009949207305908203 0.08522796630859375 -0.00153350830078125
17.50975 -0.0013885498046875 -0.12950897216796875 -4.88427734375 0.3955078125 -0.001456618309020996 0.001016855239868164 0.087677001953125 -0.0035858154296875
17.5195 -0.0074005126953125 -0.126556396484375 -4.82080078125 0.775390625 -0.0007071495056152344 0.0004209280014038086 0.0914306640625 -0.001956939697265625
17.52925 -0.0162811279296875 -0.12232208251953125 -4.74365234375 1.148681640625 -0.001756429672241211 0.001417696475982666 0.09185409545898438 -0.0063629150390625
17.539 -0.0201568603515625 -0.1159820556640625 -4.62744140625 1.5048828125 -0.0009329319000244141 0.0009846687316894531 0.09453582763671875 -0.0077362060546875
17.54875 -0.02838897705078125 -0.11486053466796875 -4.488037109375 1.842041015625 -0.0016074776649475098 -0.00021213293075561523 0.09600067138671875 -0.00922393798828125
17.5585 -0.03641510009765625 -0.109649658203125 -4.342041015625 2.172607421875 -0.0004942119121551514 0.0008278489112854004 0.09856033325195312 -0.012298583984375
17.56825 -0.04151153564453125 -0.10494232177734375 -4.181396484375 2.486328125 -0.0023463964462280273 0.0004233121871948242 0.09820938110351562 -0.016223907470703125
17.578 -0.0465850830078125 -0.0991363525390625 -3.9810791015625 2.8038330078125 -0.0007770061492919922 0.00043696165084838867 0.1005401611328125 -0.018184661865234375
17.58775 -0.052490234375 -0.0943145751953125 -3.756103515625 3.1126708984375 -0.0008234381675720215 0.0016463994979858398 0.10305023193359375 -0.020477294921875
17.5975 -0.056793212890625 -0.0890045166015625 -3.493896484375 3.4095458984375 0.0003355741500854492 0.0008224844932556152 0.1038818359375 -0.0238037109375
17.60725 -0.0608367919921875 -0.08335113525390625 -3.206298828125 3.66748046875 -0.0012978911399841309 0.001311659812927246 0.10284042358398438 -0.02700042724609375
17.617 -0.06610870361328125 -0.07506561279296875 -2.89794921875 3.8975830078125 -0.00030872225761413574 0.0007881224155426025 0.10609054565429688 -0.0308837890625
17.62675 -0.07051849365234375 -0.06951904296875 -2.572509765625 4.0908203125 -0.00033730268478393555 0.0011089444160461426 0.10506057739257812 -0.033901214599609375
17.6365 -0.0747528076171875 -0.0631561279296875 -2.2421875 4.2470703125 -0.0012729167938232422 0.002393007278442383 0.105682373046875 -0.03899383544921875
17.64625 -0.0760498046875 -0.05684661865234375 -1.92333984375 4.37060546875 -0.0012966394424438477 0.0013228058815002441 0.103790283203125 -0.042736053466796875
17.656 -0.0792236328125 -0.0521087646484375 -1.6083984375 4.480224609375 0.0010890960693359375 0.0008008480072021484 0.10242462158203125 -0.045902252197265625
17.66575 -0.08227920532226562 -0.042003631591796875 -1.302978515625 4.589599609375 -0.0022569894790649414 0.0004423856735229492 0.10239028930664062 -0.052021026611328125
17.6755 -0.08408737182617188 -0.036663055419921875 -0.984130859375 4.679443359375 -0.0011966824531555176 0.0015890002250671387 0.099884033203125 -0.05486297607421875
17.68525 -0.086181640625 -0.02939605712890625 -0.65771484375 4.780029296875 -0.0005234181880950928 0.0005918443202972412 0.09654998779296875 -0.057529449462890625
17.695 -0.088134765625 -0.0218353271484375 -0.296875 4.858642578125 -0.000613093376159668 0.002128124237060547 0.09676742553710938 -0.061420440673828125
17.70475 -0.089324951171875 -0.014190673828125 0.094482421875 4.898193359375 -0.00013148784637451172 0.0013757944107055664 0.09406661987304688 -0.06678390502929688
17.7145 -0.08916854858398438 -0.0077362060546875 0.50146484375 4.89990234375 -0.00017946958541870117 0.0018558502197265625 0.09028244018554688 -0.07010269165039062
17.72425 -0.09110641479492188 -0.0007476806640625 0.906005859375 4.837646484375 -2.205371856689453e-06 0.0015940666198730469 0.08719635009765625 -0.07412338256835938
17.734 -0.09070205688476562 0.00669097900390625 1.2919921875 4.728515625 0.0006554722785949707 0.0009859800338745117 0.08484268188476562 -0.077178955078125
17.74375 -0.09114837646484375 0.01280975341796875 1.638671875 4.572265625 5.245208740234375e-06 0.000555574893951416 0.0810089111328125 -0.08282470703125
17.7535 -0.08936309814453125 0.020374298095703125 1.95947265625 4.415771484375 -0.0008492469787597656 0.0012541413307189941 0.07860946655273438 -0.08578872680664062
17.76325 -0.08794403076171875 0.026889801025390625 2.25244140625 4.256591796875 -0.001228928565979004 0.0020564794540405273 0.07294464111328125 -0.08843612670898438
17.773 -0.0868072509765625 0.0330810546875 2.52685546875 4.09326171875 4.845857620239258e-05 0.0015097856521606445 0.0691986083984375 -0.09104156494140625
17.78275 -0.08489608764648438 0.0400848388671875 2.8037109375 3.912841796875 -0.0002993345260620117 0.0013443231582641602 0.06499481201171875 -0.09016799926757812
17.7925 -0.08223724365234375 0.04567718505859375 3.08935546875 3.735595703125 -0.0005216002464294434 -0.0010199546813964844 0.059398651123046875 -0.09522247314453125
17.80225 -0.08026123046875 0.05013275146484375 3.389404296875 3.5302734375 -0.00019735097885131836 0.0011417269706726074 0.0578460693359375 -0.09695816040039062
17.812 -0.0775299072265625 0.057987213134765625 3.6787109375 3.285400390625 0.00026154518127441406 0.0011840462684631348 0.05257415771484375 -0.09873199462890625
17.82175 -0.073822021484375 0.06473922729492188 3.947509765625 3.005859375 -0.00032532215118408203 0.0016078352928161621 0.04911041259765625 -0.09764862060546875
17.8315 -0.0697784423828125 0.07065963745117188 4.1943359375 2.683837890625 0.0003204941749572754 0.0011335015296936035 0.0432891845703125 -0.10089492797851562
17.84125 -0.0681610107421875 0.07573699951171875 4.3994140625 2.34912109375 0.0002384185791015625 0.0013332366943359375 0.03809356689453125 -0.10150146484375
17.851 -0.06283187866210938 0.08289718627929688 4.548583984375 1.986572265625 0.000372961163520813 4.0978193283081055e-06 0.0335845947265625 -0.10203933715820312
17.86075 -0.06085968017578125 0.08647918701171875 4.67041015625 1.646484375 -0.0003932565450668335 0.0003761798143386841 0.028076171875 -0.10219955444335938
17.8705 -0.055622100830078125 0.09347152709960938 4.770751953125 1.306396484375 0.0003952980041503906 0.0010458827018737793 0.02304840087890625 -0.10131454467773438
17.88025 -0.050411224365234375 0.0986480712890625 4.860107421875 0.96875 0.00035250186920166016 0.0016491413116455078 0.015949249267578125 -0.10213851928710938
17.89 -0.047084808349609375 0.1026153564453125 4.941650390625 0.637451171875 0.0007415413856506348 0.0010076165199279785 0.01192474365234375 -0.10171127319335938
17.89975 -0.0417633056640625 0.1067352294921875 5.010009765625 0.274169921875 -0.00013118982315063477 0.0013130903244018555 0.005970001220703125 -0.101104736328125
17.9095 -0.036983489990234375 0.11155319213867188 5.068603515625 -0.10595703125 0.0001248866319656372 1.8283724784851074e-05 0.00139617919921875 -0.10041046142578125
17.91925 -0.031871795654296875 0.11405181884765625 5.073974609375 -0.501708984375 0.0004379749298095703 0.0014362931251525879 -0.002696990966796875 -0.09968185424804688
17.929 -0.025726318359375 0.11922454833984375 5.05615234375 -0.908203125 0.0011143684387207031 0.0013513565063476562 -0.008880615234375 -0.0990753173828125
17.93875 -0.020534515380859375 0.12262725830078125 4.983642578125 -1.314697265625 0.0005170702934265137 0.0007525086402893066 -0.013347625732421875 -0.09845352172851562
17.9485 -0.01523590087890625 0.12500762939453125 4.875732421875 -1.695556640625 0.001241922378540039 -0.00012826919555664062 -0.017948150634765625 -0.09387969970703125
17.95825 -0.0073699951171875 0.1281585693359375 4.73291015625 -2.0693359375 -7.733702659606934e-05 0.0008782148361206055 -0.0207366943359375 -0.09288406372070312
17.968 -0.00298309326171875 0.12955474853515625 4.569091796875 -2.415283203125 0.001225590705871582 0.0008150339126586914 -0.027252197265625 -0.09069442749023438
17.97775 0.00298309326171875 0.132110595703125 4.3896484375 -2.742431640625 0.0012303590774536133 -3.457069396972656e-05 -0.03231048583984375 -0.08722686767578125
17.9875 0.01177978515625 0.13378143310546875 4.201416015625 -3.077392578125 -6.544217467308044e-05 1.9468367099761963e-05 -0.0343017578125 -0.0846099853515625
17.99725 0.01834869384765625 0.135467529296875 3.9912109375 -3.404541015625 -0.00011610984802246094 0.001059889793395996 -0.040081024169921875 -0.08121871948242188
18.007 0.0255584716796875 0.13623046875 3.75634765625 -3.7332763671875 0.0008516311645507812 0.0010633468627929688 -0.045780181884765625 -0.07592391967773438
18.01675 0.03224945068359375 0.1380615234375 3.478271484375 -4.048828125 0.0012129545211791992 7.772445678710938e-05 -0.050457000732421875 -0.07243728637695312
18.0265 0.03894805908203125 0.139434814453125 3.166748046875 -4.353515625 0.000655829906463623 0.0004833340644836426 -0.054935455322265625 -0.06843185424804688
18.03625 0.0465240478515625 0.141754150390625 2.80859375 -4.61962890625 -4.960596561431885e-05 -0.00012952089309692383 -0.0567169189453125 -0.06494140625
18.046 0.0537567138671875 0.14009857177734375 2.426513671875 -4.85595703125 0.0012912750244140625 0.00019991397857666016 -0.061305999755859375 -0.0603179931640625
18.05575 0.0625457763671875 0.13874053955078125 2.03857421875 -5.03759765625 0.001232445240020752 -0.001017749309539795 -0.06365203857421875 -0.054290771484375
18.0655 0.06902313232421875 0.1392974853515625 1.641357421875 -5.18017578125 0.000691831111907959 0.00047153234481811523 -0.06898880004882812 -0.0508880615234375
18.07525 0.076690673828125 0.138641357421875 1.2353515625 -5.3046875 0.0007339119911193848 0.0005257129669189453 -0.07210540771484375 -0.044261932373046875
18.085 0.083953857421875 0.1366119384765625 0.826171875 -5.40185546875 0.0004075169563293457 -0.0005024075508117676 -0.07413864135742188 -0.03975677490234375
18.09475 0.09033203125 0.135040283203125 0.4052734375 -5.479736328125 0.000123634934425354 -8.681416511535645e-05 -0.0736236572265625 -0.0340576171875
18.1045 0.098297119140625 0.133209228515625 -0.024169921875 -5.526611328125 0.0016230344772338867 -0.00142747163772583 -0.07599639892578125 -0.025844573974609375
18.11425 0.1049652099609375 0.132537841796875 -0.474853515625 -5.526611328125 0.0011875033378601074 -0.0015211105346679688 -0.07871246337890625 -0.020751953125
18.124 0.111328125 0.1270294189453125 -0.92578125 -5.498046875 0.00044396519660949707 -0.00027942657470703125 -0.078460693359375 -0.01366424560546875
18.13375 0.11962890625 0.1237945556640625 -1.36962890625 -5.42822265625 0.0009984970092773438 -0.0021605491638183594 -0.07826995849609375 -0.008514404296875
18.1435 0.12572479248046875 0.1203765869140625 -1.807373046875 -5.310791015625 0.0005256831645965576 -7.981061935424805e-05 -0.08094406127929688 -0.000362396240234375
18.15325 0.13254547119140625 0.1150970458984375 -2.2431640625 -5.153564453125 0.0012996196746826172 -0.00036072731018066406 -0.0814971923828125 0.005950927734375
18.163 0.140411376953125 0.1107177734375 -2.6474609375 -4.958984375 0.0004177689552307129 0.0004686415195465088 -0.07989501953125 0.0126495361328125
18.17275 0.14752197265625 0.10577392578125 -3.038330078125 -4.736083984375 -0.00043851137161254883 -0.000247955322265625 -0.07764053344726562 0.019306182861328125
18.1825 0.1536407470703125 0.0997314453125 -3.4150390625 -4.4970703125 0.00017017126083374023 0.0010665655136108398 -0.07548904418945312 0.028106689453125
18.19225 0.16015625 0.092987060546875 -3.79248046875 -4.22509765625 0.0007405877113342285 -1.3470649719238281e-05 -0.07511138916015625 0.035186767578125
18.202 0.1646270751953125 0.087249755859375 -4.12939453125 -3.9130859375 0.0010696053504943848 -3.6597251892089844e-05 -0.07262039184570312 0.041599273681640625
18.21175 0.170654296875 0.0809783935546875 -4.4560546875 -3.5576171875 0.0002835988998413086 -0.0004711747169494629 -0.06909942626953125 0.0486297607421875
18.2215 0.1772308349609375 0.0727996826171875 -4.741943359375 -3.173095703125 0.0009372234344482422 -0.0008560121059417725 -0.06278610229492188 0.053531646728515625
18.23125 0.1815338134765625 0.06551361083984375 -4.982421875 -2.7724609375 0.002135038375854492 -1.0728836059570312e-06 -0.05911827087402344 0.058406829833984375
18.241 0.185638427734375 0.05754852294921875 -5.18017578125 -2.351806640625 6.783008575439453e-05 -0.0018386244773864746 -0.055698394775390625 0.06459426879882812
18.25075 0.190521240234375 0.049072265625 -5.337158203125 -1.929931640625 0.0001985803246498108 -0.0002326667308807373 -0.052005767822265625 0.072296142578125
18.2605 0.19368743896484375 0.04199981689453125 -5.458740234375 -1.505615234375 -0.00012004375457763672 -0.0009232163429260254 -0.045867919921875 0.07487869262695312
18.27025 0.19535064697265625 0.03302764892578125 -5.5634765625 -1.07763671875 0.000982046127319336 -0.0012759566307067871 -0.03804779052734375 0.07980728149414062
18.28 0.19919586181640625 0.02339935302734375 -5.653564453125 -0.629150390625 -0.00030869245529174805 -0.000826418399810791 -0.032268524169921875 0.08469390869140625
18.28975 0.20122528076171875 0.01326751708984375 -5.695556640625 -0.178955078125 0.00015729665756225586 -0.000430181622505188 -0.026165008544921875 0.08864593505859375
18.2995 0.20227813720703125 0.00493621826171875 -5.700927734375 0.29736328125 -0.00011116266250610352 -0.000862419605255127 -0.017063140869140625 0.08868789672851562
18.30925 0.2027130126953125 -0.0047454833984375 -5.64501953125 0.7802734375 0.0011461973190307617 -0.0001728534698486328 -0.0095977783203125 0.09487152099609375
18.319 0.20092010498046875 -0.01592254638671875 -5.54833984375 1.250732421875 0.00024956464767456055 0.0001043081283569336 -0.00379180908203125 0.09774017333984375
18.32875 0.20229339599609375 -0.0220947265625 -5.394775390625 1.68896484375 0.0008046627044677734 -1.5020370483398438e-05 0.006801605224609375 0.09966659545898438
18.3385 0.20117950439453125 -0.03476715087890625 -5.2099609375 2.104736328125 0.0006453394889831543 -0.0004285275936126709 0.0142822265625 0.10101699829101562
18.34825 0.20072174072265625 -0.04347991943359375 -5.02001953125 2.49658203125 0.0007534623146057129 -0.000331193208694458 0.02285003662109375 0.10115432739257812
18.358 0.1970672607421875 -0.05266571044921875 -4.80517578125 2.86328125 -7.824599742889404e-05 0.00019031018018722534 0.03110504150390625 0.10204315185546875
18.36775 0.1952972412109375 -0.06310272216796875 -4.564453125 3.230712890625 -0.0009666085243225098 -0.00015974044799804688 0.03871917724609375 0.09905242919921875
18.3775 0.19287109375 -0.0703582763671875 -4.3125 3.580322265625 -0.00026938319206237793 -0.00033080577850341797 0.04729461669921875 0.09781646728515625
18.38725 0.18848419189453125 -0.081451416015625 -4.001708984375 3.91845703125 0.0006148219108581543 -0.0011482834815979004 0.05559539794921875 0.09845733642578125
18.397 0.1846466064453125 -0.0885009765625 -3.6630859375 4.23583984375 -0.0003871917724609375 -0.00027441978454589844 0.0634307861328125 0.0950469970703125
18.40675 0.1800994873046875 -0.0977020263671875 -3.27978515625 4.53173828125 -0.00013774633407592773 0.000602424144744873 0.0708465576171875 0.09130859375
18.4165 0.1754913330078125 -0.107269287109375 -2.879150390625 4.756103515625 0.0006730258464813232 -0.00021976232528686523 0.07879638671875 0.0872344970703125
18.42625 0.16912841796875 -0.11505889892578125 -2.4599609375 4.935302734375 0.000942617654800415 -0.0005996823310852051 0.085906982421875 0.08319854736328125
18.436 0.16245269775390625 -0.1200103759765625 -2.052978515625 5.066650390625 -0.0006891489028930664 4.380941390991211e-06 0.09500885009765625 0.07765960693359375
18.44575 0.155120849609375 -0.12902069091796875 -1.647216796875 5.16845703125 8.547306060791016e-05 -0.0013167858123779297 0.099090576171875 0.070831298828125
18.4555 0.14849090576171875 -0.1340484619140625 -1.2548828125 5.249267578125 -0.00023543834686279297 -0.0007003247737884521 0.105133056640625 0.064910888671875
18.46525 0.1416168212890625 -0.1422576904296875 -0.8623046875 5.3310546875 0.0007276535034179688 0.0004354119300842285 0.10997772216796875 0.05522918701171875
18.475 0.13378143310546875 -0.1484527587890625 -0.4580078125 5.38818359375 0.00024305284023284912 -0.00032061338424682617 0.11569976806640625 0.0485992431640625
18.48475 0.1264495849609375 -0.15305328369140625 -0.0263671875 5.416259765625 0.0005751848220825195 1.4215707778930664e-05 0.12197113037109375 0.0417633056640625
18.4945 0.11751556396484375 -0.15807342529296875 0.421630859375 5.388671875 0.0002307891845703125 -0.0007066130638122559 0.12461090087890625 0.03216552734375
18.50425 0.107330322265625 -0.162750244140625 0.87939453125 5.32275390625 0.0001783818006515503 1.3560056686401367e-05 0.127044677734375 0.023345947265625
18.514 0.100921630859375 -0.1663665771484375 1.3095703125 5.1953125 9.140372276306152e-05 0.000266343355178833 0.131561279296875 0.014739990234375
18.52375 0.0908966064453125 -0.168365478515625 1.708740234375 5.0146484375 -5.55478036403656e-05 9.238719940185547e-05 0.13179779052734375 0.00653076171875
18.5335 0.0831451416015625 -0.17259979248046875 2.070068359375 4.81884765625 0.00011283159255981445 0.0005585849285125732 0.13419342041015625 -0.003021240234375
18.54325 0.0742034912109375 -0.1764678955078125 2.39208984375 4.60498046875 0.0008180439472198486 -0.00025409460067749023 0.132080078125 -0.01313018798828125
18.553 0.0658721923828125 -0.17819976806640625 2.697265625 4.37744140625 -9.007751941680908e-05 -0.0003509223461151123 0.1320037841796875 -0.01950836181640625
18.56275 0.05716705322265625 -0.17748260498046875 2.995361328125 4.162841796875 0.00028136372566223145 -0.0006490945816040039 0.12900543212890625 -0.02825164794921875
18.5725 0.047088623046875 -0.17900848388671875 3.28173828125 3.91943359375 8.344650268554688e-06 -0.001116335391998291 0.1264495849609375 -0.03730010986328125
18.58225 0.03851318359375 -0.17864227294921875 3.568603515625 3.6591796875 -0.00024622678756713867 -0.0010223984718322754 0.12482452392578125 -0.0462799072265625
18.592 0.03040313720703125 -0.179168701171875 3.83740234375 3.35595703125 -5.83156943321228e-05 0.00017137080430984497 0.12060928344726562 -0.052764892578125
18.60175 0.0216217041015625 -0.178375244140625 4.0830078125 3.02880859375 0.000870823860168457 -0.0006124973297119141 0.115631103515625 -0.06093597412109375
18.6115 0.012603759765625 -0.17539215087890625 4.27734375 2.67236328125 -9.939074516296387e-05 -0.00032304227352142334 0.111846923828125 -0.06853485107421875
18.62125 0.00370025634765625 -0.1741790771484375 4.431640625 2.3125 -5.3763389587402344e-05 -0.0009763240814208984 0.10515213012695312 -0.07422637939453125
18.631 -0.0035400390625 -0.1728363037109375 4.53466796875 1.969482421875 0.00012902915477752686 -0.00032927095890045166 0.098907470703125 -0.08078765869140625
18.64075 -0.011383056640625 -0.17093658447265625 4.619873046875 1.62548828125 -0.00015997886657714844 -0.0017656683921813965 0.09347152709960938 -0.08435821533203125
18.6505 -0.01750946044921875 -0.168548583984375 4.688232421875 1.300537109375 -0.0002446174621582031 -7.937848567962646e-05 0.08791732788085938 -0.08940887451171875
18.66025 -0.0280609130859375 -0.1657257080078125 4.75 0.97314453125 -0.00018228590488433838 0.00018433481454849243 0.08049774169921875 -0.0942840576171875
18.67 -0.032318115234375 -0.16153717041015625 4.800537109375 0.642333984375 -0.0002891421318054199 -0.0013793706893920898 0.07433319091796875 -0.09606552124023438
18.67975 -0.0423583984375 -0.1587371826171875 4.844970703125 0.2958984375 0.00011146068572998047 -0.0008910298347473145 0.0667724609375 -0.0986785888671875
18.6895 -0.0482330322265625 -0.1548004150390625 4.849609375 -0.07421875 0.00012618303298950195 -0.0016196370124816895 0.061145782470703125 -0.099822998046875
