!Created with skrf (http://scikit-rf.org).
# GHz S RI R 50.0 
!freq ReS11 ImS11 ReS21 ImS21 ReS12 ImS12 ReS22 ImS22
17.5 0.01668548583984375 -0.150604248046875 3.329833984375 3.827392578125 -0.0016208291053771973 0.0003560781478881836 0.10601806640625 0.012676239013671875
17.50975 0.00673675537109375 -0.1493988037109375 3.621826171875 3.53369140625 -0.0008375942707061768 0.0005559027194976807 0.10984420776367188 0.00969696044921875
17.5195 -0.0022430419921875 -0.14340972900390625 3.8818359375 3.223388671875 -0.0018900036811828613 0.00014036893844604492 0.11348342895507812 0.009151458740234375
17.52925 -0.010498046875 -0.14092254638671875 4.119384765625 2.900634765625 -0.0009925365447998047 0.001192629337310791 0.11701583862304688 0.00272369384765625
17.539 -0.018157958984375 -0.1358489990234375 4.32373046875 2.5615234375 -0.0011402368545532227 0.0005750656127929688 0.11806488037109375 0.00049591064453125
17.54875 -0.02733612060546875 -0.1322174072265625 4.491943359375 2.21826171875 -0.000931471586227417 1.1056661605834961e-05 0.12102890014648438 -0.00519561767578125
17.5585 -0.03643798828125 -0.12940216064453125 4.6533203125 1.8720703125 -0.0012556910514831543 0.001617133617401123 0.12417221069335938 -0.00861358642578125
17.56825 -0.0430908203125 -0.1248931884765625 4.785400390625 1.522705078125 -0.001428067684173584 0.00041109323501586914 0.1247406005859375 -0.014251708984375
17.578 -0.05046844482421875 -0.118438720703125 4.90185546875 1.13720703125 -0.0013723969459533691 0.0013064146041870117 0.1275482177734375 -0.01944732666015625
17.58775 -0.05810546875 -0.114471435546875 4.98828125 0.73779296875 0.00010597705841064453 0.0012517571449279785 0.1282958984375 -0.02373504638671875
17.5975 -0.06308746337890625 -0.10732269287109375 5.0283203125 0.31005859375 -0.0008028745651245117 0.001534879207611084 0.12859344482421875 -0.03084564208984375
17.60725 -0.06958770751953125 -0.10262298583984375 5.02001953125 -0.103271484375 -0.00011113286018371582 0.0004435330629348755 0.12767791748046875 -0.0341033935546875
17.617 -0.0767974853515625 -0.0943145751953125 4.96728515625 -0.508544921875 -0.0006299316883087158 0.00010532140731811523 0.12877655029296875 -0.03940582275390625
17.62675 -0.0816802978515625 -0.08776092529296875 4.871826171875 -0.89404296875 -0.0010883212089538574 -6.020069122314453e-06 0.12750244140625 -0.04497528076171875
17.6365 -0.0865936279296875 -0.0810089111328125 4.748046875 -1.25048828125 0.00046765804290771484 0.0004067420959472656 0.12493896484375 -0.05219268798828125
17.64625 -0.090301513671875 -0.07115936279296875 4.614013671875 -1.573486328125 -0.0013312101364135742 0.00018078088760375977 0.12303924560546875 -0.05841827392578125
17.656 -0.09397125244140625 -0.0655059814453125 4.477783203125 -1.883544921875 -0.0004857182502746582 -0.0005878210067749023 0.11806869506835938 -0.06344223022460938
17.66575 -0.09729766845703125 -0.0560760498046875 4.347900390625 -2.19091796875 -0.00010889768600463867 0.0009853243827819824 0.11958694458007812 -0.06846237182617188
17.6755 -0.10204315185546875 -0.04929351806640625 4.197509765625 -2.498779296875 -0.0010812878608703613 0.0011721253395080566 0.11493301391601562 -0.07414627075195312
17.68525 -0.10425567626953125 -0.04064178466796875 4.0380859375 -2.824951171875 -0.0011870861053466797 0.0006317496299743652 0.11178207397460938 -0.07820510864257812
17.695 -0.10528564453125 -0.02985382080078125 3.83544921875 -3.1649169921875 -0.00010273605585098267 -8.892267942428589e-05 0.109039306640625 -0.0845489501953125
17.70475 -0.1063995361328125 -0.021392822265625 3.573486328125 -3.491455078125 3.260374069213867e-05 0.0006269216537475586 0.1027069091796875 -0.08800125122070312
17.7145 -0.10968780517578125 -0.012569427490234375 3.2669677734375 -3.800048828125 0.0006999969482421875 0.0016055107116699219 0.09838104248046875 -0.09442520141601562
17.72425 -0.1111907958984375 -0.0040130615234375 2.916748046875 -4.048095703125 -0.0008142590522766113 0.0016411542892456055 0.09240341186523438 -0.0987396240234375
17.734 -0.1117401123046875 0.00439453125 2.552734375 -4.24853515625 -0.0007119178771972656 0.002275705337524414 0.08933258056640625 -0.1036529541015625
17.74375 -0.11327362060546875 0.0123443603515625 2.1875 -4.37841796875 -0.0006556510925292969 0.0010176897048950195 0.08373260498046875 -0.10802459716796875
17.7535 -0.11115264892578125 0.01938629150390625 1.8466796875 -4.489501953125 0.00038689374923706055 0.0013235211372375488 0.07901763916015625 -0.1116943359375
17.76325 -0.10889434814453125 0.028507232666015625 1.529052734375 -4.58251953125 0.0002950727939605713 0.0004540681838989258 0.07022857666015625 -0.11322021484375
17.773 -0.10772323608398438 0.038364410400390625 1.21630859375 -4.6669921875 0.00020271539688110352 0.0012328028678894043 0.06792831420898438 -0.11654281616210938
17.78275 -0.10602951049804688 0.04540252685546875 0.89111328125 -4.7470703125 -0.0003559887409210205 0.0009561479091644287 0.060970306396484375 -0.11664199829101562
17.7925 -0.10330963134765625 0.05400848388671875 0.548828125 -4.8291015625 9.509921073913574e-05 0.0005854666233062744 0.053684234619140625 -0.11911773681640625
17.80225 -0.09949111938476562 0.061054229736328125 0.1787109375 -4.90185546875 -0.00016161799430847168 0.0007059276103973389 0.048038482666015625 -0.12089157104492188
17.812 -0.09611892700195312 0.06926727294921875 -0.215576171875 -4.919921875 -6.496906280517578e-05 0.0011733174324035645 0.03986358642578125 -0.12078475952148438
17.82175 -0.0912322998046875 0.07730865478515625 -0.620361328125 -4.9052734375 0.0005626678466796875 0.002147197723388672 0.03436279296875 -0.1203765869140625
17.8315 -0.08893203735351562 0.08426666259765625 -1.022216796875 -4.825927734375 0.00016516447067260742 0.001486361026763916 0.028106689453125 -0.12079238891601562
17.84125 -0.08232879638671875 0.0928497314453125 -1.39697265625 -4.71533203125 -1.9550323486328125e-05 0.0011352300643920898 0.0200958251953125 -0.12056732177734375
17.851 -0.07732772827148438 0.10129165649414062 -1.743896484375 -4.552001953125 0.00015342235565185547 0.0016717910766601562 0.016429901123046875 -0.11937713623046875
17.86075 -0.073089599609375 0.10607147216796875 -2.056884765625 -4.396484375 0.0007933378219604492 0.0017704963684082031 0.007350921630859375 -0.1180419921875
17.8705 -0.0660858154296875 0.11248397827148438 -2.358642578125 -4.223388671875 0.000817418098449707 0.0013903379440307617 0.0029754638671875 -0.11717605590820312
17.88025 -0.059661865234375 0.11875152587890625 -2.6513671875 -4.052490234375 -4.572421312332153e-05 -0.00016158074140548706 -0.005413055419921875 -0.11626052856445312
17.89 -0.0540771484375 0.12468719482421875 -2.946533203125 -3.874267578125 -2.4080276489257812e-05 -0.00023399293422698975 -0.010555267333984375 -0.11316680908203125
17.89975 -0.04654693603515625 0.1290740966796875 -3.251708984375 -3.658447265625 -0.0002186298370361328 0.0009859204292297363 -0.01624298095703125 -0.1118927001953125
17.9095 -0.0420379638671875 0.1345062255859375 -3.552490234375 -3.40869140625 0.0005961060523986816 0.0005410909652709961 -0.0221099853515625 -0.109710693359375
17.91925 -0.03265380859375 0.13814544677734375 -3.824462890625 -3.11962890625 2.977624535560608e-05 5.7619065046310425e-05 -0.02788543701171875 -0.10753631591796875
17.929 -0.02667236328125 0.14337158203125 -4.07275390625 -2.80224609375 0.00042438507080078125 0.00048738718032836914 -0.0346832275390625 -0.1048583984375
17.93875 -0.01685333251953125 0.14482879638671875 -4.27783203125 -2.461181640625 0.0007314085960388184 0.0007562637329101562 -0.03823089599609375 -0.099395751953125
17.9485 -0.01038360595703125 0.1475677490234375 -4.427978515625 -2.114501953125 0.0003769993782043457 -0.00013563036918640137 -0.04215240478515625 -0.0952911376953125
17.95825 -0.00188446044921875 0.1503143310546875 -4.559814453125 -1.770751953125 0.0017325282096862793 -0.00022017955780029297 -0.0449981689453125 -0.09145355224609375
17.968 0.00543212890625 0.15312957763671875 -4.6640625 -1.433837890625 0.0008819103240966797 0.0019856691360473633 -0.05184173583984375 -0.08599853515625
17.97775 0.0157928466796875 0.1526947021484375 -4.749755859375 -1.1005859375 0.00046515464782714844 0.0010773539543151855 -0.0562591552734375 -0.0815277099609375
17.9875 0.022918701171875 0.15447235107421875 -4.840087890625 -0.750732421875 0.001290738582611084 0.0003097057342529297 -0.0605010986328125 -0.0768890380859375
17.99725 0.0326995849609375 0.155364990234375 -4.909423828125 -0.39111328125 0.0006185770034790039 0.0002544224262237549 -0.0642242431640625 -0.07297515869140625
18.007 0.04070281982421875 0.15436553955078125 -4.952392578125 -0.00439453125 0.00020354986190795898 0.0008211731910705566 -0.06850433349609375 -0.06632232666015625
18.01675 0.05108642578125 0.1552581787109375 -4.9599609375 0.393798828125 0.0006130635738372803 -5.2869319915771484e-05 -0.0720672607421875 -0.059722900390625
18.0265 0.0579986572265625 0.15411376953125 -4.919921875 0.79931640625 0.0014667510986328125 -0.0007938146591186523 -0.0755462646484375 -0.0545654296875
18.03625 0.06610107421875 0.154632568359375 -4.83056640625 1.1982421875 0.0005674362182617188 0.000622868537902832 -0.0777740478515625 -0.0484161376953125
18.046 0.0750274658203125 0.15167236328125 -4.695556640625 1.586181640625 0.0011087656021118164 0.0014067888259887695 -0.07840728759765625 -0.04137420654296875
18.05575 0.08380889892578125 0.14776611328125 -4.543701171875 1.926025390625 0.0014495253562927246 -0.00025647878646850586 -0.08271408081054688 -0.035198211669921875
18.0655 0.09221649169921875 0.14609527587890625 -4.3671875 2.247802734375 0.0010549426078796387 0.00019752979278564453 -0.08553695678710938 -0.02870941162109375
18.07525 0.0994720458984375 0.14411163330078125 -4.180419921875 2.560302734375 0.0008308887481689453 0.0006579756736755371 -0.08489990234375 -0.022308349609375
18.085 0.109222412109375 0.1396942138671875 -3.97998046875 2.8623046875 0.0005581378936767578 -0.0010430216789245605 -0.08592605590820312 -0.016269683837890625
18.09475 0.1151123046875 0.1348419189453125 -3.762451171875 3.156982421875 0.000634312629699707 -0.0009416937828063965 -0.08441543579101562 -0.00980377197265625
18.1045 0.122955322265625 0.1312255859375 -3.5216064453125 3.4420166015625 0.0007824897766113281 -0.0003580749034881592 -0.08539962768554688 -0.0012969970703125
18.11425 0.129638671875 0.128082275390625 -3.241943359375 3.71484375 6.122887134552002e-05 7.51689076423645e-05 -0.08445358276367188 0.0033416748046875
18.124 0.134552001953125 0.121002197265625 -2.9404296875 3.960693359375 0.0006623268127441406 -0.0010837316513061523 -0.08237457275390625 0.0131988525390625
18.13375 0.14190673828125 0.1156005859375 -2.625 4.180419921875 -0.00013619661331176758 0.0011736750602722168 -0.08134078979492188 0.017726898193359375
18.1435 0.1472015380859375 0.1107177734375 -2.28173828125 4.364013671875 0.0011287331581115723 -0.00044983625411987305 -0.08056259155273438 0.026668548583984375
18.15325 0.1527862548828125 0.1025238037109375 -1.9296875 4.520751953125 0.0004755854606628418 -0.0006945133209228516 -0.07889556884765625 0.032611846923828125
18.163 0.16064453125 0.0954437255859375 -1.578369140625 4.64208984375 0.0007287263870239258 -0.0006017684936523438 -0.07478713989257812 0.03985595703125
18.17275 0.1659088134765625 0.0884552001953125 -1.218505859375 4.737548828125 0.0001414269208908081 -0.00038674473762512207 -0.06937789916992188 0.045757293701171875
18.1825 0.17059326171875 0.08172607421875 -0.85986328125 4.8193359375 -0.000605463981628418 8.508563041687012e-05 -0.06752777099609375 0.053806304931640625
18.19225 0.17366790771484375 0.0726318359375 -0.48681640625 4.8837890625 0.00020101666450500488 -0.0006010234355926514 -0.062137603759765625 0.059894561767578125
18.202 0.1787261962890625 0.0666656494140625 -0.11328125 4.904296875 0.0006549954414367676 -0.0009583830833435059 -0.0595550537109375 0.06529998779296875
18.21175 0.18145751953125 0.0592041015625 0.27294921875 4.89599609375 0.0004176497459411621 -0.00030231475830078125 -0.05307769775390625 0.070556640625
18.2215 0.1859130859375 0.05060577392578125 0.66162109375 4.8486328125 -0.00034606456756591797 -0.0004944205284118652 -0.047954559326171875 0.07523345947265625
18.23125 0.1880950927734375 0.0436553955078125 1.0263671875 4.7734375 -0.0003879070281982422 -0.0008162260055541992 -0.043163299560546875 0.07959365844726562
18.241 0.19012451171875 0.03488922119140625 1.3818359375 4.664306640625 0.0003343820571899414 0.0005519390106201172 -0.036285400390625 0.08375930786132812
18.25075 0.191650390625 0.02625274658203125 1.7236328125 4.537841796875 0.00023445487022399902 -0.0006113350391387939 -0.02923583984375 0.08864212036132812
18.2605 0.19300079345703125 0.01865386962890625 2.04833984375 4.386474609375 0.0008812844753265381 -0.000839918851852417 -0.02291107177734375 0.09002685546875
18.27025 0.19347381591796875 0.00913238525390625 2.368896484375 4.2236328125 -0.00046175718307495117 -0.0001449882984161377 -0.0142974853515625 0.09263992309570312
18.28 0.1930694580078125 0.00173187255859375 2.698974609375 4.03857421875 0.0002294778823852539 -0.0008900165557861328 -0.0081329345703125 0.09394454956054688
18.28975 0.19504547119140625 -0.00899505615234375 3.004150390625 3.829345703125 0.0009506046772003174 -0.0007432401180267334 0.00040435791015625 0.09705734252929688
18.2995 0.19287872314453125 -0.01578521728515625 3.295166015625 3.5771484375 -0.001002967357635498 0.0005568861961364746 0.00858306884765625 0.09695816040039062
18.30925 0.1905517578125 -0.025177001953125 3.56494140625 3.2978515625 0.0011281967163085938 -0.0012536048889160156 0.01764678955078125 0.0984039306640625
18.319 0.1897430419921875 -0.03448486328125 3.7958984375 2.995361328125 0.000658869743347168 -0.0005692243576049805 0.024730682373046875 0.09920883178710938
18.32875 0.187713623046875 -0.04093170166015625 3.994384765625 2.68505859375 0.00016158819198608398 -0.0009065568447113037 0.032196044921875 0.09918212890625
18.3385 0.18569183349609375 -0.050628662109375 4.1630859375 2.3681640625 -0.00035250186920166016 -0.0007154941558837891 0.04372406005859375 0.09902191162109375
18.34825 0.18402862548828125 -0.0583343505859375 4.3251953125 2.056884765625 0.0003453493118286133 -0.0018849372863769531 0.05031585693359375 0.09783935546875
18.358 0.18022918701171875 -0.0667877197265625 4.463134765625 1.736572265625 0.00110548734664917 -0.00012058019638061523 0.05792999267578125 0.09304046630859375
18.36775 0.17830657958984375 -0.0745849609375 4.588623046875 1.39208984375 0.0010599493980407715 -0.0008306503295898438 0.0645751953125 0.09051513671875
18.3775 0.1743621826171875 -0.08094024658203125 4.6953125 1.051025390625 -0.00010153651237487793 -8.006393909454346e-05 0.07302093505859375 0.0893402099609375
18.38725 0.17037200927734375 -0.08846282958984375 4.77099609375 0.66943359375 -0.00040793418884277344 -3.5196542739868164e-05 0.078857421875 0.08455657958984375
18.397 0.1641693115234375 -0.09619140625 4.80126953125 0.28125 1.1324882507324219e-06 0.0008894205093383789 0.0865936279296875 0.0796356201171875
18.40675 0.1608734130859375 -0.1004638671875 4.7998046875 -0.11572265625 -0.00021499395370483398 -0.0005074739456176758 0.0941925048828125 0.0742950439453125
18.4165 0.15584564208984375 -0.1078338623046875 4.7431640625 -0.487548828125 -0.000610649585723877 -0.0011199116706848145 0.1000518798828125 0.0693511962890625
18.42625 0.14849853515625 -0.1141357421875 4.648681640625 -0.843017578125 -0.0001226365566253662 -0.0005498230457305908 0.1050872802734375 0.06253814697265625
18.436 0.141876220703125 -0.118896484375 4.539794921875 -1.17041015625 -0.0007874071598052979 0.00012055039405822754 0.11183929443359375 0.05553436279296875
18.44575 0.135711669921875 -0.1248931884765625 4.4248046875 -1.486083984375 -0.0009137988090515137 -0.0003361701965332031 0.11553955078125 0.04620361328125
18.4555 0.128997802734375 -0.12950897216796875 4.298583984375 -1.793212890625 -0.0005106329917907715 0.0008552968502044678 0.11879730224609375 0.0406341552734375
18.46525 0.12432098388671875 -0.13426971435546875 4.17041015625 -2.10400390625 3.930926322937012e-05 -0.000280916690826416 0.12293243408203125 0.02858734130859375
18.475 0.1151123046875 -0.1380615234375 4.011962890625 -2.416748046875 0.0004444122314453125 -0.0005384683609008789 0.1261138916015625 0.02202606201171875
18.48475 0.108734130859375 -0.14276123046875 3.8189697265625 -2.7330322265625 0.0005651116371154785 0.000746607780456543 0.12929534912109375 0.0134124755859375
18.4945 0.10062408447265625 -0.1463623046875 3.5743408203125 -3.0313720703125 0.00032827258110046387 -0.0007570385932922363 0.13092041015625 0.0034027099609375
18.50425 0.0945587158203125 -0.1504364013671875 3.3046875 -3.304931640625 0.000789940357208252 -0.00010585784912109375 0.13031005859375 -0.00531005859375
18.514 0.0881805419921875 -0.1524810791015625 3.005859375 -3.5291748046875 9.03978943824768e-05 2.337247133255005e-05 0.12987518310546875 -0.01291656494140625
18.52375 0.0789947509765625 -0.1522064208984375 2.69140625 -3.708984375 0.0007037520408630371 -0.00040844082832336426 0.12964630126953125 -0.021484375
18.5335 0.0743560791015625 -0.15741729736328125 2.3909912109375 -3.857177734375 0.00014944374561309814 -0.0002768486738204956 0.1285858154296875 -0.03156280517578125
18.54325 0.0670623779296875 -0.1583709716796875 2.1004638671875 -3.9788818359375 0.0008343160152435303 -0.00036782026290893555 0.1266937255859375 -0.03839874267578125
18.553 0.0607452392578125 -0.1617431640625 1.806396484375 -4.088134765625 0.00047850608825683594 -0.0002743452787399292 0.12230682373046875 -0.046070098876953125
18.56275 0.05371856689453125 -0.160186767578125 1.520263671875 -4.197998046875 0.00023689866065979004 -0.0006037354469299316 0.12037277221679688 -0.051929473876953125
18.5725 0.04630279541015625 -0.16130828857421875 1.217529296875 -4.294677734375 0.0010852813720703125 -0.0010464787483215332 0.11506271362304688 -0.060047149658203125
18.58225 0.03939056396484375 -0.161956787109375 0.89453125 -4.37109375 0.0011807084083557129 -0.000748753547668457 0.10947418212890625 -0.0665740966796875
18.592 0.031982421875 -0.163543701171875 0.552978515625 -4.42529296875 0.0002684593200683594 -0.0011467933654785156 0.10382843017578125 -0.0742340087890625
18.60175 0.02337646484375 -0.1627655029296875 0.20703125 -4.44091796875 0.0006762146949768066 -0.0004088878631591797 0.09662628173828125 -0.07900238037109375
18.6115 0.01790618896484375 -0.16009521484375 -0.13232421875 -4.411376953125 0.0010568499565124512 -0.00016134977340698242 0.09195709228515625 -0.0857696533203125
18.62125 0.00945281982421875 -0.16130828857421875 -0.454833984375 -4.35107421875 0.0001443922519683838 -0.0008997321128845215 0.08407974243164062 -0.0902862548828125
18.631 0.00397491455078125 -0.159088134765625 -0.742919921875 -4.2705078125 0.0001505538821220398 -8.179992437362671e-05 0.07709121704101562 -0.09522628784179688
18.64075 -0.004058837890625 -0.15851593017578125 -1.022216796875 -4.173583984375 -0.0001354813575744629 -0.0007156431674957275 0.07167816162109375 -0.09750747680664062
18.6505 -0.0097503662109375 -0.1564483642578125 -1.289794921875 -4.083251953125 0.0005558133125305176 -0.0005324482917785645 0.06599044799804688 -0.10133743286132812
18.66025 -0.0176849365234375 -0.1544647216796875 -1.554931640625 -3.979248046875 0.0015121102333068848 -0.0009540915489196777 0.056339263916015625 -0.10155487060546875
18.67 -0.02352142333984375 -0.15277862548828125 -1.822265625 -3.869873046875 -7.779896259307861e-05 -0.00022967159748077393 0.050373077392578125 -0.10344314575195312
18.67975 -0.0315704345703125 -0.15033721923828125 -2.0927734375 -3.736572265625 0.00033080577850341797 -0.0013524889945983887 0.043926239013671875 -0.10525894165039062
18.6895 -0.0376434326171875 -0.14836883544921875 -2.36181640625 -3.5732421875 -0.0003509521484375 -0.0006138086318969727 0.0359344482421875 -0.103118896484375
