!Created with skrf (http://scikit-rf.org).
# GHz S RI R 50.0 
!freq ReS11 ImS11 ReS21 ImS21 ReS12 ImS12 ReS22 ImS22
17.5 0.00276947021484375 -0.1340179443359375 -4.318603515625 -2.060302734375 -0.0013291239738464355 0.0008438825607299805 0.08719635009765625 -0.008037567138671875
17.50975 -0.004974365234375 -0.13021087646484375 -4.45849609375 -1.7158203125 -0.0018438100814819336 0.00011152029037475586 0.08945846557617188 -0.007198333740234375
17.5195 -0.01116180419921875 -0.1260986328125 -4.56640625 -1.361572265625 -0.0007801949977874756 0.00034692883491516113 0.092010498046875 -0.007232666015625
17.52925 -0.019378662109375 -0.12171173095703125 -4.65380859375 -1.005615234375 -0.0008224248886108398 0.0009992718696594238 0.09524917602539062 -0.01158905029296875
17.539 -0.025177001953125 -0.1162567138671875 -4.71142578125 -0.650390625 -0.0015578269958496094 0.0004597902297973633 0.09375762939453125 -0.01361083984375
17.54875 -0.0337677001953125 -0.11257171630859375 -4.7314453125 -0.2939453125 -0.0001825094223022461 0.0009752810001373291 0.09805679321289062 -0.013889312744140625
17.5585 -0.04195404052734375 -0.10822296142578125 -4.7431640625 0.0546875 -0.0017229318618774414 0.0007098913192749023 0.09820175170898438 -0.01796722412109375
17.56825 -0.04631805419921875 -0.101593017578125 -4.736328125 0.395751953125 -0.002976655960083008 0.0009779930114746094 0.0982818603515625 -0.021900177001953125
17.578 -0.05170440673828125 -0.09625244140625 -4.704345703125 0.7578125 -0.0012788176536560059 0.00030171871185302734 0.09943008422851562 -0.02490234375
17.58775 -0.0582733154296875 -0.09226226806640625 -4.64111328125 1.12109375 -0.0018844008445739746 0.0003306865692138672 0.10068130493164062 -0.025814056396484375
17.5975 -0.06140899658203125 -0.086517333984375 -4.545166015625 1.49169921875 -0.0015041828155517578 0.0018224716186523438 0.10006332397460938 -0.029781341552734375
17.60725 -0.06578826904296875 -0.08206939697265625 -4.404052734375 1.836669921875 -0.0006461143493652344 0.001522660255432129 0.09979629516601562 -0.031978607177734375
17.617 -0.06916046142578125 -0.07346343994140625 -4.2333984375 2.168212890625 0.00043457746505737305 0.0005020499229431152 0.10144805908203125 -0.036556243896484375
17.62675 -0.07505035400390625 -0.06833648681640625 -4.038818359375 2.474853515625 -0.00191575288772583 0.0001627206802368164 0.10191726684570312 -0.038867950439453125
17.6365 -0.077728271484375 -0.060455322265625 -3.81982421875 2.75732421875 -0.002721071243286133 0.000301361083984375 0.101654052734375 -0.04145050048828125
17.64625 -0.07879638671875 -0.05359649658203125 -3.5989990234375 3.0030517578125 -9.906291961669922e-05 0.0006335675716400146 0.09996795654296875 -0.046405792236328125
17.656 -0.08386993408203125 -0.046234130859375 -3.376953125 3.24462890625 -0.0011835694313049316 0.0009143352508544922 0.09742355346679688 -0.050567626953125
17.66575 -0.08372879028320312 -0.038120269775390625 -3.1600341796875 3.47802734375 -0.00012767314910888672 0.0011025071144104004 0.09700393676757812 -0.05240631103515625
17.6755 -0.08627700805664062 -0.032928466796875 -2.9210205078125 3.696533203125 -0.0007823705673217773 0.0012120604515075684 0.09342575073242188 -0.056873321533203125
17.68525 -0.08807373046875 -0.0244293212890625 -2.67724609375 3.9322509765625 -0.00034236907958984375 0.0007791817188262939 0.0923309326171875 -0.062198638916015625
17.695 -0.08856964111328125 -0.01636505126953125 -2.3955078125 4.158447265625 -0.00032705068588256836 -8.219480514526367e-05 0.09124755859375 -0.06583404541015625
17.70475 -0.08803558349609375 -0.010372161865234375 -2.0673828125 4.362548828125 -0.0003490447998046875 0.0016112923622131348 0.08765029907226562 -0.06748199462890625
17.7145 -0.09056854248046875 -0.000980377197265625 -1.713623046875 4.549560546875 8.684396743774414e-05 0.0014216303825378418 0.08383560180664062 -0.0722198486328125
17.72425 -0.08904266357421875 0.0038604736328125 -1.3330078125 4.67431640625 6.80088996887207e-05 0.0016852617263793945 0.081573486328125 -0.07604217529296875
17.734 -0.09069061279296875 0.01220703125 -0.952880859375 4.756103515625 -0.0002732276916503906 0.0009334385395050049 0.07880783081054688 -0.0783538818359375
17.74375 -0.09038543701171875 0.0181427001953125 -0.57763671875 4.77197265625 -0.0006827116012573242 0.0014725923538208008 0.0753326416015625 -0.08135223388671875
17.7535 -0.08738327026367188 0.024013519287109375 -0.22607421875 4.785400390625 0.00027102231979370117 0.0010232329368591309 0.07181167602539062 -0.0837554931640625
17.76325 -0.08684158325195312 0.031826019287109375 0.10498046875 4.775390625 -0.0015916824340820312 0.0005225539207458496 0.06594085693359375 -0.08620834350585938
17.773 -0.08575820922851562 0.036895751953125 0.42138671875 4.7607421875 -0.00014391541481018066 0.0009541213512420654 0.06409835815429688 -0.0892181396484375
17.78275 -0.08313369750976562 0.044437408447265625 0.75146484375 4.73486328125 -0.000362396240234375 0.0014726519584655762 0.059040069580078125 -0.0895233154296875
17.7925 -0.07945632934570312 0.04878997802734375 1.089111328125 4.702880859375 -0.0002866983413696289 0.0021451711654663086 0.0564727783203125 -0.08987808227539062
17.80225 -0.07661056518554688 0.054225921630859375 1.44677734375 4.651611328125 -0.00021910667419433594 0.001384437084197998 0.05194854736328125 -0.09374237060546875
17.812 -0.07352447509765625 0.06230926513671875 1.813720703125 4.565185546875 0.0003165602684020996 0.0006812214851379395 0.045658111572265625 -0.09426498413085938
17.82175 -0.06853103637695312 0.06886672973632812 2.178955078125 4.43603515625 2.1338462829589844e-05 0.0018323659896850586 0.0441131591796875 -0.0946502685546875
17.8315 -0.0671234130859375 0.07358932495117188 2.540283203125 4.260986328125 0.0006598234176635742 0.0011712312698364258 0.039031982421875 -0.09554672241210938
17.84125 -0.06183624267578125 0.07903289794921875 2.87451171875 4.06005859375 -0.0005362033843994141 0.0012642145156860352 0.032928466796875 -0.0950927734375
17.851 -0.058185577392578125 0.08480453491210938 3.172119140625 3.809814453125 8.696317672729492e-05 0.0011565089225769043 0.02886962890625 -0.099273681640625
17.86075 -0.055572509765625 0.089080810546875 3.4453125 3.56640625 0.000263899564743042 0.00024625658988952637 0.02373504638671875 -0.095733642578125
17.8705 -0.04979705810546875 0.09466171264648438 3.69775390625 3.310546875 0.0005066394805908203 0.0015131235122680664 0.0191650390625 -0.09621810913085938
17.88025 -0.045543670654296875 0.09947967529296875 3.932861328125 3.048095703125 0.0009154081344604492 0.0012018680572509766 0.01384735107421875 -0.09699630737304688
17.89 -0.042327880859375 0.10393524169921875 4.1611328125 2.78564453125 -0.0005823671817779541 0.0004188716411590576 0.009307861328125 -0.094635009765625
17.89975 -0.03612518310546875 0.10807418823242188 4.388671875 2.483642578125 0.00014135241508483887 0.0007648766040802002 0.004184722900390625 -0.0967559814453125
17.9095 -0.03234100341796875 0.11136627197265625 4.61083984375 2.164794921875 0.0007079839706420898 -0.00017148256301879883 0.001262664794921875 -0.09569549560546875
17.91925 -0.024356842041015625 0.11389541625976562 4.797607421875 1.809814453125 0.0013297796249389648 0.00013506412506103516 -0.000946044921875 -0.09481048583984375
17.929 -0.01891326904296875 0.11803436279296875 4.96630859375 1.4384765625 0.00047218799591064453 0.0004235506057739258 -0.0078125 -0.09271240234375
17.93875 -0.014801025390625 0.1192626953125 5.0869140625 1.038330078125 0.00042617321014404297 0.0010932087898254395 -0.013072967529296875 -0.09046554565429688
17.9485 -0.01012420654296875 0.1212158203125 5.158203125 0.638671875 0.0002735257148742676 0.00010402500629425049 -0.016407012939453125 -0.08766555786132812
17.95825 -0.00390625 0.123626708984375 5.205078125 0.239501953125 -0.0002910792827606201 0.0009642243385314941 -0.01853179931640625 -0.08574676513671875
17.968 0.00241851806640625 0.1268768310546875 5.2177734375 -0.15478515625 0.0010794997215270996 0.0004850625991821289 -0.025970458984375 -0.08618927001953125
17.97775 0.0076904296875 0.12841033935546875 5.211181640625 -0.535888671875 0.0008145570755004883 0.0011081099510192871 -0.029865264892578125 -0.08095550537109375
17.9875 0.0160980224609375 0.13063812255859375 5.18408203125 -0.932373046875 0.0012336373329162598 0.0003101825714111328 -0.0323028564453125 -0.07981491088867188
17.99725 0.02242279052734375 0.12996673583984375 5.1494140625 -1.329345703125 0.0009506940841674805 0.0006620287895202637 -0.037296295166015625 -0.07504653930664062
18.007 0.02931976318359375 0.1313323974609375 5.076416015625 -1.74267578125 0.00013244152069091797 0.0010567903518676758 -0.04071807861328125 -0.07208251953125
18.01675 0.035430908203125 0.13271331787109375 4.959716796875 -2.156494140625 0.002454042434692383 -0.0008842945098876953 -0.0451202392578125 -0.067108154296875
18.0265 0.04071807861328125 0.132049560546875 4.802734375 -2.573486328125 0.000783085823059082 0.001596689224243164 -0.0488433837890625 -0.06416702270507812
18.03625 0.049041748046875 0.1354522705078125 4.59814453125 -2.97705078125 0.0007197260856628418 -0.00013494491577148438 -0.05208587646484375 -0.06029510498046875
18.046 0.05516815185546875 0.1346282958984375 4.345947265625 -3.36181640625 0.0011369585990905762 0.0007252097129821777 -0.054378509521484375 -0.054767608642578125
18.05575 0.0624542236328125 0.13268280029296875 4.075439453125 -3.7041015625 0.0012846589088439941 -0.0004596710205078125 -0.05954742431640625 -0.052616119384765625
18.0655 0.06853485107421875 0.1341400146484375 3.772216796875 -4.0166015625 0.0013701915740966797 -0.00019502639770507812 -0.06357955932617188 -0.0478057861328125
18.07525 0.07621002197265625 0.1307373046875 3.455810546875 -4.314453125 0.0012011528015136719 0.0007784366607666016 -0.06458282470703125 -0.04131317138671875
18.085 0.0822601318359375 0.12976837158203125 3.11083984375 -4.588623046875 0.0017231106758117676 -0.00012063980102539062 -0.06841278076171875 -0.037693023681640625
18.09475 0.088531494140625 0.12845611572265625 2.75537109375 -4.84423828125 0.0009222924709320068 -0.0005848407745361328 -0.067962646484375 -0.031970977783203125
18.1045 0.0966949462890625 0.1263275146484375 2.373779296875 -5.07177734375 0.0003021359443664551 0.0007728338241577148 -0.07080459594726562 -0.026123046875
18.11425 0.102935791015625 0.12505340576171875 1.9580078125 -5.278564453125 0.0009182095527648926 -0.00012308359146118164 -0.0712890625 -0.020618438720703125
18.124 0.1089324951171875 0.1221923828125 1.52490234375 -5.44287109375 0.001310586929321289 0.0004153251647949219 -0.07140350341796875 -0.0151824951171875
18.13375 0.11492919921875 0.1198272705078125 1.080078125 -5.56591796875 -0.00031429529190063477 -0.0002034306526184082 -0.0725860595703125 -0.0083160400390625
18.1435 0.12242889404296875 0.1153564453125 0.623046875 -5.64794921875 0.0019516944885253906 -0.0006341934204101562 -0.07408905029296875 -0.000858306884765625
18.15325 0.12819671630859375 0.1102142333984375 0.152099609375 -5.685791015625 0.0017783641815185547 -0.00041753053665161133 -0.07357406616210938 0.003986358642578125
18.163 0.13593292236328125 0.10626220703125 -0.303955078125 -5.678955078125 0.0002415776252746582 0.0005994141101837158 -0.07300186157226562 0.010845184326171875
18.17275 0.14162445068359375 0.10102081298828125 -0.760986328125 -5.64697265625 0.0009440779685974121 -0.0015698671340942383 -0.06999969482421875 0.01671600341796875
18.1825 0.14830780029296875 0.096710205078125 -1.214111328125 -5.58740234375 -0.000956416130065918 -0.000998377799987793 -0.06851959228515625 0.024608612060546875
18.19225 0.152099609375 0.08994293212890625 -1.679931640625 -5.48828125 0.0013164281845092773 -0.0009705424308776855 -0.06748580932617188 0.03014373779296875
18.202 0.15892791748046875 0.08434295654296875 -2.124267578125 -5.348388671875 -0.0001652538776397705 -0.00047218799591064453 -0.06555938720703125 0.0370330810546875
18.21175 0.1637115478515625 0.078948974609375 -2.580078125 -5.16064453125 0.00021576881408691406 -0.0005866885185241699 -0.062099456787109375 0.044879913330078125
18.2215 0.1710662841796875 0.07210540771484375 -3.003662109375 -4.91845703125 -0.0003198385238647461 -0.0005967319011688232 -0.05986213684082031 0.048549652099609375
18.23125 0.17571258544921875 0.06623077392578125 -3.4013671875 -4.6513671875 0.0013884902000427246 3.1054019927978516e-05 -0.057708740234375 0.052154541015625
18.241 0.1793365478515625 0.0586395263671875 -3.7578125 -4.34228515625 -0.00036472082138061523 -0.0008585453033447266 -0.05387687683105469 0.059352874755859375
18.25075 0.18376922607421875 0.0516510009765625 -4.07958984375 -4.0185546875 1.3619661331176758e-05 -0.00035896897315979004 -0.04779052734375 0.06511688232421875
18.2605 0.18650054931640625 0.04320526123046875 -4.37744140625 -3.6748046875 0.00035512447357177734 -0.0019366741180419922 -0.043003082275390625 0.06789779663085938
18.27025 0.1890869140625 0.03510284423828125 -4.650390625 -3.3251953125 0.0007874965667724609 -0.001139521598815918 -0.0357208251953125 0.07197189331054688
18.28 0.19222259521484375 0.025634765625 -4.91357421875 -2.939697265625 0.0004400908946990967 -0.0006508231163024902 -0.0306549072265625 0.07597732543945312
18.28975 0.1962890625 0.0164794921875 -5.147216796875 -2.54833984375 0.000605851411819458 -0.0005887746810913086 -0.02448272705078125 0.08268356323242188
18.2995 0.196990966796875 0.00868988037109375 -5.33935546875 -2.10986328125 0.0003872215747833252 -0.00021682679653167725 -0.01819610595703125 0.08221435546875
18.30925 0.19830322265625 -0.0022430419921875 -5.49658203125 -1.642578125 0.00033462047576904297 -0.0008144378662109375 -0.01033782958984375 0.0853729248046875
18.319 0.1976165771484375 -0.01096343994140625 -5.595703125 -1.17138671875 0.0013244152069091797 -0.0003485679626464844 -0.003936767578125 0.08998489379882812
18.32875 0.197998046875 -0.0183868408203125 -5.646240234375 -0.700439453125 0.0009842514991760254 -0.00043529272079467773 0.0034332275390625 0.09103775024414062
18.3385 0.19782257080078125 -0.0301055908203125 -5.646728515625 -0.239013671875 -0.0002915114164352417 -0.00010879337787628174 0.012226104736328125 0.09430694580078125
18.34825 0.19658660888671875 -0.03894805908203125 -5.62890625 0.20556640625 0.0009276270866394043 -0.0009665787220001221 0.019001007080078125 0.0954742431640625
18.358 0.19686126708984375 -0.047882080078125 -5.5810546875 0.633544921875 0.0003855675458908081 -8.07642936706543e-06 0.028202056884765625 0.0943450927734375
18.36775 0.19329071044921875 -0.0571746826171875 -5.509521484375 1.07080078125 -0.0001779496669769287 -0.0003854036331176758 0.03548431396484375 0.09259796142578125
18.3775 0.1922149658203125 -0.065643310546875 -5.417724609375 1.49609375 0.0010772943496704102 0.000244140625 0.0419464111328125 0.0926361083984375
18.38725 0.18802642822265625 -0.0754852294921875 -5.27685546875 1.936279296875 -0.00018769502639770508 -0.0011843442916870117 0.04915618896484375 0.0921630859375
18.397 0.185089111328125 -0.083465576171875 -5.087890625 2.36279296875 0.0008516311645507812 -0.0004944801330566406 0.058319091796875 0.089935302734375
18.40675 0.1815948486328125 -0.0914154052734375 -4.86376953125 2.7890625 0.0009459257125854492 0.00015914440155029297 0.0665740966796875 0.08624267578125
18.4165 0.17606353759765625 -0.0997772216796875 -4.588623046875 3.164306640625 -0.0008617639541625977 -0.0006757974624633789 0.07220458984375 0.0835113525390625
18.42625 0.17115020751953125 -0.1075897216796875 -4.275390625 3.49658203125 5.060434341430664e-05 -0.00046381354331970215 0.07828521728515625 0.079681396484375
18.436 0.164703369140625 -0.1147613525390625 -3.9549560546875 3.79052734375 0.0005545616149902344 0.0004392862319946289 0.088531494140625 0.07379913330078125
18.44575 0.15906524658203125 -0.12342071533203125 -3.62890625 4.05517578125 0.0009880661964416504 0.000762641429901123 0.0925750732421875 0.06766510009765625
18.4555 0.1514739990234375 -0.13051605224609375 -3.292724609375 4.291015625 0.00028520822525024414 -0.0004536360502243042 0.09900665283203125 0.0634002685546875
18.46525 0.14408111572265625 -0.13846588134765625 -2.959716796875 4.52392578125 0.001082003116607666 -0.0006890296936035156 0.102996826171875 0.05446624755859375
18.475 0.1362762451171875 -0.14409637451171875 -2.60791015625 4.73828125 -0.0003489255905151367 -0.0006288886070251465 0.10904693603515625 0.0484619140625
18.48475 0.12994384765625 -0.14891815185546875 -2.218017578125 4.932373046875 4.0531158447265625e-05 -0.0006655752658843994 0.11419677734375 0.04015350341796875
18.4945 0.12129974365234375 -0.15484619140625 -1.79638671875 5.092529296875 0.0002840757369995117 -0.00010260939598083496 0.11798095703125 0.03185272216796875
18.50425 0.1128082275390625 -0.161407470703125 -1.3564453125 5.21240234375 0.0004392862319946289 -0.0006983280181884766 0.1209716796875 0.0250091552734375
18.514 0.1060028076171875 -0.1641845703125 -0.90771484375 5.2724609375 0.0007915496826171875 -0.00011295080184936523 0.1234130859375 0.017120361328125
18.52375 0.09516143798828125 -0.16632843017578125 -0.4677734375 5.270263671875 -0.00017279386520385742 -0.0005823969841003418 0.1238861083984375 0.007476806640625
18.5335 0.08924102783203125 -0.172149658203125 -0.053955078125 5.236083984375 0.0005901157855987549 -0.0005521178245544434 0.1276702880859375 -0.00127410888671875
18.54325 0.07991790771484375 -0.17598724365234375 0.3310546875 5.17333984375 0.0005844533443450928 -0.00027993321418762207 0.12552642822265625 -0.010162353515625
18.553 0.06977081298828125 -0.17795562744140625 0.703125 5.084228515625 0.0011397004127502441 -0.0004943609237670898 0.12486648559570312 -0.0162506103515625
18.56275 0.06258392333984375 -0.17780303955078125 1.066650390625 4.998779296875 0.0010344386100769043 -0.00031131505966186523 0.12454605102539062 -0.023937225341796875
18.5725 0.05251312255859375 -0.1797943115234375 1.430419921875 4.891357421875 0.0003134012222290039 -0.0005179047584533691 0.12157821655273438 -0.03324127197265625
18.58225 0.04389190673828125 -0.1804046630859375 1.795166015625 4.758544921875 0.00020560622215270996 -0.0006968677043914795 0.12031936645507812 -0.0424041748046875
18.592 0.0337371826171875 -0.18048095703125 2.159912109375 4.583740234375 6.975606083869934e-06 -5.394592881202698e-05 0.11550521850585938 -0.04920196533203125
18.60175 0.0258331298828125 -0.1793212890625 2.51318359375 4.37939453125 8.50185751914978e-05 -0.00012073665857315063 0.11161041259765625 -0.054901123046875
18.6115 0.017181396484375 -0.1785125732421875 2.8330078125 4.132080078125 -0.0001657232642173767 0.00014621764421463013 0.1084442138671875 -0.06233978271484375
18.62125 0.00749969482421875 -0.1752471923828125 3.117431640625 3.86328125 9.894371032714844e-06 -0.0001361444592475891 0.10257720947265625 -0.06806182861328125
18.631 0.0 -0.17523956298828125 3.348388671875 3.584716796875 -0.0003864765167236328 -0.0006374716758728027 0.09682464599609375 -0.07476425170898438
18.64075 -0.008392333984375 -0.17404937744140625 3.561279296875 3.3017578125 0.0006510615348815918 -0.0012396574020385742 0.09214401245117188 -0.07815170288085938
18.6505 -0.014892578125 -0.17142486572265625 3.754150390625 3.0244140625 -2.4884939193725586e-05 -0.0009301900863647461 0.08597183227539062 -0.08411788940429688
18.66025 -0.02577972412109375 -0.16770172119140625 3.939453125 2.7498779296875 4.124641418457031e-05 -0.00025644898414611816 0.07892227172851562 -0.08784866333007812
18.67 -0.03174591064453125 -0.164794921875 4.119140625 2.46337890625 5.1081180572509766e-05 -0.0007596015930175781 0.07298660278320312 -0.08990478515625
18.67975 -0.0396881103515625 -0.160980224609375 4.29052734375 2.1611328125 -0.0001224800944328308 2.212822437286377e-06 0.06696319580078125 -0.09333038330078125
18.6895 -0.04711151123046875 -0.1585845947265625 4.435302734375 1.81982421875 -0.0002243518829345703 -0.0011979341506958008 0.0616607666015625 -0.09387969970703125
