!Created with skrf (http://scikit-rf.org).
# GHz S RI R 50.0 
!freq ReS11 ImS11 ReS21 ImS21 ReS12 ImS12 ReS22 ImS22
17.5 -0.00232696533203125 -0.14111328125 -1.114990234375 -4.52783203125 -0.0015908479690551758 0.0004871487617492676 0.09811019897460938 -0.011905670166015625
17.50975 -0.01001739501953125 -0.1363983154296875 -1.45458984375 -4.425048828125 -0.0018489956855773926 0.0014541149139404297 0.0996246337890625 -0.01416778564453125
17.5195 -0.01726531982421875 -0.1318511962890625 -1.783447265625 -4.290283203125 -0.0018059015274047852 -7.033348083496094e-05 0.1015625 -0.015079498291015625
17.52925 -0.0274200439453125 -0.1289215087890625 -2.0986328125 -4.14306640625 -0.002124309539794922 0.0009362697601318359 0.10311126708984375 -0.018402099609375
17.539 -0.03216552734375 -0.1214752197265625 -2.39990234375 -3.97412109375 -0.0012450218200683594 0.0003972053527832031 0.101837158203125 -0.02175140380859375
17.54875 -0.04119110107421875 -0.1167449951171875 -2.679931640625 -3.777587890625 -0.0019818544387817383 0.000834345817565918 0.10421371459960938 -0.024173736572265625
17.5585 -0.0498046875 -0.1114501953125 -2.953857421875 -3.575439453125 -0.0015620589256286621 0.0007912516593933105 0.10490036010742188 -0.02776336669921875
17.56825 -0.05391693115234375 -0.10503387451171875 -3.209228515625 -3.363037109375 -0.0005774199962615967 0.0009221732616424561 0.10349655151367188 -0.032093048095703125
17.578 -0.0596466064453125 -0.09937286376953125 -3.46484375 -3.1171875 -0.00018090009689331055 0.001905977725982666 0.10480880737304688 -0.036266326904296875
17.58775 -0.06697845458984375 -0.09450531005859375 -3.7041015625 -2.8486328125 -0.0013843774795532227 0.0011661052703857422 0.10277557373046875 -0.036899566650390625
17.5975 -0.06992340087890625 -0.08747100830078125 -3.925048828125 -2.5478515625 -0.0013965368270874023 0.0001665353775024414 0.10493850708007812 -0.0404205322265625
17.60725 -0.07439422607421875 -0.08211517333984375 -4.101318359375 -2.231201171875 3.057718276977539e-05 0.00123673677444458 0.1021728515625 -0.041713714599609375
17.617 -0.07962799072265625 -0.07350921630859375 -4.253173828125 -1.907470703125 -0.0007615089416503906 0.0015045404434204102 0.10245132446289062 -0.046810150146484375
17.62675 -0.08502197265625 -0.066986083984375 -4.36962890625 -1.5751953125 -0.00047326087951660156 0.001973867416381836 0.10300445556640625 -0.049102783203125
17.6365 -0.0862579345703125 -0.0586395263671875 -4.45751953125 -1.24560546875 -0.0010263919830322266 0.0009024143218994141 0.1002044677734375 -0.05399322509765625
17.64625 -0.08770751953125 -0.04940032958984375 -4.51416015625 -0.92626953125 -6.705522537231445e-06 0.0008679330348968506 0.09669876098632812 -0.057193756103515625
17.656 -0.09127044677734375 -0.04381561279296875 -4.56982421875 -0.61572265625 -0.0009648799896240234 0.0012954473495483398 0.09423446655273438 -0.06162261962890625
17.66575 -0.092437744140625 -0.034336090087890625 -4.62548828125 -0.304443359375 -2.586841583251953e-05 0.002071857452392578 0.09299850463867188 -0.06296920776367188
17.6755 -0.09466552734375 -0.027553558349609375 -4.656494140625 0.020751953125 0.00022369623184204102 0.0014396905899047852 0.08812332153320312 -0.068267822265625
17.68525 -0.09403228759765625 -0.020214080810546875 -4.690673828125 0.353515625 0.00014257431030273438 0.0016327500343322754 0.08719253540039062 -0.07181930541992188
17.695 -0.09451675415039062 -0.010807037353515625 -4.69189453125 0.716796875 -0.00011557340621948242 0.0009184777736663818 0.0839996337890625 -0.07283782958984375
17.70475 -0.09562301635742188 -0.00295257568359375 -4.64794921875 1.099609375 -0.00032252073287963867 0.0010865330696105957 0.08151626586914062 -0.0761260986328125
17.7145 -0.096527099609375 0.004993438720703125 -4.566162109375 1.489013671875 -0.0012922286987304688 0.0022443532943725586 0.0753173828125 -0.07891082763671875
17.72425 -0.0963134765625 0.01197052001953125 -4.42919921875 1.857666015625 -0.00012159347534179688 0.0022106170654296875 0.07206344604492188 -0.08368301391601562
17.734 -0.09508514404296875 0.01886749267578125 -4.26220703125 2.20361328125 0.00038552284240722656 0.0007007122039794922 0.0701141357421875 -0.085235595703125
17.74375 -0.09467315673828125 0.027008056640625 -4.056640625 2.5009765625 0.0005138516426086426 0.00024449825286865234 0.06640625 -0.08876800537109375
17.7535 -0.09264755249023438 0.03389739990234375 -3.8544921875 2.78564453125 -0.0004298388957977295 0.0005474686622619629 0.061092376708984375 -0.09076309204101562
17.76325 -0.08913421630859375 0.04196929931640625 -3.6529541015625 3.0450439453125 0.0003129243850708008 0.0012810230255126953 0.056301116943359375 -0.09183502197265625
17.773 -0.08674240112304688 0.0477294921875 -3.444091796875 3.287841796875 0.0001468062400817871 0.0018161535263061523 0.051631927490234375 -0.09400558471679688
17.78275 -0.08536529541015625 0.053707122802734375 -3.214111328125 3.5347900390625 -0.00014254450798034668 0.0006180405616760254 0.049503326416015625 -0.09386062622070312
17.7925 -0.08016586303710938 0.058330535888671875 -2.983642578125 3.7901611328125 0.00028884410858154297 0.0013825297355651855 0.045078277587890625 -0.09424591064453125
17.80225 -0.07640838623046875 0.06493759155273438 -2.716552734375 4.04248046875 -0.0005291998386383057 0.0006899237632751465 0.042003631591796875 -0.0955047607421875
17.812 -0.07334136962890625 0.0727081298828125 -2.4130859375 4.27490234375 0.00030690431594848633 0.00105208158493042 0.03574371337890625 -0.09550094604492188
17.82175 -0.06842422485351562 0.07836151123046875 -2.083740234375 4.4814453125 0.0006490945816040039 0.001691579818725586 0.0330963134765625 -0.09354400634765625
17.8315 -0.0645599365234375 0.08400344848632812 -1.720703125 4.652587890625 0.00015795230865478516 0.0007106661796569824 0.02642059326171875 -0.09352493286132812
17.84125 -0.05960845947265625 0.08919525146484375 -1.35205078125 4.78564453125 0.00038111209869384766 0.0009409189224243164 0.02214813232421875 -0.09383392333984375
17.851 -0.053157806396484375 0.09570693969726562 -0.973876953125 4.871337890625 -0.00017899274826049805 0.001636803150177002 0.01906585693359375 -0.0940704345703125
17.86075 -0.049709320068359375 0.09868621826171875 -0.60986328125 4.930908203125 0.0005020499229431152 0.0004760324954986572 0.013916015625 -0.09189224243164062
17.8705 -0.044170379638671875 0.10391998291015625 -0.24609375 4.972412109375 -0.00045424699783325195 0.0019418597221374512 0.00812530517578125 -0.09180068969726562
17.88025 -0.0388641357421875 0.1077728271484375 0.116455078125 5.000732421875 -7.605552673339844e-05 0.0013876557350158691 0.00384521484375 -0.0920867919921875
17.89 -0.034046173095703125 0.11075210571289062 0.477294921875 5.0224609375 0.0003689229488372803 0.0001863241195678711 0.0001678466796875 -0.09007644653320312
17.89975 -0.02773284912109375 0.11519241333007812 0.868408203125 5.00927734375 0.000460207462310791 0.0013298988342285156 -0.003253936767578125 -0.08966827392578125
17.9095 -0.02300262451171875 0.1173248291015625 1.26416015625 4.971923828125 -0.00074005126953125 0.0006210505962371826 -0.009204864501953125 -0.0855865478515625
17.91925 -0.014911651611328125 0.11950302124023438 1.665283203125 4.8837890625 0.0001990199089050293 0.001208186149597168 -0.011943817138671875 -0.08489990234375
17.929 -0.00962066650390625 0.1222686767578125 2.06298828125 4.76904296875 0.0004394054412841797 0.0016031265258789062 -0.016448974609375 -0.08325958251953125
17.93875 -0.003963470458984375 0.12403488159179688 2.4521484375 4.606689453125 -0.000110626220703125 0.0010469555854797363 -0.0191650390625 -0.07985687255859375
17.9485 0.001255035400390625 0.1248931884765625 2.810302734375 4.407958984375 0.0005806684494018555 0.001019597053527832 -0.02272796630859375 -0.0781097412109375
17.95825 0.008758544921875 0.12660980224609375 3.15771484375 4.187744140625 0.0007855892181396484 0.0009732842445373535 -0.023265838623046875 -0.0756988525390625
17.968 0.01332855224609375 0.12723541259765625 3.478515625 3.9482421875 0.0005856752395629883 0.00011494755744934082 -0.0287017822265625 -0.07393646240234375
17.97775 0.0195770263671875 0.12851715087890625 3.7763671875 3.6875 0.000823676586151123 0.0004996657371520996 -0.032817840576171875 -0.06946182250976562
17.9875 0.0280303955078125 0.128204345703125 4.083984375 3.406982421875 0.0005418062210083008 0.0004900693893432617 -0.03386688232421875 -0.06682205200195312
17.99725 0.0343017578125 0.12778472900390625 4.374267578125 3.1044921875 0.0006262660026550293 0.0005280375480651855 -0.03859710693359375 -0.06414413452148438
18.007 0.04052734375 0.12894439697265625 4.6416015625 2.766357421875 -0.0003489553928375244 0.0004426240921020508 -0.040912628173828125 -0.0598602294921875
18.01675 0.04703521728515625 0.12815093994140625 4.883544921875 2.394287109375 0.002007126808166504 0.0003031492233276367 -0.044528961181640625 -0.057159423828125
18.0265 0.052581787109375 0.127471923828125 5.1025390625 1.99755859375 0.0005729198455810547 9.566545486450195e-05 -0.0478515625 -0.05194854736328125
18.03625 0.0590057373046875 0.128326416015625 5.26611328125 1.568359375 0.0015912055969238281 -5.257129669189453e-05 -0.0500030517578125 -0.04862213134765625
18.046 0.06591033935546875 0.12799072265625 5.392578125 1.12451171875 0.0009264051914215088 -0.0003044009208679199 -0.051288604736328125 -0.042423248291015625
18.05575 0.0715179443359375 0.123382568359375 5.474609375 0.689697265625 0.000750422477722168 0.0008085370063781738 -0.055103302001953125 -0.039241790771484375
18.0655 0.07718658447265625 0.12479400634765625 5.51220703125 0.254638671875 0.0009093284606933594 -0.00011879205703735352 -0.057544708251953125 -0.035091400146484375
18.07525 0.08270263671875 0.1221923828125 5.531005859375 -0.1875 0.0009100437164306641 0.00010961294174194336 -0.05834197998046875 -0.030826568603515625
18.085 0.0894317626953125 0.1205902099609375 5.514892578125 -0.634033203125 0.0002199113368988037 0.0006555914878845215 -0.061595916748046875 -0.02630615234375
18.09475 0.0943756103515625 0.11745452880859375 5.46435546875 -1.07958984375 0.0016155242919921875 0.00044167041778564453 -0.05916595458984375 -0.023265838623046875
18.1045 0.10076141357421875 0.115234375 5.384521484375 -1.528076171875 0.00036466121673583984 0.00032082200050354004 -0.06255340576171875 -0.016918182373046875
18.11425 0.10594940185546875 0.115020751953125 5.251953125 -1.979736328125 0.0003179609775543213 0.00044471025466918945 -0.06037139892578125 -0.01334381103515625
18.124 0.1106719970703125 0.109649658203125 5.0830078125 -2.41552734375 0.0011192560195922852 -0.00021159648895263672 -0.06175994873046875 -0.0067596435546875
18.13375 0.116943359375 0.1078033447265625 4.871826171875 -2.828369140625 0.00022237002849578857 0.00024472177028656006 -0.06018829345703125 -0.0011730194091796875
18.1435 0.12158966064453125 0.103363037109375 4.62353515625 -3.2236328125 0.0006812810897827148 -0.0005258917808532715 -0.06254959106445312 0.00513458251953125
18.15325 0.1268310546875 0.098052978515625 4.34326171875 -3.593994140625 0.0004176199436187744 -0.0003080517053604126 -0.06315994262695312 0.008190155029296875
18.163 0.13394927978515625 0.09332275390625 4.032958984375 -3.92919921875 0.0013510584831237793 -0.00022536516189575195 -0.062114715576171875 0.0147552490234375
18.17275 0.137786865234375 0.0901031494140625 3.698486328125 -4.2451171875 0.001118481159210205 0.00010329484939575195 -0.05638694763183594 0.019048690795898438
18.1825 0.14421844482421875 0.084259033203125 3.354248046875 -4.5380859375 0.0012703537940979004 0.00032216310501098633 -0.05590057373046875 0.026777267456054688
18.19225 0.1483154296875 0.0794830322265625 2.97705078125 -4.81201171875 0.0010533928871154785 -0.0008001923561096191 -0.05479621887207031 0.03124237060546875
18.202 0.1533355712890625 0.07590484619140625 2.579833984375 -5.0478515625 0.00013813376426696777 -0.00034202635288238525 -0.05439949035644531 0.03518486022949219
18.21175 0.157958984375 0.0695037841796875 2.14013671875 -5.2529296875 -0.00020807981491088867 -0.00020819902420043945 -0.048919677734375 0.041606903076171875
18.2215 0.16266632080078125 0.0635528564453125 1.685302734375 -5.411376953125 0.001909017562866211 -0.0007275938987731934 -0.04580116271972656 0.04665565490722656
18.23125 0.165374755859375 0.05696868896484375 1.228515625 -5.51953125 0.0002880096435546875 -0.000226631760597229 -0.04439544677734375 0.049747467041015625
18.241 0.1701812744140625 0.051422119140625 0.76611328125 -5.58154296875 0.0005069375038146973 -0.0008074045181274414 -0.040874481201171875 0.05443763732910156
18.25075 0.17307281494140625 0.044403076171875 0.313232421875 -5.604736328125 -8.256733417510986e-05 -0.0003526359796524048 -0.035549163818359375 0.05833625793457031
18.2605 0.1753692626953125 0.0377349853515625 -0.13525390625 -5.589111328125 -2.9385089874267578e-05 -0.0006043612957000732 -0.02993011474609375 0.062335968017578125
18.27025 0.17775726318359375 0.0298919677734375 -0.572509765625 -5.551025390625 -0.0007264614105224609 -0.00027441978454589844 -0.026241302490234375 0.064910888671875
18.28 0.18204498291015625 0.0239410400390625 -1.02001953125 -5.487548828125 0.00056418776512146 -0.000572502613067627 -0.020839691162109375 0.06813430786132812
18.28975 0.18494415283203125 0.01432037353515625 -1.45166015625 -5.39697265625 0.0003864765167236328 -0.0007654130458831787 -0.01470947265625 0.07197952270507812
18.2995 0.184722900390625 0.00814056396484375 -1.893798828125 -5.2587890625 0.00042244791984558105 -0.0005151331424713135 -0.009082794189453125 0.07213973999023438
18.30925 0.185150146484375 -0.0019989013671875 -2.32373046875 -5.0693359375 -0.0001423358917236328 0.00034162402153015137 -0.0026092529296875 0.0748443603515625
18.319 0.18582916259765625 -0.010162353515625 -2.730712890625 -4.841064453125 0.0007093846797943115 0.0001977384090423584 0.002674102783203125 0.07778167724609375
18.32875 0.1865692138671875 -0.016357421875 -3.10546875 -4.57958984375 0.001170814037322998 -0.0006325244903564453 0.010303497314453125 0.07935714721679688
18.3385 0.18631744384765625 -0.02606964111328125 -3.441162109375 -4.284423828125 0.0007419586181640625 -6.499886512756348e-05 0.017665863037109375 0.0819854736328125
18.34825 0.1871185302734375 -0.03423309326171875 -3.757568359375 -3.985107421875 -0.00034037232398986816 -0.00020971894264221191 0.02326202392578125 0.08108901977539062
18.358 0.1862335205078125 -0.0424346923828125 -4.041015625 -3.66357421875 8.979439735412598e-05 0.00019478797912597656 0.03179168701171875 0.08070755004882812
18.36775 0.18495941162109375 -0.0517578125 -4.31005859375 -3.3203125 0.0005315840244293213 0.00019234418869018555 0.03717803955078125 0.08002090454101562
18.3775 0.18274688720703125 -0.05751800537109375 -4.552490234375 -2.97509765625 -0.0005082488059997559 -0.0007401108741760254 0.04332733154296875 0.08040618896484375
18.38725 0.179901123046875 -0.06772613525390625 -4.77783203125 -2.584716796875 0.00012274086475372314 -0.0002452731132507324 0.04986572265625 0.07872772216796875
18.397 0.1783294677734375 -0.074981689453125 -4.9619140625 -2.1806640625 -3.5762786865234375e-07 -0.0013692378997802734 0.055908203125 0.074371337890625
18.40675 0.173583984375 -0.0821075439453125 -5.11962890625 -1.74365234375 0.0014798641204833984 -0.0014579296112060547 0.0641326904296875 0.0715484619140625
18.4165 0.16977691650390625 -0.09101104736328125 -5.212890625 -1.311767578125 -0.00012706220149993896 7.661432027816772e-05 0.06850433349609375 0.0693206787109375
18.42625 0.16571044921875 -0.0990753173828125 -5.261962890625 -0.875732421875 -0.00045609474182128906 -0.0006694197654724121 0.0735015869140625 0.0663299560546875
18.436 0.15969085693359375 -0.10570526123046875 -5.273193359375 -0.45703125 -0.0004210472106933594 0.00013431906700134277 0.08075714111328125 0.06121826171875
18.44575 0.15438079833984375 -0.11347198486328125 -5.261962890625 -0.048095703125 -0.0007020235061645508 -0.0006875991821289062 0.0842437744140625 0.055908203125
18.4555 0.14865875244140625 -0.1208038330078125 -5.219482421875 0.351318359375 4.842877388000488e-05 0.00018863379955291748 0.09070587158203125 0.05156707763671875
18.46525 0.1441497802734375 -0.12647247314453125 -5.174072265625 0.749267578125 0.0004508793354034424 0.0002758800983428955 0.095794677734375 0.0439453125
18.475 0.13709259033203125 -0.13286590576171875 -5.090576171875 1.146240234375 0.00033423304557800293 -0.0007988214492797852 0.0996856689453125 0.039093017578125
18.48475 0.13137054443359375 -0.13897705078125 -4.97705078125 1.554443359375 -0.00015901029109954834 -0.00018170475959777832 0.1031646728515625 0.031982421875
18.4945 0.12294769287109375 -0.1444854736328125 -4.8095703125 1.9541015625 -0.00023382902145385742 5.9194862842559814e-05 0.106658935546875 0.02349853515625
18.50425 0.114898681640625 -0.152099609375 -4.61279296875 2.34912109375 -0.0002741813659667969 -0.0007833242416381836 0.1096038818359375 0.01727294921875
18.514 0.1089019775390625 -0.1557769775390625 -4.37060546875 2.70361328125 -0.00012320280075073242 0.000559687614440918 0.111114501953125 0.01045989990234375
18.52375 0.1002349853515625 -0.15782928466796875 -4.08740234375 3.015380859375 0.0008869469165802002 -0.0006555914878845215 0.11198043823242188 0.0029296875
18.5335 0.09392547607421875 -0.16461944580078125 -3.7960205078125 3.2908935546875 -0.0007592141628265381 -6.628036499023438e-05 0.11295700073242188 -0.00354766845703125
18.54325 0.0847625732421875 -0.16831207275390625 -3.50341796875 3.5308837890625 6.884336471557617e-06 -0.0006277561187744141 0.11282730102539062 -0.01255035400390625
18.553 0.0763702392578125 -0.17153167724609375 -3.1990966796875 3.742919921875 0.00040468573570251465 -0.00030934810638427734 0.11214447021484375 -0.017364501953125
18.56275 0.06818389892578125 -0.171722412109375 -2.905517578125 3.948486328125 0.0005551576614379883 -1.1473894119262695e-05 0.11164474487304688 -0.023746490478515625
18.5725 0.05861663818359375 -0.1744537353515625 -2.59033203125 4.13720703125 0.00014257431030273438 -0.001227259635925293 0.10892105102539062 -0.031734466552734375
18.58225 0.051361083984375 -0.17638397216796875 -2.25732421875 4.31494140625 0.0004679262638092041 -0.0004460364580154419 0.106414794921875 -0.039638519287109375
18.592 0.041351318359375 -0.17874908447265625 -1.894775390625 4.459716796875 0.00034552812576293945 -0.00015437602996826172 0.10290908813476562 -0.045989990234375
18.60175 0.0326080322265625 -0.1756134033203125 -1.52294921875 4.5810546875 0.0007818341255187988 -0.00046193599700927734 0.09914398193359375 -0.05132293701171875
18.6115 0.0256195068359375 -0.17525482177734375 -1.140625 4.643798828125 -0.0002614259719848633 0.0010662078857421875 0.09585952758789062 -0.058040618896484375
18.62125 0.01617431640625 -0.17607879638671875 -0.76708984375 4.6728515625 0.00010097026824951172 -0.0009091496467590332 0.09140396118164062 -0.06166839599609375
18.631 0.00760650634765625 -0.1743011474609375 -0.419921875 4.6630859375 0.00045627355575561523 0.000855863094329834 0.08678436279296875 -0.06718063354492188
18.64075 -0.0005645751953125 -0.1742706298828125 -0.07568359375 4.62939453125 0.0005347728729248047 -0.00039082765579223633 0.08205413818359375 -0.0713348388671875
18.6505 -0.0085296630859375 -0.173492431640625 0.249755859375 4.5888671875 0.0005246996879577637 -6.389617919921875e-05 0.07712173461914062 -0.0768280029296875
18.66025 -0.01727294921875 -0.16970062255859375 0.56640625 4.5322265625 0.00014802813529968262 -0.0009180605411529541 0.07137298583984375 -0.07888412475585938
18.67 -0.02393341064453125 -0.1678619384765625 0.886962890625 4.47021484375 -0.00037419795989990234 -0.00018963217735290527 0.0658416748046875 -0.08227920532226562
18.67975 -0.03409576416015625 -0.16417694091796875 1.2138671875 4.383544921875 -9.676814079284668e-05 -0.0006619393825531006 0.05963134765625 -0.08334732055664062
18.6895 -0.0416717529296875 -0.1607666015625 1.5439453125 4.265869140625 0.0012656450271606445 -0.0008404254913330078 0.0547943115234375 -0.083160400390625
