!Created with skrf (http://scikit-rf.org).
# GHz S RI R 50.0 
!freq ReS11 ImS11 ReS21 ImS21 ReS12 ImS12 ReS22 ImS22
17.5 0.007171630859375 -0.154083251953125 4.827880859375 -0.6533203125 -0.0011360645294189453 0.0006420612335205078 0.11144256591796875 0.0021209716796875
17.50975 -0.00347137451171875 -0.15009307861328125 4.753662109375 -1.029541015625 -0.0007787346839904785 0.0016695857048034668 0.11532211303710938 -0.00171661376953125
17.5195 -0.01209259033203125 -0.14606475830078125 4.646240234375 -1.39697265625 -0.0013789534568786621 0.0015490055084228516 0.11874771118164062 -0.00322723388671875
17.52925 -0.020263671875 -0.1414031982421875 4.526123046875 -1.753662109375 -0.0014963150024414062 0.00047892332077026367 0.12028884887695312 -0.008831024169921875
17.539 -0.0289459228515625 -0.1356201171875 4.37353515625 -2.08984375 -0.000499427318572998 -0.0003815889358520508 0.12091827392578125 -0.0139007568359375
17.54875 -0.03737640380859375 -0.1327362060546875 4.196533203125 -2.4052734375 -0.000447005033493042 0.0006336867809295654 0.12140655517578125 -0.0172882080078125
17.5585 -0.04764556884765625 -0.12662506103515625 4.007568359375 -2.716064453125 -0.00038927793502807617 0.0004875361919403076 0.123687744140625 -0.02320098876953125
17.56825 -0.0528411865234375 -0.12200164794921875 3.811279296875 -3.01025390625 -0.001717686653137207 0.000945746898651123 0.12459945678710938 -0.026123046875
17.578 -0.06024932861328125 -0.11486053466796875 3.5703125 -3.3109130859375 -0.0003434419631958008 0.0010512471199035645 0.12537384033203125 -0.03318023681640625
17.58775 -0.0684051513671875 -0.10973358154296875 3.3013916015625 -3.5931396484375 -0.0013065934181213379 0.0012707114219665527 0.1241912841796875 -0.03630828857421875
17.5975 -0.07199859619140625 -0.10311126708984375 2.9957275390625 -3.8551025390625 -0.0005455613136291504 0.0007059872150421143 0.12422943115234375 -0.04236602783203125
17.60725 -0.07880401611328125 -0.09771728515625 2.666259765625 -4.073486328125 -0.0008642673492431641 0.00113755464553833 0.121337890625 -0.045413970947265625
17.617 -0.0842742919921875 -0.08751678466796875 2.32177734375 -4.250732421875 -0.0008344948291778564 0.0006667673587799072 0.12133026123046875 -0.051326751708984375
17.62675 -0.0887451171875 -0.0822296142578125 1.9775390625 -4.38818359375 -0.0011298656463623047 0.0021033287048339844 0.119354248046875 -0.05646514892578125
17.6365 -0.0931243896484375 -0.07330322265625 1.6318359375 -4.49462890625 -0.0013227462768554688 0.001535654067993164 0.1184539794921875 -0.06095123291015625
17.64625 -0.0968780517578125 -0.064056396484375 1.30712890625 -4.5771484375 -0.0006619095802307129 0.0013507604598999023 0.11376571655273438 -0.06744003295898438
17.656 -0.10030364990234375 -0.05776214599609375 0.98779296875 -4.654541015625 -0.0003192126750946045 -0.0001731961965560913 0.1099853515625 -0.072052001953125
17.66575 -0.102325439453125 -0.04662322998046875 0.6708984375 -4.730712890625 0.00016820430755615234 0.0008502602577209473 0.10814666748046875 -0.07527542114257812
17.6755 -0.1066436767578125 -0.03821563720703125 0.3359375 -4.789306640625 -0.0005611181259155273 0.001875758171081543 0.10381317138671875 -0.08299636840820312
17.68525 -0.1079254150390625 -0.029571533203125 -0.014404296875 -4.8486328125 0.00026911497116088867 0.0010990500450134277 0.1001434326171875 -0.08557510375976562
17.695 -0.1100311279296875 -0.0207061767578125 -0.40380859375 -4.877197265625 -0.00018471479415893555 0.00103682279586792 0.09574127197265625 -0.08841323852539062
17.70475 -0.1104736328125 -0.01068115234375 -0.81396484375 -4.857666015625 -0.00037533044815063477 0.0006807446479797363 0.09195709228515625 -0.09320449829101562
17.7145 -0.11182785034179688 -0.00217437744140625 -1.229736328125 -4.785400390625 -0.0002509951591491699 0.0012187361717224121 0.08670806884765625 -0.09755325317382812
17.72425 -0.11066436767578125 0.006504058837890625 -1.625732421875 -4.656982421875 -0.00022852420806884766 0.0009821057319641113 0.08118057250976562 -0.100830078125
17.734 -0.11139678955078125 0.01476287841796875 -1.990234375 -4.48388671875 -1.3828277587890625e-05 0.0009860992431640625 0.0772552490234375 -0.10363006591796875
17.74375 -0.11096572875976562 0.02400970458984375 -2.302978515625 -4.2744140625 0.00020450353622436523 0.0009024739265441895 0.069915771484375 -0.10764312744140625
17.7535 -0.10776901245117188 0.0319671630859375 -2.5927734375 -4.07080078125 -0.0010212063789367676 0.0010181069374084473 0.064483642578125 -0.11007308959960938
17.76325 -0.10625839233398438 0.041301727294921875 -2.860595703125 -3.877197265625 0.00017186999320983887 0.0006591379642486572 0.05854034423828125 -0.11100387573242188
17.773 -0.10470962524414062 0.047328948974609375 -3.118408203125 -3.677490234375 0.0002073049545288086 0.0023500919342041016 0.053802490234375 -0.11284637451171875
17.78275 -0.102630615234375 0.054962158203125 -3.3837890625 -3.461181640625 -0.0009705424308776855 0.0017113089561462402 0.048114776611328125 -0.11315155029296875
17.7925 -0.0977935791015625 0.06446456909179688 -3.649658203125 -3.2265625 0.0003018379211425781 0.0017300844192504883 0.041408538818359375 -0.11486434936523438
17.80225 -0.09325790405273438 0.06995773315429688 -3.929931640625 -2.96240234375 0.0009642839431762695 0.0007103681564331055 0.03742218017578125 -0.11305999755859375
17.812 -0.08852005004882812 0.07828903198242188 -4.180419921875 -2.651611328125 5.823373794555664e-05 0.001186966896057129 0.030307769775390625 -0.11317825317382812
17.82175 -0.08453750610351562 0.08711624145507812 -4.39892578125 -2.318359375 -0.00044214725494384766 0.001398324966430664 0.02469635009765625 -0.1143035888671875
17.8315 -0.07860565185546875 0.09322738647460938 -4.568115234375 -1.943115234375 -0.00031954050064086914 0.0003665536642074585 0.016979217529296875 -0.11272048950195312
17.84125 -0.074127197265625 0.09914398193359375 -4.703125 -1.56982421875 0.0001875162124633789 0.0015170574188232422 0.01097869873046875 -0.11164093017578125
17.851 -0.066192626953125 0.10734939575195312 -4.780517578125 -1.19384765625 -0.0006691217422485352 0.0010491609573364258 0.007244110107421875 -0.1099395751953125
17.86075 -0.061931610107421875 0.11183929443359375 -4.84814453125 -0.84228515625 0.0006242990493774414 0.0003229975700378418 0.0007476806640625 -0.10692596435546875
17.8705 -0.05558013916015625 0.11768722534179688 -4.898681640625 -0.488037109375 5.263090133666992e-05 0.0009378194808959961 -0.0055389404296875 -0.10601425170898438
17.88025 -0.049175262451171875 0.12357330322265625 -4.941162109375 -0.132080078125 0.001335740089416504 0.001193404197692871 -0.0102691650390625 -0.1041259765625
17.89 -0.0433349609375 0.1280364990234375 -4.964599609375 0.228271484375 -0.00034809112548828125 0.000571519136428833 -0.01485443115234375 -0.10251998901367188
17.89975 -0.0361328125 0.13055419921875 -4.965576171875 0.621826171875 6.085634231567383e-05 0.0009414553642272949 -0.020282745361328125 -0.100341796875
17.9095 -0.02993011474609375 0.13617706298828125 -4.9306640625 1.0234375 -0.00013208389282226562 0.0011813640594482422 -0.0265045166015625 -0.0972442626953125
17.91925 -0.02109527587890625 0.13729095458984375 -4.848388671875 1.422119140625 0.0014524459838867188 0.0022531747817993164 -0.0298614501953125 -0.09320068359375
17.929 -0.014892578125 0.1408538818359375 -4.73583984375 1.81884765625 0.00024080276489257812 0.0009211301803588867 -0.03460693359375 -0.090576171875
17.93875 -0.00518035888671875 0.14190673828125 -4.56591796875 2.1953125 0.0013876557350158691 0.00015974044799804688 -0.0385589599609375 -0.08590316772460938
17.9485 0.0018310546875 0.144134521484375 -4.37158203125 2.53515625 -7.331371307373047e-05 0.0022683143615722656 -0.043613433837890625 -0.08193206787109375
17.95825 0.00858306884765625 0.1460113525390625 -4.157958984375 2.860595703125 0.0012662410736083984 0.0008684396743774414 -0.045261383056640625 -0.07782745361328125
17.968 0.01631927490234375 0.14715576171875 -3.93505859375 3.16015625 0.0010856389999389648 0.0006057620048522949 -0.04924774169921875 -0.07353591918945312
17.97775 0.0256195068359375 0.14556884765625 -3.6976318359375 3.4462890625 0.001557469367980957 -0.0006059408187866211 -0.0505523681640625 -0.06876373291015625
17.9875 0.03404998779296875 0.14698028564453125 -3.4368896484375 3.7381591796875 0.0002160966396331787 0.0003787875175476074 -0.053539276123046875 -0.06398391723632812
17.99725 0.0416259765625 0.14603424072265625 -3.161865234375 4.02294921875 0.0008994340896606445 0.000717461109161377 -0.0592193603515625 -0.059967041015625
18.007 0.05091094970703125 0.147186279296875 -2.83935546875 4.28466796875 0.0009130239486694336 0.0006840825080871582 -0.060932159423828125 -0.0540008544921875
18.01675 0.05853271484375 0.145965576171875 -2.48681640625 4.522705078125 -0.00012002885341644287 0.0004526376724243164 -0.06485366821289062 -0.049468994140625
18.0265 0.064849853515625 0.14385986328125 -2.1025390625 4.72314453125 0.0009720325469970703 0.0002491474151611328 -0.0669097900390625 -0.04450225830078125
18.03625 0.0740966796875 0.14325714111328125 -1.698974609375 4.87353515625 0.0011685490608215332 8.022785186767578e-05 -0.06858062744140625 -0.038181304931640625
18.046 0.08074188232421875 0.1391448974609375 -1.287109375 4.98779296875 0.0011080503463745117 0.0003177523612976074 -0.06833267211914062 -0.032318115234375
18.05575 0.08814239501953125 0.13516998291015625 -0.893310546875 5.05712890625 0.0006837844848632812 0.00011107325553894043 -0.07086944580078125 -0.027645111083984375
18.0655 0.0946044921875 0.13545989990234375 -0.506591796875 5.088134765625 0.0008172988891601562 0.00035893917083740234 -0.07289886474609375 -0.02214813232421875
18.07525 0.10228729248046875 0.1307373046875 -0.11328125 5.106201171875 0.00018069148063659668 -0.0002816617488861084 -0.07279205322265625 -0.0155792236328125
18.085 0.10858154296875 0.12697601318359375 0.281982421875 5.10498046875 0.0001913905143737793 -0.000570148229598999 -0.07346343994140625 -0.0104827880859375
18.09475 0.11356353759765625 0.1235504150390625 0.67822265625 5.077880859375 0.0006946027278900146 -0.000767141580581665 -0.07193374633789062 -0.00518798828125
18.1045 0.12171173095703125 0.1184234619140625 1.0791015625 5.0205078125 0.00020885467529296875 0.0008832216262817383 -0.0724029541015625 0.001621246337890625
18.11425 0.12743377685546875 0.1154022216796875 1.48876953125 4.917724609375 0.000974118709564209 -0.000604480504989624 -0.07154083251953125 0.00609588623046875
18.124 0.1319122314453125 0.10955810546875 1.88427734375 4.7763671875 0.0009043216705322266 0.00030732154846191406 -0.07024383544921875 0.01396942138671875
18.13375 0.13751983642578125 0.10289764404296875 2.260986328125 4.610107421875 0.00012481212615966797 -0.0011788606643676758 -0.06634521484375 0.01847076416015625
18.1435 0.14157867431640625 0.09865570068359375 2.611328125 4.39453125 0.00034815073013305664 -0.0009957551956176758 -0.06720352172851562 0.025409698486328125
18.15325 0.1463775634765625 0.09234619140625 2.94482421875 4.158935546875 -0.0006071031093597412 -0.000145643949508667 -0.06622695922851562 0.030269622802734375
18.163 0.1531524658203125 0.0855255126953125 3.2509765625 3.90478515625 0.0017580389976501465 -0.00016683340072631836 -0.06128120422363281 0.03708457946777344
18.17275 0.1560821533203125 0.07978057861328125 3.532958984375 3.626220703125 0.0004887282848358154 0.0002487301826477051 -0.05548095703125 0.04137611389160156
18.1825 0.16046142578125 0.07320404052734375 3.799072265625 3.34326171875 0.000903695821762085 -0.0003018677234649658 -0.053020477294921875 0.04866218566894531
18.19225 0.16429901123046875 0.06589508056640625 4.0595703125 3.038330078125 0.00048351287841796875 -0.0009753704071044922 -0.04963111877441406 0.05210304260253906
18.202 0.1691131591796875 0.0616912841796875 4.27587890625 2.7138671875 -0.0009570121765136719 -9.560585021972656e-05 -0.046222686767578125 0.05788421630859375
18.21175 0.1703338623046875 0.0546112060546875 4.48193359375 2.35498046875 0.00032532215118408203 -0.000850677490234375 -0.04195404052734375 0.06346893310546875
18.2215 0.17437744140625 0.04454803466796875 4.64501953125 1.9775390625 0.0008259713649749756 -0.00042948126792907715 -0.035491943359375 0.06547164916992188
18.23125 0.17694091796875 0.03946685791015625 4.765625 1.601318359375 0.0005242824554443359 0.00012600421905517578 -0.03192138671875 0.06872940063476562
18.241 0.1783294677734375 0.03321075439453125 4.85302734375 1.2177734375 0.001049637794494629 -0.0011131763458251953 -0.02654266357421875 0.07300949096679688
18.25075 0.17845916748046875 0.02489471435546875 4.91162109375 0.83935546875 -5.7250261306762695e-05 -3.5312026739120483e-05 -0.021183013916015625 0.07448577880859375
18.2605 0.1803741455078125 0.01956939697265625 4.942626953125 0.45947265625 0.000441133975982666 -0.001355886459350586 -0.015399932861328125 0.07714462280273438
18.27025 0.18070220947265625 0.0121307373046875 4.955078125 0.0849609375 0.000555872917175293 -0.0010641813278198242 -0.0088958740234375 0.08141326904296875
18.28 0.18286895751953125 0.001800537109375 4.94921875 -0.302001953125 -7.63237476348877e-05 -0.00047150254249572754 -0.00262451171875 0.0812835693359375
18.28975 0.18387603759765625 -0.0053558349609375 4.904541015625 -0.683837890625 0.0008950531482696533 -0.00023701786994934082 0.00449371337890625 0.0850067138671875
18.2995 0.1818084716796875 -0.011383056640625 4.828857421875 -1.06787109375 0.0012303590774536133 0.00018012523651123047 0.013240814208984375 0.08260726928710938
18.30925 0.181396484375 -0.0202789306640625 4.70947265625 -1.44677734375 9.876489639282227e-05 -0.0007858872413635254 0.01983642578125 0.0823974609375
18.319 0.17957305908203125 -0.028106689453125 4.56298828125 -1.8056640625 -0.0004298686981201172 -0.00047513842582702637 0.02562713623046875 0.08424758911132812
18.32875 0.1787261962890625 -0.03368377685546875 4.38671875 -2.141845703125 -0.00033995509147644043 -0.00019437074661254883 0.034214019775390625 0.08340072631835938
18.3385 0.17736053466796875 -0.04317474365234375 4.18994140625 -2.454833984375 -0.00014466047286987305 -0.0004953444004058838 0.0405120849609375 0.08469390869140625
18.34825 0.17620849609375 -0.047943115234375 3.990478515625 -2.76220703125 0.00021028518676757812 0.0003223717212677002 0.04666900634765625 0.082305908203125
18.358 0.17406463623046875 -0.0568389892578125 3.77099609375 -3.04736328125 0.0009564757347106934 -0.0009828805923461914 0.054107666015625 0.07869720458984375
18.36775 0.17093658447265625 -0.0644073486328125 3.516845703125 -3.3255615234375 -0.00011649727821350098 -0.0007871687412261963 0.0601348876953125 0.077911376953125
18.3775 0.16855621337890625 -0.0702667236328125 3.2598876953125 -3.5889892578125 8.374452590942383e-06 -0.0005193948745727539 0.06658172607421875 0.0739288330078125
18.38725 0.1652679443359375 -0.0776214599609375 2.953125 -3.83984375 2.536177635192871e-05 0.00010839104652404785 0.0728302001953125 0.0714569091796875
18.397 0.16204833984375 -0.08428955078125 2.62451171875 -4.05078125 0.0010362863540649414 -0.0006656646728515625 0.0775604248046875 0.0660400390625
18.40675 0.157257080078125 -0.0903778076171875 2.27197265625 -4.2392578125 0.0004641413688659668 -0.0005244612693786621 0.083465576171875 0.0623779296875
18.4165 0.15326690673828125 -0.09700775146484375 1.919921875 -4.373291015625 -0.00018750876188278198 0.0002012699842453003 0.088653564453125 0.057586669921875
18.42625 0.1488037109375 -0.10162353515625 1.562255859375 -4.468017578125 0.0006874203681945801 -0.0007930994033813477 0.0944061279296875 0.05126190185546875
18.436 0.14318084716796875 -0.1082611083984375 1.2177734375 -4.541748046875 0.0004906356334686279 -0.00012367963790893555 0.10025787353515625 0.0479583740234375
18.44575 0.13890838623046875 -0.1139678955078125 0.878662109375 -4.59375 0.0005882978439331055 -0.001247107982635498 0.10228729248046875 0.03952789306640625
18.4555 0.13220977783203125 -0.11849212646484375 0.53759765625 -4.631591796875 0.0003872513771057129 0.00037610530853271484 0.10634613037109375 0.03173828125
18.46525 0.126312255859375 -0.1246795654296875 0.190673828125 -4.66455078125 0.00021567940711975098 1.1719763278961182e-05 0.1080322265625 0.02496337890625
18.475 0.11965179443359375 -0.12895965576171875 -0.1640625 -4.6708984375 -0.00023743510246276855 -0.0004970729351043701 0.1113739013671875 0.01740264892578125
18.48475 0.1156463623046875 -0.13437652587890625 -0.53857421875 -4.63916015625 -0.00033164024353027344 -0.00033271312713623047 0.11344146728515625 0.009181976318359375
18.4945 0.1078338623046875 -0.13744354248046875 -0.91357421875 -4.56201171875 0.0003229677677154541 0.0005894005298614502 0.115875244140625 0.002063751220703125
18.50425 0.100555419921875 -0.1420135498046875 -1.28173828125 -4.4501953125 0.00015151500701904297 -0.001128077507019043 0.11505889892578125 -0.00443267822265625
18.514 0.0961456298828125 -0.144927978515625 -1.62060546875 -4.29541015625 0.00011646747589111328 -5.6646764278411865e-05 0.11602783203125 -0.0131072998046875
18.52375 0.0879364013671875 -0.14778900146484375 -1.927734375 -4.1064453125 0.0005394220352172852 0.00034609436988830566 0.11503982543945312 -0.020404815673828125
18.5335 0.0833892822265625 -0.15288543701171875 -2.204833984375 -3.91357421875 -0.00027871131896972656 -0.0008449554443359375 0.11387252807617188 -0.027408599853515625
18.54325 0.07529449462890625 -0.15479278564453125 -2.450927734375 -3.711669921875 0.0005589127540588379 0.00024840235710144043 0.11055374145507812 -0.03417205810546875
18.553 0.06963348388671875 -0.1582183837890625 -2.687255859375 -3.5 0.0006779730319976807 -0.00011020898818969727 0.10764312744140625 -0.040279388427734375
18.56275 0.062591552734375 -0.15866851806640625 -2.920654296875 -3.29296875 -0.0003524869680404663 0.0003290325403213501 0.10531234741210938 -0.045948028564453125
18.5725 0.05472564697265625 -0.15966033935546875 -3.145751953125 -3.065185546875 0.0007162094116210938 0.0005142688751220703 0.1011199951171875 -0.053371429443359375
18.58225 0.0481719970703125 -0.1615142822265625 -3.361328125 -2.811767578125 0.00030168890953063965 -0.0004090219736099243 0.09763717651367188 -0.058666229248046875
18.592 0.04051971435546875 -0.16374969482421875 -3.55908203125 -2.5322265625 0.0005061328411102295 0.00015819072723388672 0.0933837890625 -0.06537246704101562
18.60175 0.03265380859375 -0.163604736328125 -3.732421875 -2.23291015625 0.001332998275756836 -0.0010493993759155273 0.08699798583984375 -0.0700531005859375
18.6115 0.0243988037109375 -0.16278076171875 -3.85791015625 -1.922607421875 -9.432435035705566e-05 -0.00042828917503356934 0.08221054077148438 -0.07604598999023438
18.62125 0.0174407958984375 -0.16314697265625 -3.950439453125 -1.60888671875 0.0012375712394714355 -0.0006116032600402832 0.07648849487304688 -0.0785980224609375
18.631 0.01145172119140625 -0.162445068359375 -4.01220703125 -1.317138671875 0.0007943511009216309 0.0002484321594238281 0.06995773315429688 -0.08294677734375
18.64075 0.00234222412109375 -0.16283416748046875 -4.054443359375 -1.022705078125 0.0007999539375305176 -0.0013849735260009766 0.06522369384765625 -0.0847320556640625
18.6505 -0.00324249267578125 -0.16253662109375 -4.088134765625 -0.739501953125 0.0011659860610961914 -0.000541388988494873 0.061038970947265625 -0.08819198608398438
18.66025 -0.011962890625 -0.1598968505859375 -4.114013671875 -0.4599609375 -0.000261649489402771 0.00014668703079223633 0.05284881591796875 -0.0888671875
18.67 -0.019287109375 -0.1584014892578125 -4.1279296875 -0.170166015625 0.00017714500427246094 -0.0014142990112304688 0.0467071533203125 -0.08948898315429688
18.67975 -0.0270233154296875 -0.15699005126953125 -4.128173828125 0.127197265625 -0.0004308074712753296 0.00039614737033843994 0.04010772705078125 -0.08990478515625
18.6895 -0.0335235595703125 -0.1544342041015625 -4.093994140625 0.4345703125 0.0007876753807067871 -2.250075340270996e-05 0.03594207763671875 -0.09130859375
