!Created with skrf (http://scikit-rf.org).
# GHz S RI R 50.0 
!freq ReS11 ImS11 ReS21 ImS21 ReS12 ImS12 ReS22 ImS22
17.5 0.01862335205078125 -0.13884735107421875 -1.34033203125 4.052978515625 -0.0017986297607421875 0.000750422477722168 0.09254837036132812 0.01149749755859375
17.50975 0.00893402099609375 -0.13738250732421875 -1.004150390625 4.14404296875 -0.00144195556640625 0.0010043978691101074 0.09619522094726562 0.0100555419921875
17.5195 0.00043487548828125 -0.13372039794921875 -0.661865234375 4.195556640625 -0.0012338757514953613 0.00011324882507324219 0.10042572021484375 0.01059722900390625
17.52925 -0.0079345703125 -0.13047027587890625 -0.3232421875 4.228515625 -0.0009154081344604492 0.001250147819519043 0.10300064086914062 0.00385284423828125
17.539 -0.0140838623046875 -0.126312255859375 0.005859375 4.22705078125 -0.0005227923393249512 0.0003330707550048828 0.1063385009765625 0.0007476806640625
17.54875 -0.02092742919921875 -0.12384796142578125 0.330078125 4.19287109375 -0.0010398626327514648 5.066394805908203e-05 0.10757064819335938 -0.0004425048828125
17.5585 -0.0326385498046875 -0.1185302734375 0.649169921875 4.15576171875 -0.0024448633193969727 0.001127481460571289 0.11005020141601562 -0.005268096923828125
17.56825 -0.03755950927734375 -0.11530303955078125 0.956787109375 4.101318359375 -0.0007838010787963867 0.0015830397605895996 0.11272048950195312 -0.008235931396484375
17.578 -0.0442962646484375 -0.11037445068359375 1.28125 4.01904296875 -0.0023409128189086914 0.0014020204544067383 0.1156463623046875 -0.01335906982421875
17.58775 -0.0509796142578125 -0.10631561279296875 1.603759765625 3.905517578125 -0.0004576444625854492 0.0017406344413757324 0.11725997924804688 -0.016025543212890625
17.5975 -0.055267333984375 -0.100860595703125 1.92333984375 3.75537109375 -0.0006780028343200684 0.0013442039489746094 0.11890029907226562 -0.021060943603515625
17.60725 -0.06082916259765625 -0.0968780517578125 2.21875 3.572998046875 -0.00015911459922790527 0.000421181321144104 0.11895751953125 -0.024822235107421875
17.617 -0.06697845458984375 -0.0874481201171875 2.487548828125 3.3642578125 -0.0015887618064880371 0.00036031007766723633 0.12136077880859375 -0.030307769775390625
17.62675 -0.07108306884765625 -0.0825042724609375 2.728515625 3.133544921875 7.43865966796875e-05 0.0013827085494995117 0.121337890625 -0.033946990966796875
17.6365 -0.07574462890625 -0.0759735107421875 2.93359375 2.88818359375 -0.0007421374320983887 0.000483095645904541 0.11922454833984375 -0.0409088134765625
17.64625 -0.0789794921875 -0.0687103271484375 3.108642578125 2.653564453125 -0.0008344650268554688 0.0019843578338623047 0.11834335327148438 -0.045650482177734375
17.656 -0.084014892578125 -0.06299591064453125 3.271728515625 2.419189453125 -0.0017112493515014648 -0.0001309514045715332 0.11460494995117188 -0.052188873291015625
17.66575 -0.0861968994140625 -0.05466461181640625 3.430908203125 2.18701171875 -0.0006295442581176758 0.002000093460083008 0.11521530151367188 -0.05632781982421875
17.6755 -0.09171295166015625 -0.0483856201171875 3.580322265625 1.9462890625 -0.00030428171157836914 0.000495612621307373 0.11278915405273438 -0.06130218505859375
17.68525 -0.0933837890625 -0.04006195068359375 3.738037109375 1.69775390625 0.0002868771553039551 0.0016443729400634766 0.11151885986328125 -0.06687545776367188
17.695 -0.09521484375 -0.031341552734375 3.891845703125 1.412353515625 -0.00016033649444580078 0.0019040107727050781 0.108642578125 -0.07053375244140625
17.70475 -0.09726715087890625 -0.023773193359375 4.011474609375 1.092041015625 -0.0020971298217773438 0.0019638538360595703 0.10400772094726562 -0.07520675659179688
17.7145 -0.09996414184570312 -0.015743255615234375 4.10009765625 0.74658203125 -0.0010294318199157715 0.0015779733657836914 0.10184860229492188 -0.0807952880859375
17.72425 -0.1003265380859375 -0.00798797607421875 4.134033203125 0.394287109375 -0.0006707906723022461 0.002118349075317383 0.09603500366210938 -0.087066650390625
17.734 -0.10202789306640625 -0.000579833984375 4.1298828125 0.051513671875 -0.00014194846153259277 0.0009704232215881348 0.09299468994140625 -0.09047317504882812
17.74375 -0.10211181640625 0.00746917724609375 4.06884765625 -0.2685546875 0.0006506443023681641 0.0010460615158081055 0.088531494140625 -0.09600830078125
17.7535 -0.0996551513671875 0.01480865478515625 4.0068359375 -0.56201171875 0.0005513429641723633 0.0023328065872192383 0.08490753173828125 -0.10006332397460938
17.76325 -0.0998687744140625 0.0227203369140625 3.9324951171875 -0.8291015625 -0.0002384185791015625 0.002314329147338867 0.07762908935546875 -0.10100173950195312
17.773 -0.09920120239257812 0.02919769287109375 3.8568115234375 -1.0841064453125 -0.00040531158447265625 0.0020532608032226562 0.07451629638671875 -0.10447311401367188
17.78275 -0.09789276123046875 0.0367431640625 3.775634765625 -1.3450927734375 -0.0001735091209411621 0.0017338395118713379 0.06800460815429688 -0.10788726806640625
17.7925 -0.09524917602539062 0.045131683349609375 3.6888427734375 -1.61376953125 -0.00046193599700927734 0.0008223056793212891 0.062274932861328125 -0.10890960693359375
17.80225 -0.09344482421875 0.051174163818359375 3.5809326171875 -1.9002685546875 -0.00033283233642578125 0.0024428367614746094 0.058574676513671875 -0.11226654052734375
17.812 -0.08975982666015625 0.0600738525390625 3.442626953125 -2.185302734375 0.00015292316675186157 -9.626150131225586e-06 0.0522308349609375 -0.1130523681640625
17.82175 -0.087860107421875 0.065673828125 3.265625 -2.4615478515625 0.00035125017166137695 0.001343071460723877 0.04693603515625 -0.11405181884765625
17.8315 -0.0830078125 0.07270050048828125 3.05126953125 -2.72021484375 -0.00016838312149047852 0.001426100730895996 0.04035186767578125 -0.11565399169921875
17.84125 -0.0794677734375 0.0793304443359375 2.82275390625 -2.94580078125 0.001733541488647461 0.0007653236389160156 0.0334014892578125 -0.11656951904296875
17.851 -0.07373428344726562 0.08897018432617188 2.5631103515625 -3.1295166015625 -0.0005471110343933105 0.0018678903579711914 0.027584075927734375 -0.116973876953125
17.86075 -0.07129287719726562 0.09317398071289062 2.3214111328125 -3.2886962890625 -0.000482216477394104 0.00043833255767822266 0.020542144775390625 -0.11429595947265625
17.8705 -0.06540298461914062 0.1009674072265625 2.0787353515625 -3.42822265625 0.0004756450653076172 0.0015789270401000977 0.013256072998046875 -0.11455917358398438
17.88025 -0.062091827392578125 0.10761260986328125 1.837646484375 -3.564208984375 -4.76837158203125e-06 0.0015108585357666016 0.007080078125 -0.11401748657226562
17.89 -0.055759429931640625 0.11442947387695312 1.593505859375 -3.6951904296875 1.9006431102752686e-05 -0.0001494958996772766 0.0032958984375 -0.11356353759765625
17.89975 -0.04953765869140625 0.1178741455078125 1.3226318359375 -3.8214111328125 -0.0003688633441925049 0.0007432103157043457 -0.004230499267578125 -0.1126708984375
17.9095 -0.044643402099609375 0.1225433349609375 1.0352783203125 -3.939697265625 0.00038683414459228516 -0.00020657479763031006 -0.009593963623046875 -0.111328125
17.91925 -0.038238525390625 0.1271209716796875 0.7265625 -4.021484375 0.0005816221237182617 0.0015642642974853516 -0.0135345458984375 -0.10990524291992188
17.929 -0.030670166015625 0.1314239501953125 0.40478515625 -4.08349609375 0.0012090206146240234 0.00019025802612304688 -0.0219268798828125 -0.1081085205078125
17.93875 -0.02538299560546875 0.13451385498046875 0.07861328125 -4.096435546875 0.0015047192573547363 6.383657455444336e-05 -0.02700042724609375 -0.10416412353515625
17.9485 -0.01773834228515625 0.138275146484375 -0.231201171875 -4.075439453125 0.0011343955993652344 0.0010614395141601562 -0.03293609619140625 -0.100311279296875
17.95825 -0.0113983154296875 0.14093017578125 -0.533203125 -4.032470703125 0.0004845857620239258 0.0009443759918212891 -0.0357513427734375 -0.0982513427734375
17.968 -0.0035858154296875 0.1444549560546875 -0.813232421875 -3.976318359375 0.0006976127624511719 0.0005724430084228516 -0.0420989990234375 -0.09493255615234375
17.97775 0.00447845458984375 0.14543914794921875 -1.085693359375 -3.906494140625 -0.00016736984252929688 0.002038240432739258 -0.04723358154296875 -0.08951568603515625
17.9875 0.01316070556640625 0.14800262451171875 -1.3671875 -3.8359375 0.001827239990234375 0.00032699108123779297 -0.05052947998046875 -0.08611297607421875
17.99725 0.0214996337890625 0.149932861328125 -1.649658203125 -3.755859375 0.0009779930114746094 0.00034928321838378906 -0.0569305419921875 -0.08086395263671875
18.007 0.0283966064453125 0.150115966796875 -1.943359375 -3.644775390625 0.0008743405342102051 0.0008645057678222656 -0.05963897705078125 -0.07428741455078125
18.01675 0.03762054443359375 0.15193939208984375 -2.231689453125 -3.502685546875 0.0007165670394897461 0.0006288290023803711 -0.06494903564453125 -0.07129669189453125
18.0265 0.0462799072265625 0.1517181396484375 -2.5185546875 -3.33349609375 0.0013165473937988281 0.0007383823394775391 -0.069122314453125 -0.065887451171875
18.03625 0.0539703369140625 0.1517486572265625 -2.78173828125 -3.12060546875 0.001577615737915039 0.0004100799560546875 -0.07135009765625 -0.059478759765625
18.046 0.06441497802734375 0.1516571044921875 -3.0224609375 -2.885498046875 0.0012979507446289062 0.0007648468017578125 -0.07518768310546875 -0.0543060302734375
18.05575 0.07099151611328125 0.148590087890625 -3.22509765625 -2.64306640625 0.0008844733238220215 0.0004974007606506348 -0.079315185546875 -0.0478515625
18.0655 0.07932281494140625 0.14862060546875 -3.40087890625 -2.389404296875 0.0008041858673095703 -0.000994563102722168 -0.08276748657226562 -0.0412139892578125
18.07525 0.08713531494140625 0.14624786376953125 -3.565185546875 -2.1337890625 0.0019459724426269531 -0.0005142688751220703 -0.08415985107421875 -0.035121917724609375
18.085 0.09615325927734375 0.14414215087890625 -3.72119140625 -1.87109375 2.697855234146118e-05 4.757195711135864e-05 -0.08656692504882812 -0.029071807861328125
18.09475 0.103485107421875 0.1402587890625 -3.86376953125 -1.598388671875 0.0006357431411743164 0.0003643035888671875 -0.08618545532226562 -0.023059844970703125
18.1045 0.111572265625 0.13581085205078125 -3.991455078125 -1.31201171875 -0.00015501677989959717 0.00048260390758514404 -0.08770751953125 -0.015926361083984375
18.11425 0.11907958984375 0.134857177734375 -4.0966796875 -0.99755859375 0.0012230277061462402 0.00025022029876708984 -0.0878753662109375 -0.00958251953125
18.124 0.124969482421875 0.128326416015625 -4.1787109375 -0.67822265625 0.0006142258644104004 -0.00015592575073242188 -0.08597564697265625 -0.0003814697265625
18.13375 0.1325531005859375 0.1251678466796875 -4.231689453125 -0.356689453125 7.11679458618164e-05 -0.0003507882356643677 -0.08758926391601562 0.00536346435546875
18.1435 0.1387481689453125 0.1193389892578125 -4.251708984375 -0.0244140625 0.0004501938819885254 -0.0005011856555938721 -0.08605575561523438 0.015735626220703125
18.15325 0.147247314453125 0.1123199462890625 -4.244384765625 0.3115234375 0.0007927119731903076 -0.0003326237201690674 -0.086517333984375 0.02246856689453125
18.163 0.15472412109375 0.1064605712890625 -4.208251953125 0.63037109375 0.0007222294807434082 -0.0007083415985107422 -0.08340072631835938 0.029083251953125
18.17275 0.158416748046875 0.0999298095703125 -4.15185546875 0.95361328125 0.0009220242500305176 -0.0003222525119781494 -0.07844161987304688 0.03495025634765625
18.1825 0.1674652099609375 0.093780517578125 -4.081787109375 1.266357421875 0.001365065574645996 -0.0002989768981933594 -0.07608795166015625 0.044795989990234375
18.19225 0.1719207763671875 0.0851593017578125 -3.9857177734375 1.5892333984375 0.0007196962833404541 0.00014159083366394043 -0.07348251342773438 0.050891876220703125
18.202 0.1764678955078125 0.0798492431640625 -3.865478515625 1.8955078125 0.0006082653999328613 -0.001277625560760498 -0.07117462158203125 0.057018280029296875
18.21175 0.1813201904296875 0.0719146728515625 -3.704833984375 2.208251953125 0.001002669334411621 -0.00043642520904541016 -0.065460205078125 0.0643157958984375
18.2215 0.18618011474609375 0.0632781982421875 -3.515869140625 2.497314453125 0.0002145916223526001 0.00016897916793823242 -0.058002471923828125 0.069488525390625
18.23125 0.1905975341796875 0.0561676025390625 -3.31103515625 2.7618408203125 0.000698387622833252 -0.0003351271152496338 -0.0543670654296875 0.07406234741210938
18.241 0.1934814453125 0.0466156005859375 -3.0838623046875 3.00634765625 0.00039821863174438477 -1.9863247871398926e-05 -0.04863739013671875 0.07865142822265625
18.25075 0.19570159912109375 0.0390472412109375 -2.840576171875 3.224609375 -4.131346940994263e-05 0.00021401047706604004 -0.04335784912109375 0.08452224731445312
18.2605 0.19733428955078125 0.029693603515625 -2.589111328125 3.42626953125 0.0003846883773803711 -0.0014074444770812988 -0.035945892333984375 0.08873367309570312
18.27025 0.19842529296875 0.01972198486328125 -2.332275390625 3.6224365234375 0.0008867383003234863 -0.001117706298828125 -0.028003692626953125 0.09254074096679688
18.28 0.20000457763671875 0.0100250244140625 -2.0521240234375 3.8118896484375 0.0007895231246948242 0.00012505054473876953 -0.020687103271484375 0.09546279907226562
18.28975 0.2014007568359375 0.001434326171875 -1.7587890625 3.972900390625 5.602836608886719e-06 -0.0008656680583953857 -0.0140380859375 0.09856414794921875
18.2995 0.2020416259765625 -0.0088043212890625 -1.434814453125 4.111572265625 0.00036153197288513184 -0.0007748007774353027 -0.00479888916015625 0.09901809692382812
18.30925 0.2006378173828125 -0.018341064453125 -1.09130859375 4.2109375 0.0006300806999206543 -0.00037598609924316406 0.004547119140625 0.102081298828125
18.319 0.19844818115234375 -0.02703857421875 -0.745361328125 4.273193359375 -0.0009436607360839844 0.0005119144916534424 0.01125335693359375 0.10400772094726562
18.32875 0.197418212890625 -0.03400421142578125 -0.4052734375 4.299560546875 -0.00026854872703552246 -0.0007163286209106445 0.0206451416015625 0.10441970825195312
18.3385 0.19580078125 -0.04736328125 -0.072998046875 4.2958984375 0.00026144087314605713 -0.00026741623878479004 0.03018951416015625 0.10614013671875
18.34825 0.19385528564453125 -0.05507659912109375 0.243408203125 4.28662109375 0.0005881786346435547 -6.839632987976074e-05 0.0377655029296875 0.10530853271484375
18.358 0.1914215087890625 -0.0640106201171875 0.559326171875 4.26025390625 -2.158433198928833e-05 -0.00013568997383117676 0.04730987548828125 0.10211944580078125
18.36775 0.188568115234375 -0.0724945068359375 0.882568359375 4.2109375 -0.00034308433532714844 -0.001078486442565918 0.05467987060546875 0.1009521484375
18.3775 0.1849517822265625 -0.07932281494140625 1.201904296875 4.1494140625 0.00014053285121917725 -0.00041712820529937744 0.06290435791015625 0.09906005859375
18.38725 0.18019866943359375 -0.0900726318359375 1.541748046875 4.047607421875 7.846951484680176e-05 -0.0007781982421875 0.069610595703125 0.09576416015625
18.397 0.1761627197265625 -0.0953826904296875 1.86376953125 3.9072265625 0.0003148317337036133 -0.0006120204925537109 0.0783233642578125 0.092254638671875
18.40675 0.170135498046875 -0.1033477783203125 2.18798828125 3.73828125 0.0010085105895996094 -1.4066696166992188e-05 0.087310791015625 0.0856475830078125
18.4165 0.1639404296875 -0.11090850830078125 2.465087890625 3.528564453125 0.0005030333995819092 0.00010836124420166016 0.09279632568359375 0.08171844482421875
18.42625 0.15834808349609375 -0.11803436279296875 2.711181640625 3.296630859375 0.0003166794776916504 -0.0006181299686431885 0.1017303466796875 0.07514190673828125
18.436 0.15108489990234375 -0.12335968017578125 2.927490234375 3.061279296875 0.000667572021484375 -0.0006608963012695312 0.1080322265625 0.069732666015625
18.44575 0.14350128173828125 -0.13083648681640625 3.12646484375 2.825927734375 0.0011268258094787598 9.059906005859375e-06 0.1115875244140625 0.06282806396484375
18.4555 0.13716888427734375 -0.135986328125 3.30615234375 2.585693359375 0.0016771554946899414 -0.000494837760925293 0.117156982421875 0.0540771484375
18.46525 0.1298370361328125 -0.14165496826171875 3.497802734375 2.349365234375 -0.0005862712860107422 0.0007089078426361084 0.12310791015625 0.04296875
18.475 0.12215423583984375 -0.14563751220703125 3.672119140625 2.087890625 0.0003615468740463257 8.885562419891357e-05 0.12691497802734375 0.03711700439453125
18.48475 0.11568450927734375 -0.15123748779296875 3.841064453125 1.798828125 0.00048553943634033203 -0.0006164908409118652 0.13019561767578125 0.0276641845703125
18.4945 0.1068267822265625 -0.15476226806640625 3.9716796875 1.476318359375 0.0001792311668395996 0.0010254979133605957 0.134429931640625 0.0183258056640625
18.50425 0.0981292724609375 -0.1583709716796875 4.078125 1.13623046875 0.00042811036109924316 -0.0002446174621582031 0.13446044921875 0.009063720703125
18.514 0.0915374755859375 -0.1608734130859375 4.126953125 0.79541015625 -9.581446647644043e-05 0.00013941526412963867 0.13739013671875 -0.0011749267578125
18.52375 0.08263397216796875 -0.1621856689453125 4.135986328125 0.46240234375 0.00018459558486938477 -0.0007925033569335938 0.13614654541015625 -0.01023101806640625
18.5335 0.0768280029296875 -0.16550445556640625 4.119873046875 0.152587890625 0.0007583200931549072 1.96993350982666e-05 0.1380615234375 -0.01842498779296875
18.54325 0.0677490234375 -0.1680450439453125 4.0888671875 -0.135498046875 -0.0005120337009429932 -0.0003743171691894531 0.134918212890625 -0.0283050537109375
18.553 0.05953216552734375 -0.1693267822265625 4.042236328125 -0.41943359375 0.0004831850528717041 -0.0003494173288345337 0.132110595703125 -0.0377960205078125
18.56275 0.05072021484375 -0.16876983642578125 4.001708984375 -0.6962890625 0.0005549788475036621 -0.000809788703918457 0.1299896240234375 -0.04366302490234375
18.5725 0.044342041015625 -0.16953277587890625 3.93798828125 -0.983642578125 0.0005441606044769287 -0.0004915297031402588 0.1248321533203125 -0.05330657958984375
18.58225 0.035858154296875 -0.16965484619140625 3.858154296875 -1.27490234375 0.00014832615852355957 -0.0004970133304595947 0.121002197265625 -0.05994415283203125
18.592 0.02793121337890625 -0.17075347900390625 3.7445068359375 -1.567626953125 9.676814079284668e-05 -0.0009094178676605225 0.1157684326171875 -0.06824493408203125
18.60175 0.0198822021484375 -0.1690521240234375 3.604736328125 -1.8544921875 0.00022542476654052734 -0.0007700324058532715 0.109375 -0.07430267333984375
18.6115 0.01287841796875 -0.1670379638671875 3.423828125 -2.1136474609375 -0.0002968907356262207 0.0008526444435119629 0.10526275634765625 -0.08396530151367188
18.62125 0.006256103515625 -0.16561126708984375 3.234619140625 -2.3482666015625 0.0003516077995300293 0.0003758072853088379 0.09703445434570312 -0.08824920654296875
18.631 -0.00270843505859375 -0.16492462158203125 3.0338134765625 -2.5438232421875 0.0002562403678894043 -0.0009166300296783447 0.09090805053710938 -0.09210968017578125
18.64075 -0.009033203125 -0.1636199951171875 2.8291015625 -2.722412109375 0.001052260398864746 -0.0007243156433105469 0.08531570434570312 -0.09551620483398438
18.6505 -0.01464080810546875 -0.1612701416015625 2.6309814453125 -2.8909912109375 4.124641418457031e-05 -0.0017688870429992676 0.07942962646484375 -0.10022735595703125
18.66025 -0.02410125732421875 -0.15814208984375 2.4324951171875 -3.0557861328125 0.0015714168548583984 -0.0005623102188110352 0.069976806640625 -0.10174942016601562
18.67 -0.02951812744140625 -0.155181884765625 2.226318359375 -3.2203369140625 0.000774770975112915 -0.0008387863636016846 0.06414794921875 -0.10442733764648438
18.67975 -0.03704071044921875 -0.152374267578125 2.001708984375 -3.3819580078125 -0.0003788471221923828 -0.0006548166275024414 0.056484222412109375 -0.10798263549804688
18.6895 -0.0425872802734375 -0.14987945556640625 1.7474365234375 -3.521728515625 2.2739171981811523e-05 -0.0008946657180786133 0.048297882080078125 -0.10723495483398438
