!Created with skrf (http://scikit-rf.org).
# GHz S RI R 50.0 
!freq ReS11 ImS11 ReS21 ImS21 ReS12 ImS12 ReS22 ImS22
17.5 -0.00144195556640625 -0.14615631103515625 1.3095703125 -4.515869140625 -0.0021729469299316406 0.00022470951080322266 0.10506057739257812 -0.01053619384765625
17.50975 -0.01068115234375 -0.1422576904296875 0.95849609375 -4.596923828125 -0.0010244250297546387 0.00031489133834838867 0.10637283325195312 -0.0132293701171875
17.5195 -0.01830291748046875 -0.136474609375 0.603515625 -4.647705078125 -0.0014247298240661621 -0.00030934810638427734 0.10808181762695312 -0.014896392822265625
17.52925 -0.0282440185546875 -0.133026123046875 0.2509765625 -4.68310546875 -0.0001659393310546875 9.874999523162842e-05 0.108428955078125 -0.018829345703125
17.539 -0.03472900390625 -0.127044677734375 -0.095703125 -4.68505859375 -0.0005609393119812012 8.046627044677734e-06 0.109344482421875 -0.0240020751953125
17.54875 -0.04224395751953125 -0.1225738525390625 -0.440185546875 -4.65478515625 -0.002349257469177246 0.0002231597900390625 0.10993194580078125 -0.026042938232421875
17.5585 -0.052154541015625 -0.11562347412109375 -0.7822265625 -4.619384765625 -0.002259373664855957 0.0012791156768798828 0.11034774780273438 -0.029140472412109375
17.56825 -0.05756378173828125 -0.10993194580078125 -1.11376953125 -4.564208984375 -0.0014905333518981934 0.0011382699012756348 0.11012649536132812 -0.03299713134765625
17.578 -0.0636138916015625 -0.1049346923828125 -1.466796875 -4.481689453125 -0.0008029937744140625 0.00038501620292663574 0.11116790771484375 -0.03696441650390625
17.58775 -0.0693817138671875 -0.0988922119140625 -1.814453125 -4.363037109375 -0.001879572868347168 0.0008745789527893066 0.109527587890625 -0.041263580322265625
17.5975 -0.07373809814453125 -0.09096527099609375 -2.15966796875 -4.20703125 -0.0005193650722503662 0.0003209710121154785 0.10961532592773438 -0.045024871826171875
17.60725 -0.07952880859375 -0.086883544921875 -2.474853515625 -4.01611328125 -0.0016207098960876465 0.001389920711517334 0.10760116577148438 -0.047000885009765625
17.617 -0.08365631103515625 -0.0761566162109375 -2.7705078125 -3.80322265625 -0.0010299086570739746 0.0011889338493347168 0.10782241821289062 -0.052234649658203125
17.62675 -0.0867156982421875 -0.069000244140625 -3.03662109375 -3.56689453125 -0.0010259151458740234 0.0006234645843505859 0.10518646240234375 -0.05584716796875
17.6365 -0.090850830078125 -0.0606842041015625 -3.27734375 -3.322265625 -0.0016044378280639648 0.0017039775848388672 0.1038360595703125 -0.05950164794921875
17.64625 -0.09461212158203125 -0.051788330078125 -3.490478515625 -3.07861328125 -0.0005618929862976074 0.0017067790031433105 0.10063934326171875 -0.06357192993164062
17.656 -0.09661865234375 -0.0464630126953125 -3.697509765625 -2.833740234375 -0.0012070536613464355 0.0018432140350341797 0.09864425659179688 -0.06817626953125
17.66575 -0.098846435546875 -0.03594970703125 -3.904052734375 -2.59130859375 -0.00040471553802490234 0.0015790462493896484 0.09426498413085938 -0.07155609130859375
17.6755 -0.10146331787109375 -0.02825164794921875 -4.09375 -2.319580078125 -0.0009454488754272461 0.0011731386184692383 0.0914154052734375 -0.07468032836914062
17.68525 -0.10039520263671875 -0.0196533203125 -4.2998046875 -2.04296875 0.00048601627349853516 0.0015488862991333008 0.0873870849609375 -0.07844161987304688
17.695 -0.10153579711914062 -0.0113983154296875 -4.484375 -1.72021484375 -0.0016048550605773926 0.0016127824783325195 0.08563995361328125 -0.08143234252929688
17.70475 -0.10097122192382812 -0.00226593017578125 -4.63818359375 -1.35888671875 -0.0011050701141357422 0.0014028549194335938 0.08086776733398438 -0.08329391479492188
17.7145 -0.1030426025390625 0.0054473876953125 -4.760009765625 -0.96875 -0.000607907772064209 0.0001538097858428955 0.07537078857421875 -0.08696365356445312
17.72425 -0.10127639770507812 0.012996673583984375 -4.82080078125 -0.574462890625 -6.735324859619141e-06 0.0012724995613098145 0.07217788696289062 -0.08960723876953125
17.734 -0.10030364990234375 0.02117919921875 -4.8369140625 -0.18701171875 -0.00017511844635009766 0.001554727554321289 0.0669708251953125 -0.0923309326171875
17.74375 -0.09998703002929688 0.028575897216796875 -4.802978515625 0.179443359375 -0.00033545494079589844 0.001498579978942871 0.063446044921875 -0.09441375732421875
17.7535 -0.09673309326171875 0.03649139404296875 -4.762451171875 0.525390625 -0.0010727643966674805 0.0014435052871704102 0.059360504150390625 -0.09665298461914062
17.76325 -0.09417343139648438 0.043109893798828125 -4.716064453125 0.853271484375 0.0003491044044494629 0.0008040070533752441 0.05368804931640625 -0.097381591796875
17.773 -0.09299850463867188 0.05094146728515625 -4.658447265625 1.17431640625 -0.00015662610530853271 0.00040009617805480957 0.0494384765625 -0.09923934936523438
17.78275 -0.08896255493164062 0.057949066162109375 -4.585693359375 1.50732421875 -0.0006014704704284668 0.0012750625610351562 0.04522705078125 -0.09851837158203125
17.7925 -0.085052490234375 0.06377792358398438 -4.506103515625 1.848876953125 -0.00020688772201538086 0.0005888938903808594 0.040771484375 -0.10068893432617188
17.80225 -0.08108139038085938 0.06896591186523438 -4.392333984375 2.208984375 0.0005501508712768555 -0.00019863247871398926 0.036388397216796875 -0.10033035278320312
17.812 -0.07611083984375 0.07767868041992188 -4.2392578125 2.5673828125 -0.0007377862930297852 0.0008305609226226807 0.0305633544921875 -0.09941482543945312
17.82175 -0.0708160400390625 0.08429336547851562 -4.04345703125 2.912109375 0.0007842183113098145 0.0007166266441345215 0.0273895263671875 -0.09862899780273438
17.8315 -0.06759262084960938 0.09010696411132812 -3.8056640625 3.23779296875 0.00022558867931365967 0.0001993030309677124 0.02178955078125 -0.09859466552734375
17.84125 -0.0619354248046875 0.095001220703125 -3.54443359375 3.53759765625 0.00029850006103515625 0.0005975961685180664 0.015380859375 -0.09729766845703125
17.851 -0.054866790771484375 0.10015869140625 -3.2496337890625 3.7940673828125 -0.000490337610244751 0.0008047521114349365 0.011898040771484375 -0.0966033935546875
17.86075 -0.049709320068359375 0.10500717163085938 -2.962158203125 4.025146484375 0.0003765523433685303 0.0004520118236541748 0.006366729736328125 -0.094085693359375
17.8705 -0.04480743408203125 0.11046218872070312 -2.66357421875 4.240966796875 0.0014498233795166016 0.0003758668899536133 0.00218963623046875 -0.09376907348632812
17.88025 -0.039154052734375 0.114715576171875 -2.35693359375 4.447998046875 -9.638071060180664e-05 0.001218557357788086 -0.00415802001953125 -0.09125518798828125
17.89 -0.032138824462890625 0.1186370849609375 -2.045654296875 4.64404296875 0.0012671947479248047 0.0013775825500488281 -0.007122039794921875 -0.08973312377929688
17.89975 -0.02664947509765625 0.12073516845703125 -1.68896484375 4.81982421875 0.0010385513305664062 0.0005671977996826172 -0.010097503662109375 -0.08935546875
17.9095 -0.02154541015625 0.12386703491210938 -1.31396484375 4.983642578125 0.0010685920715332031 0.0007621049880981445 -0.01467132568359375 -0.0870361328125
17.91925 -0.013523101806640625 0.12426376342773438 -0.9140625 5.097412109375 0.0014117956161499023 0.0015429258346557617 -0.019268035888671875 -0.08399200439453125
17.929 -0.007049560546875 0.1275787353515625 -0.50830078125 5.18701171875 0.00046539306640625 5.418062210083008e-05 -0.02225494384765625 -0.081878662109375
17.93875 -0.000579833984375 0.129241943359375 -0.0849609375 5.224609375 0.0009539127349853516 0.0008642077445983887 -0.025447845458984375 -0.07877349853515625
17.9485 0.00643157958984375 0.13089752197265625 0.3212890625 5.223876953125 -0.0007840394973754883 0.0008857250213623047 -0.029483795166015625 -0.07465362548828125
17.95825 0.0125885009765625 0.1323394775390625 0.73095703125 5.19580078125 0.0010944604873657227 0.0012066364288330078 -0.030792236328125 -0.07207870483398438
17.968 0.019378662109375 0.1339263916015625 1.126953125 5.137939453125 0.0011230707168579102 0.0008298158645629883 -0.03559112548828125 -0.06980133056640625
17.97775 0.02577972412109375 0.1325531005859375 1.515380859375 5.05615234375 0.0012367963790893555 0.0016385316848754883 -0.03961944580078125 -0.06426239013671875
17.9875 0.03307342529296875 0.133392333984375 1.9228515625 4.953369140625 0.0005616545677185059 0.0006959438323974609 -0.0406646728515625 -0.06290817260742188
17.99725 0.03874969482421875 0.1327362060546875 2.32275390625 4.82421875 0.0010308623313903809 0.0001819133758544922 -0.043361663818359375 -0.057849884033203125
18.007 0.0465087890625 0.13246917724609375 2.72314453125 4.651611328125 2.899765968322754e-05 0.00036013126373291016 -0.0463409423828125 -0.053882598876953125
18.01675 0.05344390869140625 0.13137054443359375 3.112060546875 4.43359375 0.000819087028503418 0.0002536177635192871 -0.04981231689453125 -0.051082611083984375
18.0265 0.05938720703125 0.130340576171875 3.490234375 4.18212890625 0.0003202855587005615 6.133317947387695e-05 -0.05289459228515625 -0.0440826416015625
18.03625 0.066864013671875 0.13077545166015625 3.836669921875 3.88037109375 4.172325134277344e-06 -0.0007505416870117188 -0.05359649658203125 -0.04221343994140625
18.046 0.07309722900390625 0.12834930419921875 4.150390625 3.548095703125 -2.9206275939941406e-06 0.0007191598415374756 -0.0541839599609375 -0.03690338134765625
18.05575 0.0785369873046875 0.12368011474609375 4.41748046875 3.205810546875 0.0005049705505371094 0.0006592273712158203 -0.05560302734375 -0.033023834228515625
18.0655 0.08467864990234375 0.12393951416015625 4.65625 2.846923828125 0.0009080171585083008 0.0005943179130554199 -0.0595703125 -0.030010223388671875
18.07525 0.0901947021484375 0.1205291748046875 4.87060546875 2.468994140625 0.00041368603706359863 9.08970832824707e-05 -0.060314178466796875 -0.02490997314453125
18.085 0.09798431396484375 0.119476318359375 5.067626953125 2.076904296875 0.0003241896629333496 0.0005891621112823486 -0.061153411865234375 -0.019382476806640625
18.09475 0.10292816162109375 0.11414337158203125 5.239501953125 1.669677734375 -0.00038495659828186035 3.071129322052002e-05 -0.0604095458984375 -0.016292572021484375
18.1045 0.10726165771484375 0.113128662109375 5.375 1.241455078125 0.0014248490333557129 0.00029987096786499023 -0.062206268310546875 -0.009014129638671875
18.11425 0.11254119873046875 0.10935211181640625 5.4736328125 0.787841796875 0.0010155439376831055 0.0004343986511230469 -0.060451507568359375 -0.005496978759765625
18.124 0.1166839599609375 0.1058807373046875 5.52978515625 0.32958984375 0.001476883888244629 -0.0008046627044677734 -0.05991363525390625 0.0009613037109375
18.13375 0.12317657470703125 0.10163116455078125 5.540283203125 -0.123779296875 0.0006816089153289795 0.00028780102729797363 -0.0587310791015625 0.0045795440673828125
18.1435 0.12673187255859375 0.097808837890625 5.500244140625 -0.579833984375 0.0010165572166442871 -0.0004781484603881836 -0.05933570861816406 0.011455535888671875
18.15325 0.13199615478515625 0.09204864501953125 5.42822265625 -1.031005859375 0.0005739331245422363 0.0005928277969360352 -0.05848121643066406 0.01517486572265625
18.163 0.1373138427734375 0.08737945556640625 5.31591796875 -1.460693359375 0.00015209615230560303 -0.00031076371669769287 -0.05403900146484375 0.022653579711914062
18.17275 0.1411895751953125 0.08385467529296875 5.173828125 -1.88330078125 0.00043016672134399414 -0.0015796422958374023 -0.05312156677246094 0.026247024536132812
18.1825 0.14675140380859375 0.07784271240234375 5.01416015625 -2.291015625 0.00010699033737182617 -0.0008993446826934814 -0.0492706298828125 0.03242683410644531
18.19225 0.14948272705078125 0.07199859619140625 4.81640625 -2.698974609375 0.0001967698335647583 -0.00025163590908050537 -0.04814910888671875 0.036525726318359375
18.202 0.1550140380859375 0.068084716796875 4.58544921875 -3.07763671875 0.0006971955299377441 -0.0002041459083557129 -0.046466827392578125 0.041210174560546875
18.21175 0.158416748046875 0.0623779296875 4.3134765625 -3.45556640625 3.319978713989258e-05 7.05718994140625e-05 -0.042865753173828125 0.04677581787109375
18.2215 0.1616058349609375 0.05519866943359375 3.99462890625 -3.796630859375 0.000751495361328125 -5.662441253662109e-06 -0.039134979248046875 0.05108833312988281
18.23125 0.16544342041015625 0.0509185791015625 3.666748046875 -4.10546875 0.0012593865394592285 -0.0007379055023193359 -0.037265777587890625 0.053256988525390625
18.241 0.16864013671875 0.043731689453125 3.303955078125 -4.3681640625 0.0008191466331481934 0.00016438961029052734 -0.031589508056640625 0.05751228332519531
18.25075 0.17235565185546875 0.03643798828125 2.929931640625 -4.60009765625 0.0011906623840332031 -0.00018805265426635742 -0.0284423828125 0.060009002685546875
18.2605 0.17346954345703125 0.032196044921875 2.546875 -4.798583984375 0.00099259614944458 -0.0007418394088745117 -0.022754669189453125 0.06302642822265625
18.27025 0.17591094970703125 0.024200439453125 2.161376953125 -4.971435546875 0.00033730268478393555 0.00023433566093444824 -0.016387939453125 0.06507110595703125
18.28 0.1778564453125 0.016143798828125 1.752685546875 -5.13037109375 0.00048866868019104 -0.0004094839096069336 -0.01233673095703125 0.06896591186523438
18.28975 0.1802978515625 0.00797271728515625 1.3427734375 -5.248291015625 -0.0003203153610229492 -0.0016758441925048828 -0.006061553955078125 0.0724029541015625
18.2995 0.18071746826171875 0.00115203857421875 0.907958984375 -5.33447265625 -0.0006690621376037598 -0.00043261051177978516 -0.000774383544921875 0.07138824462890625
18.30925 0.1798858642578125 -0.0064849853515625 0.4599609375 -5.37451171875 0.0011048316955566406 -0.0015866756439208984 0.00653076171875 0.07648468017578125
18.319 0.181243896484375 -0.0136871337890625 0.01708984375 -5.376708984375 -0.0002740621566772461 -0.0006017386913299561 0.011356353759765625 0.07557296752929688
18.32875 0.1822357177734375 -0.02008056640625 -0.413330078125 -5.335693359375 3.230571746826172e-05 -0.0004650503396987915 0.01842498779296875 0.07504653930664062
18.3385 0.18017578125 -0.02947235107421875 -0.835205078125 -5.254638671875 -0.0009667873382568359 0.0003838539123535156 0.0246734619140625 0.07684707641601562
18.34825 0.17986297607421875 -0.03789520263671875 -1.238037109375 -5.160888671875 2.5212764739990234e-05 -0.00016416609287261963 0.0313873291015625 0.0769500732421875
18.358 0.17938995361328125 -0.0445556640625 -1.63037109375 -5.030517578125 -0.0003782510757446289 -0.0009791851043701172 0.038257598876953125 0.07550430297851562
18.36775 0.17710113525390625 -0.0520782470703125 -2.021728515625 -4.873779296875 0.000624537467956543 -0.0010195374488830566 0.043361663818359375 0.07469558715820312
18.3775 0.17617034912109375 -0.0590972900390625 -2.394287109375 -4.703857421875 0.0001327991485595703 -0.0018323659896850586 0.050018310546875 0.07535552978515625
18.38725 0.1750946044921875 -0.06775665283203125 -2.77001953125 -4.48486328125 -0.000265657901763916 -0.0005016922950744629 0.05523681640625 0.07159423828125
18.397 0.1715240478515625 -0.0738677978515625 -3.115234375 -4.2236328125 0.0004140138626098633 -0.0009683370590209961 0.06121826171875 0.0687713623046875
18.40675 0.1683197021484375 -0.080780029296875 -3.44775390625 -3.93603515625 0.0007879137992858887 -0.00043088197708129883 0.067291259765625 0.0655364990234375
18.4165 0.16347503662109375 -0.08962249755859375 -3.728759765625 -3.621337890625 0.00014835596084594727 0.0006301701068878174 0.0709228515625 0.06209564208984375
18.42625 0.1602783203125 -0.095916748046875 -3.972900390625 -3.28173828125 -0.0005219578742980957 -0.00042504072189331055 0.0776519775390625 0.057891845703125
18.436 0.15549468994140625 -0.10314178466796875 -4.1806640625 -2.9375 0.001393735408782959 -0.0004108548164367676 0.08469390869140625 0.05530548095703125
18.44575 0.1497039794921875 -0.109619140625 -4.370361328125 -2.59326171875 -0.0005207955837249756 -0.00030928850173950195 0.08615875244140625 0.047576904296875
18.4555 0.14508819580078125 -0.11611175537109375 -4.5322265625 -2.243896484375 0.0005103349685668945 0.0007553696632385254 0.09104156494140625 0.042236328125
18.46525 0.13921356201171875 -0.12339019775390625 -4.684326171875 -1.8876953125 7.104873657226562e-05 -0.0007595717906951904 0.09503173828125 0.03460693359375
18.475 0.1327056884765625 -0.12779998779296875 -4.8193359375 -1.516357421875 0.000352516770362854 -0.00039899349212646484 0.099029541015625 0.03124237060546875
18.48475 0.12769317626953125 -0.13421630859375 -4.91796875 -1.121337890625 -0.0009777545928955078 -0.0011930465698242188 0.1013946533203125 0.0230865478515625
18.4945 0.1197357177734375 -0.13922119140625 -4.974609375 -0.70556640625 0.0005054473876953125 -0.0008582770824432373 0.10470962524414062 0.015216827392578125
18.50425 0.113037109375 -0.1457672119140625 -4.99462890625 -0.28173828125 0.0011519193649291992 -0.0013312101364135742 0.1063995361328125 0.00916290283203125
18.514 0.106842041015625 -0.1500701904296875 -4.958984375 0.13037109375 -9.867548942565918e-05 0.0004239678382873535 0.10717010498046875 0.0028533935546875
18.52375 0.09781646728515625 -0.15203857421875 -4.875244140625 0.52587890625 0.0006817877292633057 -0.0006188750267028809 0.10735702514648438 -0.004657745361328125
18.5335 0.0928955078125 -0.15903472900390625 -4.763427734375 0.887939453125 -1.0669231414794922e-05 -0.0006693899631500244 0.108856201171875 -0.0110931396484375
18.54325 0.0855255126953125 -0.16306304931640625 -4.6376953125 1.227783203125 0.0021216869354248047 -0.0006238222122192383 0.1080474853515625 -0.01732635498046875
18.553 0.07709503173828125 -0.16546630859375 -4.491943359375 1.549560546875 0.00016070902347564697 -0.00040622055530548096 0.10544967651367188 -0.024066925048828125
18.56275 0.0696563720703125 -0.166595458984375 -4.348388671875 1.8681640625 0.00010558962821960449 -0.00028024613857269287 0.1065216064453125 -0.029693603515625
18.5725 0.06008148193359375 -0.168731689453125 -4.176513671875 2.176025390625 0.0006283223628997803 -0.0004013478755950928 0.10258102416992188 -0.03701019287109375
18.58225 0.05243682861328125 -0.1708221435546875 -3.989013671875 2.487548828125 0.00023096799850463867 -0.0010113120079040527 0.0991058349609375 -0.04271697998046875
18.592 0.0440673828125 -0.17282867431640625 -3.7569580078125 2.7822265625 0.0010012388229370117 0.00011813640594482422 0.09672927856445312 -0.048671722412109375
18.60175 0.0354156494140625 -0.1722564697265625 -3.505615234375 3.062744140625 0.00028383731842041016 0.0007444620132446289 0.09271240234375 -0.05328369140625
18.6115 0.0271453857421875 -0.17116546630859375 -3.22119140625 3.3004150390625 0.0006154179573059082 0.00024390220642089844 0.08951950073242188 -0.060436248779296875
18.62125 0.019134521484375 -0.17237091064453125 -2.9276123046875 3.5076904296875 0.00022014975547790527 -0.00025913119316101074 0.0831756591796875 -0.06368637084960938
18.631 0.01059722900390625 -0.1717681884765625 -2.6334228515625 3.66650390625 0.0006623268127441406 -0.0010140538215637207 0.08025360107421875 -0.0686187744140625
18.64075 0.00250244140625 -0.17120361328125 -2.3360595703125 3.807861328125 0.0006914436817169189 -0.0001437366008758545 0.07512283325195312 -0.07218551635742188
18.6505 -0.00428009033203125 -0.16991424560546875 -2.047119140625 3.9312744140625 0.00043523311614990234 -0.0013387203216552734 0.069915771484375 -0.07610702514648438
18.66025 -0.01397705078125 -0.16834259033203125 -1.755859375 4.044677734375 -0.0002574622631072998 0.00018332898616790771 0.06303787231445312 -0.078887939453125
18.67 -0.01978302001953125 -0.16536712646484375 -1.455810546875 4.142822265625 2.16066837310791e-06 0.0003299415111541748 0.060577392578125 -0.07922744750976562
18.67975 -0.0306854248046875 -0.163543701171875 -1.144287109375 4.234130859375 0.00031054019927978516 -0.0011830925941467285 0.052639007568359375 -0.0813751220703125
18.6895 -0.03748321533203125 -0.15935516357421875 -0.81103515625 4.293212890625 0.000432819128036499 -0.0007283687591552734 0.048603057861328125 -0.0829925537109375
