!Created with skrf (http://scikit-rf.org).
# GHz S RI R 50.0 
!freq ReS11 ImS11 ReS21 ImS21 ReS12 ImS12 ReS22 ImS22
17.5 0.004302978515625 -0.15181732177734375 4.042724609375 -2.017822265625 -0.001837313175201416 -5.364418029785156e-06 0.11056900024414062 -0.002597808837890625
17.50975 -0.0063018798828125 -0.1488189697265625 3.8726806640625 -2.322998046875 -0.00041091442108154297 0.0006203353404998779 0.11313247680664062 -0.00543975830078125
17.5195 -0.01413726806640625 -0.14333343505859375 3.6678466796875 -2.60986328125 -0.0018633604049682617 -0.0005452632904052734 0.11528778076171875 -0.007495880126953125
17.52925 -0.0232391357421875 -0.1394805908203125 3.4583740234375 -2.8868408203125 -0.0006150007247924805 0.0006213486194610596 0.11611557006835938 -0.013263702392578125
17.539 -0.0297393798828125 -0.13330078125 3.226806640625 -3.13427734375 -0.002172231674194336 -0.00015163421630859375 0.11705780029296875 -0.01666259765625
17.54875 -0.039459228515625 -0.12953948974609375 2.9805908203125 -3.359375 -0.0014286041259765625 0.0008587837219238281 0.11912918090820312 -0.020763397216796875
17.5585 -0.05046844482421875 -0.1242218017578125 2.7266845703125 -3.5806884765625 -0.0007122159004211426 0.0010799169540405273 0.12057113647460938 -0.025028228759765625
17.56825 -0.05574798583984375 -0.11932373046875 2.464599609375 -3.781494140625 -0.0021311044692993164 0.0007872581481933594 0.12068939208984375 -0.029956817626953125
17.578 -0.0630035400390625 -0.1120452880859375 2.1663818359375 -3.9720458984375 -0.0007409155368804932 0.0002016127109527588 0.12152099609375 -0.03481292724609375
17.58775 -0.06835174560546875 -0.10747528076171875 1.85546875 -4.14501953125 -0.00035691261291503906 0.0004197061061859131 0.11980056762695312 -0.0383758544921875
17.5975 -0.073822021484375 -0.10005950927734375 1.50732421875 -4.28564453125 -0.001289665699005127 0.0010237693786621094 0.120330810546875 -0.044116973876953125
17.60725 -0.0792694091796875 -0.0941314697265625 1.156982421875 -4.384033203125 -0.0011836886405944824 0.0014789104461669922 0.11874771118164062 -0.048274993896484375
17.617 -0.08467864990234375 -0.08518218994140625 0.806396484375 -4.4375 -0.0008056461811065674 0.0006465911865234375 0.11679840087890625 -0.05257415771484375
17.62675 -0.0900115966796875 -0.0771484375 0.458984375 -4.46533203125 -0.0008472204208374023 0.0010662078857421875 0.11639404296875 -0.05712127685546875
17.6365 -0.09332275390625 -0.06890869140625 0.12744140625 -4.458984375 8.875131607055664e-05 -0.0002656877040863037 0.1143798828125 -0.06133270263671875
17.64625 -0.09893035888671875 -0.06060028076171875 -0.1845703125 -4.44384765625 -6.0498714447021484e-05 0.0010938048362731934 0.11112594604492188 -0.06671905517578125
17.656 -0.10005950927734375 -0.053466796875 -0.48876953125 -4.42138671875 -0.000489354133605957 0.0018154382705688477 0.10517501831054688 -0.07106399536132812
17.66575 -0.10204315185546875 -0.04413604736328125 -0.796630859375 -4.396240234375 -0.0003447234630584717 0.0007561445236206055 0.1037139892578125 -0.0754241943359375
17.6755 -0.105804443359375 -0.034912109375 -1.1123046875 -4.349365234375 -0.00023159384727478027 0.0004643648862838745 0.0998687744140625 -0.07883071899414062
17.68525 -0.1067962646484375 -0.0257110595703125 -1.440185546875 -4.305419921875 0.0004633665084838867 0.0015388727188110352 0.0955352783203125 -0.08341598510742188
17.695 -0.108489990234375 -0.01741790771484375 -1.791015625 -4.213623046875 -0.0002461075782775879 0.001410067081451416 0.09280776977539062 -0.08786773681640625
17.70475 -0.10836029052734375 -0.007450103759765625 -2.147705078125 -4.075439453125 -0.0007313191890716553 0.0007979869842529297 0.08717727661132812 -0.09138107299804688
17.7145 -0.10827255249023438 0.001544952392578125 -2.496826171875 -3.893310546875 -0.0017260909080505371 0.0016762018203735352 0.08348464965820312 -0.0952911376953125
17.72425 -0.10852813720703125 0.008922576904296875 -2.808349609375 -3.664794921875 -0.0006520748138427734 0.0013650059700012207 0.07768630981445312 -0.0987091064453125
17.734 -0.1089630126953125 0.017059326171875 -3.08203125 -3.40673828125 -0.0002598762512207031 0.001349329948425293 0.072021484375 -0.1019134521484375
17.74375 -0.108734130859375 0.024845123291015625 -3.3046875 -3.13671875 -0.00020194053649902344 0.002365708351135254 0.06749343872070312 -0.10410690307617188
17.7535 -0.10608291625976562 0.03343963623046875 -3.505859375 -2.87109375 -0.00023216009140014648 0.0010815262794494629 0.06339263916015625 -0.10570144653320312
17.76325 -0.10260391235351562 0.04296875 -3.695068359375 -2.621337890625 2.1159648895263672e-05 0.0007365047931671143 0.05718231201171875 -0.10617828369140625
17.773 -0.10230255126953125 0.049915313720703125 -3.87060546875 -2.367919921875 0.0007698535919189453 0.0015869140625 0.0524444580078125 -0.11016845703125
17.78275 -0.09937667846679688 0.057697296142578125 -4.042236328125 -2.095458984375 -8.213520050048828e-05 0.0018764138221740723 0.0465240478515625 -0.10911178588867188
17.7925 -0.09377670288085938 0.06315994262695312 -4.2197265625 -1.808837890625 0.00010606646537780762 0.0008668601512908936 0.040569305419921875 -0.11161422729492188
17.80225 -0.0902252197265625 0.07164382934570312 -4.385498046875 -1.4892578125 3.6776065826416016e-05 0.0014008879661560059 0.035564422607421875 -0.1107940673828125
17.812 -0.08544921875 0.07999038696289062 -4.521240234375 -1.142333984375 0.0005553960800170898 0.0013707876205444336 0.029636383056640625 -0.10992813110351562
17.82175 -0.079498291015625 0.08613204956054688 -4.61865234375 -0.7734375 0.0005667209625244141 0.0017006397247314453 0.023952484130859375 -0.10886383056640625
17.8315 -0.07477569580078125 0.09337234497070312 -4.67041015625 -0.39111328125 0.0007420182228088379 0.00042510032653808594 0.018817901611328125 -0.1086578369140625
17.84125 -0.0710296630859375 0.0981292724609375 -4.689453125 -0.021484375 0.0007712841033935547 -0.00031572580337524414 0.01111602783203125 -0.10715484619140625
17.851 -0.0631561279296875 0.10544586181640625 -4.654052734375 0.34033203125 -0.00044777989387512207 0.0006125271320343018 0.007129669189453125 -0.10846328735351562
17.86075 -0.05884552001953125 0.10965347290039062 -4.6171875 0.68359375 -0.00010716915130615234 0.0010690093040466309 0.002162933349609375 -0.10300445556640625
17.8705 -0.05147552490234375 0.11545181274414062 -4.55615234375 1.0185546875 -0.0001627504825592041 0.0006895661354064941 -0.0042266845703125 -0.10297775268554688
17.88025 -0.04553985595703125 0.12177658081054688 -4.4873046875 1.354248046875 0.0005480647087097168 0.0009914636611938477 -0.008632659912109375 -0.10202407836914062
17.89 -0.03968048095703125 0.126434326171875 -4.404052734375 1.689697265625 0.0006809830665588379 0.0006861090660095215 -0.013427734375 -0.0977020263671875
17.89975 -0.0323333740234375 0.1298980712890625 -4.28466796875 2.043212890625 0.0022126436233520508 0.0005135536193847656 -0.01985931396484375 -0.09598541259765625
17.9095 -0.02585601806640625 0.13256072998046875 -4.13623046875 2.399658203125 -0.0006729960441589355 0.0014151334762573242 -0.02434539794921875 -0.0933990478515625
17.91925 -0.0172576904296875 0.1349945068359375 -3.9444580078125 2.73681640625 -0.00027745962142944336 0.0013628005981445312 -0.02783203125 -0.09038925170898438
17.929 -0.010833740234375 0.1381072998046875 -3.7216796875 3.05810546875 0.0005526542663574219 0.001360774040222168 -0.03139495849609375 -0.0875396728515625
17.93875 -0.00269317626953125 0.13976287841796875 -3.4576416015625 3.349365234375 0.0010515451431274414 0.0005666613578796387 -0.034702301025390625 -0.08246612548828125
17.9485 0.002960205078125 0.1404876708984375 -3.180908203125 3.603271484375 0.0002695322036743164 0.0010454654693603516 -0.038448333740234375 -0.07893753051757812
17.95825 0.0101318359375 0.14167022705078125 -2.8934326171875 3.8406982421875 0.0006496310234069824 -6.514787673950195e-05 -0.041049957275390625 -0.07539749145507812
17.968 0.01904296875 0.1426544189453125 -2.602294921875 4.04638671875 0.0007295310497283936 0.00017845630645751953 -0.04522705078125 -0.07175064086914062
17.97775 0.02707672119140625 0.14288330078125 -2.300048828125 4.24267578125 0.0012954473495483398 0.0010046958923339844 -0.048946380615234375 -0.068695068359375
17.9875 0.03595733642578125 0.14371490478515625 -1.9736328125 4.432373046875 0.002441883087158203 0.0011311769485473633 -0.051448822021484375 -0.06291580200195312
17.99725 0.042816162109375 0.14273834228515625 -1.63037109375 4.607177734375 0.0005657672882080078 0.0006952285766601562 -0.054172515869140625 -0.05762481689453125
18.007 0.04975128173828125 0.1399383544921875 -1.256591796875 4.75146484375 0.0009863972663879395 -0.0006147027015686035 -0.05527496337890625 -0.054622650146484375
18.01675 0.0588836669921875 0.14095306396484375 -0.863037109375 4.852783203125 0.0010238289833068848 -0.0003485679626464844 -0.05893707275390625 -0.048305511474609375
18.0265 0.065673828125 0.1395111083984375 -0.4521484375 4.92529296875 0.00018852949142456055 9.247660636901855e-05 -0.0633087158203125 -0.04341888427734375
18.03625 0.07221221923828125 0.1394805908203125 -0.037109375 4.941650390625 8.168816566467285e-05 0.0007443428039550781 -0.06328582763671875 -0.036808013916015625
18.046 0.07894134521484375 0.13565826416015625 0.3720703125 4.914306640625 0.0010946989059448242 0.0002275705337524414 -0.06433486938476562 -0.032245635986328125
18.05575 0.0857696533203125 0.13189697265625 0.753662109375 4.86181640625 0.001431882381439209 0.00018340349197387695 -0.06628036499023438 -0.026744842529296875
18.0655 0.09246826171875 0.13086700439453125 1.123779296875 4.77197265625 0.0006471872329711914 -3.6776065826416016e-05 -0.06958389282226562 -0.022106170654296875
18.07525 0.09989166259765625 0.127227783203125 1.490234375 4.66455078125 0.0011968016624450684 -0.00033360719680786133 -0.06944656372070312 -0.01694488525390625
18.085 0.10649871826171875 0.12311553955078125 1.8544921875 4.539306640625 -9.697675704956055e-05 0.0006273090839385986 -0.0693359375 -0.012176513671875
18.09475 0.110870361328125 0.12009429931640625 2.212158203125 4.389892578125 0.00044271349906921387 0.00037974119186401367 -0.06710052490234375 -0.007328033447265625
18.1045 0.11905670166015625 0.1154327392578125 2.560791015625 4.208984375 0.0005985796451568604 -3.266334533691406e-05 -0.068603515625 -0.000339508056640625
18.11425 0.123321533203125 0.11257171630859375 2.904541015625 3.9853515625 0.0008195340633392334 -0.0003877580165863037 -0.06719589233398438 0.00322723388671875
18.124 0.12567138671875 0.1074676513671875 3.220703125 3.7314453125 0.0005327463150024414 -0.0005387663841247559 -0.06540679931640625 0.01020050048828125
18.13375 0.13265228271484375 0.10292816162109375 3.51025390625 3.455810546875 0.0013640522956848145 -0.00020265579223632812 -0.064239501953125 0.01456451416015625
18.1435 0.13726043701171875 0.09687042236328125 3.764404296875 3.148193359375 0.0007521212100982666 -0.00027748942375183105 -0.06346893310546875 0.023357391357421875
18.15325 0.142852783203125 0.0918121337890625 3.99462890625 2.822998046875 0.0013930797576904297 -0.00025916099548339844 -0.06257247924804688 0.028156280517578125
18.163 0.14699554443359375 0.08502197265625 4.192626953125 2.49072265625 0.0008090436458587646 -0.00046494603157043457 -0.05912971496582031 0.034149169921875
18.17275 0.1511077880859375 0.07970428466796875 4.361328125 2.147705078125 0.00029011070728302 -0.0002610534429550171 -0.053646087646484375 0.037837982177734375
18.1825 0.15679168701171875 0.07372283935546875 4.512939453125 1.800537109375 0.00040300190448760986 2.2038817405700684e-05 -0.05142974853515625 0.044002532958984375
18.19225 0.1594085693359375 0.066497802734375 4.643798828125 1.433349609375 -2.8908252716064453e-05 0.00041288137435913086 -0.047405242919921875 0.04881858825683594
18.202 0.163787841796875 0.062713623046875 4.73681640625 1.06396484375 0.00024597346782684326 -0.00022482872009277344 -0.046306610107421875 0.05503082275390625
18.21175 0.1663360595703125 0.055419921875 4.802734375 0.66796875 0.0002599358558654785 0.0005010366439819336 -0.03939056396484375 0.05788421630859375
18.2215 0.1700897216796875 0.04793548583984375 4.82568359375 0.274169921875 -0.00015223026275634766 -0.0003820657730102539 -0.03474617004394531 0.060817718505859375
18.23125 0.17375946044921875 0.0418853759765625 4.81982421875 -0.111328125 0.0007179081439971924 -0.000942617654800415 -0.03238868713378906 0.061656951904296875
18.241 0.1754302978515625 0.03597259521484375 4.770263671875 -0.48828125 0.0004761219024658203 0.0002720654010772705 -0.027614593505859375 0.0687408447265625
18.25075 0.17574310302734375 0.027740478515625 4.697021484375 -0.85498046875 -0.0004393458366394043 -0.0006211996078491211 -0.021732330322265625 0.07043075561523438
18.2605 0.17786407470703125 0.0222320556640625 4.597900390625 -1.207275390625 0.0005245804786682129 -0.00037282705307006836 -0.016551971435546875 0.07274246215820312
18.27025 0.17809295654296875 0.014892578125 4.48388671875 -1.55615234375 0.0005979239940643311 0.00012189149856567383 -0.0097808837890625 0.07634735107421875
18.28 0.1795654296875 0.0066680908203125 4.3525390625 -1.90478515625 -0.0004214644432067871 -0.0012278556823730469 -0.003986358642578125 0.07816314697265625
18.28975 0.1807403564453125 -0.0006866455078125 4.184326171875 -2.235107421875 0.0008136630058288574 -0.000551074743270874 0.002521514892578125 0.08105850219726562
18.2995 0.1810455322265625 -0.00791168212890625 3.9832763671875 -2.552490234375 0.0011048316955566406 -0.0003590583801269531 0.008625030517578125 0.078216552734375
18.30925 0.1808319091796875 -0.015960693359375 3.750732421875 -2.858642578125 -0.0006802082061767578 -0.0003025531768798828 0.01653289794921875 0.0794525146484375
18.319 0.17917633056640625 -0.02471923828125 3.4979248046875 -3.1341552734375 0.00014978647232055664 0.0009015202522277832 0.022823333740234375 0.08179855346679688
18.32875 0.1777191162109375 -0.02912139892578125 3.2205810546875 -3.3800048828125 0.00037613511085510254 -0.0005776584148406982 0.03082275390625 0.08061981201171875
18.3385 0.17729949951171875 -0.03887176513671875 2.935302734375 -3.5965576171875 0.0006260275840759277 -0.0010312199592590332 0.039035797119140625 0.0815887451171875
18.34825 0.1765594482421875 -0.0456085205078125 2.646240234375 -3.8017578125 8.043646812438965e-05 0.0006937086582183838 0.0425262451171875 0.0802154541015625
18.358 0.17496490478515625 -0.05403900146484375 2.348876953125 -3.982666015625 0.000586390495300293 -0.0002771914005279541 0.04986572265625 0.07822418212890625
18.36775 0.17136383056640625 -0.059600830078125 2.026123046875 -4.147216796875 0.0007858872413635254 -0.0005131661891937256 0.05635833740234375 0.07450103759765625
18.3775 0.1706085205078125 -0.065673828125 1.701904296875 -4.2900390625 0.00016188621520996094 -0.0004975795745849609 0.06087493896484375 0.07285308837890625
18.38725 0.16617584228515625 -0.07477569580078125 1.343017578125 -4.408447265625 -0.00042131543159484863 -1.0415911674499512e-05 0.068603515625 0.0697479248046875
18.397 0.1639404296875 -0.080963134765625 0.98095703125 -4.48779296875 0.00026467442512512207 8.046627044677734e-07 0.073211669921875 0.0664520263671875
18.40675 0.160125732421875 -0.085662841796875 0.6044921875 -4.537109375 0.0009056329727172852 -0.001457810401916504 0.0806732177734375 0.0620269775390625
18.4165 0.156219482421875 -0.0940093994140625 0.240234375 -4.54150390625 0.00026245415210723877 -0.00021086633205413818 0.08329010009765625 0.058319091796875
18.42625 0.1520233154296875 -0.1009521484375 -0.1123046875 -4.505126953125 -0.0007125139236450195 0.0004322528839111328 0.0893707275390625 0.05153656005859375
18.436 0.14510345458984375 -0.10420989990234375 -0.44677734375 -4.452880859375 0.001235365867614746 0.00036638975143432617 0.0961151123046875 0.04638671875
18.44575 0.140533447265625 -0.11173248291015625 -0.772216796875 -4.37939453125 0.0006370842456817627 -0.00010704994201660156 0.09554290771484375 0.04079437255859375
18.4555 0.13483428955078125 -0.1173248291015625 -1.091552734375 -4.29296875 3.255903720855713e-05 -0.0004089772701263428 0.10007476806640625 0.03350830078125
18.46525 0.13065338134765625 -0.1246185302734375 -1.409423828125 -4.19970703125 0.00015152990818023682 -0.0004335343837738037 0.1052703857421875 0.02675628662109375
18.475 0.12357330322265625 -0.12772369384765625 -1.73095703125 -4.08203125 0.00031176209449768066 -0.0009574592113494873 0.10675048828125 0.01999664306640625
18.48475 0.11894989013671875 -0.13289642333984375 -2.048583984375 -3.921630859375 0.0008042454719543457 -0.0006341636180877686 0.10957717895507812 0.01351165771484375
18.4945 0.11165618896484375 -0.13668060302734375 -2.35546875 -3.72412109375 -1.4476478099822998e-05 -2.6479363441467285e-05 0.11196517944335938 0.00524139404296875
18.50425 0.1041717529296875 -0.14312744140625 -2.64208984375 -3.49462890625 0.0010105371475219727 -0.00035130977630615234 0.11171722412109375 -0.00116729736328125
18.514 0.0997467041015625 -0.14569091796875 -2.89404296875 -3.24365234375 0.0008979439735412598 -0.0008135437965393066 0.1120758056640625 -0.00849151611328125
18.52375 0.09102630615234375 -0.14856719970703125 -3.10009765625 -2.970458984375 0.001080334186553955 -3.796815872192383e-05 0.11127090454101562 -0.015758514404296875
18.5335 0.08640289306640625 -0.15355682373046875 -3.2802734375 -2.701416015625 0.0007439851760864258 0.00025159120559692383 0.11177825927734375 -0.022918701171875
18.54325 0.07837677001953125 -0.157196044921875 -3.430908203125 -2.434814453125 0.0001857951283454895 -0.0002348572015762329 0.10889816284179688 -0.030323028564453125
18.553 0.07254791259765625 -0.15955352783203125 -3.566650390625 -2.163330078125 -0.0001230984926223755 0.00011463463306427002 0.10468292236328125 -0.03530120849609375
18.56275 0.0650482177734375 -0.1595306396484375 -3.699951171875 -1.897705078125 0.0006504058837890625 -0.0010477304458618164 0.10448837280273438 -0.042377471923828125
18.5725 0.0575408935546875 -0.16268157958984375 -3.8193359375 -1.614013671875 0.0004994571208953857 -0.0005332529544830322 0.1001434326171875 -0.04853057861328125
18.58225 0.0503692626953125 -0.16440582275390625 -3.91796875 -1.316650390625 0.00033260881900787354 -0.0004459470510482788 0.09720993041992188 -0.0555572509765625
18.592 0.0417633056640625 -0.16510772705078125 -3.993408203125 -1.0009765625 0.00043213367462158203 0.0005952715873718262 0.09226226806640625 -0.060138702392578125
18.60175 0.034820556640625 -0.1651611328125 -4.04150390625 -0.67626953125 -0.0005785822868347168 0.000884711742401123 0.08658599853515625 -0.0646514892578125
18.6115 0.02663421630859375 -0.16518402099609375 -4.04296875 -0.35791015625 -0.00013494491577148438 -0.0011292099952697754 0.08311080932617188 -0.07117080688476562
18.62125 0.0191497802734375 -0.1651458740234375 -4.019287109375 -0.04833984375 -0.00048023462295532227 -0.0008804798126220703 0.07777786254882812 -0.074676513671875
18.631 0.01202392578125 -0.1651611328125 -3.96923828125 0.230712890625 1.3113021850585938e-06 -0.0022101402282714844 0.07259368896484375 -0.07918930053710938
18.64075 0.00354766845703125 -0.16484832763671875 -3.9010009765625 0.5078125 -1.5497207641601562e-06 -0.0007981359958648682 0.06621170043945312 -0.0800628662109375
18.6505 -0.00372314453125 -0.16345977783203125 -3.8299560546875 0.766845703125 0.0005675852298736572 -0.0005162954330444336 0.06119537353515625 -0.0836181640625
18.66025 -0.01279449462890625 -0.16269683837890625 -3.7470703125 1.02197265625 0.00024324655532836914 -0.0012990832328796387 0.05426025390625 -0.08496856689453125
18.67 -0.01874542236328125 -0.1608123779296875 -3.657958984375 1.28076171875 0.000410616397857666 -0.001050710678100586 0.050510406494140625 -0.0859527587890625
18.67975 -0.02794647216796875 -0.157928466796875 -3.5546875 1.54296875 0.00046178698539733887 -0.0006885230541229248 0.043857574462890625 -0.087738037109375
