!Created with skrf (http://scikit-rf.org).
# GHz S RI R 50.0 
!freq ReS11 ImS11 ReS21 ImS21 ReS12 ImS12 ReS22 ImS22
17.5 0.0127716064453125 -0.15290069580078125 4.13818359375 2.181640625 -0.00035828351974487305 0.000654369592666626 0.10870742797851562 0.008670806884765625
17.50975 0.0028533935546875 -0.15016937255859375 4.29443359375 1.837646484375 -0.0022385120391845703 0.0011459589004516602 0.11299514770507812 0.006038665771484375
17.5195 -0.0045318603515625 -0.145233154296875 4.414794921875 1.48779296875 -0.0020291805267333984 0.00043523311614990234 0.11640548706054688 0.00450897216796875
17.52925 -0.01442718505859375 -0.1415252685546875 4.513427734375 1.132568359375 -0.0016480684280395508 0.000564277172088623 0.11815261840820312 -0.00133514404296875
17.539 -0.0221405029296875 -0.1374053955078125 4.5791015625 0.7783203125 -0.0001316666603088379 -0.0003243088722229004 0.11920166015625 -0.005950927734375
17.54875 -0.03142547607421875 -0.13300323486328125 4.6123046875 0.427001953125 -0.0008635818958282471 -0.00013202428817749023 0.12198257446289062 -0.00921630859375
17.5585 -0.04106903076171875 -0.1280975341796875 4.6376953125 0.073974609375 -0.000871121883392334 0.0011420249938964844 0.12480545043945312 -0.01480865478515625
17.56825 -0.04738616943359375 -0.124237060546875 4.6416015625 -0.268310546875 -0.00032454729080200195 -0.0002706944942474365 0.12516021728515625 -0.019989013671875
17.578 -0.05496978759765625 -0.11791229248046875 4.6201171875 -0.639892578125 -0.0009862780570983887 0.0002595186233520508 0.12584686279296875 -0.0238494873046875
17.58775 -0.0621795654296875 -0.11481475830078125 4.562744140625 -1.012939453125 -0.001714468002319336 0.0013123154640197754 0.1272735595703125 -0.02906036376953125
17.5975 -0.0671844482421875 -0.10711669921875 4.46240234375 -1.394775390625 -0.0016872882843017578 0.0004925131797790527 0.12781524658203125 -0.03514862060546875
17.60725 -0.07416534423828125 -0.1014556884765625 4.31494140625 -1.74853515625 -0.0013129711151123047 0.0014252066612243652 0.12457275390625 -0.040374755859375
17.617 -0.07964324951171875 -0.0922088623046875 4.138671875 -2.0791015625 -0.0011608004570007324 0.0006307363510131836 0.12558746337890625 -0.04486846923828125
17.62675 -0.0847930908203125 -0.0848541259765625 3.933837890625 -2.3822021484375 -0.001474618911743164 0.00029653310775756836 0.126312255859375 -0.05055999755859375
17.6365 -0.0879974365234375 -0.0788726806640625 3.710693359375 -2.649658203125 -0.0019636154174804688 0.002203702926635742 0.12432098388671875 -0.055023193359375
17.64625 -0.09456634521484375 -0.06964874267578125 3.49267578125 -2.887939453125 -0.0011423826217651367 0.0018581748008728027 0.12127685546875 -0.060886383056640625
17.656 -0.0971527099609375 -0.06337738037109375 3.2791748046875 -3.11474609375 -0.0008724331855773926 0.001712203025817871 0.11759185791015625 -0.06686782836914062
17.66575 -0.09955596923828125 -0.05290985107421875 3.0670166015625 -3.3447265625 0.0005897283554077148 0.001445770263671875 0.11551284790039062 -0.07281875610351562
17.6755 -0.10530853271484375 -0.045074462890625 2.8323974609375 -3.5682373046875 0.00021457672119140625 0.0021507740020751953 0.11153793334960938 -0.07738876342773438
17.68525 -0.10517120361328125 -0.03737640380859375 2.5899658203125 -3.804931640625 0.0002372264862060547 0.0012317895889282227 0.10765838623046875 -0.08290863037109375
17.695 -0.10738372802734375 -0.0268096923828125 2.297119140625 -4.033447265625 -0.0005342066287994385 0.0005498826503753662 0.1047821044921875 -0.08553695678710938
17.70475 -0.10817718505859375 -0.01862335205078125 1.96142578125 -4.233642578125 -0.000778496265411377 0.0014534592628479004 0.09935379028320312 -0.09214401245117188
17.7145 -0.11075592041015625 -0.00824737548828125 1.59130859375 -4.397216796875 -0.0006193220615386963 -0.0002218484878540039 0.0931243896484375 -0.09598922729492188
17.72425 -0.111663818359375 -0.0010528564453125 1.208740234375 -4.5078125 3.591179847717285e-05 0.0006111562252044678 0.08986282348632812 -0.10009765625
17.734 -0.112518310546875 0.007781982421875 0.8251953125 -4.5615234375 -9.649991989135742e-05 0.0006473064422607422 0.08316802978515625 -0.10404205322265625
17.74375 -0.1123199462890625 0.0170440673828125 0.4619140625 -4.55419921875 -0.00019860267639160156 0.0015354156494140625 0.07837677001953125 -0.1080169677734375
17.7535 -0.1106414794921875 0.024677276611328125 0.126708984375 -4.540283203125 -0.0019420385360717773 0.0005171895027160645 0.07379531860351562 -0.10986328125
17.76325 -0.10968780517578125 0.0325927734375 -0.183837890625 -4.525634765625 0.0004120469093322754 0.0006872415542602539 0.06640243530273438 -0.11159515380859375
17.773 -0.10915756225585938 0.042205810546875 -0.486572265625 -4.496337890625 0.0015399456024169922 0.0010418891906738281 0.0630645751953125 -0.1144256591796875
17.78275 -0.10602188110351562 0.0500640869140625 -0.802001953125 -4.460205078125 0.0005564689636230469 0.002437591552734375 0.054645538330078125 -0.11714935302734375
17.7925 -0.10116195678710938 0.057559967041015625 -1.128173828125 -4.41796875 -0.000339508056640625 0.0010491013526916504 0.048213958740234375 -0.11713027954101562
17.80225 -0.09824371337890625 0.06578826904296875 -1.484130859375 -4.35546875 -0.0001450181007385254 0.001297593116760254 0.043849945068359375 -0.11837387084960938
17.812 -0.09286117553710938 0.07362747192382812 -1.8359375 -4.24169921875 0.0008047819137573242 0.001940011978149414 0.0358428955078125 -0.11912155151367188
17.82175 -0.0885162353515625 0.0821380615234375 -2.1865234375 -4.093994140625 0.001444697380065918 0.0011078119277954102 0.030956268310546875 -0.118011474609375
17.8315 -0.08488082885742188 0.08846664428710938 -2.513916015625 -3.893310546875 0.00025922060012817383 0.0011864304542541504 0.0240478515625 -0.11783981323242188
17.84125 -0.07936859130859375 0.0946807861328125 -2.80859375 -3.673828125 0.0006139278411865234 0.0013223886489868164 0.01622772216796875 -0.1170501708984375
17.851 -0.07345962524414062 0.10395050048828125 -3.06201171875 -3.41796875 -0.00014790892601013184 0.0009728968143463135 0.010772705078125 -0.1168670654296875
17.86075 -0.06840133666992188 0.10749435424804688 -3.29541015625 -3.178955078125 -0.0003364086151123047 0.0005982816219329834 0.00415802001953125 -0.1129302978515625
17.8705 -0.061618804931640625 0.11337661743164062 -3.505126953125 -2.927001953125 -0.0007998943328857422 0.0015615224838256836 -0.00093841552734375 -0.11340713500976562
17.88025 -0.05667877197265625 0.12062835693359375 -3.711669921875 -2.671142578125 0.0010073184967041016 0.0024690628051757812 -0.00684356689453125 -0.11197280883789062
17.89 -0.05034637451171875 0.1268157958984375 -3.913330078125 -2.412109375 0.0008220672607421875 0.0015987157821655273 -0.01369476318359375 -0.10826873779296875
17.89975 -0.04278564453125 0.13091278076171875 -4.110107421875 -2.1123046875 -0.00013530254364013672 0.00032179057598114014 -0.01952362060546875 -0.10700225830078125
17.9095 -0.03736114501953125 0.13578033447265625 -4.295654296875 -1.789794921875 0.0014504194259643555 0.0009034872055053711 -0.02468109130859375 -0.1037139892578125
17.91925 -0.0286865234375 0.13980865478515625 -4.433837890625 -1.4404296875 0.0006712675094604492 -0.0007464885711669922 -0.02774810791015625 -0.1027069091796875
17.929 -0.0216827392578125 0.142059326171875 -4.541015625 -1.0751953125 0.0010268688201904297 0.0001423358917236328 -0.03485107421875 -0.0982208251953125
17.93875 -0.0127410888671875 0.1459808349609375 -4.6005859375 -0.69873046875 0.0008421242237091064 -0.00012072920799255371 -0.040435791015625 -0.09555816650390625
17.9485 -0.005767822265625 0.14633941650390625 -4.624267578125 -0.34130859375 0.001507401466369629 0.000729680061340332 -0.044281005859375 -0.09027099609375
17.95825 0.00225830078125 0.14990234375 -4.61962890625 0.010498046875 0.000466763973236084 0.0010103583335876465 -0.04665374755859375 -0.087158203125
17.968 0.01100921630859375 0.15129852294921875 -4.603759765625 0.3466796875 0.0017658472061157227 0.00042045116424560547 -0.051605224609375 -0.082061767578125
17.97775 0.01799774169921875 0.15161895751953125 -4.563720703125 0.675048828125 0.0006203651428222656 0.00013560056686401367 -0.0560302734375 -0.0753631591796875
17.9875 0.02801513671875 0.15203094482421875 -4.520263671875 1.01953125 0.00039321184158325195 0.00027230381965637207 -0.05782318115234375 -0.073150634765625
17.99725 0.035797119140625 0.15180206298828125 -4.458740234375 1.36767578125 0.0016313791275024414 -0.0002816319465637207 -0.0624847412109375 -0.06603240966796875
18.007 0.0455474853515625 0.15261077880859375 -4.358642578125 1.724365234375 0.0007530450820922852 0.0013087987899780273 -0.066497802734375 -0.060760498046875
18.01675 0.05374908447265625 0.15171051025390625 -4.218505859375 2.08203125 0.00047779083251953125 0.00023689866065979004 -0.0699462890625 -0.05466461181640625
18.0265 0.0616912841796875 0.15069580078125 -4.037109375 2.4248046875 0.0014476776123046875 0.0008955001831054688 -0.07234954833984375 -0.04862213134765625
18.03625 0.0707855224609375 0.15118408203125 -3.8138427734375 2.744140625 0.0019288063049316406 0.0003485679626464844 -0.07444381713867188 -0.044612884521484375
18.046 0.07917022705078125 0.1463470458984375 -3.5604248046875 3.0364990234375 0.000700533390045166 0.0004978179931640625 -0.0755157470703125 -0.036029815673828125
18.05575 0.085906982421875 0.14347076416015625 -3.3043212890625 3.284423828125 0.00022396445274353027 0.000560075044631958 -0.07899093627929688 -0.032115936279296875
18.0655 0.09358978271484375 0.1426239013671875 -3.033447265625 3.505615234375 0.001538991928100586 -0.0013176202774047852 -0.0801544189453125 -0.025562286376953125
18.07525 0.10166168212890625 0.13848114013671875 -2.7578125 3.715576171875 0.002179741859436035 -0.000868678092956543 -0.08180999755859375 -0.019317626953125
18.085 0.10811614990234375 0.13532257080078125 -2.470703125 3.91259765625 -0.0003276616334915161 0.00018863379955291748 -0.08203125 -0.011615753173828125
18.09475 0.11539459228515625 0.13085174560546875 -2.1748046875 4.098388671875 0.0005045533180236816 0.0006721019744873047 -0.07831954956054688 -0.00836181640625
18.1045 0.12274169921875 0.12473297119140625 -1.855224609375 4.258544921875 0.0005820095539093018 -0.00035569071769714355 -0.08053970336914062 0.00017547607421875
18.11425 0.12896728515625 0.123260498046875 -1.5107421875 4.3994140625 0.0007699728012084961 0.0010707378387451172 -0.080047607421875 0.004688262939453125
18.124 0.1343994140625 0.11737060546875 -1.15380859375 4.50244140625 0.0006000995635986328 0.001361846923828125 -0.077880859375 0.01342010498046875
18.13375 0.1417694091796875 0.1112060546875 -0.796142578125 4.578857421875 0.00035572052001953125 0.0010989904403686523 -0.07690048217773438 0.02013397216796875
18.1435 0.1460113525390625 0.105621337890625 -0.43115234375 4.61083984375 0.0008210241794586182 -0.00043785572052001953 -0.07535171508789062 0.02715301513671875
18.15325 0.1518402099609375 0.0985260009765625 -0.06640625 4.6171875 0.0006627440452575684 0.00034224987030029297 -0.074310302734375 0.03350067138671875
18.163 0.1581878662109375 0.091796875 0.28271484375 4.59326171875 0.0012170076370239258 0.00018209218978881836 -0.06819915771484375 0.040302276611328125
18.17275 0.16204833984375 0.0844879150390625 0.630859375 4.546630859375 0.001278519630432129 0.0011889934539794922 -0.06525802612304688 0.045989990234375
18.1825 0.168060302734375 0.0778961181640625 0.971435546875 4.480712890625 0.0011723041534423828 -0.0003997683525085449 -0.059978485107421875 0.052093505859375
18.19225 0.16930389404296875 0.071807861328125 1.318115234375 4.401123046875 0.00020584464073181152 -0.0005161464214324951 -0.05592155456542969 0.05711174011230469
18.202 0.1739044189453125 0.064117431640625 1.64794921875 4.28662109375 -7.033348083496094e-05 -0.0009686946868896484 -0.0552215576171875 0.0630035400390625
18.21175 0.178436279296875 0.0578765869140625 1.9853515625 4.13916015625 0.0002232193946838379 0.00025272369384765625 -0.04805755615234375 0.06926727294921875
18.2215 0.18277740478515625 0.0482635498046875 2.299560546875 3.958740234375 6.535649299621582e-05 1.7430633306503296e-05 -0.041149139404296875 0.0733795166015625
18.23125 0.18532562255859375 0.041046142578125 2.590576171875 3.758544921875 -0.0006272196769714355 0.00025141239166259766 -0.037754058837890625 0.07616424560546875
18.241 0.18650054931640625 0.0339202880859375 2.8583984375 3.533935546875 0.0010219216346740723 0.00010472536087036133 -0.03199005126953125 0.07897567749023438
18.25075 0.18647003173828125 0.02494049072265625 3.103759765625 3.299560546875 0.001135706901550293 8.559226989746094e-05 -0.0258331298828125 0.08326339721679688
18.2605 0.18883514404296875 0.01850128173828125 3.328369140625 3.04736328125 0.00045253336429595947 -0.00037041306495666504 -0.0194091796875 0.08653640747070312
18.27025 0.18807220458984375 0.01081085205078125 3.548095703125 2.789794921875 -0.00016492605209350586 0.00039927661418914795 -0.011547088623046875 0.0896453857421875
18.28 0.18918609619140625 0.00136566162109375 3.759521484375 2.515869140625 -0.00036019086837768555 -0.0012197494506835938 -0.004795074462890625 0.09012222290039062
18.28975 0.19158935546875 -0.00745391845703125 3.943359375 2.223876953125 -0.0006151199340820312 -0.0006914138793945312 0.003406524658203125 0.09334182739257812
18.2995 0.18956756591796875 -0.01436614990234375 4.100341796875 1.904296875 0.0008284449577331543 -0.0014855265617370605 0.011280059814453125 0.09260940551757812
18.30925 0.1882171630859375 -0.023834228515625 4.2275390625 1.5654296875 -0.0011028051376342773 -0.0008286237716674805 0.01801300048828125 0.09387969970703125
18.319 0.18627166748046875 -0.0335693359375 4.31982421875 1.2265625 0.0011941194534301758 -7.569789886474609e-06 0.02567291259765625 0.09493637084960938
18.32875 0.18438720703125 -0.03823089599609375 4.3759765625 0.887451171875 0.00019653141498565674 -0.0004348158836364746 0.03380584716796875 0.09265518188476562
18.3385 0.182891845703125 -0.0481414794921875 4.40625 0.555419921875 -0.0010535120964050293 -0.0006762146949768066 0.04376983642578125 0.0935211181640625
18.34825 0.18050384521484375 -0.05643463134765625 4.43701171875 0.233154296875 0.0005809366703033447 -0.0002301037311553955 0.04913330078125 0.09233856201171875
18.358 0.17801666259765625 -0.06240081787109375 4.439208984375 -0.0927734375 0.0002886950969696045 -1.6734004020690918e-05 0.0570220947265625 0.08850860595703125
18.36775 0.1750030517578125 -0.07112884521484375 4.424072265625 -0.4306640625 -0.00024199485778808594 -0.0007482171058654785 0.06484222412109375 0.08449554443359375
18.3775 0.17169952392578125 -0.07689666748046875 4.38818359375 -0.763916015625 -0.0008710026741027832 -0.0008231997489929199 0.07149505615234375 0.08193206787109375
18.38725 0.16713714599609375 -0.08489990234375 4.314208984375 -1.114990234375 0.0008190274238586426 0.0004671812057495117 0.07769775390625 0.07929229736328125
18.397 0.1638641357421875 -0.091827392578125 4.203125 -1.4541015625 0.0009436607360839844 -0.0003458857536315918 0.0828094482421875 0.074462890625
18.40675 0.158111572265625 -0.0968780517578125 4.0595703125 -1.79345703125 9.226799011230469e-05 -0.00043594837188720703 0.0918426513671875 0.0694732666015625
18.4165 0.15354156494140625 -0.10333251953125 3.8746337890625 -2.086669921875 0.000675499439239502 -0.00014594197273254395 0.0955352783203125 0.0650634765625
18.42625 0.14769744873046875 -0.107757568359375 3.6724853515625 -2.3585205078125 0.0005130171775817871 -0.00015106797218322754 0.102020263671875 0.0579986572265625
18.436 0.1418914794921875 -0.1134490966796875 3.4654541015625 -2.599365234375 -0.00023724883794784546 0.0002311915159225464 0.108673095703125 0.05124664306640625
18.44575 0.1363525390625 -0.12131500244140625 3.2525634765625 -2.8275146484375 0.0002694129943847656 -0.0005663037300109863 0.1110992431640625 0.0435333251953125
18.4555 0.127960205078125 -0.1244659423828125 3.0347900390625 -3.046630859375 0.00020332634449005127 -0.00010219961404800415 0.11371612548828125 0.0365753173828125
18.46525 0.12398529052734375 -0.130401611328125 2.8116455078125 -3.2694091796875 -0.0003261864185333252 -6.480515003204346e-05 0.11779022216796875 0.02652740478515625
18.475 0.11655426025390625 -0.1346893310546875 2.5621337890625 -3.47509765625 0.00029394030570983887 -0.00034974515438079834 0.12059783935546875 0.01976776123046875
18.48475 0.1118621826171875 -0.139434814453125 2.2838134765625 -3.670654296875 -0.0008280277252197266 -0.0004100799560546875 0.123016357421875 0.01036834716796875
18.4945 0.10460662841796875 -0.14252471923828125 1.97265625 -3.8372802734375 0.00036025047302246094 -0.0009167492389678955 0.124603271484375 0.00243377685546875
18.50425 0.09552001953125 -0.1463623046875 1.64501953125 -3.97314453125 0.000845491886138916 -0.0004348158836364746 0.12435150146484375 -0.0055999755859375
18.514 0.091461181640625 -0.149566650390625 1.3115234375 -4.05859375 -7.146596908569336e-05 0.00039246678352355957 0.12523651123046875 -0.01308441162109375
18.52375 0.08180999755859375 -0.15128326416015625 0.98388671875 -4.1025390625 0.0009393692016601562 -0.0010222792625427246 0.12476348876953125 -0.02256011962890625
18.5335 0.07709503173828125 -0.15439605712890625 0.676025390625 -4.12109375 0.001522660255432129 0.00022107362747192383 0.12313461303710938 -0.02939605712890625
18.54325 0.07007598876953125 -0.15721893310546875 0.383056640625 -4.123046875 8.207559585571289e-05 -0.00040280818939208984 0.11957931518554688 -0.038005828857421875
18.553 0.06324005126953125 -0.15966033935546875 0.09423828125 -4.108642578125 0.0010704994201660156 -2.7894973754882812e-05 0.1165008544921875 -0.04443359375
18.56275 0.05587005615234375 -0.15982818603515625 -0.187744140625 -4.102783203125 4.94346022605896e-06 -6.679072976112366e-05 0.1137847900390625 -0.050777435302734375
18.5725 0.0486907958984375 -0.16008758544921875 -0.4814453125 -4.0703125 0.0007786154747009277 0.0006846785545349121 0.1076507568359375 -0.05899810791015625
18.58225 0.04192352294921875 -0.16202545166015625 -0.7822265625 -4.02197265625 6.890296936035156e-05 -0.0012980103492736816 0.10385894775390625 -0.06657791137695312
18.592 0.0350494384765625 -0.16350555419921875 -1.08740234375 -3.9404296875 0.00047776103019714355 0.00034868717193603516 0.0991973876953125 -0.071624755859375
18.60175 0.02618408203125 -0.161285400390625 -1.38720703125 -3.8271484375 -0.000230446457862854 6.467103958129883e-05 0.09429168701171875 -0.07627105712890625
18.6115 0.019683837890625 -0.15991973876953125 -1.661376953125 -3.68359375 0.0005401074886322021 -0.0006521940231323242 0.08757400512695312 -0.08393478393554688
18.62125 0.01345062255859375 -0.16033935546875 -1.913330078125 -3.51806640625 0.00031603872776031494 6.124377250671387e-06 0.08072280883789062 -0.08665847778320312
18.631 0.00560760498046875 -0.160675048828125 -2.12841796875 -3.343017578125 3.9964914321899414e-05 -0.0009029507637023926 0.07497406005859375 -0.0900726318359375
18.64075 -0.0008697509765625 -0.1593780517578125 -2.333984375 -3.16455078125 0.0010720491409301758 -0.00017392635345458984 0.068603515625 -0.09300994873046875
18.6505 -0.0079193115234375 -0.15985107421875 -2.5244140625 -2.98779296875 -0.0006353855133056641 -0.0007627010345458984 0.062191009521484375 -0.09666061401367188
18.66025 -0.01601409912109375 -0.1567230224609375 -2.713134765625 -2.809814453125 0.0002821683883666992 -0.0012670159339904785 0.054431915283203125 -0.09835433959960938
18.67 -0.0223541259765625 -0.15422821044921875 -2.8974609375 -2.61865234375 0.0007998943328857422 -0.0012359619140625 0.048336029052734375 -0.09888076782226562
18.67975 -0.03165435791015625 -0.152618408203125 -3.076416015625 -2.40771484375 0.00015026330947875977 -0.0011616945266723633 0.04146575927734375 -0.09918975830078125
18.6895 -0.03597259521484375 -0.1504669189453125 -3.243408203125 -2.1728515625 0.0009683668613433838 -0.0006730258464813232 0.035152435302734375 -0.0989837646484375
