!Created with skrf (http://scikit-rf.org).
# GHz S RI R 50.0 
!freq ReS11 ImS11 ReS21 ImS21 ReS12 ImS12 ReS22 ImS22
17.5 0.0164947509765625 -0.13846588134765625 -2.1881103515625 3.513427734375 -0.001200854778289795 -6.496906280517578e-06 0.0909271240234375 0.008296966552734375
17.50975 0.0075531005859375 -0.13543701171875 -1.8912353515625 3.6739501953125 -0.00150376558303833 0.0009284615516662598 0.09500503540039062 0.007923126220703125
17.5195 -0.00152587890625 -0.1317901611328125 -1.581787109375 3.8016357421875 -0.0022927522659301758 0.0010110139846801758 0.0988616943359375 0.00696563720703125
17.52925 -0.00930023193359375 -0.12969970703125 -1.271240234375 3.908447265625 -0.0011875629425048828 0.0006880760192871094 0.10170364379882812 0.00299072265625
17.539 -0.0130767822265625 -0.1242218017578125 -0.96142578125 3.9833984375 -0.0007028579711914062 0.0008132457733154297 0.103271484375 0.00106048583984375
17.54875 -0.023590087890625 -0.12120819091796875 -0.648681640625 4.0302734375 -0.002168416976928711 -0.00044608116149902344 0.10550689697265625 -0.000274658203125
17.5585 -0.032196044921875 -0.11658477783203125 -0.34033203125 4.064697265625 -0.0015489459037780762 0.001332700252532959 0.10877227783203125 -0.004772186279296875
17.56825 -0.03749847412109375 -0.11328125 -0.03955078125 4.08203125 -0.0009330511093139648 0.00022137165069580078 0.11061859130859375 -0.009235382080078125
17.578 -0.0456390380859375 -0.10749053955078125 0.28173828125 4.07666015625 -0.0007222890853881836 0.0011238455772399902 0.11214828491210938 -0.013706207275390625
17.58775 -0.0508270263671875 -0.104705810546875 0.60693359375 4.042724609375 -0.0013832449913024902 0.00046825408935546875 0.11596298217773438 -0.01578521728515625
17.5975 -0.05544281005859375 -0.097991943359375 0.945068359375 3.977294921875 -0.0017756223678588867 0.0015859603881835938 0.11528778076171875 -0.020961761474609375
17.60725 -0.06146240234375 -0.09407806396484375 1.259521484375 3.87353515625 -0.0017471909523010254 0.00038361549377441406 0.11541748046875 -0.024936676025390625
17.617 -0.06598663330078125 -0.08678436279296875 1.56201171875 3.736083984375 0.0008422732353210449 0.00043457746505737305 0.11721038818359375 -0.0294342041015625
17.62675 -0.07106781005859375 -0.08040618896484375 1.841064453125 3.575927734375 -0.0016738176345825195 0.0018991827964782715 0.11804962158203125 -0.033206939697265625
17.6365 -0.07391357421875 -0.0738067626953125 2.09130859375 3.39453125 -0.000662386417388916 0.0005619525909423828 0.1165618896484375 -0.03916168212890625
17.64625 -0.0794677734375 -0.06488037109375 2.312255859375 3.212646484375 -0.000611424446105957 0.0018714666366577148 0.115570068359375 -0.04448699951171875
17.656 -0.0834197998046875 -0.06096649169921875 2.522216796875 3.031982421875 -0.0012338757514953613 0.00018483400344848633 0.11283111572265625 -0.048999786376953125
17.66575 -0.0850830078125 -0.05158233642578125 2.72314453125 2.85400390625 -0.000865936279296875 0.0008371472358703613 0.11356353759765625 -0.054058074951171875
17.6755 -0.088531494140625 -0.04474639892578125 2.918701171875 2.662841796875 -0.0005063414573669434 0.0010257959365844727 0.10900497436523438 -0.059871673583984375
17.68525 -0.0911712646484375 -0.0385894775390625 3.12548828125 2.4677734375 -0.0007312297821044922 0.001981973648071289 0.10835647583007812 -0.066070556640625
17.695 -0.09384918212890625 -0.03041839599609375 3.32763671875 2.22998046875 0.0003374814987182617 0.0021898746490478516 0.10860824584960938 -0.0691375732421875
17.70475 -0.09581756591796875 -0.02216339111328125 3.51611328125 1.960205078125 -0.0018857717514038086 0.0014671683311462402 0.10437774658203125 -0.07306289672851562
17.7145 -0.09680938720703125 -0.015056610107421875 3.681884765625 1.65869140625 0.00016158819198608398 0.0004977285861968994 0.10045242309570312 -0.07841110229492188
17.72425 -0.09853744506835938 -0.006565093994140625 3.7978515625 1.3388671875 -0.0008541345596313477 0.001682579517364502 0.09669113159179688 -0.08347702026367188
17.734 -0.099853515625 0.00028228759765625 3.870361328125 1.013427734375 -0.0006969571113586426 0.0014182329177856445 0.09249114990234375 -0.08968734741210938
17.74375 -0.0997314453125 0.00713348388671875 3.89013671875 0.7001953125 -0.0012385845184326172 0.0019981861114501953 0.08753204345703125 -0.092926025390625
17.7535 -0.0988616943359375 0.0150146484375 3.8994140625 0.4091796875 -0.00032955408096313477 0.0013434290885925293 0.08372879028320312 -0.09715652465820312
17.76325 -0.09894561767578125 0.02429962158203125 3.89697265625 0.1431884765625 -0.00012668967247009277 0.0008442103862762451 0.07634353637695312 -0.09962844848632812
17.773 -0.09743499755859375 0.02956390380859375 3.8848876953125 -0.1146240234375 -0.00042170286178588867 0.001088559627532959 0.07389450073242188 -0.10259628295898438
17.78275 -0.09573745727539062 0.03730010986328125 3.869140625 -0.377197265625 0.0005012750625610352 0.0006754398345947266 0.06914901733398438 -0.10430908203125
17.7925 -0.09253692626953125 0.04380035400390625 3.8521728515625 -0.6495361328125 -0.0002123713493347168 0.0012112259864807129 0.06470870971679688 -0.10727691650390625
17.80225 -0.09180068969726562 0.0500030517578125 3.8223876953125 -0.943115234375 0.0001827627420425415 0.00014773011207580566 0.058193206787109375 -0.10895538330078125
17.812 -0.08817672729492188 0.059696197509765625 3.75634765625 -1.2437744140625 0.0008974075317382812 0.0015554428100585938 0.050670623779296875 -0.10962677001953125
17.82175 -0.08348846435546875 0.06637954711914062 3.6624755859375 -1.5438232421875 0.00022929906845092773 0.0008385181427001953 0.047344207763671875 -0.11243438720703125
17.8315 -0.08324432373046875 0.07376861572265625 3.524169921875 -1.83740234375 0.00011980533599853516 0.0021872520446777344 0.040836334228515625 -0.11351776123046875
17.84125 -0.07761383056640625 0.07971954345703125 3.361328125 -2.10400390625 9.384751319885254e-05 -0.00047850608825683594 0.0351715087890625 -0.11341094970703125
17.851 -0.07272720336914062 0.08892822265625 3.158203125 -2.3385009765625 -5.50001859664917e-05 0.0002210661768913269 0.028491973876953125 -0.11592864990234375
17.86075 -0.06918716430664062 0.09207534790039062 2.9725341796875 -2.546875 0.0010896921157836914 0.0004722476005554199 0.022502899169921875 -0.11386871337890625
17.8705 -0.06483840942382812 0.09823989868164062 2.774658203125 -2.7418212890625 -0.00024497509002685547 0.0013526678085327148 0.0167694091796875 -0.11360931396484375
17.88025 -0.05939483642578125 0.10523605346679688 2.58056640625 -2.925537109375 -0.0011942386627197266 -0.00022047758102416992 0.008945465087890625 -0.11309051513671875
17.89 -0.05397796630859375 0.1110076904296875 2.38525390625 -3.1053466796875 0.0004578828811645508 0.001610875129699707 0.00501251220703125 -0.11251068115234375
17.89975 -0.04785919189453125 0.11573410034179688 2.1624755859375 -3.2913818359375 0.0007921457290649414 0.0005173087120056152 -0.000736236572265625 -0.10984039306640625
17.9095 -0.044528961181640625 0.12075042724609375 1.9229736328125 -3.4720458984375 0.0003676414489746094 0.0008465051651000977 -0.008502960205078125 -0.10924530029296875
17.91925 -0.037029266357421875 0.12381744384765625 1.654296875 -3.6270751953125 6.440281867980957e-05 0.0008246898651123047 -0.01263427734375 -0.10905075073242188
17.929 -0.0307464599609375 0.1296234130859375 1.369873046875 -3.763427734375 0.0008882284164428711 0.0009446144104003906 -0.01934814453125 -0.106719970703125
17.93875 -0.0248565673828125 0.13300323486328125 1.0662841796875 -3.8582763671875 0.0006429553031921387 0.00045615434646606445 -0.02425384521484375 -0.10324859619140625
17.9485 -0.0178070068359375 0.13491058349609375 0.7666015625 -3.9169921875 0.0004343092441558838 0.0004291236400604248 -0.0292816162109375 -0.10077667236328125
17.95825 -0.01038360595703125 0.13797760009765625 0.4722900390625 -3.9498291015625 -0.00015057623386383057 -0.00028833746910095215 -0.032135009765625 -0.09766387939453125
17.968 -0.00368499755859375 0.1418914794921875 0.1900634765625 -3.96533203125 0.0008066892623901367 0.0012302398681640625 -0.0395355224609375 -0.09525299072265625
17.97775 0.0040435791015625 0.14345550537109375 -0.08447265625 -3.967041015625 0.0010590553283691406 3.325939178466797e-05 -0.0445556640625 -0.08924102783203125
17.9875 0.0117950439453125 0.1468048095703125 -0.37060546875 -3.9697265625 0.0020520687103271484 -2.777576446533203e-05 -0.04749298095703125 -0.0855865478515625
17.99725 0.02069091796875 0.146820068359375 -0.657470703125 -3.9638671875 0.0004772096872329712 -0.0004028230905532837 -0.0532684326171875 -0.08052825927734375
18.007 0.028778076171875 0.14862060546875 -0.958251953125 -3.93017578125 0.0008904933929443359 0.0002689361572265625 -0.05771636962890625 -0.07735443115234375
18.01675 0.03745269775390625 0.1500701904296875 -1.269287109375 -3.870849609375 -0.0005828738212585449 0.0005773007869720459 -0.0620269775390625 -0.0725250244140625
18.0265 0.04351806640625 0.1494293212890625 -1.58203125 -3.77880859375 -9.937584400177002e-05 6.164610385894775e-05 -0.068115234375 -0.066558837890625
18.03625 0.05316162109375 0.1521759033203125 -1.884765625 -3.64697265625 0.00010380148887634277 0.00017124414443969727 -0.06988525390625 -0.0622100830078125
18.046 0.06079864501953125 0.14948272705078125 -2.17529296875 -3.482177734375 0.0015347003936767578 0.0005788803100585938 -0.07410430908203125 -0.05579376220703125
18.05575 0.06974029541015625 0.1465301513671875 -2.433349609375 -3.3095703125 0.00015476346015930176 0.00037732720375061035 -0.077667236328125 -0.04955291748046875
18.0655 0.07738494873046875 0.14725494384765625 -2.66650390625 -3.111328125 0.0006771385669708252 -0.0004736185073852539 -0.08165740966796875 -0.04390716552734375
18.07525 0.0850677490234375 0.14615631103515625 -2.890380859375 -2.908935546875 0.0004347562789916992 0.0007924437522888184 -0.08224868774414062 -0.038478851318359375
18.085 0.09381866455078125 0.14414215087890625 -3.103759765625 -2.689697265625 0.0014624595642089844 0.0002537965774536133 -0.08486175537109375 -0.03174591064453125
18.09475 0.10085296630859375 0.1399993896484375 -3.306396484375 -2.466796875 0.0017790794372558594 0.0012469291687011719 -0.08432769775390625 -0.0244598388671875
18.1045 0.10840606689453125 0.13747406005859375 -3.501708984375 -2.22314453125 -0.00013266503810882568 -0.00015898048877716064 -0.0864410400390625 -0.017513275146484375
18.11425 0.11676025390625 0.1357879638671875 -3.682861328125 -1.94921875 0.002022981643676758 -0.00047528743743896484 -0.08568191528320312 -0.012584686279296875
18.124 0.12298583984375 0.128692626953125 -3.83935546875 -1.65966796875 0.00040480494499206543 -0.00016605854034423828 -0.08646392822265625 -0.00377655029296875
18.13375 0.1300048828125 0.1251373291015625 -3.97314453125 -1.363037109375 0.0005339682102203369 -0.000383526086807251 -0.08515167236328125 0.0038604736328125
18.1435 0.13848876953125 0.120330810546875 -4.06884765625 -1.046875 0.0006563067436218262 6.505846977233887e-05 -0.08652877807617188 0.0110321044921875
18.15325 0.143890380859375 0.113067626953125 -4.1494140625 -0.72412109375 0.0015922188758850098 -0.0009450316429138184 -0.08478546142578125 0.018901824951171875
18.163 0.1522216796875 0.1072235107421875 -4.1943359375 -0.404541015625 0.0010613203048706055 -0.0010086894035339355 -0.08342361450195312 0.02584075927734375
18.17275 0.15789794921875 0.101654052734375 -4.21875 -0.079345703125 0.0008927881717681885 -0.0008966922760009766 -0.07938385009765625 0.03278350830078125
18.1825 0.1654205322265625 0.093841552734375 -4.22998046875 0.24365234375 0.0012655854225158691 -0.001281142234802246 -0.0767364501953125 0.041015625
18.19225 0.16912841796875 0.0879364013671875 -4.219970703125 0.577880859375 0.0006710290908813477 0.0009441375732421875 -0.07158660888671875 0.0466461181640625
18.202 0.176422119140625 0.0803985595703125 -4.175048828125 0.907958984375 0.0006496906280517578 -0.0010165572166442871 -0.07331085205078125 0.054965972900390625
18.21175 0.18072509765625 0.073638916015625 -4.099609375 1.2490234375 0.0007512569427490234 4.315376281738281e-05 -0.0660552978515625 0.06197357177734375
18.2215 0.1855010986328125 0.0645294189453125 -3.9849853515625 1.5770263671875 0.0004534721374511719 -0.0009142756462097168 -0.060882568359375 0.0669403076171875
18.23125 0.19060516357421875 0.05637359619140625 -3.8472900390625 1.8875732421875 0.0007064342498779297 -9.08970832824707e-05 -0.0568695068359375 0.07232284545898438
18.241 0.19195556640625 0.04825592041015625 -3.681884765625 2.1744384765625 0.0010510683059692383 -0.00030809640884399414 -0.050174713134765625 0.07749557495117188
18.25075 0.19501495361328125 0.0404815673828125 -3.5015869140625 2.445556640625 0.0006279051303863525 -0.0005203485488891602 -0.0454559326171875 0.08220672607421875
18.2605 0.19673919677734375 0.03182220458984375 -3.304931640625 2.70458984375 -0.00032024085521698 0.0001717209815979004 -0.03835296630859375 0.08673858642578125
18.27025 0.19860076904296875 0.02187347412109375 -3.0966796875 2.9517822265625 -0.000538945198059082 -0.0011782050132751465 -0.029895782470703125 0.09157943725585938
18.28 0.20059967041015625 0.01256561279296875 -2.8685302734375 3.2030029296875 0.0008074939250946045 2.9802322387695312e-08 -0.02447509765625 0.09428024291992188
18.28975 0.20308685302734375 0.002197265625 -2.6181640625 3.4307861328125 0.0015403032302856445 -0.0004813671112060547 -0.01572418212890625 0.0986175537109375
18.2995 0.2010498046875 -0.00662994384765625 -2.33642578125 3.6400146484375 -0.0002384185791015625 -0.0009902715682983398 -0.00730133056640625 0.09803390502929688
18.30925 0.2008209228515625 -0.0153350830078125 -2.025390625 3.820556640625 -0.0006035566329956055 -0.000338137149810791 0.000457763671875 0.10123443603515625
18.319 0.20000457763671875 -0.0257415771484375 -1.704345703125 3.9625244140625 -4.404596984386444e-05 6.1023980379104614e-05 0.008228302001953125 0.10347747802734375
18.32875 0.19869232177734375 -0.0323333740234375 -1.38037109375 4.068359375 0.0003077983856201172 -0.0011629462242126465 0.017154693603515625 0.1050262451171875
18.3385 0.1977691650390625 -0.0443878173828125 -1.054931640625 4.146484375 -3.644824028015137e-05 -0.0005383193492889404 0.02689361572265625 0.10577392578125
18.34825 0.1956634521484375 -0.05463409423828125 -0.74072265625 4.205322265625 0.0002873539924621582 0.00020679831504821777 0.0351409912109375 0.105865478515625
18.358 0.1930694580078125 -0.0616912841796875 -0.427734375 4.24755859375 0.00031766295433044434 -0.000751793384552002 0.043243408203125 0.10225677490234375
18.36775 0.18936920166015625 -0.071533203125 -0.1005859375 4.270263671875 -0.00023996829986572266 0.0009741783142089844 0.051910400390625 0.10240936279296875
18.3775 0.1866455078125 -0.0792236328125 0.220703125 4.287109375 0.0001907944679260254 0.0005033612251281738 0.06087493896484375 0.09967803955078125
18.38725 0.1824951171875 -0.08746337890625 0.573486328125 4.260009765625 0.00019478797912597656 0.0001312047243118286 0.0693206787109375 0.096527099609375
18.397 0.177490234375 -0.0953521728515625 0.92138671875 4.2001953125 -0.0006579160690307617 -0.00034880638122558594 0.0762176513671875 0.0936126708984375
18.40675 0.1712799072265625 -0.102203369140625 1.27294921875 4.10498046875 0.0007045269012451172 0.0009742975234985352 0.0855865478515625 0.0877685546875
18.4165 0.1667938232421875 -0.1109466552734375 1.592529296875 3.966796875 -0.0005460381507873535 -0.0005425214767456055 0.09091949462890625 0.0838165283203125
18.42625 0.1607208251953125 -0.11772918701171875 1.88671875 3.796875 6.288290023803711e-05 -0.0005651414394378662 0.099395751953125 0.07840728759765625
18.436 0.15373992919921875 -0.12299346923828125 2.15185546875 3.618408203125 0.00017101317644119263 4.7713518142700195e-05 0.10626983642578125 0.07129669189453125
18.44575 0.14593505859375 -0.130584716796875 2.39599609375 3.431640625 3.933906555175781e-06 -0.00011865049600601196 0.10912322998046875 0.06337738037109375
18.4555 0.13936614990234375 -0.13714599609375 2.62841796875 3.2412109375 -9.09566879272461e-05 -0.0007610917091369629 0.116180419921875 0.057037353515625
18.46525 0.13124847412109375 -0.14125823974609375 2.8623046875 3.047119140625 0.0004291832447052002 -0.0005927979946136475 0.121917724609375 0.04734039306640625
18.475 0.123138427734375 -0.14655303955078125 3.093505859375 2.836181640625 0.00018388032913208008 -8.508563041687012e-06 0.1268310546875 0.04100799560546875
18.48475 0.11713409423828125 -0.1527099609375 3.315185546875 2.589111328125 -0.00021825730800628662 0.00015760213136672974 0.12943267822265625 0.0298004150390625
18.4945 0.10733795166015625 -0.15493011474609375 3.51953125 2.30712890625 3.3020973205566406e-05 -0.0002135932445526123 0.1333160400390625 0.01917266845703125
18.50425 0.0991668701171875 -0.1590728759765625 3.6904296875 1.99853515625 0.0001814812421798706 1.8790364265441895e-05 0.1338043212890625 0.0119781494140625
18.514 0.0936126708984375 -0.162384033203125 3.8212890625 1.6806640625 0.00010544061660766602 -0.0006458759307861328 0.1366729736328125 0.00177001953125
18.52375 0.081878662109375 -0.164306640625 3.8994140625 1.35498046875 0.0005643963813781738 -0.00021883845329284668 0.13655853271484375 -0.007171630859375
18.5335 0.0765228271484375 -0.16745758056640625 3.9541015625 1.05126953125 0.0008411109447479248 -0.0006837546825408936 0.13773345947265625 -0.0157012939453125
18.54325 0.06763458251953125 -0.17069244384765625 3.98486328125 0.759521484375 0.001309037208557129 -4.780292510986328e-05 0.134613037109375 -0.02577972412109375
18.553 0.06011962890625 -0.17070770263671875 3.99951171875 0.47265625 0.0013323426246643066 -0.0013511180877685547 0.13286590576171875 -0.0323028564453125
18.56275 0.05248260498046875 -0.17154693603515625 4.019775390625 0.193115234375 0.0006566941738128662 -0.0001716911792755127 0.13106536865234375 -0.04161834716796875
18.5725 0.0437164306640625 -0.171234130859375 4.021728515625 -0.096435546875 0.00040078163146972656 -0.0008041560649871826 0.12652587890625 -0.05153656005859375
18.58225 0.035919189453125 -0.17134857177734375 4.006103515625 -0.3974609375 0.0009970664978027344 -0.00041878223419189453 0.12205886840820312 -0.058582305908203125
18.592 0.0277862548828125 -0.17298126220703125 3.9639892578125 -0.708251953125 6.645917892456055e-05 -0.0005483031272888184 0.11751937866210938 -0.06525039672851562
18.60175 0.0212249755859375 -0.170196533203125 3.88623046875 -1.016357421875 0.0010436773300170898 -0.0003584623336791992 0.11139678955078125 -0.0718231201171875
18.6115 0.01308441162109375 -0.1676483154296875 3.77197265625 -1.3095703125 0.0004877448081970215 -0.0007633566856384277 0.10589599609375 -0.08054351806640625
18.62125 0.0051422119140625 -0.16677093505859375 3.628662109375 -1.5782470703125 -0.0007072985172271729 -6.86347484588623e-05 0.0993499755859375 -0.08560943603515625
18.631 -0.00235748291015625 -0.16631317138671875 3.4765625 -1.8065185546875 0.0007843673229217529 -0.000890582799911499 0.09312057495117188 -0.09121322631835938
18.64075 -0.0105133056640625 -0.16391754150390625 3.3150634765625 -2.02685546875 -7.437169551849365e-05 -0.00027307868003845215 0.08827972412109375 -0.09604644775390625
18.6505 -0.0164794921875 -0.16260528564453125 3.1595458984375 -2.234375 -0.00047475099563598633 -0.0012363791465759277 0.07973098754882812 -0.09902191162109375
18.66025 -0.02460479736328125 -0.1595458984375 3.00048828125 -2.4337158203125 0.0010145306587219238 -0.00026041269302368164 0.0713348388671875 -0.10023880004882812
18.67 -0.0306396484375 -0.15544891357421875 2.831787109375 -2.6370849609375 0.0002085566520690918 -0.0015121698379516602 0.06620407104492188 -0.10308837890625
18.67975 -0.03812408447265625 -0.1529541015625 2.647216796875 -2.842529296875 0.0006696879863739014 -0.00034356117248535156 0.057910919189453125 -0.1067352294921875
18.6895 -0.04489898681640625 -0.1501617431640625 2.43359375 -3.03564453125 0.0004164278507232666 0.00014093518257141113 0.05208587646484375 -0.10531997680664062
