!Created with skrf (http://scikit-rf.org).
# GHz S RI R 50.0 
!freq ReS11 ImS11 ReS21 ImS21 ReS12 ImS12 ReS22 ImS22
17.5 0.01616668701171875 -0.13874053955078125 -1.9329833984375 3.8956298828125 -0.002024531364440918 6.99758529663086e-05 0.08974075317382812 0.0099639892578125
17.50975 0.0063934326171875 -0.137115478515625 -1.60693359375 4.033935546875 -0.0017297863960266113 0.0004883408546447754 0.09474563598632812 0.010356903076171875
17.5195 -0.0003814697265625 -0.13299560546875 -1.270751953125 4.1376953125 -0.0014508366584777832 0.0001417994499206543 0.09856796264648438 0.009124755859375
17.52925 -0.0087432861328125 -0.1295013427734375 -0.93408203125 4.22021484375 -0.0011504292488098145 0.0012062788009643555 0.10132598876953125 0.00411224365234375
17.539 -0.0135650634765625 -0.1259765625 -0.599609375 4.26513671875 -0.001462101936340332 0.0002630949020385742 0.10317230224609375 0.0023193359375
17.54875 -0.02254486083984375 -0.12119293212890625 -0.269287109375 4.279541015625 -0.0021054744720458984 0.0010699033737182617 0.10793304443359375 0.000682830810546875
17.5585 -0.03173065185546875 -0.11963653564453125 0.058349609375 4.289794921875 -0.0009157657623291016 0.0005170106887817383 0.1100616455078125 -0.00506591796875
17.56825 -0.03717041015625 -0.1137542724609375 0.3740234375 4.2763671875 -0.002642512321472168 0.0005254745483398438 0.11120986938476562 -0.007373809814453125
17.578 -0.04422760009765625 -0.108978271484375 0.713623046875 4.236083984375 -0.0004933476448059082 0.001648545265197754 0.11250686645507812 -0.011913299560546875
17.58775 -0.04974365234375 -0.10488128662109375 1.05419921875 4.174560546875 0.0003624558448791504 -0.0007462203502655029 0.114990234375 -0.01679229736328125
17.5975 -0.05621337890625 -0.09917449951171875 1.3984375 4.064697265625 -0.0012908577919006348 0.0014815926551818848 0.11646652221679688 -0.021331787109375
17.60725 -0.06072998046875 -0.09519195556640625 1.720458984375 3.927734375 -0.0008873939514160156 0.0021016597747802734 0.11682510375976562 -0.024658203125
17.617 -0.0654296875 -0.08728790283203125 2.02197265625 3.751708984375 -0.001657724380493164 0.0008537769317626953 0.120391845703125 -0.029972076416015625
17.62675 -0.07100677490234375 -0.0812530517578125 2.29638671875 3.552978515625 -0.0006417036056518555 0.0020008087158203125 0.11983489990234375 -0.035430908203125
17.6365 -0.0748748779296875 -0.074920654296875 2.53955078125 3.33740234375 -0.00019872188568115234 0.0010498762130737305 0.119903564453125 -0.039947509765625
17.64625 -0.080535888671875 -0.066864013671875 2.7529296875 3.122314453125 -0.00023254752159118652 0.00022895634174346924 0.11716079711914062 -0.04508209228515625
17.656 -0.08313751220703125 -0.06201934814453125 2.951416015625 2.912353515625 -0.001038670539855957 0.0004342198371887207 0.11442184448242188 -0.04975128173828125
17.66575 -0.0858154296875 -0.0531463623046875 3.147216796875 2.705078125 -0.000971376895904541 0.0014005303382873535 0.11492156982421875 -0.05309295654296875
17.6755 -0.088836669921875 -0.047454833984375 3.332763671875 2.481689453125 -0.001259148120880127 0.0010853409767150879 0.11159896850585938 -0.05905914306640625
17.68525 -0.0906982421875 -0.039215087890625 3.526123046875 2.257080078125 -0.0015691518783569336 3.898143768310547e-05 0.10924530029296875 -0.06522750854492188
17.695 -0.09405517578125 -0.03096771240234375 3.719482421875 1.98779296875 9.34600830078125e-05 0.0009552240371704102 0.10843276977539062 -0.07021713256835938
17.70475 -0.09490203857421875 -0.023792266845703125 3.890869140625 1.6884765625 -0.0007467269897460938 0.0016841888427734375 0.10407257080078125 -0.074676513671875
17.7145 -0.09780502319335938 -0.014049530029296875 4.03271484375 1.3505859375 -0.0010301470756530762 0.0006841421127319336 0.10097885131835938 -0.0793304443359375
17.72425 -0.0993804931640625 -0.007801055908203125 4.12109375 1.003173828125 -0.0008983612060546875 0.0009296834468841553 0.09579849243164062 -0.08402633666992188
17.734 -0.1010894775390625 -0.000370025634765625 4.16259765625 0.656005859375 -0.0007936954498291016 0.0012475848197937012 0.09320068359375 -0.08907699584960938
17.74375 -0.10126495361328125 0.006317138671875 4.14794921875 0.32470703125 -0.0007504820823669434 0.00022107362747192383 0.08893585205078125 -0.09356689453125
17.7535 -0.09896469116210938 0.014820098876953125 4.12353515625 0.018798828125 0.0006536245346069336 0.0010094642639160156 0.08449172973632812 -0.09923934936523438
17.76325 -0.0995025634765625 0.02227783203125 4.09375 -0.260498046875 0.0007849931716918945 0.0013235807418823242 0.07741165161132812 -0.10179519653320312
17.773 -0.09812545776367188 0.028766632080078125 4.053955078125 -0.53076171875 0.000379025936126709 0.0010227560997009277 0.07411575317382812 -0.1039581298828125
17.78275 -0.09681320190429688 0.03658294677734375 4.007080078125 -0.804931640625 -0.00023066997528076172 0.00145643949508667 0.06897354125976562 -0.10523223876953125
17.7925 -0.09387969970703125 0.043743133544921875 3.9619140625 -1.0888671875 0.00025272369384765625 0.001235663890838623 0.06357192993164062 -0.1093292236328125
17.80225 -0.09124374389648438 0.051067352294921875 3.8980712890625 -1.3922119140625 0.0010315179824829102 0.000567317008972168 0.0581512451171875 -0.11043548583984375
17.812 -0.08935165405273438 0.05857086181640625 3.7979736328125 -1.7020263671875 -0.0005499124526977539 0.0009966492652893066 0.052440643310546875 -0.11217498779296875
17.82175 -0.08618927001953125 0.06580352783203125 3.661376953125 -2.005126953125 0.0006341934204101562 0.0018323659896850586 0.04885101318359375 -0.11304092407226562
17.8315 -0.0817718505859375 0.07413482666015625 3.48388671875 -2.2984619140625 6.759166717529297e-05 0.0017847418785095215 0.041172027587890625 -0.11609268188476562
17.84125 -0.07901763916015625 0.0794219970703125 3.28662109375 -2.561279296875 0.00015063583850860596 -0.00013427436351776123 0.03424072265625 -0.1136016845703125
17.851 -0.072967529296875 0.0878143310546875 3.050537109375 -2.782958984375 -0.0009481906890869141 0.0009160339832305908 0.03049468994140625 -0.11478424072265625
17.86075 -0.07129669189453125 0.09189224243164062 2.8338623046875 -2.98291015625 0.00034815073013305664 0.00016200542449951172 0.0214691162109375 -0.11565399169921875
17.8705 -0.06510162353515625 0.09968185424804688 2.6058349609375 -3.1619873046875 0.00029289722442626953 0.0012454986572265625 0.01461029052734375 -0.11440277099609375
17.88025 -0.0611724853515625 0.106048583984375 2.3863525390625 -3.3380126953125 0.0006398558616638184 0.0009226799011230469 0.009166717529296875 -0.11285400390625
17.89 -0.0563507080078125 0.11237716674804688 2.1573486328125 -3.5025634765625 0.0004100799560546875 0.001569509506225586 0.003742218017578125 -0.1134490966796875
17.89975 -0.050548553466796875 0.11664199829101562 1.905029296875 -3.6710205078125 0.0004283785820007324 0.0006452202796936035 -0.0025787353515625 -0.11212539672851562
17.9095 -0.044902801513671875 0.12258529663085938 1.63134765625 -3.8349609375 0.001333475112915039 0.0014042854309082031 -0.00789642333984375 -0.11151885986328125
17.91925 -0.03752899169921875 0.12518310546875 1.3316650390625 -3.96337890625 0.0005856752395629883 0.0011374950408935547 -0.01336669921875 -0.1094970703125
17.929 -0.031524658203125 0.130340576171875 1.017578125 -4.07275390625 0.0002907216548919678 -0.00010704994201660156 -0.0208587646484375 -0.1082916259765625
17.93875 -0.02483367919921875 0.1337127685546875 0.690185546875 -4.136474609375 0.0023180246353149414 -0.00019121170043945312 -0.02506256103515625 -0.105499267578125
17.9485 -0.01904296875 0.137542724609375 0.3720703125 -4.162109375 -0.00037676095962524414 0.0011115074157714844 -0.03057861328125 -0.10115814208984375
17.95825 -0.0103759765625 0.14049530029296875 0.059326171875 -4.16748046875 0.0009601116180419922 0.0012313127517700195 -0.0332794189453125 -0.0975494384765625
17.968 -0.004486083984375 0.1433868408203125 -0.2353515625 -4.14990234375 0.0007201433181762695 0.0005128383636474609 -0.0419769287109375 -0.09532928466796875
17.97775 0.0046844482421875 0.14446258544921875 -0.52099609375 -4.1279296875 -0.00011420249938964844 0.0010677576065063477 -0.0455322265625 -0.08977508544921875
17.9875 0.0129852294921875 0.1468353271484375 -0.81640625 -4.09326171875 0.0006986856460571289 0.0017527341842651367 -0.04920196533203125 -0.08702850341796875
17.99725 0.02037811279296875 0.147003173828125 -1.11767578125 -4.055908203125 0.0010113716125488281 0.0005696415901184082 -0.054840087890625 -0.08148956298828125
18.007 0.0286865234375 0.1487884521484375 -1.42822265625 -3.9921875 0.0005803704261779785 0.0005410909652709961 -0.057830810546875 -0.0764007568359375
18.01675 0.03705596923828125 0.15058135986328125 -1.744384765625 -3.89111328125 0.0014653205871582031 0.0006965398788452148 -0.0629730224609375 -0.07204437255859375
18.0265 0.0459136962890625 0.150054931640625 -2.06103515625 -3.7587890625 0.0008656978607177734 -0.00018149614334106445 -0.067779541015625 -0.0666961669921875
18.03625 0.0544586181640625 0.1529541015625 -2.3642578125 -3.58740234375 0.002090930938720703 2.384185791015625e-06 -0.0700836181640625 -0.0604705810546875
18.046 0.06139373779296875 0.151458740234375 -2.64599609375 -3.3857421875 0.0017105340957641602 0.00029599666595458984 -0.07392120361328125 -0.05486297607421875
18.05575 0.0707550048828125 0.14775848388671875 -2.890380859375 -3.170166015625 0.0009622573852539062 0.0003273487091064453 -0.0795135498046875 -0.04979705810546875
18.0655 0.0788726806640625 0.14795684814453125 -3.109130859375 -2.938720703125 0.0006150007247924805 -0.0010349154472351074 -0.08040237426757812 -0.0432586669921875
18.07525 0.0859222412109375 0.14675140380859375 -3.31640625 -2.700927734375 0.0010992884635925293 -0.00010073184967041016 -0.08365249633789062 -0.0372467041015625
18.085 0.09485626220703125 0.1447296142578125 -3.513671875 -2.455078125 0.0012204647064208984 -0.0013225674629211426 -0.086517333984375 -0.029994964599609375
18.09475 0.10189056396484375 0.14167022705078125 -3.70166015625 -2.1982421875 0.001355290412902832 -0.00010883808135986328 -0.08465957641601562 -0.0234832763671875
18.1045 0.109527587890625 0.1365814208984375 -3.878662109375 -1.9248046875 0.0003854483366012573 -0.00037920475006103516 -0.08698272705078125 -0.017330169677734375
18.11425 0.1183929443359375 0.1345672607421875 -4.036376953125 -1.6240234375 0.0006254911422729492 -0.00033223628997802734 -0.08878326416015625 -0.01099395751953125
18.124 0.124267578125 0.129302978515625 -4.1650390625 -1.3076171875 -0.0002095252275466919 9.141862392425537e-05 -0.0865020751953125 -0.0016937255859375
18.13375 0.1327362060546875 0.1243896484375 -4.265869140625 -0.984375 0.00034373998641967773 0.0004107952117919922 -0.08655929565429688 0.004894256591796875
18.1435 0.1387786865234375 0.1200714111328125 -4.334716796875 -0.6435546875 0.0008505582809448242 -1.609325408935547e-05 -0.08744430541992188 0.014156341552734375
18.15325 0.14666748046875 0.11383056640625 -4.375244140625 -0.301025390625 0.0017880797386169434 -0.0012462735176086426 -0.0863037109375 0.02121734619140625
18.163 0.1538543701171875 0.1067047119140625 -4.3876953125 0.032958984375 0.0015317797660827637 -0.0005984306335449219 -0.08182525634765625 0.02808380126953125
18.17275 0.158843994140625 0.102691650390625 -4.376953125 0.3701171875 0.00045794248580932617 -0.0014474987983703613 -0.08078765869140625 0.033687591552734375
18.1825 0.16571044921875 0.09344482421875 -4.352783203125 0.705810546875 0.00106734037399292 -0.001420140266418457 -0.07794952392578125 0.043666839599609375
18.19225 0.16949462890625 0.086944580078125 -4.304931640625 1.052490234375 0.0007300674915313721 -0.0003819763660430908 -0.07339096069335938 0.049228668212890625
18.202 0.1773529052734375 0.0807952880859375 -4.22265625 1.38427734375 0.0003815889358520508 -0.000614166259765625 -0.07137298583984375 0.0566558837890625
18.21175 0.1814422607421875 0.0721435546875 -4.1064453125 1.72998046875 -0.00019949674606323242 -5.435943603515625e-05 -0.0657501220703125 0.06333160400390625
18.2215 0.187744140625 0.06420135498046875 -3.9520263671875 2.0538330078125 0.00041425228118896484 -0.0016483068466186523 -0.0607147216796875 0.06817245483398438
18.23125 0.18981170654296875 0.056304931640625 -3.77587890625 2.3538818359375 0.0011060237884521484 -0.0014733672142028809 -0.056728363037109375 0.07288360595703125
18.241 0.1942901611328125 0.0474395751953125 -3.571044921875 2.6358642578125 0.00038649141788482666 7.742643356323242e-05 -0.04956817626953125 0.08020401000976562
18.25075 0.19606781005859375 0.03997802734375 -3.361083984375 2.89697265625 -9.189918637275696e-05 6.2175095081329346e-06 -0.0442352294921875 0.08396148681640625
18.2605 0.19840240478515625 0.03033447265625 -3.1328125 3.1461181640625 0.00013494491577148438 -0.001039266586303711 -0.037883758544921875 0.08715438842773438
18.27025 0.19879913330078125 0.021209716796875 -2.8919677734375 3.376220703125 0.0004531443119049072 0.00038102269172668457 -0.0308074951171875 0.09244155883789062
18.28 0.2016143798828125 0.011383056640625 -2.6304931640625 3.610595703125 -0.0006424784660339355 -0.0010996460914611816 -0.022491455078125 0.0954742431640625
18.28975 0.202178955078125 0.00153350830078125 -2.3472900390625 3.815185546875 0.0005287528038024902 7.11977481842041e-05 -0.01526641845703125 0.09949111938476562
18.2995 0.2030181884765625 -0.0080108642578125 -2.03662109375 4.00244140625 0.0006990730762481689 0.0002678334712982178 -0.0063629150390625 0.09911346435546875
18.30925 0.2017974853515625 -0.01824951171875 -1.6962890625 4.15185546875 -0.00036334991455078125 -0.0010086297988891602 0.00189208984375 0.10134124755859375
18.319 0.19971466064453125 -0.02599334716796875 -1.352783203125 4.26708984375 0.00045052170753479004 -0.00017705559730529785 0.009258270263671875 0.10482406616210938
18.32875 0.19911956787109375 -0.0342864990234375 -1.00439453125 4.340087890625 -9.998679161071777e-05 -0.0007253587245941162 0.019786834716796875 0.10434722900390625
18.3385 0.19571685791015625 -0.04543304443359375 -0.66455078125 4.38232421875 0.0003457069396972656 -0.0006678104400634766 0.0295257568359375 0.10689544677734375
18.34825 0.19533538818359375 -0.054656982421875 -0.334716796875 4.4169921875 0.0002999156713485718 -5.829334259033203e-05 0.03678131103515625 0.1045684814453125
18.358 0.1920013427734375 -0.063018798828125 -0.00732421875 4.4287109375 0.0012562274932861328 -0.0007826089859008789 0.0462646484375 0.1040802001953125
18.36775 0.18947601318359375 -0.07154083251953125 0.3310546875 4.422119140625 5.900859832763672e-06 -0.0004957914352416992 0.05306243896484375 0.10140228271484375
18.3775 0.1854705810546875 -0.079620361328125 0.667236328125 4.40576171875 -0.00017676502466201782 7.873028516769409e-05 0.061737060546875 0.09987640380859375
18.38725 0.18194580078125 -0.08834075927734375 1.029541015625 4.347412109375 0.00012180954217910767 3.742426633834839e-05 0.07004547119140625 0.0971832275390625
18.397 0.1778411865234375 -0.0974578857421875 1.3779296875 4.25 -3.1113624572753906e-05 -0.0009055733680725098 0.0782928466796875 0.09368896484375
18.40675 0.1709136962890625 -0.103271484375 1.72900390625 4.11083984375 -0.0002771615982055664 -0.0006714463233947754 0.08697509765625 0.087554931640625
18.4165 0.1659393310546875 -0.11167144775390625 2.047607421875 3.93994140625 0.00031310319900512695 0.0002754032611846924 0.09261322021484375 0.082855224609375
18.42625 0.15961456298828125 -0.11769866943359375 2.328369140625 3.733154296875 -0.0003784298896789551 -0.0006269216537475586 0.099609375 0.07643890380859375
18.436 0.1529693603515625 -0.1232147216796875 2.583251953125 3.52001953125 -0.0002840757369995117 0.001179337501525879 0.10802459716796875 0.0704345703125
18.44575 0.14475250244140625 -0.13088226318359375 2.817138671875 3.300537109375 0.00013718754053115845 -0.00024233758449554443 0.11219024658203125 0.06377410888671875
18.4555 0.13652801513671875 -0.13726043701171875 3.037841796875 3.08349609375 -3.11192125082016e-05 5.761347711086273e-05 0.117584228515625 0.05599212646484375
18.46525 0.1316070556640625 -0.14206695556640625 3.258544921875 2.861328125 -0.0002753138542175293 -0.0007929205894470215 0.12284088134765625 0.04512786865234375
18.475 0.1217041015625 -0.14719390869140625 3.475830078125 2.6220703125 0.0006961822509765625 0.0007040500640869141 0.12799835205078125 0.03855133056640625
18.48475 0.116668701171875 -0.15097808837890625 3.6806640625 2.3408203125 0.0007533133029937744 -1.0132789611816406e-06 0.13088226318359375 0.02957916259765625
18.4945 0.10610198974609375 -0.15502166748046875 3.86376953125 2.033935546875 0.0008106827735900879 -0.0001787245273590088 0.13352203369140625 0.01966094970703125
18.50425 0.0988311767578125 -0.16046142578125 4.0126953125 1.69677734375 0.0006957650184631348 -0.0005671381950378418 0.134307861328125 0.0117034912109375
18.514 0.0925445556640625 -0.1627349853515625 4.11328125 1.3583984375 0.00022715330123901367 0.0006518363952636719 0.137054443359375 0.0004119873046875
18.52375 0.08374786376953125 -0.163848876953125 4.165771484375 1.015380859375 0.0006193816661834717 1.9282102584838867e-05 0.13649749755859375 -0.0083770751953125
18.5335 0.07477569580078125 -0.16709136962890625 4.189697265625 0.693603515625 0.0013184547424316406 0.00024884939193725586 0.1385650634765625 -0.01741790771484375
18.54325 0.068695068359375 -0.16954803466796875 4.19384765625 0.392333984375 -0.00026935338973999023 -0.0008202195167541504 0.135711669921875 -0.0270538330078125
18.553 0.05938720703125 -0.17049407958984375 4.184326171875 0.095458984375 3.6112964153289795e-05 0.00011230260133743286 0.1333465576171875 -0.03383636474609375
18.56275 0.05139923095703125 -0.1690673828125 4.172607421875 -0.19384765625 0.00024110078811645508 -0.0004930198192596436 0.13057708740234375 -0.04242706298828125
18.5725 0.0436248779296875 -0.1708526611328125 4.147216796875 -0.494384765625 -0.00036901235580444336 -0.0009410381317138672 0.12586212158203125 -0.051605224609375
18.58225 0.03551483154296875 -0.1715850830078125 4.100341796875 -0.800048828125 0.0003440976142883301 -0.000904470682144165 0.12183761596679688 -0.05957794189453125
18.592 0.0264434814453125 -0.17020416259765625 4.0205078125 -1.1181640625 -0.000302046537399292 0.00042870640754699707 0.11674880981445312 -0.06888198852539062
18.60175 0.0193328857421875 -0.168853759765625 3.91552734375 -1.4287109375 0.00140380859375 -0.0009404420852661133 0.11034393310546875 -0.07321929931640625
18.6115 0.0117340087890625 -0.16770172119140625 3.76708984375 -1.7197265625 -7.002800703048706e-05 -0.00015295296907424927 0.10652923583984375 -0.08284759521484375
18.62125 0.0036468505859375 -0.16649627685546875 3.5947265625 -1.9793701171875 8.597224950790405e-05 0.00012487918138504028 0.09946823120117188 -0.0857391357421875
18.631 -0.00311279296875 -0.16534423828125 3.41650390625 -2.202880859375 0.0008945465087890625 -0.0004169940948486328 0.09100723266601562 -0.09314346313476562
18.64075 -0.0095367431640625 -0.16241455078125 3.2276611328125 -2.41357421875 -0.0009454488754272461 -0.0001437664031982422 0.08620452880859375 -0.095550537109375
18.6505 -0.015716552734375 -0.16046142578125 3.050048828125 -2.6119384765625 0.00042259693145751953 -0.0014763474464416504 0.0790557861328125 -0.10044479370117188
18.66025 -0.0248260498046875 -0.15808868408203125 2.870849609375 -2.8048095703125 -2.9921531677246094e-05 -0.0011383295059204102 0.07116317749023438 -0.1019134521484375
18.67 -0.03034210205078125 -0.15522003173828125 2.6751708984375 -2.996826171875 0.0007728934288024902 -0.0005555152893066406 0.0644073486328125 -0.104583740234375
18.67975 -0.037841796875 -0.15248870849609375 2.4661865234375 -3.1920166015625 -0.0005396604537963867 -0.0008637309074401855 0.057415008544921875 -0.10799026489257812
18.6895 -0.04434967041015625 -0.15021514892578125 2.2249755859375 -3.3692626953125 0.0003865063190460205 -0.0007568299770355225 0.050914764404296875 -0.10792922973632812
