!Created with skrf (http://scikit-rf.org).
# GHz S RI R 50.0 
!freq ReS11 ImS11 ReS21 ImS21 ReS12 ImS12 ReS22 ImS22
17.5 -0.00133514404296875 -0.14791107177734375 2.1748046875 -4.07861328125 6.258487701416016e-06 0.0010468363761901855 0.10722732543945312 -0.008724212646484375
17.50975 -0.01050567626953125 -0.14404296875 1.85107421875 -4.22802734375 -0.0017233490943908691 0.00034886598587036133 0.1082305908203125 -0.011928558349609375
17.5195 -0.0181732177734375 -0.13805389404296875 1.5185546875 -4.346435546875 -0.0007781982421875 0.0020738840103149414 0.110015869140625 -0.013614654541015625
17.52925 -0.0272369384765625 -0.1349029541015625 1.1865234375 -4.4501953125 -0.0005074143409729004 0.0009653568267822266 0.1112823486328125 -0.01917266845703125
17.539 -0.0337982177734375 -0.129058837890625 0.85302734375 -4.52197265625 -0.0015006065368652344 0.0009926557540893555 0.111053466796875 -0.023284912109375
17.54875 -0.042266845703125 -0.12412261962890625 0.5146484375 -4.563720703125 -0.0011331439018249512 0.00017404556274414062 0.11272811889648438 -0.02568817138671875
17.5585 -0.05150604248046875 -0.11862945556640625 0.176513671875 -4.598876953125 -0.0020231008529663086 0.0006994009017944336 0.11408615112304688 -0.02823638916015625
17.56825 -0.0574798583984375 -0.112640380859375 -0.156005859375 -4.616455078125 -0.0014497637748718262 -0.000156402587890625 0.11387252807617188 -0.03350830078125
17.578 -0.06383514404296875 -0.1062469482421875 -0.5107421875 -4.60302734375 -0.001308441162109375 0.00030732154846191406 0.11368942260742188 -0.03731536865234375
17.58775 -0.07045745849609375 -0.099700927734375 -0.870361328125 -4.564453125 -0.001045525074005127 0.001478731632232666 0.1115264892578125 -0.04119873046875
17.5975 -0.07275390625 -0.09288787841796875 -1.238525390625 -4.486083984375 -0.0007748901844024658 0.00011670589447021484 0.11236572265625 -0.045642852783203125
17.60725 -0.07920074462890625 -0.0872650146484375 -1.58447265625 -4.36474609375 -0.0018417835235595703 -0.00044918060302734375 0.11008453369140625 -0.048992156982421875
17.617 -0.0840301513671875 -0.0789794921875 -1.90966796875 -4.21435546875 -0.0008982419967651367 0.0006816089153289795 0.11067581176757812 -0.05271148681640625
17.62675 -0.0890350341796875 -0.07122802734375 -2.2109375 -4.03955078125 -0.0008663535118103027 0.0007655620574951172 0.10883331298828125 -0.05591583251953125
17.6365 -0.0923309326171875 -0.0635528564453125 -2.49267578125 -3.84912109375 -0.0008362531661987305 0.0007638931274414062 0.10565185546875 -0.0611419677734375
17.64625 -0.094940185546875 -0.05377197265625 -2.746826171875 -3.654541015625 0.00015753507614135742 0.00014920532703399658 0.10258865356445312 -0.06456375122070312
17.656 -0.09796142578125 -0.04700469970703125 -2.9921875 -3.459228515625 0.00025659799575805664 0.0008299946784973145 0.09981918334960938 -0.06861114501953125
17.66575 -0.09958648681640625 -0.037841796875 -3.237060546875 -3.266357421875 0.00012868642807006836 0.001466989517211914 0.0975189208984375 -0.072723388671875
17.6755 -0.10109710693359375 -0.02948760986328125 -3.476806640625 -3.04541015625 -0.001249551773071289 0.0004076957702636719 0.0942840576171875 -0.075714111328125
17.68525 -0.1032562255859375 -0.020172119140625 -3.728271484375 -2.814697265625 -0.000688403844833374 0.0006130337715148926 0.09035491943359375 -0.08048629760742188
17.695 -0.10342788696289062 -0.010997772216796875 -3.97216796875 -2.539306640625 -0.0009938478469848633 0.001621246337890625 0.08646011352539062 -0.08363723754882812
17.70475 -0.10393905639648438 -0.003238677978515625 -4.190185546875 -2.218505859375 -0.0006408095359802246 0.001817941665649414 0.08090972900390625 -0.08657455444335938
17.7145 -0.10570144653320312 0.00530242919921875 -4.387451171875 -1.87255859375 0.000303119421005249 0.000570148229598999 0.0780487060546875 -0.08782577514648438
17.72425 -0.10396957397460938 0.014827728271484375 -4.522216796875 -1.500732421875 -0.0011220574378967285 0.0011014342308044434 0.07080078125 -0.091552734375
17.734 -0.1033477783203125 0.01959991455078125 -4.615234375 -1.130859375 -0.0014567375183105469 0.0007414817810058594 0.068450927734375 -0.09417724609375
17.74375 -0.10292434692382812 0.02740478515625 -4.65087890625 -0.769287109375 1.7434358596801758e-05 0.000688403844833374 0.06375885009765625 -0.0980987548828125
17.7535 -0.09886550903320312 0.03649139404296875 -4.68359375 -0.427978515625 0.0010390281677246094 0.0028100013732910156 0.0593109130859375 -0.09905242919921875
17.76325 -0.09826278686523438 0.043697357177734375 -4.70458984375 -0.107177734375 -0.00034609436988830566 0.00070229172706604 0.052257537841796875 -0.10007858276367188
17.773 -0.094970703125 0.051265716552734375 -4.706298828125 0.21435546875 -0.00026363134384155273 0.0010119080543518066 0.050106048583984375 -0.10179901123046875
17.78275 -0.09260177612304688 0.05883026123046875 -4.6982421875 0.550048828125 -0.00046956539154052734 0.0013517141342163086 0.043712615966796875 -0.10186767578125
17.7925 -0.08712005615234375 0.06508636474609375 -4.68505859375 0.893310546875 -0.0007671117782592773 0.0014034509658813477 0.039829254150390625 -0.10321044921875
17.80225 -0.08420181274414062 0.07159423828125 -4.648193359375 1.26318359375 -0.00014603137969970703 0.0010925531387329102 0.03386688232421875 -0.10250473022460938
17.812 -0.07903289794921875 0.07722091674804688 -4.570556640625 1.640380859375 -0.00018139928579330444 2.7745962142944336e-05 0.02819061279296875 -0.1031036376953125
17.82175 -0.07342529296875 0.0844879150390625 -4.44384765625 2.0107421875 -4.220008850097656e-05 0.0011486411094665527 0.0260467529296875 -0.10104751586914062
17.8315 -0.06880569458007812 0.08987045288085938 -4.279296875 2.3720703125 0.0014661550521850586 0.0008554458618164062 0.01888275146484375 -0.10119247436523438
17.84125 -0.0630950927734375 0.09619140625 -4.08984375 2.708984375 -0.000607907772064209 0.00041031837463378906 0.01329803466796875 -0.0992279052734375
17.851 -0.056766510009765625 0.10297393798828125 -3.8533935546875 3.0106201171875 -0.0006052255630493164 0.0012966394424438477 0.010219573974609375 -0.09876251220703125
17.86075 -0.052211761474609375 0.10616302490234375 -3.6256103515625 3.2867431640625 0.0003591775894165039 0.0011213421821594238 0.004425048828125 -0.09568405151367188
17.8705 -0.045528411865234375 0.11157989501953125 -3.3756103515625 3.5521240234375 -0.00010758638381958008 0.0014188289642333984 0.00148773193359375 -0.09474563598632812
17.88025 -0.039051055908203125 0.11587905883789062 -3.118896484375 3.80419921875 0.00010836124420166016 -0.0004895627498626709 -0.00568389892578125 -0.09452056884765625
17.89 -0.033359527587890625 0.12060928344726562 -2.852294921875 4.052734375 0.0005942583084106445 2.5004148483276367e-05 -0.008106231689453125 -0.09148406982421875
17.89975 -0.0265960693359375 0.1236419677734375 -2.544189453125 4.293701171875 0.0011537671089172363 0.0006808042526245117 -0.013843536376953125 -0.09058380126953125
17.9095 -0.0231170654296875 0.12686920166015625 -2.214599609375 4.521728515625 0.000604093074798584 0.0005320310592651367 -0.01923370361328125 -0.08774948120117188
17.91925 -0.0146636962890625 0.12783050537109375 -1.8525390625 4.701904296875 0.0006979107856750488 0.0011632442474365234 -0.022113800048828125 -0.08599472045898438
17.929 -0.0078887939453125 0.1309661865234375 -1.474609375 4.86669921875 0.0007217526435852051 -2.759695053100586e-05 -0.02685546875 -0.08380889892578125
17.93875 -0.0009002685546875 0.13285064697265625 -1.07958984375 4.981689453125 0.0003058314323425293 0.0009870529174804688 -0.02910614013671875 -0.07930374145507812
17.9485 0.00525665283203125 0.13393402099609375 -0.6875 5.0498046875 0.00040519237518310547 0.0006578564643859863 -0.032619476318359375 -0.07412338256835938
17.95825 0.01166534423828125 0.1346588134765625 -0.292724609375 5.0947265625 0.0008306503295898438 8.687376976013184e-05 -0.034076690673828125 -0.07310104370117188
17.968 0.01971435546875 0.13475799560546875 0.09326171875 5.117431640625 0.002158045768737793 0.0016188621520996094 -0.03845977783203125 -0.0701141357421875
17.97775 0.02735137939453125 0.13530731201171875 0.479736328125 5.1123046875 0.00017637014389038086 0.0006892383098602295 -0.041721343994140625 -0.06554031372070312
17.9875 0.0341949462890625 0.1359100341796875 0.885986328125 5.093505859375 0.0008504986763000488 0.0003961920738220215 -0.04375457763671875 -0.06146240234375
17.99725 0.04068756103515625 0.1349639892578125 1.29443359375 5.04541015625 0.0009301900863647461 0.0006957054138183594 -0.046405792236328125 -0.05625152587890625
18.007 0.04811859130859375 0.1336212158203125 1.71142578125 4.955810546875 0.0008608102798461914 0.0014367103576660156 -0.048675537109375 -0.053783416748046875
18.01675 0.05567169189453125 0.1348724365234375 2.124267578125 4.822021484375 0.00017690658569335938 0.0008113384246826172 -0.051250457763671875 -0.048473358154296875
18.0265 0.0620269775390625 0.1318359375 2.53271484375 4.6435546875 0.0005052089691162109 0.0004140138626098633 -0.0530548095703125 -0.044219970703125
18.03625 0.06899261474609375 0.13205718994140625 2.91552734375 4.4208984375 0.0003280043601989746 0.0006317198276519775 -0.055004119873046875 -0.038234710693359375
18.046 0.07379150390625 0.13007354736328125 3.276123046875 4.1591796875 0.0007227659225463867 -0.0005738437175750732 -0.05702972412109375 -0.03481292724609375
18.05575 0.08090972900390625 0.1257781982421875 3.59375 3.884765625 0.0020107030868530273 0.0010873079299926758 -0.06002044677734375 -0.030567169189453125
18.0655 0.0857086181640625 0.1255035400390625 3.883056640625 3.58642578125 0.0008727908134460449 0.000635683536529541 -0.059986114501953125 -0.026092529296875
18.07525 0.0931396484375 0.122100830078125 4.159912109375 3.26953125 0.0010048747062683105 -0.00041562318801879883 -0.0614166259765625 -0.0201416015625
18.085 0.09911346435546875 0.1182861328125 4.417236328125 2.934814453125 0.001520991325378418 -0.00019222497940063477 -0.062591552734375 -0.016674041748046875
18.09475 0.105255126953125 0.11573028564453125 4.6552734375 2.5810546875 0.0007575750350952148 -0.00037285685539245605 -0.061962127685546875 -0.013946533203125
18.1045 0.1111907958984375 0.111175537109375 4.862548828125 2.20068359375 0.0011187195777893066 0.00024259090423583984 -0.062007904052734375 -0.005245208740234375
18.11425 0.11557769775390625 0.10945892333984375 5.041015625 1.78662109375 0.0011903047561645508 -0.0004190206527709961 -0.06220245361328125 -0.003204345703125
18.124 0.1191253662109375 0.1043853759765625 5.17626953125 1.36328125 0.0008506178855895996 1.1742115020751953e-05 -0.060821533203125 0.004486083984375
18.13375 0.12474822998046875 0.10112762451171875 5.26953125 0.936279296875 0.0010694265365600586 0.00012564659118652344 -0.05933570861816406 0.007137298583984375
18.1435 0.1291351318359375 0.09583282470703125 5.317138671875 0.499267578125 0.001317739486694336 0.0009652376174926758 -0.05909919738769531 0.013521194458007812
18.15325 0.13423919677734375 0.0911102294921875 5.33544921875 0.057373046875 0.0015304088592529297 0.0005428791046142578 -0.05862617492675781 0.018346786499023438
18.163 0.13967132568359375 0.0860595703125 5.3037109375 -0.368896484375 0.0014550089836120605 0.0003854036331176758 -0.05493927001953125 0.024114608764648438
18.17275 0.14400482177734375 0.08110809326171875 5.25732421875 -0.789794921875 0.0005106329917907715 0.0004794001579284668 -0.05248451232910156 0.028818130493164062
18.1825 0.1483154296875 0.0760040283203125 5.17724609375 -1.2060546875 0.0008864700794219971 -0.0006721317768096924 -0.05083465576171875 0.03639030456542969
18.19225 0.150665283203125 0.07077789306640625 5.068359375 -1.62890625 0.0004581958055496216 -3.872811794281006e-05 -0.04657173156738281 0.03897857666015625
18.202 0.156982421875 0.066131591796875 4.92041015625 -2.0263671875 0.0014240741729736328 -0.0013293027877807617 -0.046619415283203125 0.043430328369140625
18.21175 0.1595611572265625 0.06121826171875 4.732421875 -2.43310546875 -0.00026676058769226074 -0.00015750527381896973 -0.041492462158203125 0.049266815185546875
18.2215 0.16384124755859375 0.05462646484375 4.5029296875 -2.812255859375 -7.069110870361328e-05 -0.0011430978775024414 -0.03675079345703125 0.051593780517578125
18.23125 0.167938232421875 0.04772186279296875 4.2431640625 -3.161376953125 0.00047576427459716797 -0.0008199214935302734 -0.03537178039550781 0.05477333068847656
18.241 0.1694183349609375 0.041656494140625 3.9495849609375 -3.4779052734375 -0.0002484917640686035 -0.0006108283996582031 -0.03145408630371094 0.05953216552734375
18.25075 0.1715545654296875 0.03461456298828125 3.6502685546875 -3.76416015625 0.0008639097213745117 -0.0011594891548156738 -0.025867462158203125 0.061969757080078125
18.2605 0.1741485595703125 0.02838134765625 3.325439453125 -4.019775390625 -9.778141975402832e-05 -0.00016891956329345703 -0.019741058349609375 0.06667709350585938
18.27025 0.17456817626953125 0.02105712890625 2.99951171875 -4.263427734375 0.0005359649658203125 -0.0008418858051300049 -0.015087127685546875 0.069366455078125
18.28 0.17855072021484375 0.01366424560546875 2.643798828125 -4.487548828125 0.0009954571723937988 0.00011026859283447266 -0.01033782958984375 0.06975555419921875
18.28975 0.179473876953125 0.0065460205078125 2.28515625 -4.681396484375 0.0005745887756347656 -0.0002308487892150879 -0.00473785400390625 0.07240676879882812
18.2995 0.1800384521484375 -7.62939453125e-06 1.891357421875 -4.8388671875 0.001208484172821045 -0.0011533498764038086 0.00296783447265625 0.07347488403320312
18.30925 0.17938232421875 -0.0089111328125 1.48291015625 -4.96728515625 0.0007795095443725586 -0.001044631004333496 0.00830841064453125 0.074951171875
18.319 0.17945098876953125 -0.01732635498046875 1.067626953125 -5.04736328125 0.00044041872024536133 -0.0003768652677536011 0.014652252197265625 0.07598876953125
18.32875 0.17870330810546875 -0.0226287841796875 0.656005859375 -5.0927734375 -3.889203071594238e-05 -0.0008737146854400635 0.022571563720703125 0.07513046264648438
18.3385 0.17957305908203125 -0.031494140625 0.248291015625 -5.097412109375 0.0008745491504669189 -0.00092354416847229 0.028942108154296875 0.07711029052734375
18.34825 0.179534912109375 -0.04034423828125 -0.1484375 -5.09521484375 0.0011426210403442383 4.8220157623291016e-05 0.0337677001953125 0.07751083374023438
18.358 0.1763458251953125 -0.04795074462890625 -0.53662109375 -5.048828125 -0.0006819963455200195 -0.0003307461738586426 0.041271209716796875 0.07523345947265625
18.36775 0.1742095947265625 -0.0543975830078125 -0.93798828125 -4.984130859375 0.0003103017807006836 -0.0015534162521362305 0.04625701904296875 0.0723419189453125
18.3775 0.17429351806640625 -0.0605010986328125 -1.318115234375 -4.89111328125 7.82012939453125e-05 -0.00032976269721984863 0.051025390625 0.07232666015625
18.38725 0.1726226806640625 -0.0695343017578125 -1.713134765625 -4.757568359375 0.0011318325996398926 -0.001311182975769043 0.05736541748046875 0.07051849365234375
18.397 0.16876220703125 -0.076568603515625 -2.08740234375 -4.587890625 -0.000648796558380127 -0.0001983642578125 0.06329345703125 0.0679168701171875
18.40675 0.1657867431640625 -0.08233642578125 -2.45458984375 -4.38037109375 0.00015944242477416992 -0.0004965066909790039 0.0702362060546875 0.064117431640625
18.4165 0.162139892578125 -0.08887481689453125 -2.7802734375 -4.137939453125 0.00044402480125427246 0.00018593668937683105 0.07367706298828125 0.0609588623046875
18.42625 0.15818023681640625 -0.095550537109375 -3.075927734375 -3.87109375 0.0001483708620071411 -0.0003581047058105469 0.07991790771484375 0.0553131103515625
18.436 0.1513214111328125 -0.1019134521484375 -3.339599609375 -3.596923828125 -0.0004687309265136719 0.0005130171775817871 0.08638763427734375 0.0507049560546875
18.44575 0.14759063720703125 -0.10986328125 -3.578125 -3.30908203125 0.0002359449863433838 -0.0004277080297470093 0.088470458984375 0.0450286865234375
18.4555 0.14125823974609375 -0.11568450927734375 -3.80078125 -3.0126953125 -0.0005049705505371094 0.0001723170280456543 0.09200286865234375 0.03884124755859375
18.46525 0.1355743408203125 -0.1219635009765625 -4.021240234375 -2.7158203125 -0.00033462047576904297 -0.0005027651786804199 0.09616851806640625 0.03237152099609375
18.475 0.13140106201171875 -0.12755584716796875 -4.213623046875 -2.393310546875 0.00030097365379333496 -0.00012931227684020996 0.100677490234375 0.02587127685546875
18.48475 0.1258087158203125 -0.13394927978515625 -4.384765625 -2.041015625 2.968311309814453e-05 -0.0010796785354614258 0.10369110107421875 0.0212554931640625
18.4945 0.11800384521484375 -0.1378326416015625 -4.51953125 -1.6572265625 0.00019322335720062256 0.00011304020881652832 0.10522079467773438 0.011383056640625
18.50425 0.1105804443359375 -0.144927978515625 -4.62255859375 -1.26708984375 -0.0003719329833984375 0.0007303357124328613 0.106475830078125 0.0063629150390625
18.514 0.10626220703125 -0.1484527587890625 -4.67138671875 -0.876953125 -0.00013375282287597656 -0.0011049509048461914 0.10799407958984375 -0.00176239013671875
18.52375 0.09677886962890625 -0.15179443359375 -4.6748046875 -0.491943359375 0.0002840012311935425 -0.00032244622707366943 0.10871124267578125 -0.00717926025390625
18.5335 0.0914459228515625 -0.15631103515625 -4.645263671875 -0.1318359375 0.0006003081798553467 0.0003535151481628418 0.10826492309570312 -0.012775421142578125
18.54325 0.0828857421875 -0.16048431396484375 -4.59716796875 0.206298828125 0.000578075647354126 0.0003914833068847656 0.10871124267578125 -0.021152496337890625
18.553 0.07684326171875 -0.1642303466796875 -4.528564453125 0.54052734375 0.0009428262710571289 -0.0010796189308166504 0.10570907592773438 -0.027088165283203125
18.56275 0.0690460205078125 -0.1652679443359375 -4.457763671875 0.86474609375 0.001485586166381836 -0.0006997585296630859 0.105682373046875 -0.032192230224609375
18.5725 0.0594024658203125 -0.16738128662109375 -4.359375 1.186279296875 0.0002339780330657959 -0.0006147325038909912 0.10120773315429688 -0.039180755615234375
18.58225 0.05268096923828125 -0.169158935546875 -4.2431640625 1.516357421875 0.0007789731025695801 -0.0012111663818359375 0.0978851318359375 -0.045680999755859375
18.592 0.04341888427734375 -0.17069244384765625 -4.08984375 1.840087890625 -0.0004953742027282715 -0.00011497735977172852 0.094329833984375 -0.050823211669921875
18.60175 0.0355072021484375 -0.16943359375 -3.9130859375 2.15283203125 0.0008397102355957031 -0.00012123584747314453 0.0898590087890625 -0.05619049072265625
18.6115 0.02773284912109375 -0.170379638671875 -3.69091796875 2.429931640625 0.000541001558303833 -0.00041234493255615234 0.08642578125 -0.062168121337890625
18.62125 0.01845550537109375 -0.1710205078125 -3.4554443359375 2.6815185546875 0.0001696273684501648 1.2889504432678223e-06 0.08150863647460938 -0.0669403076171875
18.631 0.0111541748046875 -0.171142578125 -3.2166748046875 2.88916015625 -0.00011518597602844238 -0.00022178888320922852 0.07746124267578125 -0.07096481323242188
18.64075 0.0033416748046875 -0.17028045654296875 -2.9664306640625 3.0806884765625 -0.0006428956985473633 -0.0010100007057189941 0.07221221923828125 -0.07465362548828125
18.6505 -0.0045013427734375 -0.16963958740234375 -2.72412109375 3.2554931640625 0.00047200918197631836 -0.0015333294868469238 0.06705474853515625 -0.07721710205078125
18.66025 -0.014312744140625 -0.1671295166015625 -2.4771728515625 3.4244384765625 -0.00037384033203125 -0.0007642507553100586 0.06085205078125 -0.07876205444335938
18.67 -0.02025604248046875 -0.16500091552734375 -2.21826171875 3.5806884765625 0.0012667179107666016 -0.0007880926132202148 0.057159423828125 -0.08132553100585938
18.67975 -0.0290985107421875 -0.16167449951171875 -1.9466552734375 3.728759765625 -0.0002779364585876465 -0.0008298158645629883 0.05040740966796875 -0.08136367797851562
18.6895 -0.03563690185546875 -0.159515380859375 -1.6484375 3.8494873046875 -0.0001627206802368164 0.0008943080902099609 0.046169281005859375 -0.0822906494140625
