!Created with skrf (http://scikit-rf.org).
# GHz S RI R 50.0 
!freq ReS11 ImS11 ReS21 ImS21 ReS12 ImS12 ReS22 ImS22
17.5 0.0156707763671875 -0.1491241455078125 3.5029296875 3.304931640625 -0.0023567676544189453 0.0009644031524658203 0.1071014404296875 0.0113983154296875
17.50975 0.005950927734375 -0.149200439453125 3.751708984375 3.00634765625 -0.0020384788513183594 0.00016117095947265625 0.10987472534179688 0.008941650390625
17.5195 -0.00365447998046875 -0.14404296875 3.96630859375 2.68701171875 -0.0005856752395629883 -0.000345081090927124 0.1134796142578125 0.00725555419921875
17.52925 -0.01255035400390625 -0.14168548583984375 4.1630859375 2.358642578125 -0.0017917156219482422 -0.00028312206268310547 0.1163330078125 0.00154876708984375
17.539 -0.017730712890625 -0.1366119384765625 4.32470703125 2.02490234375 -0.0015457868576049805 0.0005203485488891602 0.11667633056640625 -0.0013427734375
17.54875 -0.02751922607421875 -0.13146209716796875 4.451416015625 1.68017578125 -0.0012521743774414062 -0.0003370046615600586 0.12073898315429688 -0.0061798095703125
17.5585 -0.03838348388671875 -0.12804412841796875 4.571044921875 1.339111328125 -0.0003726780414581299 0.0008565187454223633 0.12392425537109375 -0.01169586181640625
17.56825 -0.043670654296875 -0.12450408935546875 4.670166015625 0.996826171875 -0.0017914772033691406 0.0014371275901794434 0.12349319458007812 -0.016231536865234375
17.578 -0.05159759521484375 -0.11775970458984375 4.746337890625 0.6240234375 -0.0006527900695800781 0.0006546080112457275 0.1274871826171875 -0.02115631103515625
17.58775 -0.058135986328125 -0.11456298828125 4.79248046875 0.234619140625 -0.000486910343170166 0.0004106760025024414 0.12726593017578125 -0.0252685546875
17.5975 -0.06320953369140625 -0.1061859130859375 4.7919921875 -0.168701171875 -0.00197756290435791 0.0007405281066894531 0.127593994140625 -0.03116607666015625
17.60725 -0.0706787109375 -0.1016082763671875 4.741455078125 -0.55810546875 -0.0011638998985290527 0.0014156103134155273 0.12642669677734375 -0.0364532470703125
17.617 -0.07733154296875 -0.09336090087890625 4.654296875 -0.938720703125 -0.0009260773658752441 0.0006407797336578369 0.1268768310546875 -0.04137420654296875
17.62675 -0.0829315185546875 -0.0872955322265625 4.529541015625 -1.29248046875 -0.000425875186920166 0.0008101463317871094 0.1267852783203125 -0.04663848876953125
17.6365 -0.0868682861328125 -0.0792388916015625 4.3828125 -1.6220703125 0.00016641616821289062 0.001971006393432617 0.12653350830078125 -0.05251312255859375
17.64625 -0.09088134765625 -0.0703887939453125 4.22412109375 -1.91162109375 -0.001151442527770996 0.0006114840507507324 0.12197113037109375 -0.058872222900390625
17.656 -0.09626007080078125 -0.06430816650390625 4.07080078125 -2.1982421875 -0.0012099146842956543 0.0017649531364440918 0.11968994140625 -0.06397628784179688
17.66575 -0.09741973876953125 -0.0566253662109375 3.91943359375 -2.4754638671875 -0.0010052919387817383 0.0014563798904418945 0.118011474609375 -0.07003402709960938
17.6755 -0.1007843017578125 -0.04886627197265625 3.7520751953125 -2.75634765625 -0.0016899704933166504 -0.00021594762802124023 0.11330413818359375 -0.07648468017578125
17.68525 -0.10398101806640625 -0.03963470458984375 3.571533203125 -3.0526123046875 -0.0009149312973022461 0.0009131431579589844 0.109649658203125 -0.08118820190429688
17.695 -0.1075897216796875 -0.0302734375 3.3426513671875 -3.3551025390625 -0.0011737942695617676 0.0017884373664855957 0.1067657470703125 -0.08391189575195312
17.70475 -0.107147216796875 -0.020111083984375 3.068359375 -3.6424560546875 -0.0004741251468658447 0.0007652640342712402 0.10219192504882812 -0.08995819091796875
17.7145 -0.11032867431640625 -0.0122222900390625 2.749755859375 -3.90673828125 -0.0005072951316833496 0.0014259815216064453 0.0978240966796875 -0.09405899047851562
17.72425 -0.11021804809570312 -0.003307342529296875 2.396728515625 -4.11279296875 -0.0005290508270263672 0.0014883875846862793 0.0915985107421875 -0.0995330810546875
17.734 -0.113372802734375 0.005096435546875 2.03369140625 -4.26904296875 -0.00013071298599243164 0.0008065700531005859 0.08655548095703125 -0.10260009765625
17.74375 -0.1108856201171875 0.0133819580078125 1.67626953125 -4.35888671875 -0.0005893707275390625 0.0022106170654296875 0.08242034912109375 -0.10765838623046875
17.7535 -0.10927581787109375 0.02108001708984375 1.3408203125 -4.4365234375 0.0005878806114196777 0.001082003116607666 0.07522201538085938 -0.10931777954101562
17.76325 -0.10927581787109375 0.030788421630859375 1.029296875 -4.498046875 -0.001001894474029541 0.0009717941284179688 0.06906890869140625 -0.11232757568359375
17.773 -0.1085662841796875 0.038265228271484375 0.72509765625 -4.54931640625 -0.000806272029876709 0.001706540584564209 0.06395721435546875 -0.11488723754882812
17.78275 -0.1065521240234375 0.04628753662109375 0.405029296875 -4.594482421875 -0.00011217594146728516 0.0021401643753051758 0.05881500244140625 -0.1169586181640625
17.7925 -0.103118896484375 0.053394317626953125 0.07177734375 -4.64111328125 0.000437319278717041 0.0015050172805786133 0.052814483642578125 -0.11762237548828125
17.80225 -0.0981903076171875 0.061115264892578125 -0.290283203125 -4.667236328125 0.00012174248695373535 0.0008068978786468506 0.046970367431640625 -0.11869049072265625
17.812 -0.095367431640625 0.06999969482421875 -0.66552734375 -4.656494140625 0.0009556412696838379 0.0004686117172241211 0.03908538818359375 -0.12001800537109375
17.82175 -0.0905609130859375 0.079132080078125 -1.044921875 -4.5966796875 0.0005307197570800781 0.0012502670288085938 0.035343170166015625 -0.11873245239257812
17.8315 -0.08689117431640625 0.0860443115234375 -1.419677734375 -4.486572265625 0.0004191398620605469 0.0002751648426055908 0.02710723876953125 -0.12134170532226562
17.84125 -0.08123779296875 0.091644287109375 -1.7666015625 -4.34716796875 0.0006177425384521484 0.0013093948364257812 0.01953125 -0.1176605224609375
17.851 -0.07593154907226562 0.10057449340820312 -2.0830078125 -4.163818359375 0.0006685256958007812 0.0013376474380493164 0.014087677001953125 -0.11787033081054688
17.86075 -0.0708770751953125 0.10704803466796875 -2.36669921875 -3.9873046875 0.0010167360305786133 0.0014841556549072266 0.007568359375 -0.11577224731445312
17.8705 -0.06509017944335938 0.11285400390625 -2.63818359375 -3.796875 -0.0014496445655822754 0.0002848505973815918 0.000820159912109375 -0.11512374877929688
17.88025 -0.059783935546875 0.11991119384765625 -2.905029296875 -3.60498046875 0.0006815195083618164 0.0016756057739257812 -0.003864288330078125 -0.11371231079101562
17.89 -0.05272674560546875 0.126434326171875 -3.169921875 -3.4091796875 0.0011771917343139648 0.0012181997299194336 -0.010303497314453125 -0.11265945434570312
17.89975 -0.04482269287109375 0.12891387939453125 -3.444091796875 -3.17041015625 0.0005086660385131836 -0.0004944503307342529 -0.01642608642578125 -0.11014556884765625
17.9095 -0.0393218994140625 0.134490966796875 -3.706787109375 -2.906494140625 0.0013932585716247559 0.000348508358001709 -0.02227020263671875 -0.1071624755859375
17.91925 -0.033050537109375 0.13771820068359375 -3.93505859375 -2.6025390625 0.0006259679794311523 7.888674736022949e-05 -0.02695465087890625 -0.104248046875
17.929 -0.0243377685546875 0.1426544189453125 -4.14013671875 -2.279296875 0.0007549524307250977 -0.000527799129486084 -0.03338623046875 -0.1020355224609375
17.93875 -0.01739501953125 0.14581298828125 -4.301025390625 -1.93310546875 4.487484693527222e-05 0.00018481165170669556 -0.0383758544921875 -0.0993194580078125
17.9485 -0.00860595703125 0.1476287841796875 -4.4140625 -1.58837890625 0.0012460947036743164 0.0009832382202148438 -0.04343414306640625 -0.09352874755859375
17.95825 -0.000885009765625 0.14952850341796875 -4.504638671875 -1.2470703125 0.0010358095169067383 0.0008679032325744629 -0.04619598388671875 -0.090301513671875
17.968 0.00766754150390625 0.15204620361328125 -4.571533203125 -0.915771484375 0.0005695223808288574 0.0003941953182220459 -0.0519256591796875 -0.08487701416015625
17.97775 0.01561737060546875 0.15218353271484375 -4.6201171875 -0.5869140625 0.0005977153778076172 0.0016556978225708008 -0.05633544921875 -0.0795135498046875
17.9875 0.02448272705078125 0.1539764404296875 -4.673828125 -0.24560546875 0.001132190227508545 0.0003867149353027344 -0.06020355224609375 -0.0738983154296875
17.99725 0.033966064453125 0.15367889404296875 -4.708251953125 0.10546875 0.00046759843826293945 0.0005348920822143555 -0.0622711181640625 -0.07054901123046875
18.007 0.0415191650390625 0.15329742431640625 -4.708740234375 0.477783203125 -0.00017786026000976562 -0.0006181597709655762 -0.06714630126953125 -0.06500244140625
18.01675 0.0518951416015625 0.1543426513671875 -4.66943359375 0.85400390625 0.00042808055877685547 0.0010342597961425781 -0.0725555419921875 -0.05944061279296875
18.0265 0.059844970703125 0.1531524658203125 -4.595703125 1.240234375 -0.0005110502243041992 0.0010228157043457031 -0.0749969482421875 -0.052978515625
18.03625 0.0673980712890625 0.153076171875 -4.46826171875 1.6142578125 0.00041496753692626953 -0.0004356503486633301 -0.07596588134765625 -0.04632568359375
18.046 0.07634735107421875 0.15106964111328125 -4.305419921875 1.96240234375 -0.00010061264038085938 0.000701606273651123 -0.07923507690429688 -0.03911590576171875
18.05575 0.08483123779296875 0.14661407470703125 -4.12353515625 2.27392578125 -2.6613473892211914e-05 0.00043901801109313965 -0.08040237426757812 -0.034198760986328125
18.0655 0.091827392578125 0.14583587646484375 -3.92333984375 2.5615234375 0.000872194766998291 0.0003764033317565918 -0.0844879150390625 -0.02820587158203125
18.07525 0.09999847412109375 0.1408538818359375 -3.7130126953125 2.8369140625 0.0016982555389404297 -0.00025641918182373047 -0.0826873779296875 -0.021274566650390625
18.085 0.1077728271484375 0.13848114013671875 -3.4930419921875 3.10791015625 -0.0004284381866455078 0.001177370548248291 -0.08442306518554688 -0.01526641845703125
18.09475 0.115753173828125 0.132598876953125 -3.2569580078125 3.36474609375 0.0007717609405517578 -0.0009906291961669922 -0.08272933959960938 -0.00954437255859375
18.1045 0.1225128173828125 0.1287689208984375 -2.9990234375 3.611572265625 0.0010254383087158203 0.0015375614166259766 -0.08343887329101562 -0.00081634521484375
18.11425 0.1290740966796875 0.1268463134765625 -2.707763671875 3.843994140625 0.0003108680248260498 5.398690700531006e-05 -0.08219146728515625 0.003902435302734375
18.124 0.134490966796875 0.1192626953125 -2.3984375 4.0498046875 0.0011014938354492188 -0.0001207590103149414 -0.08115386962890625 0.01142120361328125
18.13375 0.141815185546875 0.1152191162109375 -2.07177734375 4.22021484375 0.0015233755111694336 -0.0004525184631347656 -0.08046722412109375 0.01789093017578125
18.1435 0.147308349609375 0.1072540283203125 -1.729248046875 4.358642578125 0.00034096837043762207 0.0005133152008056641 -0.07768630981445312 0.026569366455078125
18.15325 0.152740478515625 0.1007537841796875 -1.38134765625 4.4736328125 0.0013268589973449707 0.00025731325149536133 -0.07622528076171875 0.03281402587890625
18.163 0.1604461669921875 0.093963623046875 -1.036865234375 4.5478515625 0.0001977086067199707 -0.0002776533365249634 -0.07362747192382812 0.039440155029296875
18.17275 0.1633453369140625 0.089111328125 -0.684326171875 4.605712890625 0.0010409355163574219 -0.0005395412445068359 -0.06796646118164062 0.0448455810546875
18.1825 0.1700592041015625 0.07958984375 -0.338623046875 4.647705078125 0.0005995333194732666 -0.00032901763916015625 -0.06316375732421875 0.052295684814453125
18.19225 0.17192840576171875 0.073211669921875 0.019775390625 4.666015625 -0.00017629563808441162 7.712841033935547e-05 -0.06100654602050781 0.05945777893066406
18.202 0.17694091796875 0.06689453125 0.37548828125 4.65283203125 0.0012660026550292969 3.7550926208496094e-05 -0.05689239501953125 0.06519317626953125
18.21175 0.1799163818359375 0.059051513671875 0.7431640625 4.6103515625 0.0010908842086791992 -0.0007849931716918945 -0.05133056640625 0.06963348388671875
18.2215 0.185302734375 0.049835205078125 1.1005859375 4.522705078125 6.361305713653564e-05 0.0002762526273727417 -0.046253204345703125 0.07415390014648438
18.23125 0.1858978271484375 0.04254913330078125 1.4384765625 4.4150390625 0.0011525154113769531 -0.0006669759750366211 -0.0408477783203125 0.0788726806640625
18.241 0.188812255859375 0.03575897216796875 1.76611328125 4.2763671875 0.0009220242500305176 -0.0010228753089904785 -0.034900665283203125 0.08267593383789062
18.25075 0.19045257568359375 0.02700042724609375 2.07373046875 4.12060546875 0.00037169456481933594 -0.0008163750171661377 -0.02947998046875 0.08496856689453125
18.2605 0.19158172607421875 0.018646240234375 2.37060546875 3.94384765625 -0.00024569034576416016 -0.0003820061683654785 -0.021030426025390625 0.08920669555664062
18.27025 0.19087982177734375 0.009368896484375 2.659912109375 3.765380859375 0.00011458247900009155 -0.00017712265253067017 -0.013721466064453125 0.09341049194335938
18.28 0.1924285888671875 0.00067138671875 2.94580078125 3.55517578125 0.0006419122219085693 -0.0007635653018951416 -0.0066680908203125 0.09347915649414062
18.28975 0.19402313232421875 -0.00882720947265625 3.211669921875 3.3251953125 -0.0006826519966125488 -0.000804901123046875 0.00124359130859375 0.09656143188476562
18.2995 0.191802978515625 -0.015411376953125 3.46044921875 3.056640625 0.00022658705711364746 -3.37064266204834e-05 0.008953094482421875 0.0947723388671875
18.30925 0.19024658203125 -0.02581787109375 3.68505859375 2.76611328125 0.0003648698329925537 -0.00012999773025512695 0.0177154541015625 0.09708404541015625
18.319 0.18848419189453125 -0.03292083740234375 3.873046875 2.4580078125 8.93324613571167e-05 -0.00048695504665374756 0.025096893310546875 0.09759902954101562
18.32875 0.187042236328125 -0.03905487060546875 4.030029296875 2.145751953125 -0.00032851099967956543 -0.0006099045276641846 0.0338897705078125 0.097412109375
18.3385 0.18553924560546875 -0.05059051513671875 4.157470703125 1.830322265625 0.0005407333374023438 -0.0009791851043701172 0.042144775390625 0.09748077392578125
18.34825 0.18239593505859375 -0.05840301513671875 4.276123046875 1.520263671875 0.00042097270488739014 6.319582462310791e-05 0.0506591796875 0.09528350830078125
18.358 0.1810302734375 -0.06533050537109375 4.37646484375 1.205078125 0.0004963874816894531 -0.00013256072998046875 0.05730438232421875 0.09235382080078125
18.36775 0.17665863037109375 -0.0735321044921875 4.460693359375 0.86962890625 0.00016754865646362305 9.7617506980896e-05 0.06450653076171875 0.08966064453125
18.3775 0.17403411865234375 -0.079132080078125 4.527099609375 0.53515625 0.0004850327968597412 0.0003204047679901123 0.0722503662109375 0.08597564697265625
18.38725 0.1690826416015625 -0.087158203125 4.56298828125 0.167724609375 -0.00016294419765472412 -6.848573684692383e-05 0.07991790771484375 0.08349609375
18.397 0.1649627685546875 -0.093109130859375 4.5546875 -0.1982421875 0.0002364516258239746 3.787875175476074e-05 0.0867156982421875 0.077392578125
18.40675 0.15960693359375 -0.1002197265625 4.515625 -0.5732421875 0.0005873441696166992 -0.0006623268127441406 0.093292236328125 0.072784423828125
18.4165 0.15363311767578125 -0.1060791015625 4.42138671875 -0.917236328125 -0.0004538893699645996 -0.0008796453475952148 0.09928131103515625 0.068450927734375
18.42625 0.14908599853515625 -0.11270904541015625 4.30322265625 -1.24267578125 0.0005652904510498047 -0.00038820505142211914 0.10382080078125 0.0621490478515625
18.436 0.14226531982421875 -0.11753082275390625 4.1708984375 -1.543212890625 0.0011025071144104004 -0.0006341934204101562 0.111297607421875 0.0555419921875
18.44575 0.135345458984375 -0.12247467041015625 4.03173828125 -1.825439453125 0.0005943477153778076 -0.000342637300491333 0.1141357421875 0.0459136962890625
18.4555 0.1287384033203125 -0.1283111572265625 3.8790283203125 -2.1029052734375 4.753470420837402e-06 0.00020701438188552856 0.117431640625 0.03826141357421875
18.46525 0.12337493896484375 -0.13330841064453125 3.7298583984375 -2.384765625 1.6197562217712402e-05 -0.0002889782190322876 0.1215972900390625 0.02960968017578125
18.475 0.115478515625 -0.13796234130859375 3.5496826171875 -2.6634521484375 -0.0004875659942626953 7.876753807067871e-05 0.124298095703125 0.02231597900390625
18.48475 0.1103057861328125 -0.1415252685546875 3.3336181640625 -2.9422607421875 0.0008198022842407227 0.00020927190780639648 0.1263580322265625 0.01332855224609375
18.4945 0.1019134521484375 -0.1461029052734375 3.0765380859375 -3.198974609375 0.00011625885963439941 -0.0005635321140289307 0.1287689208984375 0.00359344482421875
18.50425 0.0955657958984375 -0.1493377685546875 2.793701171875 -3.427734375 0.0013358592987060547 -0.0002633333206176758 0.1274261474609375 -0.005157470703125
18.514 0.089935302734375 -0.15203857421875 2.4912109375 -3.61181640625 0.00011855363845825195 -0.0003833770751953125 0.1287689208984375 -0.0135345458984375
18.52375 0.080902099609375 -0.15297698974609375 2.1805419921875 -3.75244140625 -0.00012305378913879395 -0.0006923973560333252 0.12764739990234375 -0.02210235595703125
18.5335 0.074676513671875 -0.15621185302734375 1.886474609375 -3.86376953125 0.0002047419548034668 0.0004475712776184082 0.1274566650390625 -0.0310821533203125
18.54325 0.0685882568359375 -0.1594390869140625 1.5982666015625 -3.9527587890625 0.0006323158740997314 -0.00025278329849243164 0.12508392333984375 -0.03818511962890625
18.553 0.0611419677734375 -0.1607818603515625 1.3134765625 -4.028564453125 0.0004374682903289795 -0.0005071163177490234 0.1217041015625 -0.04563140869140625
18.56275 0.0540771484375 -0.16101837158203125 1.029052734375 -4.10498046875 0.00034868717193603516 -0.0015835762023925781 0.11861038208007812 -0.0516357421875
18.5725 0.04673004150390625 -0.16208648681640625 0.734130859375 -4.1640625 -0.0007923245429992676 -0.00012817978858947754 0.11273574829101562 -0.060268402099609375
18.58225 0.0392913818359375 -0.16152191162109375 0.4228515625 -4.208984375 0.0010755658149719238 -0.0003390312194824219 0.10735702514648438 -0.06790542602539062
18.592 0.03322601318359375 -0.16295623779296875 0.095703125 -4.21923828125 0.0008542239665985107 0.0001004636287689209 0.1032257080078125 -0.07253646850585938
18.60175 0.02587890625 -0.16204833984375 -0.23046875 -4.205078125 3.5762786865234375e-05 -0.0005785226821899414 0.095367431640625 -0.078704833984375
18.6115 0.01860809326171875 -0.16094207763671875 -0.54638671875 -4.139892578125 0.0009117722511291504 -0.0007686614990234375 0.09111785888671875 -0.08503341674804688
18.62125 0.01093292236328125 -0.16078948974609375 -0.84375 -4.052001953125 0.0008750557899475098 -0.0003018379211425781 0.08377456665039062 -0.0897216796875
18.631 0.0042266845703125 -0.1604461669921875 -1.1064453125 -3.947021484375 -7.72327184677124e-05 -0.00040806829929351807 0.07698822021484375 -0.09375381469726562
18.64075 -0.00312042236328125 -0.159332275390625 -1.362548828125 -3.829345703125 -0.0006045699119567871 -0.0008668303489685059 0.0701904296875 -0.09574508666992188
18.6505 -0.009368896484375 -0.15900421142578125 -1.602294921875 -3.7138671875 -7.677078247070312e-05 -0.0007517039775848389 0.06436538696289062 -0.0997161865234375
18.66025 -0.01735687255859375 -0.15544891357421875 -1.842041015625 -3.5947265625 0.00035500526428222656 -0.0020302534103393555 0.056926727294921875 -0.10054779052734375
18.67 -0.02309417724609375 -0.153350830078125 -2.082275390625 -3.46484375 0.00019186735153198242 -0.0003129541873931885 0.051055908203125 -0.10188674926757812
18.67975 -0.03107452392578125 -0.149810791015625 -2.32666015625 -3.318359375 -3.159418702125549e-05 -6.920844316482544e-05 0.043064117431640625 -0.10311508178710938
18.6895 -0.03740692138671875 -0.14916229248046875 -2.56201171875 -3.134033203125 0.0011331439018249512 -0.0013648271560668945 0.035991668701171875 -0.10290908813476562
