!Created with skrf (http://scikit-rf.org).
# GHz S RI R 50.0 
!freq ReS11 ImS11 ReS21 ImS21 ReS12 ImS12 ReS22 ImS22
17.5 0.00128936767578125 -0.13843536376953125 -2.36083984375 -3.17138671875 -0.001968860626220703 0.0005081892013549805 0.0938262939453125 -0.008270263671875
17.50975 -0.00814056396484375 -0.13510894775390625 -2.595458984375 -2.97509765625 -0.0008309483528137207 0.000391542911529541 0.096099853515625 -0.0110015869140625
17.5195 -0.01456451416015625 -0.12947845458984375 -2.806640625 -2.76025390625 -0.0010887384414672852 0.00011736154556274414 0.09780502319335938 -0.0101470947265625
17.52925 -0.02225494384765625 -0.125213623046875 -3.0068359375 -2.5390625 -0.0006670057773590088 0.00014463067054748535 0.098785400390625 -0.013896942138671875
17.539 -0.02716064453125 -0.1201019287109375 -3.18212890625 -2.3046875 -0.0018074512481689453 0.0007606744766235352 0.10027313232421875 -0.0172119140625
17.54875 -0.0370025634765625 -0.11573028564453125 -3.334228515625 -2.058837890625 -0.0005027651786804199 3.0875205993652344e-05 0.10203933715820312 -0.019176483154296875
17.5585 -0.0457611083984375 -0.11187744140625 -3.481689453125 -1.81103515625 -0.002249479293823242 0.0006226301193237305 0.10329437255859375 -0.022937774658203125
17.56825 -0.050537109375 -0.10507965087890625 -3.609130859375 -1.5625 -0.001419365406036377 0.0005239248275756836 0.10257720947265625 -0.02587890625
17.578 -0.0568084716796875 -0.0996551513671875 -3.728271484375 -1.28857421875 -0.0010347366333007812 0.0009440779685974121 0.10392379760742188 -0.029628753662109375
17.58775 -0.06157684326171875 -0.0941009521484375 -3.82666015625 -0.9970703125 -0.0018601417541503906 0.0006018280982971191 0.10395431518554688 -0.031970977783203125
17.5975 -0.065185546875 -0.08841705322265625 -3.897705078125 -0.69287109375 -0.0011758804321289062 0.0011622309684753418 0.10417938232421875 -0.035251617431640625
17.60725 -0.0701446533203125 -0.083709716796875 -3.931396484375 -0.386474609375 -0.001794278621673584 0.0001487135887145996 0.10120773315429688 -0.037387847900390625
17.617 -0.07541656494140625 -0.07468414306640625 -3.942138671875 -0.0830078125 -0.0013821125030517578 0.0015131831169128418 0.10265731811523438 -0.041332244873046875
17.62675 -0.0792694091796875 -0.06683349609375 -3.920654296875 0.213623046875 -0.00046753883361816406 0.000840306282043457 0.102935791015625 -0.04412078857421875
17.6365 -0.0807952880859375 -0.0598907470703125 -3.873291015625 0.49951171875 0.00017893314361572266 0.0016605854034423828 0.10274505615234375 -0.04941558837890625
17.64625 -0.0854949951171875 -0.05208587646484375 -3.818359375 0.763671875 -0.001003861427307129 0.0003356337547302246 0.09904098510742188 -0.05181884765625
17.656 -0.087158203125 -0.045989990234375 -3.7568359375 1.02685546875 1.8656253814697266e-05 0.0015947818756103516 0.09527206420898438 -0.055873870849609375
17.66575 -0.0887908935546875 -0.037143707275390625 -3.6927490234375 1.2825927734375 -0.0009999275207519531 0.0007642507553100586 0.09523773193359375 -0.059406280517578125
17.6755 -0.0919647216796875 -0.029521942138671875 -3.611328125 1.5418701171875 -0.0016623735427856445 0.0011442899703979492 0.09097671508789062 -0.06443023681640625
17.68525 -0.09281158447265625 -0.022563934326171875 -3.5267333984375 1.81298828125 0.0007908940315246582 0.00027000904083251953 0.08945083618164062 -0.0662689208984375
17.695 -0.0926513671875 -0.013866424560546875 -3.413330078125 2.09228515625 -0.0008726716041564941 0.0012792348861694336 0.08780288696289062 -0.072296142578125
17.70475 -0.0924835205078125 -0.007846832275390625 -3.2572021484375 2.3751220703125 6.586313247680664e-05 0.0017271041870117188 0.084564208984375 -0.07318115234375
17.7145 -0.0941619873046875 0.000797271728515625 -3.068359375 2.650634765625 -0.00011736154556274414 0.0013399124145507812 0.0799407958984375 -0.07587051391601562
17.72425 -0.09328842163085938 0.007869720458984375 -2.84130859375 2.8931884765625 -0.000483095645904541 3.8564205169677734e-05 0.07750701904296875 -0.07976531982421875
17.734 -0.09328460693359375 0.0148468017578125 -2.597900390625 3.105224609375 -0.0005007386207580566 0.0007059574127197266 0.07447052001953125 -0.08203125
17.74375 -0.0937042236328125 0.02187347412109375 -2.33740234375 3.26953125 -0.0011473894119262695 0.0009453296661376953 0.06923675537109375 -0.08734130859375
17.7535 -0.09026718139648438 0.02954864501953125 -2.09033203125 3.422119140625 0.0001125633716583252 0.0007880628108978271 0.06620407104492188 -0.088714599609375
17.76325 -0.08829116821289062 0.036006927490234375 -1.8492431640625 3.553955078125 0.00029331445693969727 0.0015538930892944336 0.0616302490234375 -0.08863449096679688
17.773 -0.0882568359375 0.043010711669921875 -1.60693359375 3.6763916015625 -0.0009502768516540527 0.0013713240623474121 0.0569305419921875 -0.09083938598632812
17.78275 -0.0850830078125 0.048656463623046875 -1.3514404296875 3.7906494140625 -0.0005251765251159668 0.0014224052429199219 0.05487823486328125 -0.09343719482421875
17.7925 -0.08084869384765625 0.055004119873046875 -1.0916748046875 3.91162109375 -0.0004966259002685547 0.0015447139739990234 0.050506591796875 -0.09278488159179688
17.80225 -0.07687759399414062 0.061367034912109375 -0.804443359375 4.020751953125 -0.0003414750099182129 0.0016636252403259277 0.046230316162109375 -0.09524154663085938
17.812 -0.07236480712890625 0.0674896240234375 -0.497314453125 4.107666015625 -0.0003343820571899414 0.001931905746459961 0.039875030517578125 -0.0947723388671875
17.82175 -0.06934356689453125 0.07384490966796875 -0.172607421875 4.16259765625 -0.0004646778106689453 0.0011402368545532227 0.03733062744140625 -0.09409332275390625
17.8315 -0.06589126586914062 0.0797271728515625 0.162353515625 4.177734375 7.301568984985352e-05 0.0013681650161743164 0.0324859619140625 -0.096099853515625
17.84125 -0.0614166259765625 0.08480072021484375 0.49267578125 4.1669921875 0.0010761022567749023 0.00047910213470458984 0.02602386474609375 -0.094268798828125
17.851 -0.055408477783203125 0.090240478515625 0.812744140625 4.10888671875 0.0010766983032226562 1.5974044799804688e-05 0.024627685546875 -0.09642410278320312
17.86075 -0.052944183349609375 0.09593963623046875 1.114501953125 4.043701171875 0.00016558170318603516 0.0017803311347961426 0.016437530517578125 -0.09523773193359375
17.8705 -0.047119140625 0.09977340698242188 1.40625 3.95703125 0.0012799501419067383 0.00033611059188842773 0.013355255126953125 -0.094573974609375
17.88025 -0.04204559326171875 0.10387039184570312 1.694091796875 3.859375 0.0003986954689025879 0.0007495284080505371 0.006824493408203125 -0.0944061279296875
17.89 -0.03807830810546875 0.10801315307617188 1.9814453125 3.759765625 0.0005336999893188477 0.0015352964401245117 0.0045166015625 -0.09314346313476562
17.89975 -0.03067779541015625 0.11053085327148438 2.27734375 3.62548828125 0.0004973411560058594 0.0022974014282226562 -0.000743865966796875 -0.09337234497070312
17.9095 -0.0280914306640625 0.114776611328125 2.57421875 3.4755859375 -0.0005998015403747559 0.0007893741130828857 -0.00441741943359375 -0.09099197387695312
17.91925 -0.022014617919921875 0.11787033081054688 2.859375 3.28369140625 0.00045871734619140625 0.00010266900062561035 -0.00954437255859375 -0.088836669921875
17.929 -0.01566314697265625 0.121124267578125 3.13671875 3.07177734375 8.308887481689453e-05 0.0018596649169921875 -0.01372528076171875 -0.08754730224609375
17.93875 -0.0095977783203125 0.12312698364257812 3.3876953125 2.81982421875 0.0015025138854980469 0.002072930335998535 -0.017383575439453125 -0.08616256713867188
17.9485 -0.00359344482421875 0.12401199340820312 3.608642578125 2.55419921875 -0.0004467964172363281 0.0009555220603942871 -0.020496368408203125 -0.08131027221679688
17.95825 0.00353240966796875 0.1263580322265625 3.806396484375 2.2705078125 0.0016654729843139648 0.00021648406982421875 -0.021587371826171875 -0.080657958984375
17.968 0.007659912109375 0.12862396240234375 3.980224609375 1.979248046875 0.00016543269157409668 0.0006930530071258545 -0.02740478515625 -0.07879257202148438
17.97775 0.01474761962890625 0.1297607421875 4.131591796875 1.68505859375 8.618831634521484e-05 0.0006704628467559814 -0.03154754638671875 -0.07564544677734375
17.9875 0.02216339111328125 0.13074493408203125 4.2822265625 1.37451171875 -0.00028955936431884766 0.0011049509048461914 -0.0342864990234375 -0.07286453247070312
17.99725 0.0280914306640625 0.12979888916015625 4.414306640625 1.05078125 0.0008443593978881836 0.00037735700607299805 -0.039306640625 -0.06837081909179688
18.007 0.03459930419921875 0.13060760498046875 4.52587890625 0.704345703125 0.0002192854881286621 0.0013369917869567871 -0.041606903076171875 -0.06543731689453125
18.01675 0.04157257080078125 0.13140106201171875 4.6005859375 0.3349609375 0.0009533166885375977 0.00031620264053344727 -0.046382904052734375 -0.061779022216796875
18.0265 0.0476837158203125 0.13079833984375 4.64794921875 -0.04248046875 0.0014435052871704102 0.0002690553665161133 -0.05022430419921875 -0.0579071044921875
18.03625 0.0546112060546875 0.133148193359375 4.64453125 -0.4345703125 0.000941932201385498 -0.0001112818717956543 -0.0522308349609375 -0.05376434326171875
18.046 0.06198883056640625 0.1313323974609375 4.608642578125 -0.8251953125 0.0013585090637207031 -2.6345252990722656e-05 -0.05345916748046875 -0.049068450927734375
18.05575 0.06757354736328125 0.1284637451171875 4.53662109375 -1.194580078125 0.0017565488815307617 0.000247955322265625 -0.058223724365234375 -0.044315338134765625
18.0655 0.0737457275390625 0.12931060791015625 4.436279296875 -1.55224609375 0.0002911090850830078 0.0010610222816467285 -0.061824798583984375 -0.04064178466796875
18.07525 0.08038330078125 0.12796783447265625 4.30517578125 -1.9072265625 0.00136566162109375 0.0004519224166870117 -0.062099456787109375 -0.036716461181640625
18.085 0.087127685546875 0.125640869140625 4.1572265625 -2.254638671875 0.001302480697631836 0.00027430057525634766 -0.0643768310546875 -0.03014373779296875
18.09475 0.09322357177734375 0.12314605712890625 3.984619140625 -2.593994140625 0.00019603967666625977 0.0008438825607299805 -0.063079833984375 -0.02628326416015625
18.1045 0.10094451904296875 0.120941162109375 3.78076171875 -2.9217529296875 -1.0564923286437988e-05 -0.00042526423931121826 -0.06652069091796875 -0.019191741943359375
18.11425 0.1050262451171875 0.1202392578125 3.5379638671875 -3.242431640625 0.0016014575958251953 -0.00014525651931762695 -0.06613540649414062 -0.015857696533203125
18.124 0.11053466796875 0.1161956787109375 3.268798828125 -3.539306640625 -0.0005156993865966797 -0.0006680488586425781 -0.0663909912109375 -0.00910186767578125
18.13375 0.11637115478515625 0.11270904541015625 2.972900390625 -3.8050537109375 0.001659989356994629 -0.000708460807800293 -0.06638336181640625 -0.0035400390625
18.1435 0.12177276611328125 0.109100341796875 2.649658203125 -4.04443359375 0.0006781518459320068 -0.0006193816661834717 -0.06759262084960938 0.00365447998046875
18.15325 0.12851715087890625 0.10390472412109375 2.30615234375 -4.254150390625 0.0006142556667327881 0.00026786327362060547 -0.0684967041015625 0.0076141357421875
18.163 0.13434600830078125 0.10010528564453125 1.951416015625 -4.42724609375 0.0017462968826293945 -0.0006472468376159668 -0.06576156616210938 0.014568328857421875
18.17275 0.139617919921875 0.0955352783203125 1.585693359375 -4.572021484375 0.0010995864868164062 -0.0005340576171875 -0.06306838989257812 0.0201568603515625
18.1825 0.14653778076171875 0.089324951171875 1.217041015625 -4.69970703125 0.00048041343688964844 0.0009195208549499512 -0.06258773803710938 0.026622772216796875
18.19225 0.15167999267578125 0.08447265625 0.825439453125 -4.80078125 0.00024139881134033203 -0.0009834766387939453 -0.05877113342285156 0.03205108642578125
18.202 0.15753936767578125 0.080047607421875 0.430908203125 -4.859130859375 0.0008054375648498535 0.00026875734329223633 -0.0595550537109375 0.03819847106933594
18.21175 0.15997314453125 0.0733795166015625 0.0107421875 -4.88623046875 0.00011026859283447266 0.00018131732940673828 -0.05545806884765625 0.043811798095703125
18.2215 0.1660003662109375 0.0660400390625 -0.40234375 -4.8671875 0.00047059357166290283 -0.00026798248291015625 -0.053157806396484375 0.04786491394042969
18.23125 0.16991424560546875 0.06009674072265625 -0.80322265625 -4.806884765625 0.0006311535835266113 -0.0002892911434173584 -0.05004310607910156 0.0506439208984375
18.241 0.17444610595703125 0.05437469482421875 -1.1962890625 -4.709716796875 0.0004763305187225342 -0.00030504167079925537 -0.0453643798828125 0.0572509765625
18.25075 0.17775726318359375 0.04632568359375 -1.567138671875 -4.581298828125 -0.0004993081092834473 -0.0004819035530090332 -0.04129600524902344 0.06159210205078125
18.2605 0.18061065673828125 0.0400543212890625 -1.923095703125 -4.427490234375 0.0006661415100097656 -0.0003457069396972656 -0.0360870361328125 0.06557464599609375
18.27025 0.18321990966796875 0.031890869140625 -2.267578125 -4.260498046875 -0.0003288537263870239 -0.00012132525444030762 -0.030792236328125 0.0704345703125
18.28 0.1874542236328125 0.02419281005859375 -2.609130859375 -4.070556640625 0.0008569061756134033 -0.0005952715873718262 -0.025531768798828125 0.07317352294921875
18.28975 0.190032958984375 0.01631927490234375 -2.928466796875 -3.8515625 0.0012623071670532227 -0.0009394288063049316 -0.01778411865234375 0.07605361938476562
18.2995 0.189453125 0.0071258544921875 -3.237548828125 -3.591064453125 0.0004863739013671875 -0.0011803507804870605 -0.013202667236328125 0.0757904052734375
18.30925 0.1911468505859375 -0.001708984375 -3.52685546875 -3.30126953125 0.0014646053314208984 -0.001431107521057129 -0.0052490234375 0.08066558837890625
18.319 0.19171905517578125 -0.01181793212890625 -3.78173828125 -2.9833984375 0.0005328655242919922 0.00029334425926208496 -1.1444091796875e-05 0.0831756591796875
18.32875 0.1919097900390625 -0.01679229736328125 -3.99609375 -2.6484375 0.0004742443561553955 0.0003733336925506592 0.009090423583984375 0.08600616455078125
18.3385 0.1914825439453125 -0.028839111328125 -4.169677734375 -2.297607421875 0.0002529621124267578 0.0008158087730407715 0.018344879150390625 0.08807373046875
18.34825 0.19142913818359375 -0.03661346435546875 -4.324462890625 -1.953125 -0.0002801269292831421 -4.32133674621582e-06 0.023128509521484375 0.0893707275390625
18.358 0.190216064453125 -0.0453338623046875 -4.45068359375 -1.607421875 -1.722574234008789e-05 -0.0014805197715759277 0.030384063720703125 0.08774948120117188
18.36775 0.18839263916015625 -0.05339813232421875 -4.55419921875 -1.2421875 0.0008893609046936035 0.0007723569869995117 0.034881591796875 0.08489608764648438
18.3775 0.18602752685546875 -0.061767578125 -4.63720703125 -0.884765625 0.0008209943771362305 0.00018006563186645508 0.04422760009765625 0.0853118896484375
18.38725 0.18393707275390625 -0.07215118408203125 -4.697509765625 -0.50244140625 0.0006195604801177979 -0.000418931245803833 0.051971435546875 0.08449554443359375
18.397 0.1819915771484375 -0.080291748046875 -4.71142578125 -0.109375 0.0007652640342712402 -0.00040656328201293945 0.0576019287109375 0.082122802734375
18.40675 0.1756439208984375 -0.0877685546875 -4.69873046875 0.29541015625 0.00027501583099365234 8.20457935333252e-05 0.0654144287109375 0.0780792236328125
18.4165 0.1727294921875 -0.09600830078125 -4.62841796875 0.67578125 6.747245788574219e-05 -0.00015106797218322754 0.07015228271484375 0.07611083984375
18.42625 0.1678619384765625 -0.1039581298828125 -4.520751953125 1.04638671875 0.0010089874267578125 -8.338689804077148e-05 0.07840728759765625 0.07061004638671875
18.436 0.1624603271484375 -0.1103057861328125 -4.38623046875 1.385009765625 0.00030994415283203125 0.0009719729423522949 0.08563232421875 0.0683441162109375
18.44575 0.1566619873046875 -0.11852264404296875 -4.23876953125 1.708251953125 4.941225051879883e-05 -0.001076042652130127 0.08819580078125 0.06121063232421875
18.4555 0.14920806884765625 -0.12497711181640625 -4.070068359375 2.013916015625 0.00023552775382995605 -0.0006380081176757812 0.0940093994140625 0.055877685546875
18.46525 0.1437530517578125 -0.13250732421875 -3.9029541015625 2.31591796875 0.0002033710479736328 -0.0007218122482299805 0.09963226318359375 0.048370361328125
18.475 0.1366119384765625 -0.1376953125 -3.713623046875 2.609619140625 -0.00046831369400024414 -0.0008153915405273438 0.10515594482421875 0.04238128662109375
18.48475 0.1305084228515625 -0.14495849609375 -3.488525390625 2.9010009765625 0.0015540719032287598 0.00016629695892333984 0.10944366455078125 0.0339508056640625
18.4945 0.121124267578125 -0.14972686767578125 -3.2220458984375 3.1734619140625 0.00034058094024658203 -0.0001751035451889038 0.1119384765625 0.02715301513671875
18.50425 0.114013671875 -0.1551055908203125 -2.93310546875 3.425048828125 0.0003803670406341553 -0.00022289156913757324 0.1145477294921875 0.0201873779296875
18.514 0.1067352294921875 -0.1588897705078125 -2.6162109375 3.63525390625 -0.000540316104888916 0.0006009936332702637 0.115936279296875 0.0135650634765625
18.52375 0.0975341796875 -0.16213226318359375 -2.285400390625 3.79931640625 0.0006535649299621582 6.479024887084961e-05 0.11755752563476562 0.00405120849609375
18.5335 0.0910186767578125 -0.16641998291015625 -1.9576416015625 3.9180908203125 0.0010975003242492676 0.00010609626770019531 0.12107467651367188 -0.003448486328125
18.54325 0.08139801025390625 -0.17071533203125 -1.642333984375 4.013427734375 -1.5050172805786133e-05 -0.00017899274826049805 0.11930465698242188 -0.010784149169921875
18.553 0.07363128662109375 -0.1750030517578125 -1.327880859375 4.08544921875 0.0007568597793579102 -0.0010814666748046875 0.11812973022460938 -0.016857147216796875
18.56275 0.064727783203125 -0.17437744140625 -1.022705078125 4.154296875 0.0014194846153259277 -0.0007191896438598633 0.11803436279296875 -0.025669097900390625
18.5725 0.0563201904296875 -0.17657470703125 -0.7060546875 4.202880859375 0.00020453333854675293 -0.0006095767021179199 0.11493301391601562 -0.0337677001953125
18.58225 0.04718780517578125 -0.175628662109375 -0.379150390625 4.233642578125 0.0007153749465942383 -0.0010883808135986328 0.1121978759765625 -0.040294647216796875
18.592 0.038055419921875 -0.1787261962890625 -0.0380859375 4.235107421875 0.0004858076572418213 0.00016754865646362305 0.10778427124023438 -0.0475006103515625
18.60175 0.0292205810546875 -0.17779541015625 0.3037109375 4.20947265625 0.0003725886344909668 -0.000193864107131958 0.103973388671875 -0.05344390869140625
18.6115 0.02165985107421875 -0.1760406494140625 0.634033203125 4.134765625 -0.0005161166191101074 -0.0004094839096069336 0.1016387939453125 -0.06049346923828125
18.62125 0.01213836669921875 -0.17621612548828125 0.946533203125 4.031494140625 0.000832676887512207 -0.0007332563400268555 0.095611572265625 -0.06583404541015625
18.631 0.0037994384765625 -0.17436981201171875 1.224609375 3.90673828125 0.0003580749034881592 -0.00045821070671081543 0.09149169921875 -0.0716094970703125
18.64075 -0.0032958984375 -0.17359161376953125 1.49169921875 3.7685546875 0.0008499622344970703 0.00016045570373535156 0.0858001708984375 -0.07401657104492188
18.6505 -0.01122283935546875 -0.17165374755859375 1.739990234375 3.627685546875 -0.00033354759216308594 -0.000372081995010376 0.08099746704101562 -0.079315185546875
18.66025 -0.021697998046875 -0.16876220703125 1.9813232421875 3.4847412109375 0.00012886524200439453 -0.0011878609657287598 0.07390213012695312 -0.0837554931640625
18.67 -0.02789306640625 -0.1667633056640625 2.21875 3.324951171875 0.0009544193744659424 -4.813075065612793e-05 0.0684356689453125 -0.08557510375976562
18.67975 -0.03589630126953125 -0.162353515625 2.45849609375 3.155517578125 -2.1964311599731445e-05 -0.000819087028503418 0.0631103515625 -0.08876419067382812
18.6895 -0.04326629638671875 -0.15953826904296875 2.690185546875 2.94775390625 -0.00015097856521606445 -0.001287996768951416 0.056720733642578125 -0.089141845703125
