!Created with skrf (http://scikit-rf.org).
# GHz S RI R 50.0 
!freq ReS11 ImS11 ReS21 ImS21 ReS12 ImS12 ReS22 ImS22
17.5 -0.0030975341796875 -0.14208984375 -0.0244140625 -5.03564453125 -0.0017949938774108887 0.00012022256851196289 0.10137176513671875 -0.014163970947265625
17.50975 -0.01195526123046875 -0.1398162841796875 -0.40478515625 -5.012451171875 -0.0015059709548950195 -0.0005671977996826172 0.10224151611328125 -0.01380157470703125
17.5195 -0.01920318603515625 -0.1334686279296875 -0.783935546875 -4.953369140625 -0.0012372732162475586 0.0002695918083190918 0.10400772094726562 -0.015045166015625
17.52925 -0.02801513671875 -0.13037109375 -1.15576171875 -4.88623046875 -0.0005756020545959473 -0.0003623366355895996 0.10367584228515625 -0.0191650390625
17.539 -0.034027099609375 -0.12286376953125 -1.51220703125 -4.78173828125 -0.0019398927688598633 0.0009402036666870117 0.10430145263671875 -0.0225677490234375
17.54875 -0.04196929931640625 -0.1183013916015625 -1.8603515625 -4.6494140625 -0.0007392168045043945 0.0009979605674743652 0.10791015625 -0.026416778564453125
17.5585 -0.0526275634765625 -0.11407470703125 -2.20068359375 -4.50830078125 -0.0013102293014526367 0.0005125999450683594 0.10733413696289062 -0.028347015380859375
17.56825 -0.05704498291015625 -0.108245849609375 -2.52392578125 -4.351318359375 -0.0008085966110229492 0.0011749863624572754 0.10434341430664062 -0.032337188720703125
17.578 -0.0624542236328125 -0.10068511962890625 -2.854248046875 -4.155029296875 -0.000902712345123291 0.0013232827186584473 0.1062164306640625 -0.037273406982421875
17.58775 -0.0686187744140625 -0.09532928466796875 -3.172119140625 -3.93212890625 -0.0026826858520507812 0.0010787248611450195 0.10542678833007812 -0.039295196533203125
17.5975 -0.0719451904296875 -0.08834075927734375 -3.481689453125 -3.667724609375 -0.0007713735103607178 0.0006132423877716064 0.10588455200195312 -0.04387664794921875
17.60725 -0.0769195556640625 -0.08338165283203125 -3.7470703125 -3.38134765625 -0.0009905099868774414 0.0021845102310180664 0.10327529907226562 -0.045909881591796875
17.617 -0.08202362060546875 -0.07418060302734375 -3.984375 -3.074462890625 -0.0007243752479553223 0.0004291236400604248 0.10388565063476562 -0.04970550537109375
17.62675 -0.0854644775390625 -0.0673828125 -4.1884765625 -2.75390625 -0.0016262531280517578 0.0007755756378173828 0.10346221923828125 -0.05297088623046875
17.6365 -0.088592529296875 -0.05902099609375 -4.36083984375 -2.4287109375 -0.0010906457901000977 0.001650691032409668 0.10135650634765625 -0.0572357177734375
17.64625 -0.09098052978515625 -0.0511474609375 -4.510009765625 -2.11572265625 -0.00040408968925476074 0.0009734928607940674 0.09853744506835938 -0.06146240234375
17.656 -0.09527587890625 -0.04437255859375 -4.646240234375 -1.80078125 -0.0011971592903137207 0.001463770866394043 0.09350204467773438 -0.06491470336914062
17.66575 -0.094757080078125 -0.03437042236328125 -4.78271484375 -1.488037109375 -0.0002550482749938965 0.0015652179718017578 0.09259414672851562 -0.06793212890625
17.6755 -0.0973358154296875 -0.02523040771484375 -4.900390625 -1.15576171875 -9.78708267211914e-05 0.0015246272087097168 0.08938217163085938 -0.07168197631835938
17.68525 -0.099212646484375 -0.0179290771484375 -5.025146484375 -0.812744140625 -0.0010221004486083984 0.0010696053504943848 0.08758163452148438 -0.07435226440429688
17.695 -0.09798049926757812 -0.009258270263671875 -5.119140625 -0.426513671875 -0.000347137451171875 0.0015023350715637207 0.0819854736328125 -0.07652664184570312
17.70475 -0.0983428955078125 -0.000453948974609375 -5.176025390625 -0.01318359375 -0.0010769367218017578 0.00018459558486938477 0.07909774780273438 -0.08072280883789062
17.7145 -0.09926605224609375 0.005245208740234375 -5.179931640625 0.41796875 0.0011795759201049805 0.0011235475540161133 0.07484817504882812 -0.08300018310546875
17.72425 -0.09752655029296875 0.014583587646484375 -5.129150390625 0.83935546875 0.00029158592224121094 0.001940011978149414 0.07135391235351562 -0.08538436889648438
17.734 -0.09743499755859375 0.02127838134765625 -5.0302734375 1.24267578125 -1.5139579772949219e-05 0.0011581182479858398 0.0679779052734375 -0.08792877197265625
17.74375 -0.097747802734375 0.028514862060546875 -4.89208984375 1.611083984375 0.0004654526710510254 0.0009847283363342285 0.06327438354492188 -0.09136581420898438
17.7535 -0.09270477294921875 0.0353546142578125 -4.748291015625 1.955322265625 0.00043192505836486816 5.751848220825195e-06 0.0595855712890625 -0.09246444702148438
17.76325 -0.09085464477539062 0.043975830078125 -4.601806640625 2.279296875 0.0002867579460144043 0.00033017992973327637 0.05348968505859375 -0.0940093994140625
17.773 -0.08942413330078125 0.050174713134765625 -4.4423828125 2.588623046875 0.00012236833572387695 0.0016784071922302246 0.050090789794921875 -0.09594345092773438
17.78275 -0.08567047119140625 0.05652618408203125 -4.27197265625 2.90869140625 0.0006781220436096191 -2.4259090423583984e-05 0.04636383056640625 -0.09587478637695312
17.7925 -0.0819549560546875 0.061420440673828125 -4.0810546875 3.235595703125 -0.0001360774040222168 0.0009815096855163574 0.039821624755859375 -0.09649658203125
17.80225 -0.07806777954101562 0.06758880615234375 -3.8680419921875 3.574462890625 -0.0004429817199707031 0.0013877153396606445 0.036968231201171875 -0.09556961059570312
17.812 -0.07253646850585938 0.07392120361328125 -3.60595703125 3.8914794921875 0.0007777214050292969 0.002481818199157715 0.03203582763671875 -0.09551620483398438
17.82175 -0.06862640380859375 0.08133316040039062 -3.310302734375 4.190673828125 0.0007843971252441406 0.001333475112915039 0.028827667236328125 -0.09447860717773438
17.8315 -0.0644073486328125 0.0872955322265625 -2.9736328125 4.461669921875 -0.000804901123046875 0.001567244529724121 0.02217864990234375 -0.09482192993164062
17.84125 -0.05954742431640625 0.09008026123046875 -2.61962890625 4.69189453125 -0.00022089481353759766 -0.0001017451286315918 0.01699066162109375 -0.0941162109375
17.851 -0.052982330322265625 0.09840011596679688 -2.23779296875 4.867431640625 -0.0001360774040222168 0.0011786222457885742 0.015369415283203125 -0.09430313110351562
17.86075 -0.048725128173828125 0.102691650390625 -1.874755859375 5.02978515625 0.0009003877639770508 0.0015027523040771484 0.009319305419921875 -0.09195709228515625
17.8705 -0.043239593505859375 0.10637283325195312 -1.502197265625 5.163330078125 0.0005472302436828613 0.000500023365020752 0.005706787109375 -0.0901336669921875
17.88025 -0.037109375 0.11141586303710938 -1.126708984375 5.282958984375 -0.0009266138076782227 0.0011751651763916016 -0.000408172607421875 -0.09090805053710938
17.89 -0.03208160400390625 0.11468887329101562 -0.748046875 5.38525390625 0.00037980079650878906 0.0016338825225830078 -0.0038909912109375 -0.0884246826171875
17.89975 -0.02506256103515625 0.11754226684570312 -0.3291015625 5.468505859375 0.0005053877830505371 0.0014172792434692383 -0.00811004638671875 -0.08587646484375
17.9095 -0.01963043212890625 0.11988067626953125 0.09912109375 5.532958984375 0.0008702278137207031 0.0007039904594421387 -0.012676239013671875 -0.0857086181640625
17.91925 -0.013858795166015625 0.12194442749023438 0.539794921875 5.53662109375 0.0009246468544006348 0.0001964569091796875 -0.015895843505859375 -0.082489013671875
17.929 -0.007781982421875 0.12458038330078125 0.982421875 5.51220703125 0.0004724264144897461 0.00044339895248413086 -0.0184478759765625 -0.080963134765625
17.93875 -0.0018157958984375 0.125762939453125 1.43115234375 5.43505859375 -0.0002698749303817749 0.0004718005657196045 -0.020847320556640625 -0.07924270629882812
17.9485 0.004547119140625 0.126617431640625 1.8544921875 5.316650390625 -0.001801609992980957 0.0008630156517028809 -0.025180816650390625 -0.07328414916992188
17.95825 0.01039886474609375 0.12871551513671875 2.26806640625 5.17138671875 0.00038105249404907227 0.0007561445236206055 -0.025623321533203125 -0.07260894775390625
17.968 0.01737213134765625 0.1295318603515625 2.663330078125 4.999267578125 0.0005744695663452148 -0.00012865662574768066 -0.031707763671875 -0.07159805297851562
17.97775 0.0240631103515625 0.128875732421875 3.0458984375 4.800537109375 0.0019829273223876953 0.0008623600006103516 -0.034267425537109375 -0.06614303588867188
17.9875 0.0311126708984375 0.13014984130859375 3.43310546875 4.57568359375 0.0009748339653015137 0.0002554655075073242 -0.035663604736328125 -0.06349945068359375
17.99725 0.0371551513671875 0.1280670166015625 3.81103515625 4.330078125 0.0007498264312744141 -0.00035065412521362305 -0.03954315185546875 -0.060253143310546875
18.007 0.0431671142578125 0.12871551513671875 4.17431640625 4.0361328125 0.0016817450523376465 1.233816146850586e-05 -0.042095184326171875 -0.056949615478515625
18.01675 0.051239013671875 0.12891387939453125 4.5224609375 3.70703125 0.0008880496025085449 0.0006098151206970215 -0.04479217529296875 -0.053470611572265625
18.0265 0.0561981201171875 0.1279449462890625 4.84375 3.33984375 0.000849604606628418 2.0742416381835938e-05 -0.04878997802734375 -0.0481719970703125
18.03625 0.062713623046875 0.1287078857421875 5.12109375 2.9326171875 0.00045186281204223633 0.0002307891845703125 -0.04970550537109375 -0.043731689453125
18.046 0.0699920654296875 0.12519073486328125 5.3544921875 2.500244140625 -0.0004584789276123047 0.0016437172889709473 -0.04959869384765625 -0.040904998779296875
18.05575 0.07527923583984375 0.122344970703125 5.5400390625 2.06787109375 0.0021440982818603516 -0.0009688138961791992 -0.053585052490234375 -0.036701202392578125
18.0655 0.08026885986328125 0.122894287109375 5.685302734375 1.619140625 0.0018559694290161133 0.00048744678497314453 -0.056110382080078125 -0.031856536865234375
18.07525 0.08576202392578125 0.12050628662109375 5.81103515625 1.16552734375 -0.0006978511810302734 -0.0005970001220703125 -0.057964324951171875 -0.028339385986328125
18.085 0.092193603515625 0.118621826171875 5.906494140625 0.697021484375 0.0008858442306518555 0.0004596710205078125 -0.059474945068359375 -0.024364471435546875
18.09475 0.095062255859375 0.1143951416015625 5.967529296875 0.22412109375 0.0005363225936889648 0.00040096044540405273 -0.057155609130859375 -0.019405364990234375
18.1045 0.10417938232421875 0.11228179931640625 5.986572265625 -0.264404296875 0.0011216402053833008 0.0004004836082458496 -0.059886932373046875 -0.013187408447265625
18.11425 0.10814666748046875 0.11045074462890625 5.959228515625 -0.76806640625 0.0013480782508850098 0.0001322627067565918 -0.059383392333984375 -0.01108551025390625
18.124 0.1125946044921875 0.1066741943359375 5.88330078125 -1.26123046875 0.0006927251815795898 -0.00029665231704711914 -0.0598907470703125 -0.004486083984375
18.13375 0.11765289306640625 0.10260009765625 5.77001953125 -1.746337890625 0.00032716989517211914 -0.000244826078414917 -0.060260772705078125 0.001445770263671875
18.1435 0.122344970703125 0.09881591796875 5.600830078125 -2.2109375 0.0006828010082244873 -0.00013783574104309082 -0.059177398681640625 0.00800323486328125
18.15325 0.12750244140625 0.09471893310546875 5.394775390625 -2.664794921875 0.0006343424320220947 0.00012612342834472656 -0.057338714599609375 0.010438919067382812
18.163 0.1339874267578125 0.0897979736328125 5.15966796875 -3.088623046875 -9.830296039581299e-05 -0.00016623735427856445 -0.05634117126464844 0.017116546630859375
18.17275 0.13811492919921875 0.086029052734375 4.889404296875 -3.49169921875 0.0010036230087280273 0.0009548664093017578 -0.05432319641113281 0.01995849609375
18.1825 0.14281463623046875 0.0814208984375 4.6025390625 -3.877685546875 0.0002893805503845215 -0.0010363459587097168 -0.05300140380859375 0.027843475341796875
18.19225 0.1474609375 0.07630157470703125 4.275390625 -4.25 0.0006676018238067627 1.4930963516235352e-05 -0.05070304870605469 0.03217124938964844
18.202 0.15264892578125 0.0721893310546875 3.92724609375 -4.591796875 0.0006279945373535156 -0.0008118748664855957 -0.049346923828125 0.037204742431640625
18.21175 0.155670166015625 0.0660400390625 3.52392578125 -4.91357421875 0.001083970069885254 7.176399230957031e-05 -0.04581451416015625 0.04145050048828125
18.2215 0.16010284423828125 0.059356689453125 3.089111328125 -5.181396484375 0.00026470422744750977 0.00034949183464050293 -0.04058647155761719 0.046428680419921875
18.23125 0.16436004638671875 0.0542144775390625 2.64453125 -5.4072265625 0.0005524754524230957 -0.0009965896606445312 -0.04097557067871094 0.050289154052734375
18.241 0.1679229736328125 0.04854583740234375 2.18701171875 -5.58984375 0.00017611682415008545 8.615851402282715e-05 -0.036991119384765625 0.05362129211425781
18.25075 0.1712799072265625 0.04268646240234375 1.72314453125 -5.72265625 0.0012974143028259277 -0.001632988452911377 -0.03153038024902344 0.05800437927246094
18.2605 0.1727294921875 0.03591156005859375 1.258056640625 -5.82080078125 0.00073280930519104 -0.0006399154663085938 -0.026988983154296875 0.060520172119140625
18.27025 0.1759033203125 0.027862548828125 0.7939453125 -5.88671875 -0.0004837512969970703 -0.001547098159790039 -0.021053314208984375 0.06508255004882812
18.28 0.17885589599609375 0.02124786376953125 0.317626953125 -5.9384765625 -0.00042495131492614746 0.00032252073287963867 -0.019107818603515625 0.06642532348632812
18.28975 0.18085479736328125 0.013397216796875 -0.153076171875 -5.946044921875 0.0015459656715393066 -0.0012451410293579102 -0.0102081298828125 0.0701446533203125
18.2995 0.1810302734375 0.00675201416015625 -0.63671875 -5.9052734375 -0.00015249848365783691 -0.0002816617488861084 -0.005645751953125 0.0697174072265625
18.30925 0.181182861328125 -0.0031280517578125 -1.12744140625 -5.81884765625 0.00021213293075561523 -0.0005663037300109863 0.00106048583984375 0.07172393798828125
18.319 0.182830810546875 -0.0099029541015625 -1.60107421875 -5.68408203125 0.00023312866687774658 -0.0003085285425186157 0.0056610107421875 0.07507705688476562
18.32875 0.18239593505859375 -0.01706695556640625 -2.0517578125 -5.5078125 0.00021213293075561523 -0.001007378101348877 0.013675689697265625 0.07666778564453125
18.3385 0.18292236328125 -0.02646636962890625 -2.470947265625 -5.296142578125 -0.00036337971687316895 0.00026561319828033447 0.02081298828125 0.07764434814453125
18.34825 0.1830596923828125 -0.03496551513671875 -2.876220703125 -5.073486328125 0.00019817054271697998 -0.00029872357845306396 0.02642822265625 0.07905197143554688
18.358 0.18256378173828125 -0.0418548583984375 -3.251953125 -4.81982421875 0.000969231128692627 -0.0007642507553100586 0.034526824951171875 0.077056884765625
18.36775 0.181488037109375 -0.05004119873046875 -3.61865234375 -4.52880859375 -0.0006411075592041016 -0.0008138418197631836 0.03899383544921875 0.07392501831054688
18.3775 0.179718017578125 -0.0576019287109375 -3.95703125 -4.236328125 -0.000456392765045166 -0.0007358193397521973 0.0449371337890625 0.07472610473632812
18.38725 0.177490234375 -0.06694793701171875 -4.28564453125 -3.88623046875 -0.0002553313970565796 -5.9664249420166016e-05 0.0490570068359375 0.072845458984375
18.397 0.1746063232421875 -0.0730743408203125 -4.57421875 -3.5107421875 0.00024580955505371094 0.0003070831298828125 0.056732177734375 0.07122802734375
18.40675 0.171661376953125 -0.081573486328125 -4.84130859375 -3.10205078125 7.896125316619873e-05 -0.00021508336067199707 0.062957763671875 0.06805419921875
18.4165 0.16809844970703125 -0.08930206298828125 -5.046630859375 -2.681396484375 -0.0003145933151245117 -0.0005230307579040527 0.06703948974609375 0.0665435791015625
18.42625 0.16324615478515625 -0.095794677734375 -5.202880859375 -2.243896484375 0.00019854307174682617 0.00036153197288513184 0.07482147216796875 0.0620880126953125
18.436 0.15889739990234375 -0.1031646728515625 -5.324462890625 -1.818359375 -0.0003870725631713867 -0.0012149214744567871 0.08099365234375 0.05791473388671875
18.44575 0.153839111328125 -0.1108856201171875 -5.415771484375 -1.391357421875 0.0003886371850967407 -9.910762310028076e-05 0.0833892822265625 0.05341339111328125
18.4555 0.14809417724609375 -0.1172332763671875 -5.475830078125 -0.96875 3.826618194580078e-05 0.0004526674747467041 0.0888214111328125 0.0477447509765625
18.46525 0.14315032958984375 -0.124267578125 -5.52783203125 -0.547607421875 -0.0002557039260864258 -0.0008059144020080566 0.0932159423828125 0.0399017333984375
18.475 0.13567352294921875 -0.129486083984375 -5.552978515625 -0.1162109375 -0.0004405975341796875 -0.00016683340072631836 0.0980072021484375 0.0353851318359375
18.48475 0.1307220458984375 -0.13719940185546875 -5.53515625 0.3330078125 8.33272933959961e-05 -0.0005915164947509766 0.101715087890625 0.02861785888671875
18.4945 0.1224517822265625 -0.14220428466796875 -5.46337890625 0.7890625 -0.000660240650177002 0.0001106560230255127 0.1043243408203125 0.021068572998046875
18.50425 0.11492919921875 -0.148590087890625 -5.359375 1.24560546875 -0.00011247396469116211 -0.0006240010261535645 0.1060638427734375 0.0141143798828125
18.514 0.1100921630859375 -0.1528778076171875 -5.19775390625 1.67236328125 0.0006233453750610352 -0.0014376640319824219 0.10910797119140625 0.00624847412109375
18.52375 0.10213470458984375 -0.15613555908203125 -4.984130859375 2.059326171875 9.104609489440918e-06 -0.00030256807804107666 0.10888290405273438 0.0009613037109375
18.5335 0.09381103515625 -0.160858154296875 -4.760986328125 2.41845703125 0.0001481473445892334 -0.0007797479629516602 0.11082077026367188 -0.00788116455078125
18.54325 0.0863037109375 -0.16606903076171875 -4.5146484375 2.736083984375 1.3783574104309082e-06 -0.0002435147762298584 0.11008834838867188 -0.01340484619140625
18.553 0.0789031982421875 -0.1680908203125 -4.2646484375 3.03759765625 0.0011443495750427246 -0.001105189323425293 0.10778427124023438 -0.02020263671875
18.56275 0.070404052734375 -0.169219970703125 -4.00634765625 3.326416015625 0.0005068182945251465 0.00031191110610961914 0.10867691040039062 -0.024173736572265625
18.5725 0.06110382080078125 -0.17234039306640625 -3.73193359375 3.6021728515625 0.00031888484954833984 -0.00033846497535705566 0.10517501831054688 -0.032562255859375
18.58225 0.05297088623046875 -0.17325592041015625 -3.430419921875 3.8648681640625 -0.0005615055561065674 8.32676887512207e-05 0.10297775268554688 -0.039302825927734375
18.592 0.04418182373046875 -0.17534637451171875 -3.099365234375 4.111572265625 0.00021195411682128906 0.0011188983917236328 0.09941482543945312 -0.04615020751953125
18.60175 0.0349273681640625 -0.1749725341796875 -2.74560546875 4.32763671875 0.0011448860168457031 -0.0006566047668457031 0.0957489013671875 -0.04979705810546875
18.6115 0.02654266357421875 -0.17478179931640625 -2.37255859375 4.49365234375 0.0001456141471862793 -0.001480698585510254 0.0921173095703125 -0.0580291748046875
18.62125 0.01804351806640625 -0.175506591796875 -1.990966796875 4.619384765625 -0.0008752942085266113 -0.0006287693977355957 0.08717727661132812 -0.06090545654296875
18.631 0.009552001953125 -0.174560546875 -1.630859375 4.69482421875 0.00020423531532287598 0.0007055401802062988 0.083892822265625 -0.06704330444335938
18.64075 0.00041961669921875 -0.1739349365234375 -1.269287109375 4.75048828125 -2.5659799575805664e-05 -0.0009436905384063721 0.07733154296875 -0.0703887939453125
18.6505 -0.00689697265625 -0.1710968017578125 -0.923095703125 4.791259765625 -0.0007623434066772461 -0.0008745193481445312 0.073211669921875 -0.07404708862304688
18.66025 -0.0164794921875 -0.17034149169921875 -0.582275390625 4.816162109375 -4.76837158203125e-05 -0.0010417699813842773 0.06816482543945312 -0.07653045654296875
18.67 -0.02320098876953125 -0.16732025146484375 -0.234375 4.83349609375 0.00027760863304138184 -0.0009481310844421387 0.06450271606445312 -0.07818984985351562
18.67975 -0.0331878662109375 -0.16464996337890625 0.12158203125 4.8310546875 -0.00023630261421203613 -0.0004405081272125244 0.0567779541015625 -0.0811004638671875
18.6895 -0.03907012939453125 -0.1604156494140625 0.493408203125 4.7900390625 -0.0007513761520385742 -0.0014835596084594727 0.052913665771484375 -0.08206939697265625
