!Created with skrf (http://scikit-rf.org).
# GHz S RI R 50.0 
!freq ReS11 ImS11 ReS21 ImS21 ReS12 ImS12 ReS22 ImS22
17.5 0.001617431640625 -0.13649749755859375 -2.793701171875 -3.021728515625 -0.0010527968406677246 0.0011376142501831055 0.09256744384765625 -0.009113311767578125
17.50975 -0.006317138671875 -0.1341705322265625 -3.013916015625 -2.79541015625 -0.0014281272888183594 5.644559860229492e-05 0.09516143798828125 -0.0092926025390625
17.5195 -0.013916015625 -0.1295928955078125 -3.2099609375 -2.547119140625 -0.0018589496612548828 0.0008244514465332031 0.09581756591796875 -0.009807586669921875
17.52925 -0.022918701171875 -0.12401580810546875 -3.3955078125 -2.2978515625 -0.0016976594924926758 0.0011044144630432129 0.09975051879882812 -0.0143890380859375
17.539 -0.027984619140625 -0.118377685546875 -3.5498046875 -2.033203125 -0.0009719729423522949 0.0006433725357055664 0.097808837890625 -0.016448974609375
17.54875 -0.03592681884765625 -0.11562347412109375 -3.679443359375 -1.76123046875 -0.0018599629402160645 0.0011899471282958984 0.10089874267578125 -0.019809722900390625
17.5585 -0.0436553955078125 -0.10906219482421875 -3.80419921875 -1.4873046875 -0.0010722875595092773 0.0003935098648071289 0.10248947143554688 -0.022472381591796875
17.56825 -0.048919677734375 -0.1049041748046875 -3.91064453125 -1.21728515625 -0.0007326602935791016 0.0006852447986602783 0.1024017333984375 -0.025264739990234375
17.578 -0.0546112060546875 -0.09881591796875 -3.999267578125 -0.91943359375 -0.0013480782508850098 0.0004190206527709961 0.1024017333984375 -0.02759552001953125
17.58775 -0.06098175048828125 -0.0934295654296875 -4.069091796875 -0.608154296875 -0.0013303756713867188 0.0008377432823181152 0.1026153564453125 -0.030826568603515625
17.5975 -0.06336212158203125 -0.085784912109375 -4.1083984375 -0.28271484375 -0.0007936358451843262 0.0006230771541595459 0.10244369506835938 -0.03369140625
17.60725 -0.07010650634765625 -0.08249664306640625 -4.1123046875 0.036865234375 -0.0014891624450683594 0.0019161701202392578 0.10132217407226562 -0.036251068115234375
17.617 -0.07405853271484375 -0.0741424560546875 -4.08447265625 0.353271484375 -0.0016156435012817383 0.00035071372985839844 0.10263824462890625 -0.040416717529296875
17.62675 -0.0788116455078125 -0.06658935546875 -4.03076171875 0.6591796875 -0.0002976059913635254 0.0007962584495544434 0.10231781005859375 -0.042724609375
17.6365 -0.08056640625 -0.0600128173828125 -3.950927734375 0.951171875 -0.0003281533718109131 0.00038430094718933105 0.1019439697265625 -0.0487213134765625
17.64625 -0.08420562744140625 -0.05213165283203125 -3.8602294921875 1.217529296875 -0.0007964968681335449 0.001432657241821289 0.09923171997070312 -0.051258087158203125
17.656 -0.087493896484375 -0.046539306640625 -3.7642822265625 1.4813232421875 -0.000705420970916748 0.0005743205547332764 0.09454345703125 -0.055328369140625
17.66575 -0.087982177734375 -0.036693572998046875 -3.6708984375 1.737060546875 -0.00128251314163208 0.001180887222290039 0.09578323364257812 -0.0590057373046875
17.6755 -0.09019851684570312 -0.03099822998046875 -3.55322265625 1.99658203125 -0.0008477568626403809 0.0011451244354248047 0.09139251708984375 -0.062419891357421875
17.68525 -0.09110641479492188 -0.02353668212890625 -3.439208984375 2.2633056640625 4.470348358154297e-05 0.0011662840843200684 0.0901031494140625 -0.06567764282226562
17.695 -0.09252548217773438 -0.01558685302734375 -3.29052734375 2.541015625 -0.0007500648498535156 0.0008065700531005859 0.08712005615234375 -0.0695953369140625
17.70475 -0.09272384643554688 -0.00753021240234375 -3.097900390625 2.8162841796875 -0.00034296512603759766 0.0017452239990234375 0.08543777465820312 -0.07204818725585938
17.7145 -0.09325790405273438 0.00067138671875 -2.8736572265625 3.0797119140625 -0.0003809928894042969 0.001230776309967041 0.08029937744140625 -0.07529067993164062
17.72425 -0.09283447265625 0.008419036865234375 -2.6124267578125 3.3050537109375 7.134675979614258e-05 0.0011232495307922363 0.07794952392578125 -0.0792694091796875
17.734 -0.09247589111328125 0.0142059326171875 -2.333251953125 3.49560546875 0.00024116039276123047 0.0008145570755004883 0.0744171142578125 -0.0812225341796875
17.74375 -0.09290313720703125 0.022125244140625 -2.04833984375 3.636474609375 -0.0006636381149291992 -0.0003809928894042969 0.07085418701171875 -0.0864410400390625
17.7535 -0.08882522583007812 0.029689788818359375 -1.771484375 3.7615966796875 -0.0002554655075073242 0.0016922354698181152 0.06789398193359375 -0.08729934692382812
17.76325 -0.08867263793945312 0.0356597900390625 -1.507568359375 3.8724365234375 0.0002643465995788574 0.000463634729385376 0.06299209594726562 -0.0887908935546875
17.773 -0.0864715576171875 0.0416107177734375 -1.2467041015625 3.968994140625 -0.0013409852981567383 0.002241969108581543 0.05767822265625 -0.09158706665039062
17.78275 -0.08456802368164062 0.047847747802734375 -0.97119140625 4.05859375 -0.00029477477073669434 -0.0002478957176208496 0.055652618408203125 -0.09204864501953125
17.7925 -0.08154296875 0.052242279052734375 -0.6884765625 4.151123046875 0.00017637014389038086 0.001347362995147705 0.050640106201171875 -0.09408187866210938
17.80225 -0.0779876708984375 0.059375762939453125 -0.38134765625 4.236572265625 0.0007740259170532227 0.0006467103958129883 0.046863555908203125 -0.0963897705078125
17.812 -0.07318496704101562 0.0658111572265625 -0.055419921875 4.287109375 -4.124641418457031e-05 0.0019431114196777344 0.04138946533203125 -0.09421539306640625
17.82175 -0.06866073608398438 0.07207107543945312 0.280029296875 4.30712890625 -0.0003708004951477051 0.0010823607444763184 0.038578033447265625 -0.09461212158203125
17.8315 -0.06609344482421875 0.07819747924804688 0.628662109375 4.29150390625 4.166364669799805e-05 0.0017058253288269043 0.03241729736328125 -0.09490203857421875
17.84125 -0.06140899658203125 0.08358001708984375 0.96728515625 4.2451171875 0.00024247169494628906 0.0012036561965942383 0.02764129638671875 -0.0966644287109375
17.851 -0.056919097900390625 0.08989715576171875 1.292724609375 4.141845703125 -2.2351741790771484e-05 0.0014905929565429688 0.024227142333984375 -0.09496307373046875
17.86075 -0.05222320556640625 0.09384536743164062 1.593994140625 4.04150390625 0.0004858970642089844 0.0019692182540893555 0.01949310302734375 -0.09687042236328125
17.8705 -0.048267364501953125 0.09747695922851562 1.88671875 3.9189453125 0.00021731853485107422 0.0016595125198364258 0.014301300048828125 -0.09429550170898438
17.88025 -0.0422515869140625 0.10343170166015625 2.17138671875 3.78564453125 -0.00030297040939331055 0.0012298226356506348 0.009372711181640625 -0.09522628784179688
17.89 -0.03699493408203125 0.10795211791992188 2.450927734375 3.650146484375 3.647804260253906e-05 0.0019707679748535156 0.005176544189453125 -0.09350204467773438
17.89975 -0.032947540283203125 0.11198806762695312 2.7421875 3.481689453125 0.0005895495414733887 0.0008003711700439453 0.00128173828125 -0.09276199340820312
17.9095 -0.02944183349609375 0.11436080932617188 3.03125 3.293701171875 0.0003801584243774414 0.0004855692386627197 -0.00433349609375 -0.09175491333007812
17.91925 -0.021274566650390625 0.11727142333984375 3.29931640625 3.064697265625 0.0013292431831359863 -0.00047910213470458984 -0.008197784423828125 -0.09117507934570312
17.929 -0.01612091064453125 0.1194610595703125 3.56591796875 2.81982421875 0.0012718439102172852 0.0003229379653930664 -0.0132904052734375 -0.08957672119140625
17.93875 -0.01149749755859375 0.12128448486328125 3.798095703125 2.53173828125 -2.709031105041504e-05 0.0007606744766235352 -0.015216827392578125 -0.086395263671875
17.9485 -0.00508880615234375 0.12296676635742188 3.9912109375 2.23486328125 0.000624239444732666 0.000800013542175293 -0.0185699462890625 -0.08340835571289062
17.95825 0.00173187255859375 0.1262054443359375 4.16357421875 1.920166015625 0.0008643567562103271 -0.00035515427589416504 -0.022186279296875 -0.08254623413085938
17.968 0.0072479248046875 0.12774658203125 4.3115234375 1.603759765625 0.0005260109901428223 -0.0007691383361816406 -0.02791595458984375 -0.08076095581054688
17.97775 0.0135040283203125 0.128753662109375 4.43359375 1.28662109375 -9.679049253463745e-05 0.00020079314708709717 -0.03130340576171875 -0.07559585571289062
17.9875 0.02172088623046875 0.13016510009765625 4.55322265625 0.948486328125 -4.786252975463867e-05 0.0014938712120056152 -0.03408050537109375 -0.07360076904296875
17.99725 0.026824951171875 0.13100433349609375 4.653564453125 0.605712890625 0.0011150836944580078 0.0006375908851623535 -0.038883209228515625 -0.07009506225585938
18.007 0.0335540771484375 0.13011932373046875 4.726806640625 0.23828125 0.0018966197967529297 -3.266334533691406e-05 -0.04250335693359375 -0.06693267822265625
18.01675 0.04055023193359375 0.13187408447265625 4.770751953125 -0.1416015625 0.0012385845184326172 0.0006343722343444824 -0.04514312744140625 -0.06436538696289062
18.0265 0.047088623046875 0.1302642822265625 4.7783203125 -0.5419921875 -4.756450653076172e-05 0.00048029422760009766 -0.0488739013671875 -0.0586090087890625
18.03625 0.053466796875 0.1311798095703125 4.734375 -0.94189453125 -0.0002396702766418457 0.0009471774101257324 -0.05121612548828125 -0.05496978759765625
18.046 0.05922698974609375 0.13301849365234375 4.6552734375 -1.3408203125 0.0007170438766479492 0.0003312230110168457 -0.05390167236328125 -0.051036834716796875
18.05575 0.06717681884765625 0.12969970703125 4.54443359375 -1.712646484375 0.0014768242835998535 1.4185905456542969e-05 -0.05702972412109375 -0.046672821044921875
18.0655 0.07268524169921875 0.1293792724609375 4.397705078125 -2.0693359375 0.000704348087310791 0.00020638108253479004 -0.061168670654296875 -0.041469573974609375
18.07525 0.0790252685546875 0.12807464599609375 4.228515625 -2.418212890625 0.00014416873455047607 -0.0004583001136779785 -0.06277084350585938 -0.036376953125
18.085 0.08612823486328125 0.1278533935546875 4.037353515625 -2.760986328125 0.001384437084197998 0.0002465248107910156 -0.06444549560546875 -0.03313446044921875
18.09475 0.0912017822265625 0.12477874755859375 3.8262939453125 -3.0919189453125 0.0009824633598327637 0.0004361271858215332 -0.0651397705078125 -0.028522491455078125
18.1045 0.0983428955078125 0.121917724609375 3.584716796875 -3.405029296875 -0.00019046664237976074 0.0007354915142059326 -0.06669235229492188 -0.021305084228515625
18.11425 0.104522705078125 0.1210479736328125 3.30078125 -3.71044921875 -0.00011163949966430664 -0.0004781782627105713 -0.06853485107421875 -0.0173492431640625
18.124 0.1099090576171875 0.1163177490234375 2.992919921875 -3.986328125 0.0012331008911132812 -0.0002645254135131836 -0.06876373291015625 -0.0104827880859375
18.13375 0.115936279296875 0.114593505859375 2.6650390625 -4.228515625 0.002180814743041992 0.0001876354217529297 -0.0672454833984375 -0.00612640380859375
18.1435 0.12277984619140625 0.10953521728515625 2.306396484375 -4.4384765625 0.00034058094024658203 0.000706791877746582 -0.06918716430664062 0.00226593017578125
18.15325 0.1272125244140625 0.1045379638671875 1.93212890625 -4.624267578125 -0.00012560933828353882 -0.00010949373245239258 -0.06818771362304688 0.00751495361328125
18.163 0.13544464111328125 0.10068511962890625 1.5517578125 -4.766357421875 0.0010946989059448242 -0.0003444552421569824 -0.0661773681640625 0.013782501220703125
18.17275 0.1396484375 0.09584808349609375 1.15869140625 -4.876708984375 0.0006656944751739502 -0.0007058978080749512 -0.0650177001953125 0.01789093017578125
18.1825 0.14666748046875 0.09145355224609375 0.765625 -4.96923828125 0.0005677640438079834 0.00010311603546142578 -0.06391143798828125 0.026371002197265625
18.19225 0.15103912353515625 0.08396148681640625 0.35107421875 -5.037109375 0.0009744763374328613 -0.0011039376258850098 -0.059955596923828125 0.031225204467773438
18.202 0.15689849853515625 0.08209228515625 -0.059326171875 -5.057373046875 0.000488966703414917 -0.0003331005573272705 -0.061855316162109375 0.036991119384765625
18.21175 0.1627349853515625 0.0746002197265625 -0.494140625 -5.0439453125 0.0005169510841369629 -0.00019174814224243164 -0.056919097900390625 0.042552947998046875
18.2215 0.16715240478515625 0.06855010986328125 -0.92138671875 -4.976806640625 0.0009580850601196289 -0.0008315145969390869 -0.05303001403808594 0.0476837158203125
18.23125 0.17226409912109375 0.0618743896484375 -1.33056640625 -4.878662109375 0.0007799863815307617 -5.6684017181396484e-05 -0.05199623107910156 0.05172920227050781
18.241 0.17545318603515625 0.05426788330078125 -1.723388671875 -4.7412109375 0.0005544126033782959 0.00022223591804504395 -0.04680061340332031 0.05748939514160156
18.25075 0.17810821533203125 0.0475006103515625 -2.09423828125 -4.57275390625 0.0008481740951538086 -0.001032710075378418 -0.0421905517578125 0.06248283386230469
18.2605 0.1820831298828125 0.0412750244140625 -2.445068359375 -4.375732421875 -0.0006330609321594238 -0.00029283761978149414 -0.0367431640625 0.06740570068359375
18.27025 0.18476104736328125 0.0314788818359375 -2.7802734375 -4.165771484375 0.00036963820457458496 -0.0006101131439208984 -0.031116485595703125 0.07111358642578125
18.28 0.18770599365234375 0.0243072509765625 -3.113037109375 -3.93359375 -9.968876838684082e-05 0.0001386404037475586 -0.02739715576171875 0.07294464111328125
18.28975 0.19153594970703125 0.01540374755859375 -3.42041015625 -3.675537109375 0.00040659308433532715 -0.0007391571998596191 -0.01975250244140625 0.07814788818359375
18.2995 0.1918487548828125 0.00836944580078125 -3.716552734375 -3.37841796875 0.0007590055465698242 -0.00037235021591186523 -0.0137786865234375 0.07933807373046875
18.30925 0.19268798828125 -0.0027618408203125 -3.984375 -3.04248046875 -0.0010249614715576172 -0.0008471012115478516 -0.00601959228515625 0.08043670654296875
18.319 0.19240570068359375 -0.010772705078125 -4.215576171875 -2.689208984375 -0.0002588927745819092 -0.0003573596477508545 -0.0012664794921875 0.08652496337890625
18.32875 0.19210052490234375 -0.01757049560546875 -4.40087890625 -2.320068359375 -0.0007852613925933838 -0.00012889504432678223 0.00788116455078125 0.08602142333984375
18.3385 0.19286346435546875 -0.028594970703125 -4.544677734375 -1.94091796875 2.6792287826538086e-05 -0.0006806850433349609 0.015533447265625 0.08843612670898438
18.34825 0.19254302978515625 -0.03629302978515625 -4.671142578125 -1.5693359375 0.0002956092357635498 0.00035431981086730957 0.020633697509765625 0.08964920043945312
18.358 0.19142913818359375 -0.046478271484375 -4.76123046875 -1.20068359375 0.0004614293575286865 -0.0006430745124816895 0.030948638916015625 0.08900833129882812
18.36775 0.18984222412109375 -0.05401611328125 -4.8330078125 -0.8134765625 0.000196799635887146 -0.0003663599491119385 0.0365142822265625 0.0879364013671875
18.3775 0.18798828125 -0.0620880126953125 -4.8857421875 -0.43896484375 -0.0005341768264770508 -0.00033482909202575684 0.0433807373046875 0.08678436279296875
18.38725 0.184112548828125 -0.073272705078125 -4.90234375 -0.031982421875 7.641315460205078e-05 -0.0005074739456176758 0.0506591796875 0.08502197265625
18.397 0.181884765625 -0.08001708984375 -4.88037109375 0.37255859375 -0.0005120635032653809 -8.529424667358398e-05 0.057037353515625 0.0833587646484375
18.40675 0.1768646240234375 -0.088104248046875 -4.82275390625 0.7861328125 -0.0005466341972351074 0.0005548596382141113 0.0639495849609375 0.077911376953125
18.4165 0.17293548583984375 -0.09612274169921875 -4.71484375 1.17626953125 0.0005316734313964844 -0.00026801228523254395 0.06967926025390625 0.07666015625
18.42625 0.16776275634765625 -0.10474395751953125 -4.564208984375 1.547119140625 -0.0007590651512145996 -0.0005808472633361816 0.07740020751953125 0.0722503662109375
18.436 0.16275787353515625 -0.110076904296875 -4.3935546875 1.88427734375 0.0009660720825195312 0.0006785392761230469 0.08620452880859375 0.0692138671875
18.44575 0.15692901611328125 -0.11862945556640625 -4.200927734375 2.20361328125 0.0005271434783935547 -0.000827491283416748 0.087493896484375 0.06417083740234375
18.4555 0.151153564453125 -0.126190185546875 -4.000244140625 2.502685546875 0.00010852515697479248 0.00016854703426361084 0.0933074951171875 0.05837249755859375
18.46525 0.14422607421875 -0.13436126708984375 -3.7943115234375 2.7943115234375 0.0009289979934692383 -0.00035881996154785156 0.09932708740234375 0.048583984375
18.475 0.136322021484375 -0.1389312744140625 -3.572265625 3.0809326171875 -0.00022661685943603516 -0.0006838738918304443 0.10628509521484375 0.04376983642578125
18.48475 0.13077545166015625 -0.14562225341796875 -3.3055419921875 3.355712890625 -0.00011377036571502686 3.5196542739868164e-05 0.10869598388671875 0.03578948974609375
18.4945 0.12139129638671875 -0.1507110595703125 -3.00830078125 3.6146240234375 -0.00045108795166015625 -0.0006639361381530762 0.1131591796875 0.0284423828125
18.50425 0.1139373779296875 -0.156158447265625 -2.68310546875 3.845458984375 0.000345766544342041 -0.0003084540367126465 0.11669921875 0.020965576171875
18.514 0.1064300537109375 -0.1594390869140625 -2.3330078125 4.02685546875 0.00018061697483062744 -0.00014673173427581787 0.1183013916015625 0.0126190185546875
18.52375 0.09717559814453125 -0.1638641357421875 -1.974853515625 4.158935546875 0.0002943873405456543 -0.0003093630075454712 0.11883544921875 0.005992889404296875
18.5335 0.0905914306640625 -0.16722869873046875 -1.62646484375 4.254638671875 0.0007039308547973633 -0.0002913475036621094 0.121551513671875 -0.0020904541015625
18.54325 0.08129119873046875 -0.17244720458984375 -1.288818359375 4.319091796875 0.0009931325912475586 -0.0009731650352478027 0.11972427368164062 -0.010406494140625
18.553 0.07340240478515625 -0.17493438720703125 -0.955322265625 4.364501953125 0.0015302300453186035 -0.00035077333450317383 0.11986923217773438 -0.017429351806640625
18.56275 0.06414794921875 -0.17420196533203125 -0.63232421875 4.4072265625 -0.0001596212387084961 -0.0010966658592224121 0.11927032470703125 -0.024658203125
18.5725 0.05545806884765625 -0.17655181884765625 -0.302490234375 4.425048828125 -0.0002919137477874756 -0.0002180039882659912 0.11526107788085938 -0.033565521240234375
18.58225 0.0460357666015625 -0.1779022216796875 0.0400390625 4.421142578125 0.0003866851329803467 -0.0006478726863861084 0.11405563354492188 -0.04105377197265625
18.592 0.03765106201171875 -0.17862701416015625 0.39306640625 4.389892578125 -0.00016582012176513672 -0.0010513067245483398 0.11053466796875 -0.0474090576171875
18.60175 0.029388427734375 -0.178253173828125 0.74462890625 4.32666015625 0.0007736682891845703 -0.00012505054473876953 0.107513427734375 -0.05261993408203125
18.6115 0.020294189453125 -0.1769866943359375 1.0791015625 4.214111328125 0.00026747584342956543 -0.0006709694862365723 0.10168075561523438 -0.060760498046875
18.62125 0.01090240478515625 -0.1771392822265625 1.391845703125 4.079345703125 -8.159875869750977e-05 -0.0008752942085266113 0.09733963012695312 -0.067230224609375
18.631 0.00241851806640625 -0.1749114990234375 1.66650390625 3.91845703125 0.0007619857788085938 0.0007050037384033203 0.09180831909179688 -0.07179641723632812
18.64075 -0.00518035888671875 -0.17429351806640625 1.9248046875 3.74951171875 -0.0006216168403625488 -0.0008099675178527832 0.08687591552734375 -0.07553863525390625
18.6505 -0.01222991943359375 -0.17113494873046875 2.169189453125 3.5810546875 0.0009305179119110107 -0.0009101629257202148 0.08227157592773438 -0.08069992065429688
18.66025 -0.0220489501953125 -0.169036865234375 2.403564453125 3.40283203125 -0.0001385807991027832 -0.0003281533718109131 0.07384109497070312 -0.0832672119140625
18.67 -0.027923583984375 -0.16626739501953125 2.635009765625 3.220458984375 -0.00014212727546691895 -0.00034752488136291504 0.07172775268554688 -0.08662796020507812
18.67975 -0.03644561767578125 -0.16211700439453125 2.8671875 3.01953125 -0.00011020898818969727 -8.220970630645752e-05 0.06367874145507812 -0.09025192260742188
