!Created with skrf (http://scikit-rf.org).
# GHz S RI R 50.0 
!freq ReS11 ImS11 ReS21 ImS21 ReS12 ImS12 ReS22 ImS22
17.5 0.01592254638671875 -0.14942169189453125 2.458984375 3.801513671875 -0.0010656118392944336 0.0002817511558532715 0.10340118408203125 0.011951446533203125
17.50975 0.0062255859375 -0.1461639404296875 2.759033203125 3.587646484375 -0.001543879508972168 0.00037038326263427734 0.10732650756835938 0.010318756103515625
17.5195 -0.00041961669921875 -0.1424560546875 3.031005859375 3.33740234375 -0.0019682645797729492 0.0003886222839355469 0.1099853515625 0.00872802734375
17.52925 -0.0112762451171875 -0.13934326171875 3.2841796875 3.0830078125 -0.00131148099899292 -0.0004855990409851074 0.1146240234375 0.002857208251953125
17.539 -0.017608642578125 -0.1349334716796875 3.50537109375 2.81005859375 -0.00029543042182922363 0.00014635920524597168 0.115234375 -0.00022125244140625
17.54875 -0.0267181396484375 -0.13176727294921875 3.69970703125 2.5234375 -0.0015056133270263672 0.0015917420387268066 0.1183929443359375 -0.004421234130859375
17.5585 -0.03775787353515625 -0.12657928466796875 3.881591796875 2.23486328125 -0.0007782578468322754 0.0006676912307739258 0.12201690673828125 -0.00830078125
17.56825 -0.0421142578125 -0.1231842041015625 4.04443359375 1.944580078125 -0.0013107061386108398 0.00021821260452270508 0.12253189086914062 -0.014263153076171875
17.578 -0.0498199462890625 -0.11675262451171875 4.1962890625 1.614990234375 -0.001157224178314209 0.00040137767791748047 0.12386703491210938 -0.019989013671875
17.58775 -0.0575714111328125 -0.11208343505859375 4.318115234375 1.27001953125 -0.001152634620666504 0.0015084147453308105 0.12503814697265625 -0.02425384521484375
17.5975 -0.06204986572265625 -0.106292724609375 4.41162109375 0.897705078125 -0.0010140538215637207 0.0007481575012207031 0.12744903564453125 -0.0288543701171875
17.60725 -0.06744384765625 -0.10065460205078125 4.453125 0.53125 -0.0005638003349304199 0.0016980171203613281 0.12496185302734375 -0.031951904296875
17.617 -0.07424163818359375 -0.092193603515625 4.458740234375 0.1630859375 -0.0010131597518920898 0.0022437572479248047 0.12569427490234375 -0.037750244140625
17.62675 -0.08023834228515625 -0.0862579345703125 4.4248046875 -0.19140625 -0.0011412501335144043 0.0006881952285766602 0.12646484375 -0.04399871826171875
17.6365 -0.0849609375 -0.07879638671875 4.35888671875 -0.52490234375 2.6226043701171875e-06 0.0008333921432495117 0.12424468994140625 -0.049285888671875
17.64625 -0.089508056640625 -0.07279205322265625 4.280029296875 -0.826416015625 -0.00018155574798583984 0.0018050670623779297 0.12267684936523438 -0.0551910400390625
17.656 -0.09227752685546875 -0.06606292724609375 4.199462890625 -1.1171875 -0.001682877540588379 0.0019147396087646484 0.11858749389648438 -0.0611572265625
17.66575 -0.09418487548828125 -0.05641937255859375 4.12060546875 -1.407958984375 -0.002379894256591797 0.0015249252319335938 0.11883163452148438 -0.065643310546875
17.6755 -0.10109710693359375 -0.0483551025390625 4.01953125 -1.702392578125 -0.0012050271034240723 0.0009230971336364746 0.11403274536132812 -0.07209396362304688
17.68525 -0.10230255126953125 -0.0406646728515625 3.920654296875 -2.009765625 0.00027817487716674805 0.0015352368354797363 0.11183547973632812 -0.07670974731445312
17.695 -0.10369110107421875 -0.02973175048828125 3.7802734375 -2.33203125 0.00021326541900634766 0.0009735226631164551 0.10886001586914062 -0.08213424682617188
17.70475 -0.10688018798828125 -0.0225982666015625 3.5850830078125 -2.65478515625 -0.0009281039237976074 0.0009979605674743652 0.10314559936523438 -0.08756637573242188
17.7145 -0.109375 -0.01319122314453125 3.3486328125 -2.96142578125 -0.0014712214469909668 0.0006217360496520996 0.09889602661132812 -0.0908966064453125
17.72425 -0.10902023315429688 -0.004467010498046875 3.07177734375 -3.230712890625 -0.0008866190910339355 -0.00014269351959228516 0.093902587890625 -0.09702301025390625
17.734 -0.11035919189453125 0.00440216064453125 2.7752685546875 -3.449462890625 3.552436828613281e-05 0.001147449016571045 0.09080123901367188 -0.10077667236328125
17.74375 -0.11171722412109375 0.010833740234375 2.46533203125 -3.609375 0.0003058314323425293 0.0006362795829772949 0.08380889892578125 -0.1060638427734375
17.7535 -0.10966873168945312 0.020145416259765625 2.174560546875 -3.7498779296875 0.0009709596633911133 0.0011644363403320312 0.07960891723632812 -0.10991287231445312
17.76325 -0.10730743408203125 0.029895782470703125 1.904296875 -3.8721923828125 -0.0001493692398071289 0.0010774731636047363 0.07094192504882812 -0.10948562622070312
17.773 -0.1065826416015625 0.03630828857421875 1.6376953125 -3.980712890625 0.00012576580047607422 0.0023134946823120117 0.06823348999023438 -0.11392974853515625
17.78275 -0.10501861572265625 0.044040679931640625 1.356201171875 -4.09033203125 0.00019508600234985352 0.0009552836418151855 0.06128692626953125 -0.11312103271484375
17.7925 -0.10190200805664062 0.051609039306640625 1.063720703125 -4.201904296875 0.00030475854873657227 0.0006620585918426514 0.05481719970703125 -0.11719131469726562
17.80225 -0.097991943359375 0.0595550537109375 0.743408203125 -4.3017578125 -0.00016990303993225098 0.0004929602146148682 0.05080413818359375 -0.11970138549804688
17.812 -0.09510421752929688 0.0686492919921875 0.39794921875 -4.36767578125 6.42538070678711e-05 0.0008736550807952881 0.041316986083984375 -0.11966323852539062
17.82175 -0.09037399291992188 0.07684326171875 0.04052734375 -4.39794921875 0.001056671142578125 0.0016808509826660156 0.037517547607421875 -0.118316650390625
17.8315 -0.08600616455078125 0.08385848999023438 -0.322509765625 -4.381103515625 0.0009366869926452637 0.0007640719413757324 0.031131744384765625 -0.12037277221679688
17.84125 -0.08168792724609375 0.090484619140625 -0.66796875 -4.32373046875 0.0007219314575195312 0.0010901689529418945 0.022674560546875 -0.1186065673828125
17.851 -0.076416015625 0.09905242919921875 -0.9951171875 -4.219482421875 0.00025719404220581055 0.0016448497772216797 0.016876220703125 -0.11977386474609375
17.86075 -0.0720672607421875 0.10467529296875 -1.291259765625 -4.1201171875 0.0007354021072387695 0.0015648603439331055 0.009334564208984375 -0.11624908447265625
17.8705 -0.06496810913085938 0.11141204833984375 -1.575927734375 -4.006103515625 -7.055699825286865e-05 -8.102506399154663e-05 0.00421905517578125 -0.11668777465820312
17.88025 -0.059650421142578125 0.11690139770507812 -1.8564453125 -3.88818359375 0.0003052353858947754 0.000979602336883545 -0.003345489501953125 -0.1158599853515625
17.89 -0.05432891845703125 0.12424468994140625 -2.132080078125 -3.763671875 0.0008429288864135742 0.0012407302856445312 -0.00760650634765625 -0.11479568481445312
17.89975 -0.04697418212890625 0.127197265625 -2.4306640625 -3.611083984375 0.0006177425384521484 0.0014702081680297852 -0.0145416259765625 -0.1129150390625
17.9095 -0.04210662841796875 0.13226318359375 -2.720947265625 -3.430908203125 0.0005487799644470215 0.0005737543106079102 -0.01955413818359375 -0.1101531982421875
17.91925 -0.0333709716796875 0.13658905029296875 -2.99658203125 -3.209228515625 -0.00019675493240356445 0.000811845064163208 -0.02469635009765625 -0.10623931884765625
17.929 -0.0264892578125 0.14129638671875 -3.25146484375 -2.9609375 0.0012125968933105469 0.001789093017578125 -0.03216552734375 -0.10467529296875
17.93875 -0.01824188232421875 0.1430206298828125 -3.4697265625 -2.67822265625 -0.0005017518997192383 0.0010107755661010742 -0.03617095947265625 -0.09990692138671875
17.9485 -0.01136016845703125 0.145233154296875 -3.64453125 -2.392578125 0.001160264015197754 0.0008227825164794922 -0.0421905517578125 -0.0947265625
17.95825 -0.00299835205078125 0.149566650390625 -3.798583984375 -2.1015625 0.000441819429397583 0.0004666745662689209 -0.04331207275390625 -0.09296417236328125
17.968 0.0049285888671875 0.1496734619140625 -3.92919921875 -1.822265625 0.0007233023643493652 0.0009465813636779785 -0.0514373779296875 -0.08769989013671875
17.97775 0.013885498046875 0.15238189697265625 -4.0400390625 -1.534912109375 0.0002630949020385742 0.0009364485740661621 -0.0546417236328125 -0.08260345458984375
17.9875 0.02207183837890625 0.1537017822265625 -4.159912109375 -1.2392578125 0.0013169050216674805 0.0008981227874755859 -0.0577239990234375 -0.0776519775390625
17.99725 0.03154754638671875 0.15509796142578125 -4.263916015625 -0.93212890625 0.0006498098373413086 0.000892341136932373 -0.0628204345703125 -0.072845458984375
18.007 0.0401763916015625 0.15422821044921875 -4.3466796875 -0.603515625 0.0009949207305908203 0.0015494823455810547 -0.0652618408203125 -0.068084716796875
18.01675 0.04781341552734375 0.15570068359375 -4.3935546875 -0.254638671875 0.0005391240119934082 0.0010803937911987305 -0.07018280029296875 -0.06159210205078125
18.0265 0.0563812255859375 0.1536865234375 -4.4111328125 0.10400390625 3.5762786865234375e-07 0.0010353326797485352 -0.0743560791015625 -0.0562896728515625
18.03625 0.06524658203125 0.1540679931640625 -4.3828125 0.4638671875 0.0005242228507995605 0.00038808584213256836 -0.076934814453125 -0.05072021484375
18.046 0.07471466064453125 0.15146636962890625 -4.317138671875 0.816162109375 0.0014142394065856934 4.6193599700927734e-05 -0.07891845703125 -0.043613433837890625
18.05575 0.08221435546875 0.14809417724609375 -4.22216796875 1.13427734375 0.0008296668529510498 -0.00016319751739501953 -0.08185195922851562 -0.03766632080078125
18.0655 0.0897216796875 0.14728546142578125 -4.10595703125 1.435546875 0.00022045522928237915 -0.00011882185935974121 -0.0844573974609375 -0.032360076904296875
18.07525 0.09857177734375 0.14331817626953125 -3.97900390625 1.731689453125 -0.00022573769092559814 -0.00019812583923339844 -0.08468246459960938 -0.023853302001953125
18.085 0.106536865234375 0.1400146484375 -3.8406982421875 2.0216064453125 0.0008857250213623047 5.8025121688842773e-05 -0.08647918701171875 -0.017436981201171875
18.09475 0.1128997802734375 0.1360321044921875 -3.6878662109375 2.3028564453125 0.001314699649810791 0.0004950761795043945 -0.08345794677734375 -0.011322021484375
18.1045 0.121246337890625 0.1307373046875 -3.5107421875 2.58056640625 0.0011303424835205078 0.0009416341781616211 -0.08629989624023438 -0.003475189208984375
18.11425 0.128570556640625 0.1277923583984375 -3.3037109375 2.853759765625 0.001062929630279541 0.00041675567626953125 -0.08512115478515625 0.001110076904296875
18.124 0.134033203125 0.122100830078125 -3.072998046875 3.105712890625 -0.00011336803436279297 0.001290440559387207 -0.0825653076171875 0.00943756103515625
18.13375 0.1407623291015625 0.116455078125 -2.823974609375 3.3365478515625 0.0012140274047851562 0.0009163618087768555 -0.08218002319335938 0.01708984375
18.1435 0.14617919921875 0.1112060546875 -2.548583984375 3.535400390625 0.000436246395111084 0.000826418399810791 -0.0817413330078125 0.0243377685546875
18.15325 0.15283203125 0.1042327880859375 -2.2608642578125 3.716796875 0.0008268654346466064 0.00011596083641052246 -0.07949447631835938 0.030487060546875
18.163 0.1582183837890625 0.096282958984375 -1.9698486328125 3.8695068359375 0.0009024739265441895 -0.0002842843532562256 -0.07584762573242188 0.038410186767578125
18.17275 0.164825439453125 0.0910186767578125 -1.66943359375 3.99755859375 0.0003217458724975586 0.00011385977268218994 -0.07049942016601562 0.04450225830078125
18.1825 0.169403076171875 0.0832061767578125 -1.368408203125 4.122802734375 0.00039437413215637207 -0.0005180239677429199 -0.06687164306640625 0.05168914794921875
18.19225 0.17295074462890625 0.074371337890625 -1.048095703125 4.22509765625 0.001403212547302246 -0.000723719596862793 -0.06282806396484375 0.05741119384765625
18.202 0.1793975830078125 0.070281982421875 -0.7255859375 4.29248046875 0.0007257461547851562 0.0003522634506225586 -0.05915069580078125 0.0648956298828125
18.21175 0.1814727783203125 0.0613861083984375 -0.38525390625 4.33984375 0.00019538402557373047 0.0008764266967773438 -0.05522918701171875 0.06920623779296875
18.2215 0.1869049072265625 0.05164337158203125 -0.039306640625 4.346435546875 0.0008076727390289307 -0.0006870031356811523 -0.0483551025390625 0.07426834106445312
18.23125 0.18950653076171875 0.0440826416015625 0.290283203125 4.33154296875 0.0004904866218566895 -0.00019127130508422852 -0.04474639892578125 0.077545166015625
18.241 0.190338134765625 0.0362548828125 0.615234375 4.279296875 -0.00027683377265930176 -0.0005211532115936279 -0.038524627685546875 0.08248519897460938
18.25075 0.19161224365234375 0.02777099609375 0.931396484375 4.209228515625 0.0007361173629760742 -0.000193864107131958 -0.031375885009765625 0.08563995361328125
18.2605 0.1927337646484375 0.020599365234375 1.238037109375 4.123291015625 0.0009119510650634766 0.0007666945457458496 -0.024082183837890625 0.08847427368164062
18.27025 0.19391632080078125 0.01171112060546875 1.53955078125 4.021728515625 -0.0002027750015258789 -0.0010873675346374512 -0.018131256103515625 0.0934906005859375
18.28 0.19644927978515625 0.00150299072265625 1.84765625 3.900634765625 0.0008581876754760742 -4.738569259643555e-06 -0.010471343994140625 0.09483718872070312
18.28975 0.19609832763671875 -0.007904052734375 2.14599609375 3.7578125 0.0008383691310882568 -0.0005905032157897949 -0.0018157958984375 0.09841537475585938
18.2995 0.1944427490234375 -0.01576995849609375 2.434814453125 3.57666015625 -0.0001004934310913086 -0.0003647357225418091 0.006084442138671875 0.09830474853515625
18.30925 0.1924285888671875 -0.0254669189453125 2.70947265625 3.36572265625 0.00045311450958251953 -0.0010923147201538086 0.01453399658203125 0.0991363525390625
18.319 0.19123077392578125 -0.03342437744140625 2.95703125 3.1298828125 0.0003911256790161133 0.000847160816192627 0.02313232421875 0.10157394409179688
18.32875 0.1891937255859375 -0.03905487060546875 3.1708984375 2.88427734375 0.0004986822605133057 -0.0003883540630340576 0.03279876708984375 0.09911346435546875
18.3385 0.18711090087890625 -0.05055999755859375 3.361572265625 2.62548828125 0.0007194280624389648 0.0004990100860595703 0.04062652587890625 0.09972381591796875
18.34825 0.18431854248046875 -0.0589752197265625 3.543212890625 2.370849609375 0.0005537271499633789 -0.00015220046043395996 0.04816436767578125 0.098419189453125
18.358 0.182342529296875 -0.06481170654296875 3.702880859375 2.10546875 0.0009554028511047363 -0.0014527440071105957 0.055755615234375 0.0944061279296875
18.36775 0.17884063720703125 -0.0738525390625 3.858642578125 1.8212890625 0.0006807148456573486 1.9669532775878906e-06 0.06261444091796875 0.09271240234375
18.3775 0.17516326904296875 -0.080108642578125 3.996826171875 1.5302734375 -0.0002612173557281494 -0.00038367509841918945 0.06996917724609375 0.09024810791015625
18.38725 0.17105865478515625 -0.0891876220703125 4.112548828125 1.208740234375 0.000447690486907959 2.60770320892334e-05 0.07721710205078125 0.08597564697265625
18.397 0.1662750244140625 -0.095794677734375 4.1953125 0.873046875 0.0015876293182373047 0.0001773834228515625 0.08636474609375 0.082763671875
18.40675 0.1605224609375 -0.1010284423828125 4.2470703125 0.52197265625 0.00022745132446289062 -0.000821530818939209 0.0909881591796875 0.0753021240234375
18.4165 0.1558685302734375 -0.1078338623046875 4.24560546875 0.185791015625 0.0005056858062744141 -8.675456047058105e-05 0.098602294921875 0.071533203125
18.42625 0.15116119384765625 -0.113525390625 4.215087890625 -0.13916015625 8.210539817810059e-05 -0.0009476542472839355 0.1044464111328125 0.0642242431640625
18.436 0.14263153076171875 -0.119171142578125 4.1630859375 -0.443359375 5.637854337692261e-05 0.00017710775136947632 0.111297607421875 0.058319091796875
18.44575 0.1359710693359375 -0.12551116943359375 4.099365234375 -0.736572265625 0.00035116076469421387 -6.754696369171143e-05 0.1142425537109375 0.04958343505859375
18.4555 0.129852294921875 -0.1296539306640625 4.0283203125 -1.023681640625 0.0014643669128417969 -0.0008362531661987305 0.1179656982421875 0.040863037109375
18.46525 0.1248016357421875 -0.1363525390625 3.950439453125 -1.3145751953125 -0.0007272958755493164 -0.0006211400032043457 0.12158203125 0.03179931640625
18.475 0.11592864990234375 -0.1401519775390625 3.857177734375 -1.609619140625 0.0004655122756958008 0.00031492114067077637 0.12621307373046875 0.0257110595703125
18.48475 0.11016082763671875 -0.14508056640625 3.7249755859375 -1.91015625 0.00024358928203582764 -3.3527612686157227e-05 0.12848663330078125 0.01590728759765625
18.4945 0.10240936279296875 -0.1468353271484375 3.5498046875 -2.205810546875 0.00021438300609588623 0.00020720064640045166 0.13109588623046875 0.006744384765625
18.50425 0.0941009521484375 -0.152008056640625 3.348876953125 -2.485107421875 0.0005040168762207031 -2.7477741241455078e-05 0.130950927734375 -0.0019683837890625
18.514 0.08802032470703125 -0.1538543701171875 3.115478515625 -2.72216796875 -0.00041612982749938965 0.00059470534324646 0.13195037841796875 -0.01137542724609375
18.52375 0.08022308349609375 -0.15525054931640625 2.865478515625 -2.925537109375 0.0008345544338226318 -0.0004521310329437256 0.1302032470703125 -0.02048492431640625
18.5335 0.0747222900390625 -0.1582794189453125 2.618408203125 -3.095703125 0.0005601644515991211 2.962350845336914e-05 0.12973785400390625 -0.0286102294921875
18.54325 0.06707763671875 -0.1605072021484375 2.37548828125 -3.239501953125 0.0006124675273895264 -0.0002829432487487793 0.1270904541015625 -0.03670501708984375
18.553 0.05910491943359375 -0.1630706787109375 2.132568359375 -3.3753662109375 -0.00022907555103302002 -7.991492748260498e-05 0.1252899169921875 -0.0431976318359375
18.56275 0.052581787109375 -0.16294097900390625 1.8936767578125 -3.5101318359375 0.0001061558723449707 -0.0012363791465759277 0.12090682983398438 -0.05096435546875
18.5725 0.04477691650390625 -0.163482666015625 1.639892578125 -3.6385498046875 -6.705522537231445e-06 -0.0009510815143585205 0.11783218383789062 -0.0590057373046875
18.58225 0.03823089599609375 -0.16400909423828125 1.3648681640625 -3.750732421875 0.000561833381652832 -0.0013290643692016602 0.11205291748046875 -0.06664276123046875
18.592 0.030059814453125 -0.1639862060546875 1.072265625 -3.83984375 0.0008164644241333008 0.00045561790466308594 0.10666656494140625 -0.07313919067382812
18.60175 0.022247314453125 -0.1623992919921875 0.76806640625 -3.901611328125 0.0009731650352478027 -0.0005927681922912598 0.09824371337890625 -0.078643798828125
18.6115 0.0169677734375 -0.16143798828125 0.4652099609375 -3.921142578125 0.00044590234756469727 -0.000818401575088501 0.09340286254882812 -0.08519744873046875
18.62125 0.00881195068359375 -0.1615753173828125 0.1712646484375 -3.9056396484375 7.137656211853027e-05 -0.0006469786167144775 0.08673477172851562 -0.0904693603515625
18.631 0.00240325927734375 -0.16036224365234375 -0.0936279296875 -3.8739013671875 -0.0006151199340820312 -0.0008008480072021484 0.08013153076171875 -0.09410476684570312
18.64075 -0.00559234619140625 -0.1595916748046875 -0.3544921875 -3.8251953125 0.0013626813888549805 -0.0011230111122131348 0.0742340087890625 -0.09681320190429688
18.6505 -0.01104736328125 -0.15785980224609375 -0.600830078125 -3.776611328125 0.0005963742733001709 -0.0006842911243438721 0.06740570068359375 -0.09942245483398438
18.66025 -0.019866943359375 -0.15531158447265625 -0.846435546875 -3.722412109375 -0.00021392107009887695 -0.0004184246063232422 0.058837890625 -0.10230636596679688
18.67 -0.02428436279296875 -0.15374755859375 -1.0986328125 -3.662109375 0.00014472007751464844 -0.0005233585834503174 0.05287933349609375 -0.1023712158203125
18.67975 -0.03282928466796875 -0.15073394775390625 -1.353515625 -3.5849609375 0.0007050633430480957 -0.0015686750411987305 0.044525146484375 -0.10499191284179688
18.6895 -0.0385589599609375 -0.14768218994140625 -1.612548828125 -3.474609375 -0.00011131167411804199 -0.000828862190246582 0.038787841796875 -0.10459518432617188
18.69925 -0.0457763671875 -0.1453094482421875 -1.85888671875 -3.34912109375 -0.00018739700317382812 -0.0007051229476928711 0.0326385498046875 -0.105316162109375
