!Created with skrf (http://scikit-rf.org).
# GHz S RI R 50.0 
!freq ReS11 ImS11 ReS21 ImS21 ReS12 ImS12 ReS22 ImS22
17.5 0.0093994140625 -0.13364410400390625 -4.784423828125 0.618408203125 -0.0012209415435791016 -0.0004710555076599121 0.08541488647460938 0.001056671142578125
17.50975 0.0019073486328125 -0.1296844482421875 -4.716064453125 0.994873046875 -0.0021153688430786133 -0.00046622753143310547 0.08765029907226562 -0.00049591064453125
17.5195 -0.00655364990234375 -0.1261444091796875 -4.60498046875 1.359375 -0.0023365020751953125 0.0013339519500732422 0.09180068969726562 -0.00064849853515625
17.52925 -0.013427734375 -0.122802734375 -4.481689453125 1.71435546875 -0.0013382434844970703 0.0006972551345825195 0.09385299682617188 -0.004238128662109375
17.539 -0.01959228515625 -0.1175384521484375 -4.32861328125 2.04736328125 -0.0011731386184692383 9.810924530029297e-05 0.0936431884765625 -0.006072998046875
17.54875 -0.027313232421875 -0.11407470703125 -4.14404296875 2.357666015625 -0.0009367465972900391 0.0005005002021789551 0.09706878662109375 -0.008880615234375
17.5585 -0.0357513427734375 -0.10869598388671875 -3.95556640625 2.6640625 -0.001719355583190918 0.0016024112701416016 0.09897232055664062 -0.01088714599609375
17.56825 -0.03958892822265625 -0.10443115234375 -3.7608642578125 2.9478759765625 -0.0011382699012756348 0.0007395744323730469 0.09983062744140625 -0.014209747314453125
17.578 -0.0465087890625 -0.100311279296875 -3.5260009765625 3.2347412109375 -0.001385807991027832 0.0005508661270141602 0.10334014892578125 -0.018062591552734375
17.58775 -0.052093505859375 -0.0956268310546875 -3.2669677734375 3.5062255859375 -0.0005029439926147461 0.0016452670097351074 0.10361480712890625 -0.01862335205078125
17.5975 -0.05693817138671875 -0.089263916015625 -2.9697265625 3.76025390625 -0.0010467767715454102 0.0015774965286254883 0.10387420654296875 -0.02333831787109375
17.60725 -0.06165313720703125 -0.08526611328125 -2.658935546875 3.977783203125 -0.0011218786239624023 0.001255810260772705 0.10364532470703125 -0.0255279541015625
17.617 -0.06659698486328125 -0.07866668701171875 -2.32421875 4.1591796875 -0.0006073117256164551 0.0010287165641784668 0.10686111450195312 -0.029384613037109375
17.62675 -0.07010650634765625 -0.07161712646484375 -1.985107421875 4.30419921875 -0.0010710358619689941 -0.000521242618560791 0.10789871215820312 -0.033557891845703125
17.6365 -0.073577880859375 -0.0651092529296875 -1.64013671875 4.41552734375 -0.0009443163871765137 0.0007706284523010254 0.1069183349609375 -0.0384674072265625
17.64625 -0.07740020751953125 -0.0569000244140625 -1.313232421875 4.496826171875 -0.0009036064147949219 0.0010083913803100586 0.10636138916015625 -0.042163848876953125
17.656 -0.0801849365234375 -0.0532073974609375 -0.992919921875 4.5615234375 -0.00010758638381958008 0.0008185207843780518 0.1030426025390625 -0.046283721923828125
17.66575 -0.08140182495117188 -0.044857025146484375 -0.681884765625 4.623779296875 0.000691533088684082 0.0011022090911865234 0.10440826416015625 -0.04885101318359375
17.6755 -0.0835723876953125 -0.037418365478515625 -0.361083984375 4.668701171875 -0.001552879810333252 0.0015240311622619629 0.1009368896484375 -0.054447174072265625
17.68525 -0.0858154296875 -0.03070831298828125 -0.031982421875 4.72900390625 -0.0009510517120361328 1.7851591110229492e-05 0.09926223754882812 -0.058818817138671875
17.695 -0.08781814575195312 -0.023029327392578125 0.326171875 4.755126953125 -9.614229202270508e-05 0.0016480088233947754 0.09824752807617188 -0.0621185302734375
17.70475 -0.08773040771484375 -0.014957427978515625 0.71337890625 4.74365234375 -0.00031062960624694824 -0.0001268535852432251 0.09423828125 -0.06604766845703125
17.7145 -0.09143447875976562 -0.007823944091796875 1.10791015625 4.690673828125 0.0001650303602218628 0.000239446759223938 0.0925140380859375 -0.07073593139648438
17.72425 -0.0908660888671875 -0.001575469970703125 1.496337890625 4.57958984375 -0.0003274679183959961 0.0011711716651916504 0.088043212890625 -0.07593536376953125
17.734 -0.09119415283203125 0.00518798828125 1.858642578125 4.427490234375 0.0005115270614624023 0.0010541677474975586 0.08651351928710938 -0.07942581176757812
17.74375 -0.0921478271484375 0.01239776611328125 2.17529296875 4.23291015625 0.000536799430847168 -0.00010716915130615234 0.0829620361328125 -0.0830230712890625
17.7535 -0.09084320068359375 0.019077301025390625 2.464599609375 4.031494140625 -0.00040030479431152344 0.001065969467163086 0.07877349853515625 -0.08764266967773438
17.76325 -0.08777999877929688 0.025814056396484375 2.72412109375 3.84033203125 0.0002111196517944336 0.001829981803894043 0.07326889038085938 -0.08863449096679688
17.773 -0.08830642700195312 0.031597137451171875 2.97021484375 3.645751953125 4.470348358154297e-05 0.0012836456298828125 0.07083511352539062 -0.09228134155273438
17.78275 -0.08684158325195312 0.038394927978515625 3.216796875 3.4375 3.3974647521972656e-06 0.0018610954284667969 0.06748199462890625 -0.09322738647460938
17.7925 -0.08352279663085938 0.045269012451171875 3.464111328125 3.22705078125 6.860494613647461e-05 0.0016461014747619629 0.0629730224609375 -0.09664154052734375
17.80225 -0.08097457885742188 0.049831390380859375 3.731689453125 2.990478515625 -0.0009696483612060547 0.002232670783996582 0.057758331298828125 -0.09801483154296875
17.812 -0.07732772827148438 0.057682037353515625 3.9765625 2.714599609375 -0.0007709860801696777 0.0008382201194763184 0.053859710693359375 -0.10066604614257812
17.82175 -0.07480621337890625 0.06383132934570312 4.201171875 2.406494140625 0.0003389120101928711 0.0019049644470214844 0.0491943359375 -0.09918594360351562
17.8315 -0.07392120361328125 0.06972885131835938 4.39599609375 2.064453125 -7.489323616027832e-05 0.0009387731552124023 0.043827056884765625 -0.1033172607421875
17.84125 -0.06835174560546875 0.075469970703125 4.5498046875 1.7138671875 -0.0010242462158203125 0.0007323026657104492 0.038177490234375 -0.10167694091796875
17.851 -0.06334686279296875 0.08319473266601562 4.64892578125 1.345947265625 0.00026530027389526367 0.0014620423316955566 0.03340911865234375 -0.10506439208984375
17.86075 -0.06110382080078125 0.0864105224609375 4.72412109375 1.00537109375 0.0010755658149719238 0.0005035400390625 0.026920318603515625 -0.10316085815429688
17.8705 -0.056995391845703125 0.09165573120117188 4.7734375 0.662109375 0.0009454488754272461 0.001838088035583496 0.02265167236328125 -0.10406112670898438
17.88025 -0.0536956787109375 0.09846878051757812 4.819580078125 0.329833984375 0.0006104707717895508 -0.0004769265651702881 0.0162200927734375 -0.10576248168945312
17.89 -0.048053741455078125 0.103759765625 4.854248046875 -0.00244140625 0.0006108880043029785 -0.00020763278007507324 0.011920928955078125 -0.10277557373046875
17.89975 -0.043033599853515625 0.10841751098632812 4.877197265625 -0.362548828125 0.00033909082412719727 0.0011249184608459473 0.006488800048828125 -0.10294723510742188
17.9095 -0.038845062255859375 0.11287689208984375 4.87744140625 -0.738037109375 0.0017325282096862793 0.00018680095672607422 0.0005950927734375 -0.10278701782226562
17.91925 -0.031826019287109375 0.11608123779296875 4.83984375 -1.118896484375 -0.0002281665802001953 0.0017474889755249023 -0.003238677978515625 -0.101593017578125
17.929 -0.026214599609375 0.12076568603515625 4.7685546875 -1.5078125 0.00039887428283691406 0.001558065414428711 -0.009246826171875 -0.1020050048828125
17.93875 -0.02146148681640625 0.12246322631835938 4.642578125 -1.892333984375 0.0011507272720336914 0.0003076791763305664 -0.013797760009765625 -0.09965896606445312
17.9485 -0.016448974609375 0.125946044921875 4.482421875 -2.243408203125 0.0001131892204284668 0.0007429718971252441 -0.01923370361328125 -0.09692001342773438
17.95825 -0.0090484619140625 0.1288299560546875 4.2978515625 -2.58154296875 0.0003364682197570801 0.0010443329811096191 -0.022396087646484375 -0.09613800048828125
17.968 -0.00412750244140625 0.13060760498046875 4.1025390625 -2.89111328125 0.0013205409049987793 0.0001786947250366211 -0.0296783447265625 -0.0935211181640625
17.97775 0.00376129150390625 0.13323974609375 3.8953857421875 -3.1856689453125 0.0011949539184570312 0.0012607574462890625 -0.034214019775390625 -0.0869293212890625
17.9875 0.01141357421875 0.135345458984375 3.66943359375 -3.48046875 0.0006945133209228516 0.0008176565170288086 -0.037052154541015625 -0.08488845825195312
17.99725 0.01753997802734375 0.13559722900390625 3.4337158203125 -3.77197265625 0.0014232397079467773 0.001732945442199707 -0.04241180419921875 -0.0833740234375
18.007 0.02483367919921875 0.137542724609375 3.164794921875 -4.06005859375 0.00013953447341918945 0.00028008222579956055 -0.04512786865234375 -0.07751846313476562
18.01675 0.0321044921875 0.1409759521484375 2.861083984375 -4.330322265625 0.000743567943572998 0.0003262758255004883 -0.05078887939453125 -0.07378387451171875
18.0265 0.0400543212890625 0.14046478271484375 2.52197265625 -4.583251953125 0.0012015700340270996 0.00011211633682250977 -0.056304931640625 -0.07082366943359375
18.03625 0.0469818115234375 0.1434478759765625 2.1455078125 -4.796875 0.001226186752319336 -0.0005445480346679688 -0.06069183349609375 -0.06365966796875
18.046 0.054412841796875 0.14142608642578125 1.745849609375 -4.97021484375 -4.315003752708435e-05 -5.976483225822449e-05 -0.06293106079101562 -0.05973052978515625
18.05575 0.062103271484375 0.140228271484375 1.349609375 -5.0947265625 0.0007992088794708252 0.00014337897300720215 -0.0669708251953125 -0.054882049560546875
18.0655 0.06899261474609375 0.14095306396484375 0.9541015625 -5.185546875 0.0015215873718261719 7.396936416625977e-05 -0.07064056396484375 -0.05002593994140625
18.07525 0.0762481689453125 0.13982391357421875 0.552001953125 -5.250732421875 0.0010614395141601562 0.0004336237907409668 -0.07334136962890625 -0.04450225830078125
18.085 0.0859222412109375 0.138916015625 0.146484375 -5.292724609375 0.0009389817714691162 -0.000503242015838623 -0.07656097412109375 -0.0398406982421875
18.09475 0.09128570556640625 0.13580322265625 -0.261474609375 -5.3212890625 0.0019387006759643555 0.0010764598846435547 -0.07555389404296875 -0.03399658203125
18.1045 0.09984588623046875 0.13397216796875 -0.681884765625 -5.31298828125 0.0013936758041381836 -0.00042372941970825195 -0.07904434204101562 -0.02545928955078125
18.11425 0.10607147216796875 0.13226318359375 -1.11669921875 -5.266357421875 0.0008725523948669434 0.0003935694694519043 -0.07955551147460938 -0.021915435791015625
18.124 0.112701416015625 0.1292572021484375 -1.5419921875 -5.18359375 0.0006576180458068848 -0.00010001659393310547 -0.0805206298828125 -0.01291656494140625
18.13375 0.119903564453125 0.126953125 -1.9619140625 -5.06494140625 0.0013724565505981445 0.0002551078796386719 -0.08023834228515625 -0.00788116455078125
18.1435 0.12720489501953125 0.12078094482421875 -2.370849609375 -4.90283203125 0.0015246868133544922 0.0001608729362487793 -0.08386993408203125 0.0012664794921875
18.15325 0.1340789794921875 0.1164093017578125 -2.76611328125 -4.69775390625 0.0006592869758605957 -0.00010791420936584473 -0.08184814453125 0.007476806640625
18.163 0.142578125 0.1111297607421875 -3.12939453125 -4.464599609375 0.0007727742195129395 0.0011507272720336914 -0.08099365234375 0.014850616455078125
18.17275 0.148468017578125 0.1058502197265625 -3.482421875 -4.207275390625 -0.0003268122673034668 -0.0006382465362548828 -0.07872390747070312 0.0204620361328125
18.1825 0.1567535400390625 0.099517822265625 -3.82080078125 -3.939697265625 0.0009717345237731934 -4.124641418457031e-05 -0.07641220092773438 0.029571533203125
18.19225 0.1605224609375 0.0926361083984375 -4.146728515625 -3.62890625 0.0014410018920898438 0.0006074905395507812 -0.0747833251953125 0.03705596923828125
18.202 0.167999267578125 0.087860107421875 -4.43798828125 -3.2958984375 -0.0008617043495178223 -0.0005322098731994629 -0.07434463500976562 0.0421600341796875
18.21175 0.17333984375 0.0809326171875 -4.7119140625 -2.91455078125 0.0007126331329345703 -0.0001131892204284668 -0.06888580322265625 0.0507659912109375
18.2215 0.1796112060546875 0.07155609130859375 -4.940185546875 -2.50927734375 0.0007651150226593018 0.00019374489784240723 -0.0641021728515625 0.055171966552734375
18.23125 0.183441162109375 0.06545257568359375 -5.12548828125 -2.095703125 0.0006604492664337158 -0.0004310309886932373 -0.06092262268066406 0.05945587158203125
18.241 0.1876068115234375 0.0575714111328125 -5.26416015625 -1.673095703125 0.0012093782424926758 1.5437602996826172e-05 -0.0587005615234375 0.06629562377929688
18.25075 0.1907501220703125 0.0493011474609375 -5.36962890625 -1.24853515625 -0.00019641220569610596 -8.106231689453125e-05 -0.051342010498046875 0.0721282958984375
18.2605 0.19368743896484375 0.0399932861328125 -5.439453125 -0.8271484375 0.0010104179382324219 -0.0006006360054016113 -0.0440673828125 0.07739639282226562
18.27025 0.1967010498046875 0.030242919921875 -5.490234375 -0.403076171875 0.0005711019039154053 -0.00016823410987854004 -0.037685394287109375 0.08211135864257812
18.28 0.199676513671875 0.02204132080078125 -5.527587890625 0.03759765625 -2.5270506739616394e-05 4.352442920207977e-05 -0.03275299072265625 0.0855255126953125
18.28975 0.20197296142578125 0.011505126953125 -5.519287109375 0.477783203125 0.00043064355850219727 -0.0007299184799194336 -0.0238494873046875 0.0895843505859375
18.2995 0.202880859375 0.0031585693359375 -5.467041015625 0.937255859375 0.00028008222579956055 -0.00075492262840271 -0.018032073974609375 0.09179306030273438
18.30925 0.2027435302734375 -0.0061492919921875 -5.36181640625 1.396484375 0.0006206631660461426 -0.00025075674057006836 -0.00890350341796875 0.09560394287109375
18.319 0.20204925537109375 -0.0173187255859375 -5.2119140625 1.834716796875 -0.000456005334854126 0.0003627389669418335 -0.0028839111328125 0.09919357299804688
18.32875 0.201385498046875 -0.02484893798828125 -5.0224609375 2.2451171875 -1.2636184692382812e-05 -0.001389920711517334 0.006313323974609375 0.09918212890625
18.3385 0.201080322265625 -0.035614013671875 -4.796875 2.6259765625 -0.00013491511344909668 0.0006544589996337891 0.01708221435546875 0.10344314575195312
18.34825 0.199981689453125 -0.0457611083984375 -4.567626953125 2.979248046875 -0.00042825937271118164 -6.178021430969238e-05 0.02374267578125 0.102691650390625
18.358 0.1971893310546875 -0.05426788330078125 -4.31787109375 3.306884765625 0.00112229585647583 0.0006362199783325195 0.0333404541015625 0.1019744873046875
18.36775 0.19431304931640625 -0.063568115234375 -4.043701171875 3.6328125 9.904429316520691e-05 -7.764622569084167e-05 0.04106903076171875 0.0994873046875
18.3775 0.19251251220703125 -0.0714569091796875 -3.763427734375 3.94091796875 0.00043660402297973633 -0.0009101927280426025 0.0488128662109375 0.09963226318359375
18.38725 0.18819427490234375 -0.0823211669921875 -3.430908203125 4.243408203125 0.0008240938186645508 -0.0004748702049255371 0.0562591552734375 0.0977325439453125
18.397 0.184295654296875 -0.0895538330078125 -3.06689453125 4.50927734375 -0.0005245208740234375 0.0010476112365722656 0.0644073486328125 0.0961151123046875
18.40675 0.179962158203125 -0.09906005859375 -2.666015625 4.74951171875 -3.141164779663086e-05 -0.0005027055740356445 0.07171630859375 0.090179443359375
18.4165 0.1738128662109375 -0.107452392578125 -2.2529296875 4.92333984375 0.0007086694240570068 -0.0006885826587677002 0.07970428466796875 0.08837127685546875
18.42625 0.1684112548828125 -0.11472320556640625 -1.826904296875 5.046142578125 0.0007602870464324951 0.00015804171562194824 0.08806610107421875 0.0834197998046875
18.436 0.16196441650390625 -0.12088775634765625 -1.422607421875 5.13232421875 -3.489851951599121e-05 -0.00025881826877593994 0.09716796875 0.07685089111328125
18.44575 0.15476226806640625 -0.12955474853515625 -1.022705078125 5.187255859375 -0.0006757676601409912 -0.00020384788513183594 0.100250244140625 0.07088470458984375
18.4555 0.14710235595703125 -0.135345458984375 -0.6357421875 5.2236328125 0.0005488991737365723 -0.0011326074600219727 0.10710906982421875 0.0642242431640625
18.46525 0.14034271240234375 -0.1418914794921875 -0.248291015625 5.25537109375 0.00042495131492614746 -0.0004665553569793701 0.11272430419921875 0.05461883544921875
18.475 0.13117218017578125 -0.1485443115234375 0.153076171875 5.274169921875 1.646578311920166e-05 -0.0004132986068725586 0.11981201171875 0.04864501953125
18.48475 0.12506866455078125 -0.15428924560546875 0.574951171875 5.24560546875 -0.00047069787979125977 -0.00042641162872314453 0.12384796142578125 0.04079437255859375
18.4945 0.11578369140625 -0.15972137451171875 1.004638671875 5.177978515625 0.0008176267147064209 -0.0008600056171417236 0.12747955322265625 0.030487060546875
18.50425 0.1064453125 -0.163848876953125 1.4384765625 5.06005859375 0.0006494522094726562 -0.0015624761581420898 0.1283721923828125 0.0214080810546875
18.514 0.0996551513671875 -0.1663665771484375 1.84375 4.888671875 -6.027519702911377e-06 -7.952004671096802e-05 0.1308746337890625 0.013580322265625
18.52375 0.08936309814453125 -0.16732025146484375 2.20751953125 4.669677734375 -0.0007311403751373291 0.00019171833992004395 0.13304901123046875 0.005096435546875
18.5335 0.081695556640625 -0.17195892333984375 2.537109375 4.443115234375 0.00019077211618423462 -8.182227611541748e-05 0.13434600830078125 -0.00513458251953125
18.54325 0.0731048583984375 -0.1770477294921875 2.8291015625 4.204833984375 0.0005004405975341797 -0.00025773048400878906 0.13405609130859375 -0.01413726806640625
18.553 0.06324005126953125 -0.1774444580078125 3.0966796875 3.954833984375 0.0004964768886566162 -0.0003268718719482422 0.13227081298828125 -0.02143096923828125
18.56275 0.056671142578125 -0.17780303955078125 3.359619140625 3.71044921875 0.00018467754125595093 -0.0001634061336517334 0.1303863525390625 -0.0299530029296875
18.5725 0.0456695556640625 -0.17855072021484375 3.615234375 3.4482421875 0.0007255673408508301 -0.0004317760467529297 0.12749481201171875 -0.03857421875
18.58225 0.03741455078125 -0.17774200439453125 3.86279296875 3.16162109375 -0.0003167688846588135 -0.00022533535957336426 0.124053955078125 -0.048023223876953125
18.592 0.02789306640625 -0.177886962890625 4.093505859375 2.841796875 -0.0003814101219177246 -0.0009903311729431152 0.11921310424804688 -0.0546875
18.60175 0.019866943359375 -0.1759185791015625 4.29345703125 2.49462890625 0.00024774670600891113 -0.00030553340911865234 0.1145782470703125 -0.06203460693359375
18.6115 0.01238250732421875 -0.175384521484375 4.4453125 2.134033203125 0.0006565451622009277 -0.0011933445930480957 0.11102676391601562 -0.0701751708984375
18.62125 0.0041656494140625 -0.17302703857421875 4.55322265625 1.766845703125 0.00014947354793548584 -0.0003532916307449341 0.10471725463867188 -0.07523727416992188
18.631 -0.00450897216796875 -0.17176055908203125 4.61572265625 1.42236328125 4.863739013671875e-05 -0.0007700026035308838 0.0992431640625 -0.0832061767578125
18.64075 -0.0120849609375 -0.17012786865234375 4.6591796875 1.07763671875 -0.0002244114875793457 -0.0013715028762817383 0.09319686889648438 -0.08587646484375
18.6505 -0.0174407958984375 -0.16880035400390625 4.69677734375 0.757568359375 0.0010805726051330566 0.00046008825302124023 0.08707046508789062 -0.09239959716796875
18.66025 -0.026885986328125 -0.16412353515625 4.726318359375 0.4345703125 0.0013976097106933594 -0.0008647441864013672 0.080078125 -0.0938262939453125
18.67 -0.03383636474609375 -0.15999603271484375 4.7451171875 0.108154296875 0.0008466541767120361 -0.0007801055908203125 0.07501602172851562 -0.09656524658203125
18.67975 -0.04150390625 -0.15644073486328125 4.74609375 -0.23095703125 0.00027251243591308594 -0.001080155372619629 0.06789398193359375 -0.10077667236328125
18.6895 -0.04882049560546875 -0.1540374755859375 4.715576171875 -0.5927734375 -0.0008308589458465576 9.447336196899414e-06 0.060161590576171875 -0.1015625
