!Created with skrf (http://scikit-rf.org).
# GHz S RI R 50.0 
!freq ReS11 ImS11 ReS21 ImS21 ReS12 ImS12 ReS22 ImS22
17.5 -0.0010223388671875 -0.14304351806640625 -0.10546875 -4.393310546875 -0.0002728104591369629 -0.00027817487716674805 0.09971237182617188 -0.011539459228515625
17.50975 -0.01071929931640625 -0.13918304443359375 -0.437744140625 -4.36669921875 -0.002032756805419922 0.001008749008178711 0.10087966918945312 -0.013683319091796875
17.5195 -0.0179595947265625 -0.1351318359375 -0.76904296875 -4.312255859375 -0.002158641815185547 -0.0001163482666015625 0.1042938232421875 -0.013256072998046875
17.52925 -0.0280303955078125 -0.130828857421875 -1.0927734375 -4.24560546875 -0.0011087656021118164 -0.0002709627151489258 0.10501861572265625 -0.01894378662109375
17.539 -0.0328826904296875 -0.122802734375 -1.40185546875 -4.1455078125 -0.0015152692794799805 -0.00014150142669677734 0.104949951171875 -0.0214691162109375
17.54875 -0.04138946533203125 -0.11981964111328125 -1.7001953125 -4.022705078125 -0.0008081197738647461 0.00020599365234375 0.1069183349609375 -0.0244598388671875
17.5585 -0.0507354736328125 -0.11342620849609375 -1.9951171875 -3.894287109375 -0.0015342235565185547 0.0012159347534179688 0.10709381103515625 -0.029651641845703125
17.56825 -0.0547943115234375 -0.1082000732421875 -2.271484375 -3.752685546875 -0.000746309757232666 0.0013190507888793945 0.10689163208007812 -0.0306549072265625
17.578 -0.061279296875 -0.10131072998046875 -2.557861328125 -3.578125 -0.0019561052322387695 0.001422286033630371 0.10715103149414062 -0.0358734130859375
17.58775 -0.06810760498046875 -0.09586334228515625 -2.8349609375 -3.37646484375 -0.0019963979721069336 0.0011614561080932617 0.10739898681640625 -0.03777313232421875
17.5975 -0.07170867919921875 -0.088592529296875 -3.09912109375 -3.141845703125 -0.0006377696990966797 0.0004571080207824707 0.1069793701171875 -0.0429840087890625
17.60725 -0.07640838623046875 -0.08392333984375 -3.33056640625 -2.89013671875 -0.0015124082565307617 0.0012974143028259277 0.10485076904296875 -0.044734954833984375
17.617 -0.08055877685546875 -0.07532501220703125 -3.532470703125 -2.61669921875 -0.00031310319900512695 0.0010022521018981934 0.10552978515625 -0.048625946044921875
17.62675 -0.084869384765625 -0.0685882568359375 -3.70751953125 -2.333984375 -0.0019011497497558594 0.0004729032516479492 0.10353851318359375 -0.0523681640625
17.6365 -0.088592529296875 -0.0614776611328125 -3.8544921875 -2.05078125 -0.0015648603439331055 0.0005440711975097656 0.1024322509765625 -0.05680084228515625
17.64625 -0.09114837646484375 -0.051055908203125 -3.9755859375 -1.773193359375 -7.033348083496094e-06 0.0016779303550720215 0.100433349609375 -0.0607452392578125
17.656 -0.09310150146484375 -0.0465240478515625 -4.09375 -1.496826171875 -0.0011647343635559082 6.03795051574707e-05 0.09586715698242188 -0.06410980224609375
17.66575 -0.09539031982421875 -0.03557586669921875 -4.2060546875 -1.2177734375 -0.0005171298980712891 0.0014655590057373047 0.09312057495117188 -0.0668182373046875
17.6755 -0.0981597900390625 -0.0281982421875 -4.302978515625 -0.925048828125 -0.0008028745651245117 0.0013465285301208496 0.08974075317382812 -0.07125473022460938
17.68525 -0.09837722778320312 -0.018726348876953125 -4.4033203125 -0.622802734375 -0.0010387897491455078 0.0004413127899169922 0.08642578125 -0.07312393188476562
17.695 -0.09734725952148438 -0.01097869873046875 -4.475830078125 -0.283935546875 -0.00041282176971435547 0.001927018165588379 0.08423995971679688 -0.07598495483398438
17.70475 -0.09781265258789062 -0.002655029296875 -4.517822265625 0.07763671875 -0.00018906593322753906 0.0013712048530578613 0.08145523071289062 -0.08009719848632812
17.7145 -0.10023117065429688 0.00582122802734375 -4.51904296875 0.453125 -0.0005315244197845459 0.00048166513442993164 0.07682418823242188 -0.08232498168945312
17.72425 -0.09779739379882812 0.012451171875 -4.4638671875 0.824462890625 -0.0006138384342193604 0.0001939833164215088 0.0721588134765625 -0.08636856079101562
17.734 -0.097991943359375 0.02032470703125 -4.380859375 1.17333984375 -0.0015187263488769531 0.000691533088684082 0.06858062744140625 -0.08734130859375
17.74375 -0.09774398803710938 0.028034210205078125 -4.244140625 1.49658203125 -0.0005246400833129883 0.0014812946319580078 0.0650787353515625 -0.09199905395507812
17.7535 -0.09228897094726562 0.03487396240234375 -4.114013671875 1.794921875 -0.00013099610805511475 -0.00015306472778320312 0.06255722045898438 -0.0931549072265625
17.76325 -0.09331130981445312 0.042591094970703125 -3.9864501953125 2.0775146484375 -0.0002434253692626953 0.0005230307579040527 0.05564117431640625 -0.09363174438476562
17.773 -0.08988571166992188 0.047611236572265625 -3.8475341796875 2.3460693359375 -0.0018673539161682129 0.0015224218368530273 0.050853729248046875 -0.0970916748046875
17.78275 -0.08776473999023438 0.054767608642578125 -3.682861328125 2.623779296875 -0.00016324222087860107 -5.159527063369751e-05 0.04746246337890625 -0.09566116333007812
17.7925 -0.08282470703125 0.06066131591796875 -3.5179443359375 2.905517578125 0.00041872262954711914 0.0009620785713195801 0.043544769287109375 -0.09767913818359375
17.80225 -0.0791168212890625 0.06679153442382812 -3.3162841796875 3.19189453125 -0.0004061758518218994 0.0009174048900604248 0.03771209716796875 -0.09864425659179688
17.812 -0.07419204711914062 0.07293701171875 -3.0819091796875 3.4700927734375 0.0009675025939941406 0.001343369483947754 0.0347900390625 -0.09727096557617188
17.82175 -0.06885910034179688 0.08028030395507812 -2.8162841796875 3.72607421875 0.00018095970153808594 0.0008592605590820312 0.03127288818359375 -0.09732818603515625
17.8315 -0.06604766845703125 0.08644866943359375 -2.51611328125 3.958740234375 -0.0001863241195678711 0.0016252398490905762 0.025806427001953125 -0.09708023071289062
17.84125 -0.0606536865234375 0.091644287109375 -2.2001953125 4.15673828125 -0.0004775524139404297 0.0005783438682556152 0.0183258056640625 -0.09618377685546875
17.851 -0.054096221923828125 0.098114013671875 -1.86572265625 4.304443359375 -0.00015097856521606445 0.0014882087707519531 0.017818450927734375 -0.09494400024414062
17.86075 -0.050632476806640625 0.10202789306640625 -1.543212890625 4.43310546875 -0.00028565526008605957 0.0006924271583557129 0.01009368896484375 -0.09375762939453125
17.8705 -0.044742584228515625 0.1057586669921875 -1.216064453125 4.544921875 0.00030809640884399414 0.000947415828704834 0.005863189697265625 -0.09297561645507812
17.88025 -0.039035797119140625 0.11148834228515625 -0.8818359375 4.641357421875 0.0011680126190185547 0.0012154579162597656 0.00048065185546875 -0.09293746948242188
17.89 -0.033023834228515625 0.11426162719726562 -0.550537109375 4.73291015625 0.0010672807693481445 0.0019649267196655273 -0.004238128662109375 -0.08963394165039062
17.89975 -0.0269012451171875 0.11666488647460938 -0.181640625 4.79248046875 0.0006507337093353271 0.00020191073417663574 -0.005859375 -0.08978271484375
17.9095 -0.02234649658203125 0.12067794799804688 0.193359375 4.841552734375 0.001006484031677246 0.0006226301193237305 -0.01271820068359375 -0.08713531494140625
17.91925 -0.015655517578125 0.122772216796875 0.5830078125 4.835205078125 0.000496983528137207 0.0009536147117614746 -0.014362335205078125 -0.08408355712890625
17.929 -0.00939178466796875 0.124267578125 0.97412109375 4.80419921875 0.0009644031524658203 6.079673767089844e-05 -0.0200042724609375 -0.08231353759765625
17.93875 -0.00395965576171875 0.127685546875 1.364990234375 4.729736328125 0.0009546279907226562 -4.225969314575195e-05 -0.0214080810546875 -0.08034133911132812
17.9485 0.002593994140625 0.128387451171875 1.735107421875 4.6162109375 0.0013490915298461914 -0.0008881092071533203 -0.024005889892578125 -0.07672119140625
17.95825 0.00939178466796875 0.12946319580078125 2.097900390625 4.479736328125 0.0005406737327575684 0.0010268688201904297 -0.026020050048828125 -0.0749053955078125
17.968 0.01625823974609375 0.13140869140625 2.442138671875 4.319580078125 0.0002588629722595215 0.0009453296661376953 -0.033206939697265625 -0.07242584228515625
17.97775 0.02207183837890625 0.1292572021484375 2.771728515625 4.13818359375 0.0014681816101074219 0.0004928112030029297 -0.034465789794921875 -0.06761932373046875
17.9875 0.02974700927734375 0.1303253173828125 3.106201171875 3.933837890625 0.0008406341075897217 -0.00022134184837341309 -0.036830902099609375 -0.06425857543945312
17.99725 0.0368194580078125 0.13036346435546875 3.435791015625 3.712646484375 0.001018524169921875 -0.0003083348274230957 -0.04019927978515625 -0.060688018798828125
18.007 0.0432891845703125 0.13079833984375 3.75 3.448974609375 -0.0005308985710144043 -0.00012198090553283691 -0.043811798095703125 -0.057628631591796875
18.01675 0.05126190185546875 0.12946319580078125 4.041015625 3.14599609375 0.0009307265281677246 0.0007125735282897949 -0.046649932861328125 -0.054470062255859375
18.0265 0.055084228515625 0.129669189453125 4.31787109375 2.8173828125 0.0003001093864440918 0.00011676549911499023 -0.0503692626953125 -0.04894256591796875
18.03625 0.0622406005859375 0.1296539306640625 4.552734375 2.44873046875 0.0011392831802368164 0.0004968643188476562 -0.05130767822265625 -0.04520416259765625
18.046 0.06865692138671875 0.12705230712890625 4.75 2.063720703125 0.0008512139320373535 0.00030237436294555664 -0.052585601806640625 -0.04163360595703125
18.05575 0.07494354248046875 0.12528228759765625 4.902099609375 1.6787109375 0.0011255741119384766 0.00019466876983642578 -0.056732177734375 -0.036525726318359375
18.0655 0.0805206298828125 0.124267578125 5.024658203125 1.2841796875 0.0009391903877258301 0.00039774179458618164 -0.0589141845703125 -0.031707763671875
18.07525 0.0866546630859375 0.1221466064453125 5.113525390625 0.878662109375 0.0009325146675109863 0.00029402971267700195 -0.060009002685546875 -0.0287933349609375
18.085 0.09395599365234375 0.1210479736328125 5.1865234375 0.4638671875 5.030632019042969e-05 0.0011191368103027344 -0.0619964599609375 -0.0234222412109375
18.09475 0.09856414794921875 0.1170196533203125 5.23046875 0.045654296875 0.0011987090110778809 -2.092123031616211e-05 -0.05985260009765625 -0.019290924072265625
18.1045 0.104736328125 0.11376953125 5.238037109375 -0.37890625 0.0005194544792175293 0.0008968114852905273 -0.06299972534179688 -0.0133209228515625
18.11425 0.1099853515625 0.11280059814453125 5.198974609375 -0.82763671875 0.001224517822265625 0.0011813640594482422 -0.061553955078125 -0.010547637939453125
18.124 0.113250732421875 0.1069793701171875 5.12353515625 -1.25634765625 0.001970052719116211 0.0007836818695068359 -0.0614013671875 -0.00522613525390625
18.13375 0.119873046875 0.10398101806640625 5.009033203125 -1.6787109375 0.0008684992790222168 0.0007003545761108398 -0.06141471862792969 0.002410888671875
18.1435 0.1247406005859375 0.101959228515625 4.848388671875 -2.083251953125 1.3023614883422852e-05 -0.0005170702934265137 -0.061504364013671875 0.00894927978515625
18.15325 0.128509521484375 0.09525299072265625 4.65625 -2.478515625 0.0011977553367614746 0.0002034306526184082 -0.062480926513671875 0.011997222900390625
18.163 0.13582611083984375 0.091522216796875 4.433837890625 -2.844970703125 -4.412233829498291e-05 0.00016614049673080444 -0.05855751037597656 0.01836395263671875
18.17275 0.1405792236328125 0.0872802734375 4.189697265625 -3.192138671875 0.00021186470985412598 -0.0004988014698028564 -0.054584503173828125 0.023168563842773438
18.1825 0.14536285400390625 0.0817718505859375 3.9268798828125 -3.52392578125 0.0005777478218078613 0.00016924738883972168 -0.05438041687011719 0.028928756713867188
18.19225 0.148956298828125 0.07643890380859375 3.62841796875 -3.8475341796875 0.0011638402938842773 -0.0004183053970336914 -0.05175590515136719 0.034374237060546875
18.202 0.15465545654296875 0.07270050048828125 3.30859375 -4.12939453125 0.000508725643157959 -0.0005436539649963379 -0.05108833312988281 0.03908538818359375
18.21175 0.158416748046875 0.066558837890625 2.94580078125 -4.3984375 0.0002461075782775879 -0.00033912062644958496 -0.04615020751953125 0.045269012451171875
18.2215 0.16436767578125 0.0601654052734375 2.558837890625 -4.628662109375 0.0010371804237365723 -0.0006864070892333984 -0.04129791259765625 0.048549652099609375
18.23125 0.16764068603515625 0.0548248291015625 2.16259765625 -4.811767578125 0.000909268856048584 0.00017827749252319336 -0.041210174560546875 0.05146980285644531
18.241 0.17081451416015625 0.048431396484375 1.748779296875 -4.94921875 -4.188902676105499e-05 4.999898374080658e-05 -0.0374908447265625 0.05632591247558594
18.25075 0.17144012451171875 0.0409698486328125 1.337646484375 -5.05078125 0.0005076825618743896 -8.45491886138916e-05 -0.03284263610839844 0.05940818786621094
18.2605 0.17646026611328125 0.036285400390625 0.92919921875 -5.12451171875 -0.00016561150550842285 -0.0007311403751373291 -0.026378631591796875 0.06171989440917969
18.27025 0.1769256591796875 0.02735137939453125 0.521728515625 -5.1689453125 0.0005858838558197021 -0.0007474720478057861 -0.022754669189453125 0.06735992431640625
18.28 0.179229736328125 0.01885223388671875 0.10302734375 -5.194091796875 -9.784102439880371e-05 -0.0004647374153137207 -0.01699066162109375 0.06946945190429688
18.28975 0.182647705078125 0.0112457275390625 -0.30859375 -5.184814453125 0.0003236830234527588 0.00027865171432495117 -0.010768890380859375 0.07135009765625
18.2995 0.18387603759765625 0.00553131103515625 -0.734375 -5.135986328125 -0.0006331801414489746 -0.0008107423782348633 -0.005218505859375 0.0716400146484375
18.30925 0.1844024658203125 -0.0040130615234375 -1.16064453125 -5.05126953125 0.0012559890747070312 -0.000657200813293457 0.00051116943359375 0.07501983642578125
18.319 0.18349456787109375 -0.01293182373046875 -1.5703125 -4.91845703125 -3.057718276977539e-05 0.0008814632892608643 0.006343841552734375 0.07851028442382812
18.32875 0.1844024658203125 -0.01876068115234375 -1.9560546875 -4.74658203125 0.0002802610397338867 -0.0011473894119262695 0.013858795166015625 0.07880401611328125
18.3385 0.18396759033203125 -0.02777862548828125 -2.317138671875 -4.54736328125 0.0016642212867736816 0.00012993812561035156 0.02088165283203125 0.08023834228515625
18.34825 0.1846466064453125 -0.03589630126953125 -2.66259765625 -4.3369140625 -0.00022168457508087158 0.00047175586223602295 0.02618408203125 0.08002471923828125
18.358 0.1830596923828125 -0.044464111328125 -2.979248046875 -4.10205078125 -0.0003272593021392822 -0.0004158616065979004 0.03509521484375 0.07847976684570312
18.36775 0.18106842041015625 -0.05194091796875 -3.2919921875 -3.8388671875 0.0001437664031982422 0.0002189725637435913 0.03995513916015625 0.07836532592773438
18.3775 0.17914581298828125 -0.05976104736328125 -3.578125 -3.572265625 6.595253944396973e-05 -0.0008518099784851074 0.04669189453125 0.07770538330078125
18.38725 0.178070068359375 -0.06795501708984375 -3.8564453125 -3.256591796875 -6.0208141803741455e-05 0.00019761919975280762 0.05237579345703125 0.07714080810546875
18.397 0.1735382080078125 -0.07476806640625 -4.09765625 -2.9208984375 -1.946091651916504e-05 -0.0001563727855682373 0.0581207275390625 0.073699951171875
18.40675 0.17181396484375 -0.08319091796875 -4.31591796875 -2.55615234375 -0.00018906593322753906 -0.0004897117614746094 0.06536865234375 0.0688934326171875
18.4165 0.16730499267578125 -0.090911865234375 -4.480712890625 -2.1826171875 0.00016704201698303223 0.0005170106887817383 0.069580078125 0.0679779052734375
18.42625 0.16304779052734375 -0.09926605224609375 -4.602294921875 -1.794677734375 8.453801274299622e-05 -0.0001147538423538208 0.0764007568359375 0.0634307861328125
18.436 0.158050537109375 -0.10405731201171875 -4.697998046875 -1.42138671875 0.0005849599838256836 -0.0015276074409484863 0.0828704833984375 0.0583648681640625
18.44575 0.153167724609375 -0.1123199462890625 -4.7626953125 -1.04833984375 0.00012706220149993896 5.1587820053100586e-05 0.08599090576171875 0.05313873291015625
18.4555 0.14537811279296875 -0.1193389892578125 -4.796875 -0.678955078125 0.00015303492546081543 -0.0006039440631866455 0.09112548828125 0.04796600341796875
18.46525 0.14095306396484375 -0.12506103515625 -4.83251953125 -0.306640625 -0.00037992000579833984 -0.000619053840637207 0.09532928466796875 0.0401763916015625
18.475 0.1343841552734375 -0.13028717041015625 -4.83984375 0.069580078125 0.0004826188087463379 -7.040798664093018e-05 0.09825897216796875 0.03443145751953125
18.48475 0.1282806396484375 -0.13742828369140625 -4.806640625 0.45947265625 0.0009804368019104004 -0.0017710328102111816 0.10277557373046875 0.0284423828125
18.4945 0.12085723876953125 -0.1423492431640625 -4.7314453125 0.85546875 0.0006569325923919678 -0.0002917647361755371 0.10746002197265625 0.0207366943359375
18.50425 0.11334228515625 -0.149322509765625 -4.62548828125 1.24755859375 2.104043960571289e-05 -0.0006924271583557129 0.1088104248046875 0.01331329345703125
18.514 0.1079254150390625 -0.1529541015625 -4.4658203125 1.61376953125 0.0010225772857666016 -0.0011670589447021484 0.11196136474609375 0.00875091552734375
18.52375 0.09857177734375 -0.15612030029296875 -4.271240234375 1.952392578125 -0.00021263957023620605 0.0005304813385009766 0.11006546020507812 0.000514984130859375
18.5335 0.09249114990234375 -0.16149139404296875 -4.060791015625 2.252197265625 0.0005170702934265137 -0.0012487173080444336 0.11355209350585938 -0.006465911865234375
18.54325 0.084259033203125 -0.16667938232421875 -3.8443603515625 2.5235595703125 0.00024521350860595703 -0.0014460086822509766 0.11142349243164062 -0.013675689697265625
18.553 0.0764312744140625 -0.1687469482421875 -3.6109619140625 2.7763671875 0.00014397501945495605 -0.00032892823219299316 0.110443115234375 -0.019138336181640625
18.56275 0.0685882568359375 -0.1699676513671875 -3.3829345703125 3.0181884765625 0.0008167624473571777 0.0011020302772521973 0.1103057861328125 -0.0253448486328125
18.5725 0.0601348876953125 -0.17218017578125 -3.133544921875 3.249755859375 0.0011851787567138672 -0.000828087329864502 0.10653305053710938 -0.034626007080078125
18.58225 0.05075836181640625 -0.17369842529296875 -2.865478515625 3.47119140625 0.000575631856918335 -0.00015941262245178223 0.10387039184570312 -0.041217803955078125
18.592 0.04242706298828125 -0.1757965087890625 -2.5673828125 3.67626953125 -0.0008065104484558105 -0.0002726912498474121 0.1009368896484375 -0.047298431396484375
18.60175 0.0331878662109375 -0.174835205078125 -2.25390625 3.85498046875 -0.00012362003326416016 -0.0005747675895690918 0.09593963623046875 -0.05326080322265625
18.6115 0.0254669189453125 -0.1739654541015625 -1.9180908203125 3.9810791015625 0.0002577751874923706 -0.00014679133892059326 0.09299468994140625 -0.0587005615234375
18.62125 0.0169677734375 -0.17403411865234375 -1.5849609375 4.07763671875 0.00024306774139404297 -0.0013588666915893555 0.08745956420898438 -0.06448745727539062
18.631 0.00867462158203125 -0.1737213134765625 -1.269287109375 4.133544921875 0.00021916627883911133 -1.36643648147583e-05 0.08355331420898438 -0.06860733032226562
18.64075 -0.0004119873046875 -0.17182159423828125 -0.953369140625 4.16455078125 0.0004198402166366577 1.049041748046875e-05 0.07976913452148438 -0.0721588134765625
18.6505 -0.00739288330078125 -0.17206573486328125 -0.65087890625 4.188720703125 0.001160264015197754 -0.0002567172050476074 0.07346725463867188 -0.07613372802734375
18.66025 -0.0173492431640625 -0.1690521240234375 -0.354736328125 4.20556640625 0.0004986226558685303 -0.0001035928726196289 0.06704330444335938 -0.07897186279296875
18.67 -0.023590087890625 -0.167022705078125 -0.052978515625 4.20751953125 0.00208437442779541 -0.0005428791046142578 0.063018798828125 -0.08105850219726562
18.67975 -0.0318756103515625 -0.1627044677734375 0.25830078125 4.1953125 0.00013674795627593994 -0.00020264089107513428 0.05727386474609375 -0.08365631103515625
18.6895 -0.04006195068359375 -0.15996551513671875 0.58056640625 4.147705078125 -0.000971376895904541 2.7835369110107422e-05 0.051921844482421875 -0.08362579345703125
