!Created with skrf (http://scikit-rf.org).
# GHz S RI R 50.0 
!freq ReS11 ImS11 ReS21 ImS21 ReS12 ImS12 ReS22 ImS22
17.5 0.0018310546875 -0.15044403076171875 3.22119140625 -2.768798828125 -0.0014810562133789062 -0.00017207860946655273 0.10977935791015625 -0.0048675537109375
17.50975 -0.00750732421875 -0.14717864990234375 2.9935302734375 -3.009033203125 -0.0010769367218017578 0.0009568929672241211 0.11140060424804688 -0.007686614990234375
17.5195 -0.015655517578125 -0.14203643798828125 2.749755859375 -3.221435546875 -0.0015322566032409668 -0.00026786327362060547 0.11215591430664062 -0.010021209716796875
17.52925 -0.02613067626953125 -0.1378173828125 2.496337890625 -3.426513671875 -0.002238631248474121 0.0004800558090209961 0.11446380615234375 -0.01425933837890625
17.539 -0.032012939453125 -0.1323699951171875 2.231689453125 -3.5986328125 -0.0006053447723388672 0.0017048120498657227 0.11591339111328125 -0.01795196533203125
17.54875 -0.04003143310546875 -0.12703704833984375 1.9556884765625 -3.7481689453125 -0.0015486478805541992 0.00030416250228881836 0.11579513549804688 -0.02213287353515625
17.5585 -0.04986572265625 -0.12259674072265625 1.67626953125 -3.8931884765625 -0.0006999969482421875 0.0006515383720397949 0.11793899536132812 -0.026721954345703125
17.56825 -0.05483245849609375 -0.11614990234375 1.392822265625 -4.013427734375 -0.0007990598678588867 0.0010443329811096191 0.1173858642578125 -0.031391143798828125
17.578 -0.06343841552734375 -0.10941314697265625 1.080078125 -4.124267578125 -4.38690185546875e-05 0.0012077093124389648 0.11770248413085938 -0.034366607666015625
17.58775 -0.069122314453125 -0.10485076904296875 0.752197265625 -4.203857421875 -0.0009214282035827637 0.0008438825607299805 0.11678695678710938 -0.039703369140625
17.5975 -0.073089599609375 -0.09633636474609375 0.407958984375 -4.256591796875 -0.0010160207748413086 0.000684201717376709 0.11655807495117188 -0.04526519775390625
17.60725 -0.0794677734375 -0.09064483642578125 0.0703125 -4.267333984375 -0.0008213818073272705 0.00012728571891784668 0.11349105834960938 -0.04834747314453125
17.617 -0.0843658447265625 -0.08289337158203125 -0.262939453125 -4.242431640625 -0.0013589262962341309 0.00038498640060424805 0.115203857421875 -0.05139923095703125
17.62675 -0.0889892578125 -0.0746307373046875 -0.58349609375 -4.18896484375 -0.0014863014221191406 0.001969575881958008 0.11321258544921875 -0.05606842041015625
17.6365 -0.0923004150390625 -0.0655670166015625 -0.88623046875 -4.1142578125 -0.0009971261024475098 0.0005729794502258301 0.11159515380859375 -0.06145477294921875
17.64625 -0.096282958984375 -0.0586395263671875 -1.165771484375 -4.031494140625 -0.0006456375122070312 0.0016625523567199707 0.1084136962890625 -0.0655059814453125
17.656 -0.0989837646484375 -0.049530029296875 -1.446533203125 -3.943603515625 0.0005364418029785156 0.0016161203384399414 0.10313796997070312 -0.0694732666015625
17.66575 -0.100067138671875 -0.04192352294921875 -1.71923828125 -3.858154296875 -0.0006179213523864746 0.0008265078067779541 0.10227584838867188 -0.07308578491210938
17.6755 -0.10407257080078125 -0.034698486328125 -1.998046875 -3.745361328125 -0.0008216500282287598 0.0014799833297729492 0.09725189208984375 -0.07835006713867188
17.68525 -0.10523223876953125 -0.024505615234375 -2.287109375 -3.62890625 -0.00023040175437927246 0.00070992112159729 0.09332656860351562 -0.08258438110351562
17.695 -0.10630416870117188 -0.013942718505859375 -2.589599609375 -3.466552734375 -0.0006768703460693359 0.00131911039352417 0.0899200439453125 -0.08468246459960938
17.70475 -0.10627365112304688 -0.00582122802734375 -2.887451171875 -3.261474609375 -0.0007962584495544434 0.0017188787460327148 0.08532333374023438 -0.08820343017578125
17.7145 -0.10720443725585938 0.00226593017578125 -3.165771484375 -3.02001953125 -0.0006625354290008545 0.0001888871192932129 0.08037567138671875 -0.09278488159179688
17.72425 -0.10664749145507812 0.01003265380859375 -3.39990234375 -2.74072265625 -0.0003137141466140747 0.0004241764545440674 0.07559967041015625 -0.09482955932617188
17.734 -0.10659027099609375 0.0183563232421875 -3.59814453125 -2.447265625 -0.00027298927307128906 0.0006180405616760254 0.07144927978515625 -0.0987548828125
17.74375 -0.10634994506835938 0.0260009765625 -3.74609375 -2.148681640625 -0.0009385943412780762 0.0017383694648742676 0.06615829467773438 -0.102203369140625
17.7535 -0.10402297973632812 0.03350830078125 -3.874755859375 -1.859375 -7.390975952148438e-05 0.0023647546768188477 0.0626220703125 -0.10433578491210938
17.76325 -0.100250244140625 0.042613983154296875 -3.993896484375 -1.58935546875 -0.00023402273654937744 -0.00013045966625213623 0.05533599853515625 -0.103057861328125
17.773 -0.09820556640625 0.049831390380859375 -4.09765625 -1.31689453125 6.152316927909851e-05 5.5011361837387085e-05 0.050868988037109375 -0.10612869262695312
17.78275 -0.09589767456054688 0.05770111083984375 -4.20166015625 -1.02880859375 -0.0005627870559692383 0.0016446709632873535 0.046039581298828125 -0.10743331909179688
17.7925 -0.0917205810546875 0.06394195556640625 -4.300048828125 -0.723876953125 0.00047469139099121094 0.0009382367134094238 0.039257049560546875 -0.10723876953125
17.80225 -0.08725738525390625 0.07084274291992188 -4.3828125 -0.391845703125 0.0006712079048156738 0.0010161995887756348 0.036712646484375 -0.1067047119140625
17.812 -0.08272171020507812 0.07783889770507812 -4.432861328125 -0.04150390625 0.00010435283184051514 0.00025875866413116455 0.030002593994140625 -0.10701751708984375
17.82175 -0.076568603515625 0.086578369140625 -4.446044921875 0.3173828125 -0.00016933679580688477 0.0014415383338928223 0.025363922119140625 -0.10503387451171875
17.8315 -0.07390594482421875 0.09194183349609375 -4.408203125 0.680908203125 -0.001118779182434082 0.0009065866470336914 0.01932525634765625 -0.10528564453125
17.84125 -0.067169189453125 0.09619140625 -4.34716796875 1.02880859375 -0.0003069639205932617 0.001393437385559082 0.0118865966796875 -0.10361480712890625
17.851 -0.059600830078125 0.10403060913085938 -4.228515625 1.35888671875 0.0007771849632263184 0.00052642822265625 0.009494781494140625 -0.1030731201171875
17.86075 -0.056884765625 0.10798263549804688 -4.117431640625 1.667724609375 0.00042951107025146484 0.0018295049667358398 0.003284454345703125 -0.10222625732421875
17.8705 -0.051074981689453125 0.113311767578125 -3.990478515625 1.96728515625 -0.0003883242607116699 0.0008008182048797607 -0.001129150390625 -0.09886550903320312
17.88025 -0.044178009033203125 0.11952972412109375 -3.853759765625 2.2664794921875 -0.00028648972511291504 0.0008137524127960205 -0.008747100830078125 -0.09841156005859375
17.89 -0.036785125732421875 0.12341690063476562 -3.7003173828125 2.5587158203125 -8.229166269302368e-05 0.00012950599193572998 -0.010196685791015625 -0.09572601318359375
17.89975 -0.03075408935546875 0.12670135498046875 -3.509033203125 2.860107421875 0.0012686848640441895 0.00037795305252075195 -0.016666412353515625 -0.09411239624023438
17.9095 -0.0255584716796875 0.13001251220703125 -3.29931640625 3.159423828125 0.00022515654563903809 -0.0005493462085723877 -0.02069854736328125 -0.09145355224609375
17.91925 -0.01763916015625 0.13140106201171875 -3.047119140625 3.432373046875 0.001297593116760254 0.000455319881439209 -0.023487091064453125 -0.0894622802734375
17.929 -0.0087890625 0.1351470947265625 -2.766845703125 3.685302734375 0.0004590749740600586 0.0007467269897460938 -0.0293731689453125 -0.08568572998046875
17.93875 -0.00287628173828125 0.13652801513671875 -2.463134765625 3.90185546875 -0.00020447373390197754 0.0006395578384399414 -0.033290863037109375 -0.08184814453125
17.9485 0.0046844482421875 0.13784027099609375 -2.14892578125 4.07666015625 0.0005676448345184326 0.00015693902969360352 -0.036834716796875 -0.07667160034179688
17.95825 0.0105438232421875 0.13838958740234375 -1.825927734375 4.2373046875 0.0005473494529724121 0.0006754398345947266 -0.03696441650390625 -0.07489013671875
17.968 0.01911163330078125 0.13936614990234375 -1.50341796875 4.36474609375 0.0014494657516479492 0.0012440681457519531 -0.043582916259765625 -0.07172393798828125
17.97775 0.02619171142578125 0.1399078369140625 -1.171630859375 4.476806640625 0.001609206199645996 -0.00026983022689819336 -0.0443115234375 -0.06494903564453125
17.9875 0.03459930419921875 0.14087677001953125 -0.824462890625 4.580322265625 0.0016006231307983398 0.001592874526977539 -0.0479583740234375 -0.0640411376953125
17.99725 0.04247283935546875 0.1380615234375 -0.46533203125 4.66259765625 0.0012014508247375488 1.4126300811767578e-05 -0.052494049072265625 -0.058544158935546875
18.007 0.0488433837890625 0.1385650634765625 -0.08203125 4.717529296875 0.0009277462959289551 0.00018149614334106445 -0.05240631103515625 -0.053234100341796875
18.01675 0.05608367919921875 0.13755035400390625 0.311279296875 4.726318359375 0.000883638858795166 0.00016707181930541992 -0.057163238525390625 -0.050075531005859375
18.0265 0.0635833740234375 0.1378173828125 0.7109375 4.69873046875 0.0008729696273803711 0.0003682374954223633 -0.05930328369140625 -0.0451812744140625
18.03625 0.07065582275390625 0.1367950439453125 1.102783203125 4.6201171875 0.0011197328567504883 0.0007167458534240723 -0.0603485107421875 -0.038349151611328125
18.046 0.0777587890625 0.1336212158203125 1.485107421875 4.5078125 0.0010215044021606445 -0.0005959868431091309 -0.06217193603515625 -0.03379058837890625
18.05575 0.08394622802734375 0.129180908203125 1.8349609375 4.37060546875 0.0014771223068237305 0.0002449154853820801 -0.06508255004882812 -0.028026580810546875
18.0655 0.09037017822265625 0.128753662109375 2.16357421875 4.204833984375 0.0008136928081512451 -0.00011748075485229492 -0.06624221801757812 -0.02342987060546875
18.07525 0.0970458984375 0.12509918212890625 2.488525390625 4.0205078125 0.0011435747146606445 0.0003705024719238281 -0.06564712524414062 -0.019073486328125
18.085 0.1035919189453125 0.121612548828125 2.8017578125 3.815185546875 0.0001055300235748291 -0.0003911256790161133 -0.06684494018554688 -0.01407623291015625
18.09475 0.1080780029296875 0.11888885498046875 3.100341796875 3.591552734375 0.0012441277503967285 0.0004467964172363281 -0.06476974487304688 -0.010410308837890625
18.1045 0.115447998046875 0.11370086669921875 3.388671875 3.33642578125 0.000643610954284668 0.0004870891571044922 -0.06547927856445312 -0.003772735595703125
18.11425 0.12054443359375 0.112152099609375 3.661865234375 3.043212890625 -0.00011283159255981445 -0.0012906193733215332 -0.06550979614257812 0.001529693603515625
18.124 0.1239776611328125 0.107635498046875 3.89794921875 2.72802734375 0.0015566349029541016 -0.000675201416015625 -0.06374359130859375 0.00811767578125
18.13375 0.12982177734375 0.10250091552734375 4.103759765625 2.40234375 0.0014953017234802246 -0.0004914999008178711 -0.06304931640625 0.011440277099609375
18.1435 0.1340789794921875 0.09688568115234375 4.276611328125 2.052734375 0.00037035346031188965 -0.0005721449851989746 -0.06261825561523438 0.019428253173828125
18.15325 0.14057159423828125 0.09075164794921875 4.4208984375 1.69189453125 0.0002847909927368164 -0.001206040382385254 -0.0621185302734375 0.024333953857421875
18.163 0.14461517333984375 0.08538055419921875 4.524169921875 1.32763671875 0.001240551471710205 -0.0013406872749328613 -0.057659149169921875 0.030687332153320312
18.17275 0.14809417724609375 0.080474853515625 4.602294921875 0.963134765625 -0.0009378194808959961 -0.00036662817001342773 -0.053577423095703125 0.03626251220703125
18.1825 0.15489959716796875 0.07411956787109375 4.66650390625 0.600341796875 0.0014916658401489258 -0.0005077719688415527 -0.050933837890625 0.041736602783203125
18.19225 0.1570892333984375 0.06813812255859375 4.70263671875 0.220458984375 0.0003902018070220947 0.00011375546455383301 -0.04735374450683594 0.046360015869140625
18.202 0.1602630615234375 0.064208984375 4.69970703125 -0.15234375 0.0015751123428344727 -0.00026345252990722656 -0.04557037353515625 0.0496063232421875
18.21175 0.1617431640625 0.0567169189453125 4.66650390625 -0.54248046875 -0.0002231597900390625 -0.00038623809814453125 -0.041416168212890625 0.055904388427734375
18.2215 0.16846466064453125 0.04969024658203125 4.593505859375 -0.92138671875 -0.00024306774139404297 -0.00043851137161254883 -0.03617095947265625 0.05857658386230469
18.23125 0.1697235107421875 0.0449676513671875 4.4892578125 -1.283203125 0.0007072687149047852 0.0005894899368286133 -0.03383064270019531 0.06009101867675781
18.241 0.17205810546875 0.0384521484375 4.34765625 -1.630126953125 0.00015729665756225586 -0.0008971691131591797 -0.028106689453125 0.06555557250976562
18.25075 0.17513275146484375 0.03101348876953125 4.18408203125 -1.958740234375 0.00028523802757263184 -0.0006694793701171875 -0.02300262451171875 0.06800079345703125
18.2605 0.17575836181640625 0.02426910400390625 4.0 -2.26416015625 0.00032708048820495605 -0.00033611059188842773 -0.01760101318359375 0.06988525390625
18.27025 0.17755889892578125 0.01747894287109375 3.805419921875 -2.5623779296875 0.00036872923374176025 7.264316082000732e-05 -0.011432647705078125 0.07320404052734375
18.28 0.178955078125 0.00937652587890625 3.5924072265625 -2.858154296875 0.0004015713930130005 -0.0001033097505569458 -0.00818634033203125 0.07372283935546875
18.28975 0.1809234619140625 0.00322723388671875 3.3529052734375 -3.1234130859375 -3.236532211303711e-05 -0.000493466854095459 -0.000537872314453125 0.07788848876953125
18.2995 0.1800994873046875 -0.0041046142578125 3.0821533203125 -3.375732421875 0.0009444355964660645 -0.0003636479377746582 0.00719451904296875 0.07602310180664062
18.30925 0.1800994873046875 -0.01275634765625 2.79052734375 -3.606689453125 -0.0004271268844604492 -0.0006804466247558594 0.01346588134765625 0.07822418212890625
18.319 0.180145263671875 -0.02066802978515625 2.4786376953125 -3.800537109375 0.0004970729351043701 -0.0004050731658935547 0.01775360107421875 0.08045578002929688
18.32875 0.17954254150390625 -0.0263214111328125 2.1617431640625 -3.962158203125 0.0004477202892303467 -0.0003353506326675415 0.026348114013671875 0.07988357543945312
18.3385 0.1777801513671875 -0.03679656982421875 1.830322265625 -4.090576171875 0.0015665888786315918 -0.0008875131607055664 0.03377532958984375 0.08147430419921875
18.34825 0.17749786376953125 -0.044189453125 1.51123046875 -4.212646484375 -0.0010835528373718262 -6.794929504394531e-06 0.038616180419921875 0.07900238037109375
18.358 0.175537109375 -0.0508575439453125 1.183349609375 -4.30126953125 0.0006464719772338867 -0.0014126896858215332 0.04712677001953125 0.0759735107421875
18.36775 0.1742706298828125 -0.05777740478515625 0.839111328125 -4.37646484375 0.000841677188873291 -8.857250213623047e-05 0.0505523681640625 0.07465362548828125
18.3775 0.1722412109375 -0.06473541259765625 0.5 -4.42236328125 -9.337067604064941e-05 0.0006645917892456055 0.05860137939453125 0.07183837890625
18.38725 0.169891357421875 -0.0727691650390625 0.135498046875 -4.44189453125 0.0005585551261901855 -0.0010331273078918457 0.063446044921875 0.0701904296875
18.397 0.1652984619140625 -0.079864501953125 -0.22509765625 -4.42041015625 -0.00034302473068237305 -0.00019043684005737305 0.06939697265625 0.067626953125
18.40675 0.1612091064453125 -0.0847625732421875 -0.58935546875 -4.37060546875 0.0002789795398712158 -0.000330507755279541 0.0748748779296875 0.0622711181640625
18.4165 0.15888214111328125 -0.0920562744140625 -0.925537109375 -4.277587890625 0.0007077157497406006 7.256865501403809e-05 0.07846832275390625 0.05857086181640625
18.42625 0.15428924560546875 -0.09947967529296875 -1.25 -4.157470703125 0.0003389120101928711 -0.0005997717380523682 0.08605194091796875 0.05353546142578125
18.436 0.1489105224609375 -0.10425567626953125 -1.548583984375 -4.018310546875 -2.7060508728027344e-05 -0.0012031793594360352 0.0926971435546875 0.04828643798828125
18.44575 0.14278411865234375 -0.1119842529296875 -1.835205078125 -3.86767578125 0.00013196468353271484 0.0001421421766281128 0.09397125244140625 0.042144775390625
18.4555 0.13808441162109375 -0.11705780029296875 -2.109375 -3.700927734375 -9.161233901977539e-05 -0.0014310479164123535 0.09716796875 0.03636932373046875
18.46525 0.133209228515625 -0.12247467041015625 -2.385009765625 -3.533447265625 0.0019696950912475586 -0.00034368038177490234 0.1009368896484375 0.02875518798828125
18.475 0.1261138916015625 -0.128509521484375 -2.650634765625 -3.340087890625 0.00013428926467895508 -0.0011472105979919434 0.1047821044921875 0.02352142333984375
18.48475 0.12154388427734375 -0.13402557373046875 -2.90380859375 -3.109130859375 -0.0005220472812652588 0.000361710786819458 0.107330322265625 0.016681671142578125
18.4945 0.11365509033203125 -0.13774871826171875 -3.134765625 -2.842041015625 0.00015801191329956055 -0.0011690258979797363 0.10993576049804688 0.008159637451171875
18.50425 0.10693359375 -0.1429443359375 -3.34521484375 -2.55908203125 6.0558319091796875e-05 0.0009615421295166016 0.11065673828125 0.00037384033203125
18.514 0.102386474609375 -0.147125244140625 -3.50830078125 -2.25927734375 -0.0013157129287719727 5.316734313964844e-05 0.10988616943359375 -0.0042724609375
18.52375 0.0939788818359375 -0.1486358642578125 -3.634033203125 -1.95068359375 9.60230827331543e-05 -0.0005511641502380371 0.11046218872070312 -0.012737274169921875
18.5335 0.08838653564453125 -0.1541595458984375 -3.73046875 -1.65185546875 0.00018647313117980957 -0.0008478164672851562 0.11117172241210938 -0.01922607421875
18.54325 0.0809326171875 -0.15741729736328125 -3.800537109375 -1.3642578125 0.0007865428924560547 -0.0015573501586914062 0.10996627807617188 -0.0281219482421875
18.553 0.07384490966796875 -0.16071319580078125 -3.8564453125 -1.072021484375 0.00047269463539123535 -0.0005221962928771973 0.10687255859375 -0.031658172607421875
18.56275 0.06646728515625 -0.1623687744140625 -3.90966796875 -0.789306640625 0.0004425644874572754 -0.0002865046262741089 0.10491943359375 -0.03759765625
18.5725 0.0572357177734375 -0.16396331787109375 -3.939453125 -0.49658203125 0.0007576048374176025 -0.00020831823348999023 0.10024642944335938 -0.04462432861328125
18.58225 0.0506744384765625 -0.16558837890625 -3.951904296875 -0.1943359375 0.0010342597961425781 -0.0013033151626586914 0.09778594970703125 -0.05239105224609375
18.592 0.04215240478515625 -0.1687164306640625 -3.9407958984375 0.1170654296875 -2.7894973754882812e-05 -0.0004945099353790283 0.09411239624023438 -0.056827545166015625
18.60175 0.0352935791015625 -0.1673126220703125 -3.90234375 0.42822265625 0.00038892030715942383 -0.0007726550102233887 0.08809661865234375 -0.061248779296875
18.6115 0.02727508544921875 -0.16753387451171875 -3.820068359375 0.726806640625 -4.976987838745117e-05 -0.00036534667015075684 0.08507919311523438 -0.06800460815429688
18.62125 0.01889801025390625 -0.16712188720703125 -3.714599609375 1.0076904296875 0.0002605617046356201 -0.000613093376159668 0.08075714111328125 -0.07207107543945312
18.631 0.01153564453125 -0.16698455810546875 -3.588623046875 1.251220703125 0.0002949237823486328 -0.0012952685356140137 0.07347488403320312 -0.07519149780273438
18.64075 0.00339508056640625 -0.1667633056640625 -3.454345703125 1.489013671875 -9.950995445251465e-05 -0.0004992187023162842 0.0683441162109375 -0.07874679565429688
18.6505 -0.00365447998046875 -0.16574859619140625 -3.318603515625 1.7127685546875 0.0005921423435211182 -0.0005330741405487061 0.06415939331054688 -0.08165740966796875
18.66025 -0.01352691650390625 -0.16399383544921875 -3.1756591796875 1.927001953125 -0.0006652474403381348 -0.0002459585666656494 0.057773590087890625 -0.08240509033203125
18.67 -0.01908111572265625 -0.16184234619140625 -3.0213623046875 2.139892578125 -0.00019413232803344727 -0.0012608766555786133 0.0528717041015625 -0.08343887329101562
18.67975 -0.0290374755859375 -0.15827178955078125 -2.8538818359375 2.35302734375 -0.00018838047981262207 -0.00077858567237854 0.046772003173828125 -0.08509445190429688
