!Created with skrf (http://scikit-rf.org).
# GHz S RI R 50.0 
!freq ReS11 ImS11 ReS21 ImS21 ReS12 ImS12 ReS22 ImS22
17.5 0.01171875 -0.1358184814453125 -3.900146484375 2.2540283203125 -0.0025899410247802734 0.0010918378829956055 0.085357666015625 0.003894805908203125
17.50975 0.0029449462890625 -0.13263702392578125 -3.700439453125 2.556640625 -0.0008868575096130371 0.0010269880294799805 0.08953475952148438 0.004192352294921875
17.5195 -0.0028076171875 -0.127960205078125 -3.47119140625 2.8333740234375 -0.002819657325744629 0.001201033592224121 0.09282302856445312 0.00365447998046875
17.52925 -0.01107025146484375 -0.12526702880859375 -3.23046875 3.093505859375 -0.0018553733825683594 0.0002930164337158203 0.09695816040039062 8.392333984375e-05
17.539 -0.0176544189453125 -0.11981201171875 -2.975341796875 3.328369140625 -0.0008512139320373535 0.0005946755409240723 0.09796142578125 -0.00162506103515625
17.54875 -0.02515411376953125 -0.1170196533203125 -2.7000732421875 3.52587890625 -0.0007679164409637451 0.0006629526615142822 0.09970855712890625 -0.0045623779296875
17.5585 -0.0342559814453125 -0.11199951171875 -2.4244384765625 3.7213134765625 -0.0010673999786376953 0.002113938331604004 0.10253143310546875 -0.00765228271484375
17.56825 -0.03980255126953125 -0.10848236083984375 -2.147705078125 3.8909912109375 -0.0016360878944396973 0.0002701282501220703 0.105560302734375 -0.011264801025390625
17.578 -0.04456329345703125 -0.10262298583984375 -1.84033203125 4.053955078125 -0.0016470551490783691 0.0014927983283996582 0.1072845458984375 -0.013774871826171875
17.58775 -0.0503387451171875 -0.0995635986328125 -1.51513671875 4.193115234375 -0.001249074935913086 0.0015051960945129395 0.10765457153320312 -0.016483306884765625
17.5975 -0.0548553466796875 -0.09304046630859375 -1.166015625 4.3056640625 -0.001595616340637207 0.0010805726051330566 0.11040115356445312 -0.0211334228515625
17.60725 -0.0610809326171875 -0.09088134765625 -0.814453125 4.373291015625 -0.0011887550354003906 -0.00016623735427856445 0.109893798828125 -0.02426910400390625
17.617 -0.06652069091796875 -0.0820159912109375 -0.45947265625 4.405029296875 -0.0010203123092651367 0.0022858381271362305 0.1114044189453125 -0.028720855712890625
17.62675 -0.07141876220703125 -0.07586669921875 -0.11083984375 4.39501953125 -0.0013011693954467773 0.0006670355796813965 0.11249923706054688 -0.031642913818359375
17.6365 -0.07489013671875 -0.0692901611328125 0.2236328125 4.36083984375 7.092952728271484e-05 0.000987410545349121 0.11163330078125 -0.03801727294921875
17.64625 -0.078033447265625 -0.062103271484375 0.5283203125 4.30517578125 -0.0003434121608734131 0.0008487403392791748 0.10968780517578125 -0.04227447509765625
17.656 -0.08013916015625 -0.057037353515625 0.8251953125 4.238525390625 -0.00032460689544677734 0.0018604397773742676 0.1086273193359375 -0.047183990478515625
17.66575 -0.083465576171875 -0.0484619140625 1.116943359375 4.180419921875 -0.0011215806007385254 0.0017033219337463379 0.10904693603515625 -0.05060577392578125
17.6755 -0.08592987060546875 -0.0423736572265625 1.404296875 4.1005859375 -0.0012758970260620117 0.0023137331008911133 0.10521316528320312 -0.055873870849609375
17.68525 -0.08924102783203125 -0.0337066650390625 1.704345703125 4.020751953125 -0.0008765161037445068 0.00031945109367370605 0.10338592529296875 -0.06159210205078125
17.695 -0.09092330932617188 -0.02630615234375 2.0224609375 3.9111328125 0.0001488327980041504 0.0016852021217346191 0.1027069091796875 -0.06409072875976562
17.70475 -0.09189224243164062 -0.019573211669921875 2.34326171875 3.752685546875 -0.0007733702659606934 0.0013398528099060059 0.09859085083007812 -0.06901168823242188
17.7145 -0.09252548217773438 -0.012058258056640625 2.6611328125 3.556884765625 -0.0015326142311096191 0.0016132593154907227 0.09598159790039062 -0.07265472412109375
17.72425 -0.09241485595703125 -0.005199432373046875 2.945556640625 3.314208984375 -0.00030285120010375977 0.0013552308082580566 0.09299850463867188 -0.0784759521484375
17.734 -0.09552001953125 0.003421783447265625 3.19140625 3.0478515625 -0.0006849467754364014 0.000881582498550415 0.08936309814453125 -0.0828857421875
17.74375 -0.096954345703125 0.00868988037109375 3.38330078125 2.76513671875 -0.0002932548522949219 0.0026254653930664062 0.08599090576171875 -0.08870697021484375
17.7535 -0.09246063232421875 0.017124176025390625 3.550048828125 2.488037109375 0.00014588236808776855 0.0008087158203125 0.08235931396484375 -0.09222412109375
17.76325 -0.0929107666015625 0.02435302734375 3.69580078125 2.23095703125 0.0001658797264099121 0.0011948943138122559 0.07791900634765625 -0.09322357177734375
17.773 -0.09271240234375 0.03061676025390625 3.826416015625 1.974853515625 0.0004432201385498047 0.000790715217590332 0.07268142700195312 -0.0963897705078125
17.78275 -0.092071533203125 0.03729248046875 3.95263671875 1.7138671875 -0.0003623068332672119 -0.0004950165748596191 0.06842041015625 -0.09841156005859375
17.7925 -0.08844375610351562 0.0439300537109375 4.085693359375 1.444580078125 0.0003777146339416504 0.00025475025177001953 0.06429290771484375 -0.10247421264648438
17.80225 -0.087249755859375 0.049762725830078125 4.219970703125 1.148681640625 0.0001474618911743164 0.0014808177947998047 0.059955596923828125 -0.1048736572265625
17.812 -0.08362197875976562 0.058063507080078125 4.318359375 0.8203125 0.0009341835975646973 0.0006338357925415039 0.05327606201171875 -0.10553741455078125
17.82175 -0.07994461059570312 0.06468582153320312 4.393310546875 0.482666015625 0.0005194544792175293 0.0008212924003601074 0.048969268798828125 -0.10573959350585938
17.8315 -0.07645416259765625 0.0706634521484375 4.423583984375 0.126953125 -3.635883331298828e-05 0.0007029473781585693 0.0431976318359375 -0.10886764526367188
17.84125 -0.07280731201171875 0.0767974853515625 4.42138671875 -0.224609375 7.671117782592773e-05 0.0005397200584411621 0.03617095947265625 -0.10839080810546875
17.851 -0.06998443603515625 0.0848846435546875 4.35693359375 -0.563720703125 0.00036013126373291016 0.000742495059967041 0.032810211181640625 -0.11053085327148438
17.86075 -0.0655975341796875 0.09035110473632812 4.29052734375 -0.873046875 -0.00025275349617004395 0.000734180212020874 0.026844024658203125 -0.10872650146484375
17.8705 -0.0600738525390625 0.09543991088867188 4.20556640625 -1.1689453125 0.0001550912857055664 0.0011969804763793945 0.020709991455078125 -0.107421875
17.88025 -0.05614471435546875 0.10055160522460938 4.125244140625 -1.46142578125 6.86943531036377e-05 0.0008987784385681152 0.014789581298828125 -0.10803985595703125
17.89 -0.05268096923828125 0.1073455810546875 4.032958984375 -1.745361328125 -0.0008620321750640869 0.0007934868335723877 0.00921630859375 -0.10614776611328125
17.89975 -0.04618072509765625 0.11120986938476562 3.9207763671875 -2.04736328125 0.000493168830871582 0.0009409189224243164 0.0015411376953125 -0.10702133178710938
17.9095 -0.041744232177734375 0.1167144775390625 3.7845458984375 -2.359375 0.0005602836608886719 0.0009816288948059082 -0.002777099609375 -0.10672760009765625
17.91925 -0.03509521484375 0.11990737915039062 3.610107421875 -2.6588134765625 0.00019741058349609375 0.0016726255416870117 -0.00579071044921875 -0.1053009033203125
17.929 -0.02916717529296875 0.12351226806640625 3.407958984375 -2.951904296875 0.00042748451232910156 0.0005537271499633789 -0.014495849609375 -0.1053009033203125
17.93875 -0.0243988037109375 0.12696075439453125 3.16796875 -3.2216796875 -0.0002822577953338623 0.0008598268032073975 -0.0178375244140625 -0.10230636596679688
17.9485 -0.01642608642578125 0.13006591796875 2.9068603515625 -3.4505615234375 0.0006360411643981934 0.0010454654693603516 -0.024120330810546875 -0.09996414184570312
17.95825 -0.01113128662109375 0.133392333984375 2.639892578125 -3.65771484375 8.45193862915039e-05 0.0005083978176116943 -0.027133941650390625 -0.09659576416015625
17.968 -0.00383758544921875 0.13690185546875 2.3642578125 -3.8358154296875 0.0001323223114013672 0.001319587230682373 -0.0341949462890625 -0.0946807861328125
17.97775 0.00324249267578125 0.13751983642578125 2.092041015625 -3.99658203125 0.0018587112426757812 0.0012671947479248047 -0.03806304931640625 -0.0895843505859375
17.9875 0.0114593505859375 0.1414337158203125 1.80712890625 -4.1572265625 0.0010606646537780762 0.00017064809799194336 -0.04096221923828125 -0.08587646484375
17.99725 0.018707275390625 0.14192962646484375 1.514892578125 -4.315673828125 0.00013557076454162598 0.00013631582260131836 -0.04830169677734375 -0.08223724365234375
18.007 0.02684783935546875 0.14353179931640625 1.19677734375 -4.453125 0.0006302595138549805 -0.00039067864418029785 -0.05165863037109375 -0.0783538818359375
18.01675 0.03282928466796875 0.14537811279296875 0.852783203125 -4.570556640625 0.0024579763412475586 0.0004445314407348633 -0.05664825439453125 -0.07343292236328125
18.0265 0.04068756103515625 0.144500732421875 0.48681640625 -4.6591796875 0.00037214159965515137 -3.409385681152344e-05 -0.0613861083984375 -0.06940460205078125
18.03625 0.05035400390625 0.146636962890625 0.10546875 -4.7021484375 0.001195073127746582 -0.0006757974624633789 -0.0648040771484375 -0.0635833740234375
18.046 0.056243896484375 0.14597320556640625 -0.281982421875 -4.700927734375 -4.271790385246277e-05 -4.503875970840454e-05 -0.06829071044921875 -0.05983734130859375
18.05575 0.06484222412109375 0.14483642578125 -0.6435546875 -4.6708984375 0.0016727447509765625 4.3392181396484375e-05 -0.0733184814453125 -0.052764892578125
18.0655 0.07253265380859375 0.14453887939453125 -0.99560546875 -4.59814453125 0.0018410682678222656 -0.00038760900497436523 -0.07479095458984375 -0.04898834228515625
18.07525 0.0804595947265625 0.14402008056640625 -1.34326171875 -4.51806640625 0.0007684826850891113 0.00035506486892700195 -0.07753753662109375 -0.04254913330078125
18.085 0.0899200439453125 0.14111328125 -1.68798828125 -4.420166015625 0.0005858242511749268 -0.00016137957572937012 -0.08068084716796875 -0.03491973876953125
18.09475 0.09595489501953125 0.1396636962890625 -2.0244140625 -4.300048828125 0.0004496574401855469 0.000277787446975708 -0.08103561401367188 -0.030033111572265625
18.1045 0.1040191650390625 0.135711669921875 -2.36328125 -4.154541015625 0.001689910888671875 1.4722347259521484e-05 -0.08362579345703125 -0.021881103515625
18.11425 0.11084747314453125 0.13370513916015625 -2.6982421875 -3.97216796875 0.0006189346313476562 0.0004424452781677246 -0.08352279663085938 -0.018894195556640625
18.124 0.117462158203125 0.1303558349609375 -3.02197265625 -3.76220703125 0.0010399818420410156 0.0009350776672363281 -0.0841827392578125 -0.00833892822265625
18.13375 0.12567138671875 0.12554931640625 -3.32373046875 -3.52587890625 0.0006107687950134277 -0.00019878149032592773 -0.0845184326171875 -0.00220489501953125
18.1435 0.132568359375 0.12115478515625 -3.601806640625 -3.25439453125 0.002775430679321289 5.364418029785156e-05 -0.0855255126953125 0.00661468505859375
18.15325 0.1414642333984375 0.1162567138671875 -3.860595703125 -2.95947265625 0.00015464425086975098 -0.0008577108383178711 -0.08559417724609375 0.01141357421875
18.163 0.149383544921875 0.110504150390625 -4.085693359375 -2.64990234375 0.0006654858589172363 0.0006091594696044922 -0.08258438110351562 0.020977020263671875
18.17275 0.152374267578125 0.1049957275390625 -4.291748046875 -2.326416015625 0.00044780969619750977 -0.0005446970462799072 -0.07826995849609375 0.0260162353515625
18.1825 0.1613311767578125 0.0980224609375 -4.47412109375 -1.993896484375 0.0012378096580505371 -0.0009833574295043945 -0.0765838623046875 0.03497314453125
18.19225 0.1663818359375 0.0902862548828125 -4.64599609375 -1.635986328125 0.0006476640701293945 -9.518861770629883e-05 -0.07460403442382812 0.0426483154296875
18.202 0.173553466796875 0.0854339599609375 -4.7763671875 -1.264892578125 0.0006310939788818359 -0.0005647540092468262 -0.07365036010742188 0.048397064208984375
18.21175 0.1771240234375 0.0757904052734375 -4.8779296875 -0.86181640625 0.0005925297737121582 0.00035125017166137695 -0.06845855712890625 0.0565185546875
18.2215 0.18329620361328125 0.068511962890625 -4.930419921875 -0.456298828125 0.0007200837135314941 0.0001283884048461914 -0.06319808959960938 0.06264495849609375
18.23125 0.18792724609375 0.0604705810546875 -4.947998046875 -0.05908203125 0.00010183453559875488 -0.0004909634590148926 -0.061138153076171875 0.06721878051757812
18.241 0.19173431396484375 0.05220794677734375 -4.9287109375 0.335693359375 0.0014081597328186035 0.00013625621795654297 -0.055957794189453125 0.072479248046875
18.25075 0.19348907470703125 0.044403076171875 -4.878173828125 0.71240234375 0.00028640031814575195 0.000521928071975708 -0.0479583740234375 0.07748031616210938
18.2605 0.1966400146484375 0.03656768798828125 -4.798583984375 1.08740234375 -4.425644874572754e-05 -0.000873267650604248 -0.042407989501953125 0.08284378051757812
18.27025 0.19834136962890625 0.0261688232421875 -4.708740234375 1.454345703125 5.3495168685913086e-05 0.00011725723743438721 -0.036327362060546875 0.08712005615234375
18.28 0.20131683349609375 0.0174713134765625 -4.60009765625 1.835205078125 0.00047892332077026367 2.950429916381836e-06 -0.029205322265625 0.08980560302734375
18.28975 0.20446014404296875 0.00617218017578125 -4.4580078125 2.201171875 0.0006186068058013916 -0.0005743205547332764 -0.021923065185546875 0.09493637084960938
18.2995 0.2021942138671875 -0.00279998779296875 -4.26904296875 2.5654296875 0.0007090270519256592 -0.0008463263511657715 -0.01291656494140625 0.09643936157226562
18.30925 0.2033538818359375 -0.012847900390625 -4.037353515625 2.915283203125 0.0008332133293151855 -0.000545203685760498 -0.0037384033203125 0.09928131103515625
18.319 0.20249176025390625 -0.0225677490234375 -3.77001953125 3.2314453125 -7.015466690063477e-05 -0.0014649629592895508 0.003116607666015625 0.10354232788085938
18.32875 0.20151519775390625 -0.030975341796875 -3.4796142578125 3.5087890625 0.0004526376724243164 -0.0004186481237411499 0.0119781494140625 0.10420989990234375
18.3385 0.20014190673828125 -0.04079437255859375 -3.1717529296875 3.7515869140625 -0.0013126730918884277 0.0004950761795043945 0.021942138671875 0.10654449462890625
18.34825 0.1982574462890625 -0.0506744384765625 -2.8695068359375 3.97509765625 0.0003110170364379883 -0.0009276270866394043 0.027801513671875 0.10662841796875
18.358 0.19608306884765625 -0.058868408203125 -2.5615234375 4.1689453125 0.0005939304828643799 7.2479248046875e-05 0.0380859375 0.1032867431640625
18.36775 0.19335174560546875 -0.06969451904296875 -2.232421875 4.361083984375 0.0008220672607421875 0.0005575418472290039 0.0450897216796875 0.10219573974609375
18.3775 0.18963623046875 -0.0750274658203125 -1.90087890625 4.5302734375 0.0003254115581512451 -0.0007074177265167236 0.0538330078125 0.10027313232421875
18.38725 0.18463897705078125 -0.08683013916015625 -1.520263671875 4.679931640625 0.0001480579376220703 -0.0004912614822387695 0.0627593994140625 0.09918975830078125
18.397 0.181121826171875 -0.0946502685546875 -1.130859375 4.7861328125 -0.000616908073425293 -0.00034111738204956055 0.0701904296875 0.095428466796875
18.40675 0.1758880615234375 -0.1025543212890625 -0.716796875 4.86572265625 0.00026735663414001465 -0.00042706727981567383 0.078948974609375 0.0908203125
18.4165 0.16983795166015625 -0.11013031005859375 -0.315673828125 4.87646484375 -0.0009921789169311523 -0.0011606216430664062 0.08502960205078125 0.08683013916015625
18.42625 0.1646728515625 -0.1179351806640625 0.0751953125 4.85107421875 0.0005574822425842285 -0.0013291239738464355 0.09320068359375 0.08170318603515625
18.436 0.15854644775390625 -0.1241302490234375 0.4443359375 4.789794921875 0.00023490190505981445 6.988644599914551e-05 0.1024932861328125 0.07521820068359375
18.44575 0.15169525146484375 -0.131805419921875 0.79541015625 4.71240234375 0.000590205192565918 0.00042957067489624023 0.10634613037109375 0.0684661865234375
18.4555 0.1427764892578125 -0.1376190185546875 1.130126953125 4.61962890625 -0.0008507668972015381 5.170702934265137e-05 0.11173248291015625 0.06090545654296875
18.46525 0.13501739501953125 -0.14349365234375 1.4697265625 4.532470703125 0.00019684433937072754 -0.00040033459663391113 0.1186981201171875 0.05094146728515625
18.475 0.12751007080078125 -0.14813995361328125 1.8115234375 4.4208984375 0.0006534457206726074 0.00032448768615722656 0.12274169921875 0.044464111328125
18.48475 0.1202850341796875 -0.15497589111328125 2.15966796875 4.269287109375 0.0012815594673156738 0.0002910494804382324 0.12799072265625 0.03435516357421875
18.4945 0.1109771728515625 -0.15633392333984375 2.504150390625 4.07177734375 0.0005675256252288818 -0.0003255307674407959 0.1307830810546875 0.0271148681640625
18.50425 0.1021575927734375 -0.163726806640625 2.833984375 3.83544921875 0.00042617321014404297 -0.0003390312194824219 0.1328887939453125 0.017486572265625
18.514 0.0944671630859375 -0.1652984619140625 3.12060546875 3.5654296875 -2.0578503608703613e-05 -0.00014570355415344238 0.135345458984375 0.0086517333984375
18.52375 0.0848846435546875 -0.16683197021484375 3.363525390625 3.2666015625 -0.0015343427658081055 4.3392181396484375e-05 0.13613128662109375 0.001708984375
18.5335 0.0779266357421875 -0.170440673828125 3.56689453125 2.9697265625 -0.000526726245880127 -0.0003896951675415039 0.13739013671875 -0.00957489013671875
18.54325 0.06874847412109375 -0.1735382080078125 3.738037109375 2.68017578125 0.00043135881423950195 0.00012564659118652344 0.1356048583984375 -0.01972198486328125
18.553 0.061187744140625 -0.1751556396484375 3.889404296875 2.387451171875 0.0006364881992340088 -0.0003352165222167969 0.13301849365234375 -0.02738189697265625
18.56275 0.05213165283203125 -0.17490386962890625 4.040283203125 2.10400390625 0.00038301944732666016 0.0006604194641113281 0.13129425048828125 -0.03534698486328125
18.5725 0.0438995361328125 -0.174530029296875 4.177734375 1.804443359375 5.081295967102051e-05 -0.00024768710136413574 0.12751007080078125 -0.044647216796875
18.58225 0.03610992431640625 -0.17415618896484375 4.30029296875 1.482666015625 0.0007293820381164551 -0.0003300905227661133 0.12273788452148438 -0.053253173828125
18.592 0.0267791748046875 -0.17535400390625 4.399169921875 1.138671875 0.00032645463943481445 -0.0006746649742126465 0.1201019287109375 -0.06075286865234375
18.60175 0.0196075439453125 -0.1730194091796875 4.4638671875 0.7802734375 0.0003102719783782959 8.562207221984863e-05 0.11435699462890625 -0.06623077392578125
18.6115 0.011199951171875 -0.1707305908203125 4.4794921875 0.4248046875 0.00041928887367248535 -0.0001973956823348999 0.11011123657226562 -0.07549285888671875
18.62125 0.00270843505859375 -0.16991424560546875 4.461181640625 0.07958984375 -0.00012105703353881836 -0.0007482469081878662 0.10266876220703125 -0.08138656616210938
18.631 -0.0048675537109375 -0.16869354248046875 4.407958984375 -0.23095703125 0.000885009765625 -0.0011530518531799316 0.0960693359375 -0.08791351318359375
18.64075 -0.012237548828125 -0.167266845703125 4.341552734375 -0.53662109375 0.0004214346408843994 -0.0009274482727050781 0.09133529663085938 -0.09068679809570312
18.6505 -0.01750946044921875 -0.1641998291015625 4.27294921875 -0.8212890625 0.0013857483863830566 -0.001148521900177002 0.08416748046875 -0.09590911865234375
18.66025 -0.02770233154296875 -0.1611328125 4.19970703125 -1.103759765625 -0.0002778172492980957 -0.0011056065559387207 0.07735061645507812 -0.09840774536132812
18.67 -0.03281402587890625 -0.15862274169921875 4.11328125 -1.389892578125 0.0010038018226623535 -0.0006581544876098633 0.07042312622070312 -0.10087966918945312
18.67975 -0.04048919677734375 -0.155242919921875 4.016357421875 -1.685302734375 -0.0005604028701782227 -0.0018880367279052734 0.06340408325195312 -0.10395431518554688
18.6895 -0.04767608642578125 -0.15117645263671875 3.8826904296875 -1.98388671875 0.0002180933952331543 -0.0006216466426849365 0.056102752685546875 -0.10388565063476562
