!Created with skrf (http://scikit-rf.org).
# GHz S RI R 50.0 
!freq ReS11 ImS11 ReS21 ImS21 ReS12 ImS12 ReS22 ImS22
17.5 0.00304412841796875 -0.152130126953125 3.971923828125 -1.96728515625 -0.001042008399963379 0.0006770491600036621 0.10969161987304688 -0.002681732177734375
17.50975 -0.00601959228515625 -0.14844512939453125 3.802001953125 -2.269287109375 -0.0014583468437194824 -5.555152893066406e-05 0.11151885986328125 -0.00543975830078125
17.5195 -0.014312744140625 -0.143798828125 3.6077880859375 -2.552001953125 -0.000799030065536499 0.0005103945732116699 0.1156768798828125 -0.007801055908203125
17.52925 -0.02392578125 -0.1395263671875 3.400390625 -2.821533203125 -0.0016424059867858887 0.0006922483444213867 0.11771774291992188 -0.013027191162109375
17.539 -0.031219482421875 -0.1340179443359375 3.17626953125 -3.06787109375 -0.000969231128692627 0.00011754035949707031 0.11717987060546875 -0.01685333251953125
17.54875 -0.039337158203125 -0.1293792724609375 2.9334716796875 -3.2880859375 -0.0013963580131530762 0.0002090930938720703 0.11808395385742188 -0.020626068115234375
17.5585 -0.0510101318359375 -0.125640869140625 2.6846923828125 -3.5052490234375 -0.001106858253479004 0.0022352933883666992 0.12145614624023438 -0.025043487548828125
17.56825 -0.05510711669921875 -0.11928558349609375 2.428955078125 -3.702392578125 -0.0009567141532897949 0.0008033514022827148 0.121124267578125 -0.0297088623046875
17.578 -0.06426239013671875 -0.11330413818359375 2.13916015625 -3.8946533203125 -0.0014965534210205078 0.000966191291809082 0.12086105346679688 -0.035198211669921875
17.58775 -0.0690460205078125 -0.106781005859375 1.826171875 -4.06298828125 -0.001428067684173584 0.0008289217948913574 0.11926651000976562 -0.038722991943359375
17.5975 -0.07366943359375 -0.0998992919921875 1.48974609375 -4.204345703125 -0.00213468074798584 0.0006318092346191406 0.12001800537109375 -0.04296875
17.60725 -0.07926177978515625 -0.09416961669921875 1.14501953125 -4.298583984375 -0.0007866322994232178 0.0008428990840911865 0.11729049682617188 -0.047595977783203125
17.617 -0.0855560302734375 -0.0851287841796875 0.7998046875 -4.35302734375 -0.00044667720794677734 0.001467585563659668 0.11754226684570312 -0.05196380615234375
17.62675 -0.090850830078125 -0.07769775390625 0.46240234375 -4.37841796875 -0.0009312629699707031 0.0012662410736083984 0.1162109375 -0.056488037109375
17.6365 -0.093017578125 -0.0695648193359375 0.1328125 -4.37646484375 -0.0019608736038208008 0.0012879371643066406 0.11327362060546875 -0.06119537353515625
17.64625 -0.0963592529296875 -0.05994415283203125 -0.169921875 -4.359375 -0.0006212592124938965 0.0010526180267333984 0.11104583740234375 -0.06638336181640625
17.656 -0.09999847412109375 -0.053985595703125 -0.47119140625 -4.3408203125 -0.0011056065559387207 0.0012156367301940918 0.10587692260742188 -0.07145309448242188
17.66575 -0.1029052734375 -0.0435028076171875 -0.773193359375 -4.313232421875 -0.0017873048782348633 0.002012014389038086 0.10590744018554688 -0.07637786865234375
17.6755 -0.10561370849609375 -0.036102294921875 -1.082763671875 -4.271484375 -8.314847946166992e-05 0.0011043548583984375 0.10024261474609375 -0.07880401611328125
17.68525 -0.10622406005859375 -0.02695465087890625 -1.40380859375 -4.22509765625 -0.0003552436828613281 0.0008792579174041748 0.09720230102539062 -0.08431243896484375
17.695 -0.10793304443359375 -0.01644134521484375 -1.75 -4.138916015625 -0.00021696090698242188 0.0023113489151000977 0.09319686889648438 -0.08716964721679688
17.70475 -0.1087646484375 -0.0074462890625 -2.098388671875 -4.00244140625 0.0005267858505249023 0.0014674663543701172 0.08822250366210938 -0.08993148803710938
17.7145 -0.11087799072265625 0.001155853271484375 -2.44189453125 -3.826904296875 -0.0007625818252563477 0.001310110092163086 0.08443069458007812 -0.09429931640625
17.72425 -0.11008834838867188 0.01001739501953125 -2.748779296875 -3.601318359375 0.0002898573875427246 0.0009453892707824707 0.07764053344726562 -0.09858322143554688
17.734 -0.108367919921875 0.0168914794921875 -3.0234375 -3.3515625 -0.0004477500915527344 0.0011736154556274414 0.07228851318359375 -0.1005859375
17.74375 -0.10841751098632812 0.0259857177734375 -3.24072265625 -3.08203125 -0.0004894733428955078 0.0014183521270751953 0.06890869140625 -0.10346221923828125
17.7535 -0.10590362548828125 0.034099578857421875 -3.439208984375 -2.8251953125 -5.5342912673950195e-05 0.0007653236389160156 0.06280517578125 -0.10659027099609375
17.76325 -0.10428619384765625 0.042858123779296875 -3.622802734375 -2.578369140625 0.0005238056182861328 0.0013933777809143066 0.056148529052734375 -0.10855484008789062
17.773 -0.101165771484375 0.048252105712890625 -3.793212890625 -2.334716796875 0.0001061558723449707 0.0012450814247131348 0.0519561767578125 -0.11038589477539062
17.78275 -0.09944915771484375 0.058719635009765625 -3.966064453125 -2.05859375 0.0006028413772583008 0.0019922256469726562 0.04705810546875 -0.11040115356445312
17.7925 -0.09471893310546875 0.06427001953125 -4.141845703125 -1.7802734375 -5.085766315460205e-05 0.00022210180759429932 0.040813446044921875 -0.11053848266601562
17.80225 -0.09015274047851562 0.07031631469726562 -4.3037109375 -1.4658203125 -0.0003063082695007324 0.000929713249206543 0.035678863525390625 -0.11123275756835938
17.812 -0.08530044555664062 0.07931900024414062 -4.435302734375 -1.12353515625 9.810924530029297e-05 0.0007259845733642578 0.030315399169921875 -0.10882568359375
17.82175 -0.07999420166015625 0.08649826049804688 -4.53369140625 -0.764892578125 0.001032114028930664 0.0012062788009643555 0.023914337158203125 -0.10814666748046875
17.8315 -0.07512283325195312 0.09312057495117188 -4.588623046875 -0.390869140625 0.0006272196769714355 0.0009658336639404297 0.019805908203125 -0.10818862915039062
17.84125 -0.06978607177734375 0.09912872314453125 -4.60205078125 -0.02587890625 0.00036537647247314453 0.001470804214477539 0.01239013671875 -0.107696533203125
17.851 -0.06287384033203125 0.10642623901367188 -4.5673828125 0.333984375 -0.0002334117889404297 0.0012987852096557617 0.007537841796875 -0.10567092895507812
17.86075 -0.05908203125 0.11142349243164062 -4.52880859375 0.668212890625 0.0011307597160339355 0.0005685091018676758 0.002460479736328125 -0.103515625
17.8705 -0.05158233642578125 0.11624526977539062 -4.47216796875 0.997802734375 0.00044029951095581055 0.0008965730667114258 -0.00292205810546875 -0.10294723510742188
17.88025 -0.044887542724609375 0.12113189697265625 -4.4033203125 1.32861328125 0.0005668401718139648 0.00047385692596435547 -0.00909423828125 -0.10071563720703125
17.89 -0.03943634033203125 0.12609100341796875 -4.322998046875 1.655517578125 -0.000512927770614624 0.0006048977375030518 -0.013874053955078125 -0.09899139404296875
17.89975 -0.03177642822265625 0.13034820556640625 -4.203857421875 2.0048828125 0.00019603967666625977 0.0011309981346130371 -0.019580841064453125 -0.09686660766601562
17.9095 -0.02672576904296875 0.1319122314453125 -4.059326171875 2.35205078125 0.0007572174072265625 0.0007303953170776367 -0.022975921630859375 -0.09387969970703125
17.91925 -0.01876068115234375 0.13458251953125 -3.8681640625 2.68408203125 -8.150935173034668e-05 0.0007716715335845947 -0.02735137939453125 -0.09082794189453125
17.929 -0.011260986328125 0.1382293701171875 -3.654052734375 3.00146484375 -0.0008118152618408203 0.0011998414993286133 -0.03188323974609375 -0.086944580078125
17.93875 -0.003814697265625 0.14068603515625 -3.390869140625 3.2900390625 0.0018111467361450195 0.0009913444519042969 -0.03571319580078125 -0.08414459228515625
17.9485 0.00418853759765625 0.14105987548828125 -3.1234130859375 3.53662109375 0.0015788078308105469 0.0005687475204467773 -0.039337158203125 -0.0788116455078125
17.95825 0.01236724853515625 0.1412506103515625 -2.83935546875 3.766845703125 0.0011380314826965332 0.00024312734603881836 -0.04041290283203125 -0.07484817504882812
17.968 0.0184173583984375 0.14289093017578125 -2.5489501953125 3.973388671875 0.0005133748054504395 0.0011001229286193848 -0.046657562255859375 -0.07290267944335938
17.97775 0.02573394775390625 0.1432952880859375 -2.247802734375 4.158447265625 1.8149614334106445e-05 0.00046330690383911133 -0.04891204833984375 -0.06784820556640625
17.9875 0.0348358154296875 0.14266204833984375 -1.930908203125 4.347412109375 0.002023458480834961 -0.00014221668243408203 -0.04998016357421875 -0.06418609619140625
17.99725 0.0434417724609375 0.14227294921875 -1.596923828125 4.51953125 0.000736236572265625 0.00026047229766845703 -0.055171966552734375 -0.05843353271484375
18.007 0.0499725341796875 0.14199066162109375 -1.228515625 4.659912109375 0.001225888729095459 1.4603137969970703e-05 -0.05652618408203125 -0.0540924072265625
18.01675 0.057586669921875 0.140625 -0.843505859375 4.76171875 0.0011226534843444824 4.225969314575195e-05 -0.060741424560546875 -0.048999786376953125
18.0265 0.0650177001953125 0.138092041015625 -0.43896484375 4.8310546875 0.0012049674987792969 0.0006395578384399414 -0.06246185302734375 -0.04463958740234375
18.03625 0.072113037109375 0.1395721435546875 -0.03466796875 4.844970703125 0.00037795305252075195 0.0009613633155822754 -0.06459426879882812 -0.03795623779296875
18.046 0.07936859130859375 0.13631439208984375 0.36865234375 4.819091796875 0.0003231167793273926 0.0002981722354888916 -0.06499481201171875 -0.0326690673828125
18.05575 0.08727264404296875 0.13111114501953125 0.7431640625 4.76171875 0.0006060600280761719 0.0008057951927185059 -0.06760025024414062 -0.028316497802734375
18.0655 0.09194183349609375 0.130401611328125 1.106689453125 4.6767578125 0.0017011165618896484 0.0003955364227294922 -0.06964874267578125 -0.023647308349609375
18.07525 0.09906768798828125 0.12674713134765625 1.466552734375 4.572509765625 0.001256406307220459 0.0001360774040222168 -0.06892013549804688 -0.01721954345703125
18.085 0.10597991943359375 0.1237335205078125 1.822509765625 4.44921875 0.0011115670204162598 0.0005433559417724609 -0.06914520263671875 -0.012176513671875
18.09475 0.11298370361328125 0.119903564453125 2.17138671875 4.30029296875 0.0005977153778076172 -0.0006126165390014648 -0.06790542602539062 -0.007720947265625
18.1045 0.11841583251953125 0.11547088623046875 2.51611328125 4.12060546875 0.0002123415470123291 -0.00028745830059051514 -0.06888198852539062 -0.001789093017578125
18.11425 0.12287139892578125 0.11254119873046875 2.8515625 3.8974609375 8.639693260192871e-05 0.0004773437976837158 -0.0685577392578125 0.0031585693359375
18.124 0.1279144287109375 0.10723876953125 3.15966796875 3.64990234375 0.0009482502937316895 -0.00021207332611083984 -0.06568145751953125 0.01104736328125
18.13375 0.13213348388671875 0.10352325439453125 3.441162109375 3.37939453125 -0.0003149062395095825 6.07222318649292e-05 -0.0634307861328125 0.0164794921875
18.1435 0.1374053955078125 0.09685516357421875 3.693115234375 3.081787109375 -8.53613018989563e-05 3.619492053985596e-05 -0.0648956298828125 0.0234375
18.15325 0.1422576904296875 0.0905914306640625 3.92138671875 2.76123046875 0.0005960166454315186 0.00018596649169921875 -0.06251907348632812 0.02642059326171875
18.163 0.14849853515625 0.0852813720703125 4.11328125 2.438232421875 0.0005176961421966553 -3.039836883544922e-05 -0.058917999267578125 0.03235816955566406
18.17275 0.15091705322265625 0.0793914794921875 4.2763671875 2.098876953125 0.0002955198287963867 -0.0010359883308410645 -0.054294586181640625 0.037860870361328125
18.1825 0.15657806396484375 0.07401275634765625 4.428955078125 1.757568359375 0.0006029605865478516 -0.0001532435417175293 -0.05042839050292969 0.04380035400390625
18.19225 0.158966064453125 0.066802978515625 4.552490234375 1.395263671875 0.0007611513137817383 -0.0002633333206176758 -0.04773139953613281 0.047718048095703125
18.202 0.163726806640625 0.0619049072265625 4.64453125 1.0361328125 -9.399652481079102e-05 -0.0004093050956726074 -0.04679107666015625 0.053295135498046875
18.21175 0.167266845703125 0.055877685546875 4.70703125 0.6494140625 0.001493692398071289 -0.0002313852310180664 -0.040134429931640625 0.0579681396484375
18.2215 0.1712493896484375 0.04864501953125 4.728759765625 0.260498046875 -0.0004913210868835449 -0.0007732510566711426 -0.03450775146484375 0.061428070068359375
18.23125 0.17275238037109375 0.0413665771484375 4.714599609375 -0.11767578125 0.0007391273975372314 -6.338953971862793e-05 -0.032688140869140625 0.06432342529296875
18.241 0.17409515380859375 0.03594207763671875 4.669921875 -0.486572265625 0.0005351603031158447 -0.00045737624168395996 -0.029224395751953125 0.06872940063476562
18.25075 0.1761932373046875 0.02829742431640625 4.595947265625 -0.845458984375 -0.0002655982971191406 -0.0005444884300231934 -0.02268218994140625 0.07083511352539062
18.2605 0.177825927734375 0.02089691162109375 4.4990234375 -1.191162109375 0.0007203221321105957 -0.0008722245693206787 -0.016742706298828125 0.07314300537109375
18.27025 0.17848968505859375 0.01386260986328125 4.387451171875 -1.527587890625 0.00104522705078125 -0.0012118816375732422 -0.0104217529296875 0.07645797729492188
18.28 0.17967987060546875 0.00641632080078125 4.2529296875 -1.870361328125 -0.00039780139923095703 -0.0006135106086730957 -0.004474639892578125 0.07751846313476562
18.28975 0.18071746826171875 -0.00160980224609375 4.09130859375 -2.193115234375 0.0003685951232910156 -0.0004820525646209717 0.003330230712890625 0.0796051025390625
18.2995 0.1822509765625 -0.007843017578125 3.890625 -2.505126953125 0.00011145323514938354 2.9481947422027588e-05 0.009143829345703125 0.07810592651367188
18.30925 0.1805267333984375 -0.017333984375 3.66455078125 -2.80029296875 0.00014859437942504883 -0.0009783506393432617 0.0161895751953125 0.08013153076171875
18.319 0.17853546142578125 -0.02429962158203125 3.4136962890625 -3.0679931640625 -0.00020197033882141113 -9.73045825958252e-05 0.02120208740234375 0.080718994140625
18.32875 0.17757415771484375 -0.0302581787109375 3.1473388671875 -3.3106689453125 -0.0009210705757141113 -0.0009938478469848633 0.030818939208984375 0.07978439331054688
18.3385 0.177490234375 -0.038818359375 2.8636474609375 -3.5196533203125 0.0012961030006408691 -0.00029391050338745117 0.0369415283203125 0.08016204833984375
18.34825 0.17667388916015625 -0.04656982421875 2.58251953125 -3.723388671875 0.0018172860145568848 -0.001175522804260254 0.042163848876953125 0.08056259155273438
18.358 0.17487335205078125 -0.054290771484375 2.2913818359375 -3.8948974609375 0.00011831521987915039 -0.000807344913482666 0.0499267578125 0.07782745361328125
18.36775 0.1732940673828125 -0.06136322021484375 1.9736328125 -4.054443359375 0.00044292211532592773 -0.0013247132301330566 0.05554962158203125 0.07451629638671875
18.3775 0.1697845458984375 -0.06681060791015625 1.654541015625 -4.1923828125 0.0012522339820861816 -0.001314997673034668 0.06113433837890625 0.07361602783203125
18.38725 0.1663360595703125 -0.0760040283203125 1.30712890625 -4.307373046875 0.0016581416130065918 -0.0002664327621459961 0.06685638427734375 0.07021331787109375
18.397 0.1637725830078125 -0.0805816650390625 0.94873046875 -4.380859375 -0.00012233853340148926 -0.00035113096237182617 0.0731201171875 0.06671142578125
18.40675 0.1599884033203125 -0.0882415771484375 0.58056640625 -4.43310546875 0.000686943531036377 -0.0009553432464599609 0.0800018310546875 0.0632781982421875
18.4165 0.154632568359375 -0.09363555908203125 0.230712890625 -4.435302734375 8.240342140197754e-06 0.00028136372566223145 0.08355712890625 0.05797576904296875
18.42625 0.150848388671875 -0.0997161865234375 -0.1162109375 -4.39990234375 0.0008485317230224609 -0.000743567943572998 0.08847808837890625 0.053070068359375
18.436 0.14479827880859375 -0.1043853759765625 -0.4404296875 -4.3427734375 0.00030869245529174805 0.0013290047645568848 0.09418487548828125 0.04761505126953125
18.44575 0.14101409912109375 -0.112823486328125 -0.76025390625 -4.27490234375 0.0004742741584777832 -0.0012096762657165527 0.09688568115234375 0.04204559326171875
18.4555 0.13491058349609375 -0.1175384521484375 -1.068603515625 -4.1875 -0.0006754398345947266 -0.00028711557388305664 0.10111236572265625 0.03501129150390625
18.46525 0.130950927734375 -0.12396240234375 -1.381591796875 -4.0966796875 0.0013765692710876465 -0.0008796453475952148 0.10391998291015625 0.02774810791015625
18.475 0.1235198974609375 -0.1273040771484375 -1.690185546875 -3.978515625 0.0003007948398590088 1.1622905731201172e-05 0.107208251953125 0.02005767822265625
18.48475 0.11894989013671875 -0.13489532470703125 -2.001953125 -3.823974609375 0.000298231840133667 0.0001464933156967163 0.10969924926757812 0.01432037353515625
18.4945 0.11100006103515625 -0.13744354248046875 -2.298828125 -3.626953125 -0.0004119873046875 -0.00022098422050476074 0.112396240234375 0.00405120849609375
18.50425 0.1037445068359375 -0.14202880859375 -2.58447265625 -3.408203125 -0.0004088282585144043 -0.00042724609375 0.11181640625 -0.0005340576171875
18.514 0.0999603271484375 -0.145172119140625 -2.82275390625 -3.1591796875 0.0007818937301635742 0.0006844997406005859 0.11232757568359375 -0.00907135009765625
18.52375 0.09229278564453125 -0.14858245849609375 -3.028076171875 -2.8935546875 0.0002659261226654053 -0.000794529914855957 0.11106109619140625 -0.01605987548828125
18.5335 0.086578369140625 -0.15338134765625 -3.199462890625 -2.6318359375 0.0002153441309928894 -0.00021895021200180054 0.11255645751953125 -0.023021697998046875
18.54325 0.0785064697265625 -0.1568603515625 -3.349365234375 -2.372802734375 -0.00042057037353515625 -0.0007292628288269043 0.11035919189453125 -0.03022003173828125
18.553 0.0726318359375 -0.1590728759765625 -3.4794921875 -2.10791015625 0.0015693306922912598 -0.0003986954689025879 0.10747528076171875 -0.035266876220703125
18.56275 0.0641632080078125 -0.16007232666015625 -3.60693359375 -1.847412109375 -0.000588536262512207 0.00046890974044799805 0.10428619384765625 -0.042629241943359375
18.5725 0.0572967529296875 -0.1624603271484375 -3.7197265625 -1.569580078125 0.00045990943908691406 -0.0012949109077453613 0.10015869140625 -0.04814910888671875
18.58225 0.0486907958984375 -0.163726806640625 -3.81298828125 -1.279541015625 -0.0003018677234649658 -0.0005440413951873779 0.0990142822265625 -0.053943634033203125
18.592 0.04119873046875 -0.165924072265625 -3.886962890625 -0.9716796875 0.0009227395057678223 -0.0010336637496948242 0.09232330322265625 -0.06128692626953125
18.60175 0.034759521484375 -0.1657562255859375 -3.9365234375 -0.6591796875 0.0007115006446838379 -0.0008809566497802734 0.0877838134765625 -0.06317138671875
18.6115 0.0258941650390625 -0.16477203369140625 -3.93408203125 -0.343994140625 0.00018128752708435059 -0.0005439221858978271 0.08489990234375 -0.07044601440429688
18.62125 0.01702117919921875 -0.1646728515625 -3.9111328125 -0.04541015625 -0.0002697110176086426 -0.0005437731742858887 0.07764434814453125 -0.073577880859375
18.631 0.01084136962890625 -0.16506195068359375 -3.8570556640625 0.22705078125 0.0008545815944671631 -0.0002739429473876953 0.07212066650390625 -0.0780487060546875
18.64075 0.0028533935546875 -0.16432952880859375 -3.7921142578125 0.495361328125 -5.131959915161133e-05 -0.0008483231067657471 0.06717300415039062 -0.07989120483398438
18.6505 -0.00246429443359375 -0.1625518798828125 -3.72314453125 0.74560546875 -0.00010545551776885986 -0.00014978647232055664 0.0626373291015625 -0.08316421508789062
18.66025 -0.01284027099609375 -0.16150665283203125 -3.648681640625 0.9962158203125 0.00033143162727355957 0.0005909204483032227 0.0555267333984375 -0.08466339111328125
18.67 -0.01886749267578125 -0.15976715087890625 -3.556884765625 1.2464599609375 0.0005520880222320557 -0.0007071793079376221 0.05242919921875 -0.08581161499023438
18.67975 -0.02754974365234375 -0.15792083740234375 -3.456298828125 1.500732421875 0.0005450844764709473 -0.000502467155456543 0.04523468017578125 -0.08822250366210938
18.6895 -0.0356597900390625 -0.155059814453125 -3.32080078125 1.7518310546875 0.00046813488006591797 -0.001001894474029541 0.0379638671875 -0.08708572387695312
