!Created with skrf (http://scikit-rf.org).
# GHz S RI R 50.0 
!freq ReS11 ImS11 ReS21 ImS21 ReS12 ImS12 ReS22 ImS22
17.5 0.0041961669921875 -0.133697509765625 -4.093994140625 -1.591796875 4.237517714500427e-05 5.068257451057434e-05 0.0892181396484375 -0.0059814453125
17.50975 -0.0036468505859375 -0.1310272216796875 -4.1953125 -1.26513671875 -0.0022777318954467773 0.0005136728286743164 0.08965301513671875 -0.006927490234375
17.5195 -0.011810302734375 -0.12596893310546875 -4.27294921875 -0.93505859375 -0.001816391944885254 0.0005272030830383301 0.09380722045898438 -0.007350921630859375
17.52925 -0.01943206787109375 -0.1224517822265625 -4.32958984375 -0.60205078125 -0.0019892454147338867 0.001585245132446289 0.09454345703125 -0.010662078857421875
17.539 -0.0242919921875 -0.116851806640625 -4.35400390625 -0.27099609375 -0.0013104677200317383 0.0011281967163085938 0.09365081787109375 -0.01169586181640625
17.54875 -0.031646728515625 -0.1128387451171875 -4.346923828125 0.051025390625 -0.001445472240447998 0.0012535452842712402 0.09809494018554688 -0.01525115966796875
17.5585 -0.04036712646484375 -0.10884857177734375 -4.33447265625 0.371337890625 -0.0018187761306762695 0.0008268952369689941 0.09962081909179688 -0.01682281494140625
17.56825 -0.0438079833984375 -0.10352325439453125 -4.299072265625 0.68212890625 -0.0005885958671569824 0.001102447509765625 0.09981536865234375 -0.019439697265625
17.578 -0.05037689208984375 -0.09835052490234375 -4.242431640625 1.011474609375 -0.0015436410903930664 0.0005399584770202637 0.101318359375 -0.022022247314453125
17.58775 -0.05622100830078125 -0.09380340576171875 -4.160888671875 1.33935546875 0.00015243887901306152 0.0006350576877593994 0.10125350952148438 -0.025043487548828125
17.5975 -0.060394287109375 -0.08736419677734375 -4.04296875 1.6689453125 -0.0004514455795288086 0.0005939602851867676 0.10243606567382812 -0.029270172119140625
17.60725 -0.0640106201171875 -0.0826263427734375 -3.8958740234375 1.978515625 -0.0013012290000915527 0.0016688704490661621 0.10161209106445312 -0.03119659423828125
17.617 -0.06989288330078125 -0.07376861572265625 -3.717529296875 2.26904296875 0.00033229589462280273 0.001231372356414795 0.10323715209960938 -0.034152984619140625
17.62675 -0.0733489990234375 -0.0686187744140625 -3.5179443359375 2.533447265625 -0.0022772550582885742 0.0003764629364013672 0.1025238037109375 -0.038543701171875
17.6365 -0.0765533447265625 -0.060699462890625 -3.2978515625 2.771240234375 -0.001111745834350586 0.0007843971252441406 0.102386474609375 -0.04376983642578125
17.64625 -0.0798187255859375 -0.05338287353515625 -3.080322265625 2.9853515625 -0.0009176135063171387 0.0016182661056518555 0.09988784790039062 -0.046112060546875
17.656 -0.08260345458984375 -0.04988861083984375 -2.864501953125 3.1871337890625 -0.0006527304649353027 0.00032514333724975586 0.09663772583007812 -0.0505218505859375
17.66575 -0.08234405517578125 -0.03997802734375 -2.6490478515625 3.3785400390625 0.00014638900756835938 0.0013284683227539062 0.09848785400390625 -0.053150177001953125
17.6755 -0.0857086181640625 -0.033946990966796875 -2.4166259765625 3.571044921875 -0.00030666589736938477 0.0017989277839660645 0.09587478637695312 -0.057971954345703125
17.68525 -0.08906936645507812 -0.026889801025390625 -2.1796875 3.7637939453125 -0.0001583099365234375 0.0010467767715454102 0.0938720703125 -0.06252670288085938
17.695 -0.09006500244140625 -0.019023895263671875 -1.9041748046875 3.9530029296875 -0.0008522272109985352 0.00013270974159240723 0.09128189086914062 -0.06375885009765625
17.70475 -0.08903884887695312 -0.010784149169921875 -1.593994140625 4.11767578125 -0.0012603998184204102 0.001229703426361084 0.089385986328125 -0.06853866577148438
17.7145 -0.09160995483398438 -0.003696441650390625 -1.25830078125 4.2587890625 -0.0004793405532836914 0.0012159943580627441 0.08589935302734375 -0.07180404663085938
17.72425 -0.08926010131835938 0.00336456298828125 -0.903076171875 4.345703125 -0.0006830096244812012 0.0007331669330596924 0.08351898193359375 -0.0752105712890625
17.734 -0.09006118774414062 0.00968170166015625 -0.55029296875 4.392333984375 -0.0004904270172119141 0.0011990070343017578 0.07928085327148438 -0.079010009765625
17.74375 -0.09108734130859375 0.0165252685546875 -0.2109375 4.3828125 -0.0008751153945922852 0.0012509822845458984 0.076202392578125 -0.0823211669921875
17.7535 -0.08746719360351562 0.02184295654296875 0.10986328125 4.369384765625 0.0004436373710632324 0.0006122589111328125 0.0723876953125 -0.08661270141601562
17.76325 -0.08788299560546875 0.03009033203125 0.406982421875 4.3447265625 -0.0009360909461975098 0.0006483495235443115 0.06796646118164062 -0.087554931640625
17.773 -0.0853271484375 0.036479949951171875 0.6943359375 4.309326171875 -0.0005713701248168945 0.0019549131393432617 0.06360626220703125 -0.0910491943359375
17.78275 -0.08429718017578125 0.043331146240234375 0.99169921875 4.2607421875 0.001234292984008789 0.0017265081405639648 0.060871124267578125 -0.09027481079101562
17.7925 -0.08221054077148438 0.048801422119140625 1.295166015625 4.2109375 0.0005477666854858398 -8.481740951538086e-05 0.055629730224609375 -0.09467315673828125
17.80225 -0.07802200317382812 0.05399322509765625 1.619140625 4.14013671875 0.000333249568939209 0.000980973243713379 0.05310821533203125 -0.0955963134765625
17.812 -0.0753173828125 0.06258010864257812 1.94384765625 4.036376953125 -0.0003905296325683594 0.001112222671508789 0.04708099365234375 -0.09499359130859375
17.82175 -0.07018661499023438 0.06777191162109375 2.269775390625 3.8994140625 -0.0006262063980102539 0.0007569193840026855 0.04344940185546875 -0.09476470947265625
17.8315 -0.06714248657226562 0.07319259643554688 2.58837890625 3.72119140625 0.00019669532775878906 0.0011581182479858398 0.03972625732421875 -0.097686767578125
17.84125 -0.0652008056640625 0.0771636962890625 2.87548828125 3.51123046875 4.8160552978515625e-05 0.0010077953338623047 0.033905029296875 -0.09769439697265625
17.851 -0.059078216552734375 0.085723876953125 3.130615234375 3.2646484375 0.00017386674880981445 0.0005835294723510742 0.0302734375 -0.09819793701171875
17.86075 -0.0565032958984375 0.08864593505859375 3.355224609375 3.025390625 0.0004100203514099121 0.0013892054557800293 0.023960113525390625 -0.0969390869140625
17.8705 -0.050853729248046875 0.09386825561523438 3.571044921875 2.778564453125 0.0001233518123626709 0.0004735589027404785 0.019062042236328125 -0.09881210327148438
17.88025 -0.0467987060546875 0.0994720458984375 3.764892578125 2.525634765625 -0.0004964768886566162 0.0008696913719177246 0.012310028076171875 -0.09798812866210938
17.89 -0.043369293212890625 0.1047515869140625 3.961181640625 2.275634765625 0.00037980079650878906 0.0009492039680480957 0.00896453857421875 -0.09725570678710938
17.89975 -0.0381317138671875 0.10776519775390625 4.151611328125 1.987548828125 0.00019976496696472168 0.0006604194641113281 0.005092620849609375 -0.0966949462890625
17.9095 -0.03356170654296875 0.1103973388671875 4.33056640625 1.686767578125 0.0005273222923278809 0.0007040500640869141 -0.000377655029296875 -0.0960693359375
17.91925 -0.026447296142578125 0.11506271362304688 4.48095703125 1.35302734375 0.0006706714630126953 2.136826515197754e-05 -0.004611968994140625 -0.09539031982421875
17.929 -0.02060699462890625 0.1181793212890625 4.607421875 1.00439453125 0.0017848014831542969 0.00034809112548828125 -0.01018524169921875 -0.09407806396484375
17.93875 -0.016780853271484375 0.120880126953125 4.691162109375 0.6328125 -0.0003076493740081787 0.0003766864538192749 -0.013805389404296875 -0.09196853637695312
17.9485 -0.01043701171875 0.1229705810546875 4.733154296875 0.267822265625 0.00010466575622558594 0.0011969208717346191 -0.016262054443359375 -0.0888824462890625
17.95825 -0.0050811767578125 0.125762939453125 4.75 -0.100341796875 0.0001239478588104248 0.0004933476448059082 -0.01961517333984375 -0.08771133422851562
17.968 0.0014190673828125 0.128173828125 4.741943359375 -0.45458984375 0.0009923577308654785 0.0007943511009216309 -0.02618408203125 -0.08602142333984375
17.97775 0.0084991455078125 0.129119873046875 4.708251953125 -0.800537109375 -0.000606924295425415 -0.0001410841941833496 -0.030788421630859375 -0.08113861083984375
17.9875 0.015350341796875 0.1314849853515625 4.66748046875 -1.159912109375 0.0003885924816131592 0.0003750920295715332 -0.0336456298828125 -0.07891845703125
17.99725 0.02205657958984375 0.1329193115234375 4.60546875 -1.51708984375 7.05718994140625e-05 0.0008990168571472168 -0.0378570556640625 -0.0750732421875
18.007 0.02783203125 0.1340179443359375 4.51611328125 -1.884521484375 0.000409930944442749 -0.00090065598487854 -0.042209625244140625 -0.07161712646484375
18.01675 0.03522491455078125 0.13390350341796875 4.3876953125 -2.255859375 0.0009219646453857422 0.0008589625358581543 -0.046680450439453125 -0.0681304931640625
18.0265 0.04125213623046875 0.134033203125 4.227294921875 -2.629150390625 0.0005925893783569336 0.0007555484771728516 -0.0522003173828125 -0.06576156616210938
18.03625 0.0483856201171875 0.136871337890625 4.02001953125 -2.984375 0.0012013912200927734 0.0012788772583007812 -0.05416107177734375 -0.06101226806640625
18.046 0.0558929443359375 0.13524627685546875 3.7647705078125 -3.3173828125 0.00023031234741210938 0.001257777214050293 -0.05635833740234375 -0.055728912353515625
18.05575 0.06256866455078125 0.13376617431640625 3.49853515625 -3.61572265625 0.000681459903717041 0.0003312826156616211 -0.06266403198242188 -0.052211761474609375
18.0655 0.06824493408203125 0.134124755859375 3.2032470703125 -3.8795166015625 0.0011115074157714844 0.0007975101470947266 -0.0654296875 -0.047801971435546875
18.07525 0.0769195556640625 0.13253021240234375 2.89990234375 -4.13134765625 0.0007793307304382324 0.0007378458976745605 -0.0672607421875 -0.0402984619140625
18.085 0.0840301513671875 0.1307373046875 2.574951171875 -4.362548828125 0.001792311668395996 0.0001024007797241211 -0.06940460205078125 -0.035915374755859375
18.09475 0.08817291259765625 0.12999725341796875 2.235595703125 -4.57861328125 0.00013743340969085693 0.0003217756748199463 -0.06798553466796875 -0.0312652587890625
18.1045 0.09735107421875 0.12686920166015625 1.87451171875 -4.7626953125 0.0006160438060760498 -0.0009664297103881836 -0.07253265380859375 -0.025360107421875
18.11425 0.1036224365234375 0.12566375732421875 1.486328125 -4.930419921875 0.0009976029396057129 -0.00039511919021606445 -0.07220840454101562 -0.020481109619140625
18.124 0.1096343994140625 0.123291015625 1.08154296875 -5.056640625 0.0007039308547973633 9.495019912719727e-05 -0.0729217529296875 -0.01227569580078125
18.13375 0.1150360107421875 0.1204833984375 0.671875 -5.14794921875 0.0003439188003540039 -0.00127410888671875 -0.07308197021484375 -0.0067291259765625
18.1435 0.12207794189453125 0.1161346435546875 0.248046875 -5.190673828125 0.0007389187812805176 -0.0011455416679382324 -0.07487869262695312 0.00070953369140625
18.15325 0.12989044189453125 0.110809326171875 -0.180419921875 -5.2021484375 0.0002962350845336914 0.00033223628997802734 -0.07465362548828125 0.005584716796875
18.163 0.13704681396484375 0.10688018798828125 -0.59716796875 -5.17919921875 0.0006002187728881836 -0.00011342763900756836 -0.07360076904296875 0.01192474365234375
18.17275 0.14234161376953125 0.101898193359375 -1.013916015625 -5.120361328125 0.0004318356513977051 -5.4836273193359375e-05 -0.07005691528320312 0.017826080322265625
18.1825 0.1494903564453125 0.09478759765625 -1.424560546875 -5.042236328125 -0.00043135881423950195 -0.0007163882255554199 -0.06913375854492188 0.025592803955078125
18.19225 0.155059814453125 0.09102630615234375 -1.844970703125 -4.930419921875 0.0006580948829650879 -0.00040289759635925293 -0.06769561767578125 0.030818939208984375
18.202 0.16030120849609375 0.084869384765625 -2.24169921875 -4.77392578125 0.0015788674354553223 3.510713577270508e-05 -0.0670928955078125 0.039180755615234375
18.21175 0.1649932861328125 0.079681396484375 -2.6494140625 -4.5791015625 0.0006279945373535156 -0.0010285377502441406 -0.06403350830078125 0.04456329345703125
18.2215 0.171783447265625 0.07210540771484375 -3.026123046875 -4.3359375 0.0006441473960876465 -0.0014429688453674316 -0.05846405029296875 0.05103874206542969
18.23125 0.17609405517578125 0.06531524658203125 -3.371826171875 -4.069091796875 0.0011387467384338379 -0.0008985996246337891 -0.056713104248046875 0.05487251281738281
18.241 0.17932891845703125 0.05777740478515625 -3.682861328125 -3.765380859375 -0.0008861422538757324 -0.0007155537605285645 -0.051910400390625 0.06056022644042969
18.25075 0.18398284912109375 0.0503692626953125 -3.958251953125 -3.449462890625 0.0004069805145263672 -0.0008105337619781494 -0.045635223388671875 0.06604385375976562
18.2605 0.18621063232421875 0.0421600341796875 -4.20703125 -3.119140625 -7.799267768859863e-05 -0.0006101131439208984 -0.0421142578125 0.06987380981445312
18.27025 0.19043731689453125 0.0333404541015625 -4.44140625 -2.782470703125 0.0004987418651580811 2.3245811462402344e-06 -0.036136627197265625 0.07436752319335938
18.28 0.192779541015625 0.024261474609375 -4.66259765625 -2.4189453125 -0.00036138296127319336 -0.0011048316955566406 -0.030628204345703125 0.07839584350585938
18.28975 0.19589996337890625 0.01604461669921875 -4.8525390625 -2.04345703125 0.0005718469619750977 0.0006011724472045898 -0.02400970458984375 0.08196258544921875
18.2995 0.19745635986328125 0.007537841796875 -5.013427734375 -1.635498046875 -0.00060272216796875 -0.00047701597213745117 -0.017078399658203125 0.08427047729492188
18.30925 0.1967620849609375 -0.0021820068359375 -5.1279296875 -1.2021484375 -0.0003120899200439453 -0.0001271069049835205 -0.00899505615234375 0.08704376220703125
18.319 0.1978912353515625 -0.012054443359375 -5.1962890625 -0.762939453125 -0.0002008676528930664 -0.00040140748023986816 -0.00279998779296875 0.08969497680664062
18.32875 0.1981964111328125 -0.01848602294921875 -5.221923828125 -0.33203125 -0.00021888315677642822 -0.00015881657600402832 0.005687713623046875 0.09336471557617188
18.3385 0.19599151611328125 -0.03009796142578125 -5.192626953125 0.08984375 0.0005099773406982422 0.00036078691482543945 0.014392852783203125 0.09432220458984375
18.34825 0.1969757080078125 -0.04059600830078125 -5.158447265625 0.498291015625 0.0003204345703125 -0.0011836886405944824 0.0222015380859375 0.09723281860351562
18.358 0.19463348388671875 -0.0488433837890625 -5.087646484375 0.88916015625 0.0002554655075073242 0.0005071759223937988 0.029537200927734375 0.09411239624023438
18.36775 0.19305419921875 -0.058502197265625 -4.995361328125 1.2861328125 -4.112720489501953e-05 -0.0010936260223388672 0.0369110107421875 0.0934295654296875
18.3775 0.19109344482421875 -0.06598663330078125 -4.88720703125 1.669921875 -0.00018011033535003662 1.3478100299835205e-05 0.0449066162109375 0.09375
18.38725 0.18767547607421875 -0.0754547119140625 -4.734375 2.069091796875 0.00035418570041656494 -0.00024187564849853516 0.051971435546875 0.09232330322265625
18.397 0.18426513671875 -0.084381103515625 -4.54150390625 2.4501953125 -0.0001506209373474121 1.3679265975952148e-05 0.0583343505859375 0.0887908935546875
18.40675 0.179656982421875 -0.0912017822265625 -4.3125 2.8271484375 0.0002148747444152832 -0.00048410892486572266 0.0677337646484375 0.085723876953125
18.4165 0.17486572265625 -0.10071563720703125 -4.03466796875 3.1552734375 0.0011934638023376465 -0.00048482418060302734 0.074798583984375 0.082122802734375
18.42625 0.1706695556640625 -0.10890960693359375 -3.7373046875 3.4488525390625 0.000519096851348877 2.2649765014648438e-06 0.080841064453125 0.07837677001953125
18.436 0.1634368896484375 -0.1157379150390625 -3.4302978515625 3.698486328125 0.0003346353769302368 -0.0003657490015029907 0.08807373046875 0.07361602783203125
18.44575 0.15764617919921875 -0.12384033203125 -3.114013671875 3.926513671875 0.0004958808422088623 5.0514936447143555e-05 0.09334564208984375 0.06754302978515625
18.4555 0.15079498291015625 -0.13002777099609375 -2.793212890625 4.12255859375 0.000397413969039917 -5.2228569984436035e-05 0.09981536865234375 0.06087493896484375
18.46525 0.14404296875 -0.13886260986328125 -2.479248046875 4.3212890625 0.0007254481315612793 0.0005924701690673828 0.10619354248046875 0.052276611328125
18.475 0.13628387451171875 -0.14337158203125 -2.143310546875 4.50341796875 -0.0006706118583679199 6.368756294250488e-05 0.110443115234375 0.0469970703125
18.48475 0.129852294921875 -0.14980316162109375 -1.775390625 4.6650390625 -0.0008965134620666504 -0.0002897977828979492 0.1148681640625 0.03928375244140625
18.4945 0.12075042724609375 -0.154541015625 -1.379638671875 4.78662109375 -0.0013064742088317871 -0.000510871410369873 0.117919921875 0.029998779296875
18.50425 0.1113433837890625 -0.160736083984375 -0.96435546875 4.87353515625 -0.0008872747421264648 -0.000760197639465332 0.1205902099609375 0.0227508544921875
18.514 0.1051025390625 -0.1642608642578125 -0.55078125 4.9013671875 3.120303153991699e-05 0.00027060508728027344 0.124755859375 0.014923095703125
18.52375 0.095123291015625 -0.16645050048828125 -0.146240234375 4.87890625 0.00019854307174682617 -0.0003310590982437134 0.12532806396484375 0.00640106201171875
18.5335 0.08795166015625 -0.17279052734375 0.232421875 4.82421875 0.0006457865238189697 -0.0004911124706268311 0.12796783447265625 -0.00274658203125
18.54325 0.07875823974609375 -0.1746826171875 0.583984375 4.744384765625 0.0010858774185180664 -0.001146078109741211 0.12738037109375 -0.0108795166015625
18.553 0.0701904296875 -0.1776580810546875 0.92333984375 4.650634765625 0.0006393790245056152 -0.0001817941665649414 0.1258392333984375 -0.017333984375
18.56275 0.0605316162109375 -0.17730712890625 1.251953125 4.55615234375 0.0006668567657470703 -0.0010963082313537598 0.12456893920898438 -0.025295257568359375
18.5725 0.05319976806640625 -0.1792449951171875 1.581787109375 4.4384765625 0.0004214644432067871 -0.0005025863647460938 0.12124252319335938 -0.034420013427734375
18.58225 0.04340362548828125 -0.17889404296875 1.912109375 4.296875 0.00011926889419555664 -0.0009183287620544434 0.11940383911132812 -0.043849945068359375
18.592 0.03338623046875 -0.18111419677734375 2.242919921875 4.12109375 0.00017412006855010986 -0.0003302544355392456 0.11708831787109375 -0.050502777099609375
18.60175 0.02581787109375 -0.179046630859375 2.55810546875 3.91455078125 0.00010451674461364746 -0.0003356039524078369 0.1107330322265625 -0.05572509765625
18.6115 0.01761627197265625 -0.17766571044921875 2.8388671875 3.666015625 0.0005315840244293213 -7.098913192749023e-05 0.1083526611328125 -0.06371688842773438
18.62125 0.00879669189453125 -0.17540740966796875 3.088134765625 3.40478515625 -0.00023832917213439941 -0.00014762580394744873 0.1029205322265625 -0.07004928588867188
18.631 -9.918212890625e-05 -0.174774169921875 3.28662109375 3.136962890625 0.0005101263523101807 -0.000934213399887085 0.09583663940429688 -0.07613754272460938
18.64075 -0.00859832763671875 -0.17298126220703125 3.469970703125 2.8623046875 0.0002580583095550537 -0.0008390247821807861 0.09139633178710938 -0.08032608032226562
18.6505 -0.01486968994140625 -0.17043304443359375 3.634765625 2.595947265625 0.0005259215831756592 -0.0005227029323577881 0.08586502075195312 -0.08448410034179688
18.66025 -0.024444580078125 -0.16757965087890625 3.7930908203125 2.33544921875 -0.00027370452880859375 -0.0016150474548339844 0.07815170288085938 -0.087646484375
18.67 -0.0313568115234375 -0.16451263427734375 3.943115234375 2.058349609375 0.00045168399810791016 -0.0011593103408813477 0.07403945922851562 -0.09008026123046875
18.67975 -0.04041290283203125 -0.160736083984375 4.088623046875 1.767822265625 -0.00015926361083984375 -0.0012709498405456543 0.06668853759765625 -0.09374618530273438
18.6895 -0.04544830322265625 -0.15869140625 4.207275390625 1.449462890625 -0.0006319284439086914 -0.0007251501083374023 0.06101226806640625 -0.0944061279296875
