!Created with skrf (http://scikit-rf.org).
# GHz S RI R 50.0 
!freq ReS11 ImS11 ReS21 ImS21 ReS12 ImS12 ReS22 ImS22
17.5 0.00334930419921875 -0.13716888427734375 -2.8388671875 -2.584228515625 -0.0004990696907043457 0.0013927817344665527 0.09183502197265625 -0.007633209228515625
17.50975 -0.00620269775390625 -0.13343048095703125 -3.025146484375 -2.357177734375 -0.002028226852416992 -0.00045049190521240234 0.0948333740234375 -0.00968170166015625
17.5195 -0.01190948486328125 -0.12865447998046875 -3.186279296875 -2.1083984375 -0.0009306967258453369 0.0005037486553192139 0.095733642578125 -0.00925445556640625
17.52925 -0.02184295654296875 -0.12561798095703125 -3.337890625 -1.863037109375 -0.00039196014404296875 0.0005171298980712891 0.09877777099609375 -0.0134735107421875
17.539 -0.02838134765625 -0.119476318359375 -3.4619140625 -1.60546875 -0.0017209053039550781 0.0007817745208740234 0.0986175537109375 -0.01610565185546875
17.54875 -0.03404998779296875 -0.11600494384765625 -3.55908203125 -1.341796875 -0.0015659332275390625 -0.00029075145721435547 0.10012054443359375 -0.018039703369140625
17.5585 -0.04369354248046875 -0.10993194580078125 -3.653564453125 -1.077392578125 -0.0008407831192016602 0.0006957352161407471 0.10279464721679688 -0.0218963623046875
17.56825 -0.0482025146484375 -0.104888916015625 -3.726318359375 -0.816162109375 -0.0018116235733032227 0.0004952549934387207 0.1023712158203125 -0.024875640869140625
17.578 -0.05538177490234375 -0.0989532470703125 -3.785888671875 -0.530517578125 7.392466068267822e-05 0.0002588331699371338 0.102508544921875 -0.02806854248046875
17.58775 -0.05919647216796875 -0.0940093994140625 -3.82421875 -0.23974609375 -0.0006941854953765869 0.0009363293647766113 0.10255813598632812 -0.028789520263671875
17.5975 -0.06304931640625 -0.0882720947265625 -3.8321533203125 0.0679931640625 -0.0017583966255187988 0.0005158782005310059 0.10260009765625 -0.035686492919921875
17.60725 -0.06793975830078125 -0.082672119140625 -3.81298828125 0.3634033203125 -0.0010124444961547852 6.705522537231445e-05 0.10189437866210938 -0.035297393798828125
17.617 -0.0735626220703125 -0.07506561279296875 -3.7606201171875 0.6544189453125 -0.0011704564094543457 0.0010559558868408203 0.10264205932617188 -0.039424896240234375
17.62675 -0.0784912109375 -0.06756591796875 -3.686279296875 0.93359375 -0.0004181861877441406 0.002528667449951172 0.1019744873046875 -0.04212188720703125
17.6365 -0.0799407958984375 -0.06005859375 -3.5849609375 1.197998046875 -0.0011795759201049805 0.00038230419158935547 0.1016082763671875 -0.04717254638671875
17.64625 -0.08332061767578125 -0.05246734619140625 -3.482421875 1.4375 -0.0007015466690063477 0.0012173056602478027 0.09936141967773438 -0.051311492919921875
17.656 -0.08605194091796875 -0.04747772216796875 -3.3726806640625 1.6715087890625 -0.0013706684112548828 0.0006598234176635742 0.09601211547851562 -0.055145263671875
17.66575 -0.08686447143554688 -0.038219451904296875 -3.268798828125 1.9046630859375 -0.0007871389389038086 0.0013502836227416992 0.0947723388671875 -0.05837249755859375
17.6755 -0.08939743041992188 -0.031856536865234375 -3.1400146484375 2.1343994140625 -0.0005362033843994141 0.0009193718433380127 0.09147262573242188 -0.0616912841796875
17.68525 -0.09201812744140625 -0.02387237548828125 -3.01123046875 2.373046875 0.0001284480094909668 0.001221001148223877 0.0907440185546875 -0.06611251831054688
17.695 -0.09130859375 -0.0163726806640625 -2.8448486328125 2.6180419921875 -0.0014351606369018555 0.0013439059257507324 0.088592529296875 -0.06862258911132812
17.70475 -0.09305191040039062 -0.007839202880859375 -2.6458740234375 2.856689453125 -0.000256955623626709 0.0011438727378845215 0.08498764038085938 -0.07056427001953125
17.7145 -0.09420394897460938 -0.000637054443359375 -2.4144287109375 3.0797119140625 -0.0003618597984313965 0.001681208610534668 0.08088302612304688 -0.07564544677734375
17.72425 -0.09280776977539062 0.008274078369140625 -2.1580810546875 3.2708740234375 -0.00025957822799682617 0.00014127790927886963 0.07831573486328125 -0.08002090454101562
17.734 -0.09445953369140625 0.014251708984375 -1.88525390625 3.421875 -0.00016582012176513672 0.0017758607864379883 0.0764007568359375 -0.08213043212890625
17.74375 -0.09371185302734375 0.02057647705078125 -1.60888671875 3.5302734375 -0.0003217458724975586 0.0015151500701904297 0.0722808837890625 -0.08551788330078125
17.7535 -0.08992767333984375 0.027812957763671875 -1.34228515625 3.6259765625 -0.00015175342559814453 0.0016052722930908203 0.06750106811523438 -0.08617782592773438
17.76325 -0.08852767944335938 0.03432464599609375 -1.0933837890625 3.70947265625 0.00036972761154174805 0.00045356154441833496 0.06189727783203125 -0.08906173706054688
17.773 -0.08692169189453125 0.041385650634765625 -0.8408203125 3.7734375 -0.00015458464622497559 0.0003896355628967285 0.061798095703125 -0.09388351440429688
17.78275 -0.08453750610351562 0.047573089599609375 -0.5799560546875 3.8380126953125 0.0010037422180175781 0.0018515586853027344 0.05658721923828125 -0.09262847900390625
17.7925 -0.08139419555664062 0.052639007568359375 -0.3125 3.900146484375 0.00019672513008117676 0.0002009868621826172 0.05104827880859375 -0.09416961669921875
17.80225 -0.07831954956054688 0.05945587158203125 -0.023681640625 3.9521484375 -0.0005838274955749512 0.0013602375984191895 0.048065185546875 -0.09686660766601562
17.812 -0.07421875 0.0654144287109375 0.283935546875 3.976318359375 0.0004907846450805664 0.0015606880187988281 0.041553497314453125 -0.09535980224609375
17.82175 -0.0703582763671875 0.07196807861328125 0.59521484375 3.971923828125 0.000985264778137207 0.0018576383590698242 0.041896820068359375 -0.09694290161132812
17.8315 -0.06543731689453125 0.07674789428710938 0.91796875 3.925048828125 -0.00014546513557434082 0.0006389617919921875 0.033473968505859375 -0.09745025634765625
17.84125 -0.062042236328125 0.08240509033203125 1.228515625 3.85498046875 -6.529688835144043e-05 0.00028076767921447754 0.02764892578125 -0.0970611572265625
17.851 -0.057178497314453125 0.08954238891601562 1.515869140625 3.733154296875 0.00017011165618896484 0.0010312795639038086 0.02576446533203125 -0.09749984741210938
17.86075 -0.0529937744140625 0.09417343139648438 1.789306640625 3.615966796875 0.00023168325424194336 0.0015617609024047852 0.018901824951171875 -0.09587860107421875
17.8705 -0.048992156982421875 0.09817123413085938 2.048828125 3.48291015625 -0.0005523860454559326 0.000746607780456543 0.01596832275390625 -0.09578323364257812
17.88025 -0.044498443603515625 0.10237884521484375 2.302490234375 3.338134765625 -0.0004208683967590332 0.0010992884635925293 0.0086212158203125 -0.09560394287109375
17.89 -0.0402984619140625 0.1083526611328125 2.550048828125 3.1904296875 -0.00031006336212158203 -0.0007695555686950684 0.006683349609375 -0.09537887573242188
17.89975 -0.0343780517578125 0.11122512817382812 2.805419921875 3.011962890625 0.0005273818969726562 0.0012063384056091309 0.001148223876953125 -0.09405517578125
17.9095 -0.030048370361328125 0.1148223876953125 3.0576171875 2.81689453125 0.0005658268928527832 0.0009180903434753418 -0.00373077392578125 -0.09299087524414062
17.91925 -0.02239227294921875 0.11706161499023438 3.294189453125 2.58837890625 -0.0002936124801635742 0.0009282231330871582 -0.00530242919921875 -0.09177398681640625
17.929 -0.01580810546875 0.12027740478515625 3.51708984375 2.33984375 0.00041231513023376465 -8.651614189147949e-05 -0.01174163818359375 -0.089111328125
17.93875 -0.01189422607421875 0.12262344360351562 3.714599609375 2.060546875 4.4465065002441406e-05 0.0010333061218261719 -0.01537322998046875 -0.08790969848632812
17.9485 -0.004566192626953125 0.12373733520507812 3.871337890625 1.76953125 0.0008072853088378906 0.00046122074127197266 -0.020084381103515625 -0.08351898193359375
17.95825 0.00058746337890625 0.12735748291015625 4.0107421875 1.467041015625 0.0018645524978637695 0.0007901191711425781 -0.022205352783203125 -0.0836639404296875
17.968 0.0069427490234375 0.12882232666015625 4.119140625 1.165283203125 0.00022518634796142578 0.0006335675716400146 -0.02828216552734375 -0.08104324340820312
17.97775 0.0120391845703125 0.12921142578125 4.209228515625 0.859130859375 -0.0002914220094680786 0.0002980828285217285 -0.030914306640625 -0.0773773193359375
17.9875 0.02093505859375 0.13034820556640625 4.291015625 0.538330078125 0.0017725229263305664 0.00044155120849609375 -0.034168243408203125 -0.07494354248046875
17.99725 0.026702880859375 0.130859375 4.36181640625 0.21240234375 0.0007176399230957031 0.0005319118499755859 -0.0384979248046875 -0.06964111328125
18.007 0.03376007080078125 0.13054656982421875 4.403564453125 -0.1328125 -0.00017440319061279297 0.0012668371200561523 -0.041179656982421875 -0.06770706176757812
18.01675 0.04097747802734375 0.1332855224609375 4.4169921875 -0.49169921875 0.0013061761856079102 -0.0008862614631652832 -0.047199249267578125 -0.06317520141601562
18.0265 0.0464935302734375 0.1333160400390625 4.3955078125 -0.8603515625 0.0006706714630126953 0.0011936426162719727 -0.0507049560546875 -0.06044769287109375
18.03625 0.0528717041015625 0.1334228515625 4.32568359375 -1.22802734375 0.0013136863708496094 0.0007176399230957031 -0.05281829833984375 -0.0567474365234375
18.046 0.05970001220703125 0.13232421875 4.2216796875 -1.593505859375 0.0005341768264770508 0.0005493760108947754 -0.055934906005859375 -0.05136871337890625
18.05575 0.06691741943359375 0.131866455078125 4.09326171875 -1.9326171875 0.0011833906173706055 0.0010907649993896484 -0.05849456787109375 -0.046840667724609375
18.0655 0.071685791015625 0.1313018798828125 3.9329833984375 -2.251708984375 0.001133739948272705 -0.0003177523612976074 -0.06289291381835938 -0.041568756103515625
18.07525 0.0802764892578125 0.12939453125 3.752685546875 -2.563232421875 0.00020509958267211914 -0.000639498233795166 -0.06472396850585938 -0.037654876708984375
18.085 0.0863037109375 0.1270294189453125 3.5513916015625 -2.8687744140625 0.0015733838081359863 0.0002893209457397461 -0.06747817993164062 -0.033740997314453125
18.09475 0.0930938720703125 0.12548065185546875 3.331298828125 -3.160400390625 0.00045120716094970703 0.00028711557388305664 -0.0666656494140625 -0.0275115966796875
18.1045 0.09952545166015625 0.122802734375 3.0850830078125 -3.4373779296875 -1.3947486877441406e-05 0.0002823173999786377 -0.0689544677734375 -0.021984100341796875
18.11425 0.10382080078125 0.1212615966796875 2.79736328125 -3.6978759765625 0.001784205436706543 0.0014377832412719727 -0.06817245483398438 -0.017665863037109375
18.124 0.1104583740234375 0.11724853515625 2.490478515625 -3.932373046875 0.0005829334259033203 0.00010603666305541992 -0.06882476806640625 -0.00969696044921875
18.13375 0.1168975830078125 0.1153106689453125 2.1640625 -4.13671875 0.0007687807083129883 2.9325485229492188e-05 -0.0698699951171875 -0.00565338134765625
18.1435 0.1241607666015625 0.1106719970703125 1.81884765625 -4.3095703125 0.0010170340538024902 -0.00030493736267089844 -0.06916427612304688 0.00113677978515625
18.15325 0.12917327880859375 0.10582733154296875 1.452880859375 -4.449951171875 5.855783820152283e-05 1.1149793863296509e-05 -0.07128524780273438 0.00716400146484375
18.163 0.13599395751953125 0.10163116455078125 1.08935546875 -4.555419921875 0.000774681568145752 -0.0012637972831726074 -0.06830215454101562 0.013851165771484375
18.17275 0.14226531982421875 0.09698486328125 0.715087890625 -4.6279296875 0.0002955794334411621 -0.0006676018238067627 -0.06476211547851562 0.01849365234375
18.1825 0.14797210693359375 0.09133148193359375 0.34375 -4.686767578125 -0.00031182169914245605 0.0006134510040283203 -0.06493377685546875 0.02632904052734375
18.19225 0.15326690673828125 0.0859832763671875 -0.046875 -4.720458984375 6.533414125442505e-05 -0.0001744478940963745 -0.06266403198242188 0.033123016357421875
18.202 0.159423828125 0.08133697509765625 -0.432861328125 -4.71142578125 0.00047500431537628174 -0.00021785497665405273 -0.06128692626953125 0.03798866271972656
18.21175 0.163055419921875 0.0757598876953125 -0.837890625 -4.66162109375 0.0010328292846679688 7.748603820800781e-05 -0.05743408203125 0.044208526611328125
18.2215 0.1681671142578125 0.0683441162109375 -1.2314453125 -4.573974609375 0.0004944503307342529 -3.8623809814453125e-05 -0.05460166931152344 0.05017852783203125
18.23125 0.17246246337890625 0.06105804443359375 -1.60693359375 -4.453369140625 0.00010216236114501953 -0.0010046958923339844 -0.052043914794921875 0.054225921630859375
18.241 0.17724609375 0.05513763427734375 -1.962890625 -4.292236328125 0.0005571246147155762 -0.00028705596923828125 -0.04852294921875 0.05938529968261719
18.25075 0.17954254150390625 0.0478973388671875 -2.29541015625 -4.101806640625 0.0012194514274597168 -0.00018846988677978516 -0.042995452880859375 0.06371307373046875
18.2605 0.182708740234375 0.0400848388671875 -2.60693359375 -3.90087890625 0.0008526444435119629 -0.0017075538635253906 -0.037609100341796875 0.06707000732421875
18.27025 0.18658447265625 0.031951904296875 -2.906005859375 -3.675537109375 0.0009275078773498535 -0.00044605135917663574 -0.030155181884765625 0.07183074951171875
18.28 0.18891143798828125 0.0227203369140625 -3.205078125 -3.4404296875 -0.0009891390800476074 2.9027462005615234e-05 -0.02610015869140625 0.07434844970703125
18.28975 0.19300079345703125 0.0149383544921875 -3.472412109375 -3.170654296875 0.0004767775535583496 0.00012952089309692383 -0.019618988037109375 0.07900619506835938
18.2995 0.19283294677734375 0.006500244140625 -3.724853515625 -2.871826171875 0.0015253424644470215 -0.0012553930282592773 -0.0122833251953125 0.08013916015625
18.30925 0.193878173828125 -0.0026092529296875 -3.9541015625 -2.54296875 0.0005762577056884766 -0.00010663270950317383 -0.006317138671875 0.08397674560546875
18.319 0.19303131103515625 -0.0120697021484375 -4.141357421875 -2.19287109375 0.0005022883415222168 0.0005664229393005371 -0.00077056884765625 0.0867156982421875
18.32875 0.19278717041015625 -0.01889801025390625 -4.284423828125 -1.833740234375 8.89897346496582e-05 -0.0009341835975646973 0.00827789306640625 0.08763885498046875
18.3385 0.19289398193359375 -0.0291595458984375 -4.39306640625 -1.46826171875 0.0013914108276367188 -0.000287473201751709 0.0154876708984375 0.08838653564453125
18.34825 0.192779541015625 -0.03864288330078125 -4.479736328125 -1.114013671875 -5.94407320022583e-05 -0.0002512335777282715 0.02205657958984375 0.090728759765625
18.358 0.19110107421875 -0.04602813720703125 -4.544677734375 -0.76220703125 0.0005970001220703125 -0.00014987587928771973 0.0322418212890625 0.08986282348632812
18.36775 0.19011688232421875 -0.05577850341796875 -4.578369140625 -0.393798828125 0.0006063580513000488 -0.001402735710144043 0.0379486083984375 0.0897979736328125
18.3775 0.18802642822265625 -0.0631256103515625 -4.603271484375 -0.039306640625 -5.392730236053467e-05 -0.0004021376371383667 0.04503631591796875 0.08817291259765625
18.38725 0.184234619140625 -0.07328033447265625 -4.588623046875 0.343505859375 -0.0006573796272277832 7.927417755126953e-05 0.0518035888671875 0.08812713623046875
18.397 0.1818389892578125 -0.0807037353515625 -4.53662109375 0.71826171875 -7.079541683197021e-05 -6.933510303497314e-05 0.057220458984375 0.083831787109375
18.40675 0.178070068359375 -0.0890045166015625 -4.4501953125 1.10498046875 -0.00017145276069641113 -0.0002377331256866455 0.0652923583984375 0.080322265625
18.4165 0.17340087890625 -0.0973358154296875 -4.317138671875 1.4580078125 0.0003553628921508789 -0.001181185245513916 0.0718994140625 0.07871246337890625
18.42625 0.16838836669921875 -0.10388946533203125 -4.14501953125 1.79052734375 0.000466272234916687 -2.562999725341797e-06 0.07874298095703125 0.072845458984375
18.436 0.16107940673828125 -0.112152099609375 -3.96142578125 2.0963134765625 0.00046581029891967773 -0.000990450382232666 0.088470458984375 0.0681304931640625
18.44575 0.15595245361328125 -0.120086669921875 -3.7618408203125 2.3779296875 -0.0008980631828308105 3.653764724731445e-05 0.08942413330078125 0.06360626220703125
18.4555 0.1491546630859375 -0.12631988525390625 -3.5528564453125 2.643310546875 0.00035941600799560547 -0.0004459172487258911 0.09616851806640625 0.05696868896484375
18.46525 0.14403533935546875 -0.13350677490234375 -3.3385009765625 2.9027099609375 -5.060434341430664e-05 -0.0007932484149932861 0.10097503662109375 0.0513916015625
18.475 0.13518524169921875 -0.13994598388671875 -3.1065673828125 3.1552734375 0.0004592090845108032 -0.00030285120010375977 0.10717010498046875 0.04404449462890625
18.48475 0.12837982177734375 -0.1463165283203125 -2.841064453125 3.3956298828125 0.0005813241004943848 -0.00010228157043457031 0.11066436767578125 0.03531646728515625
18.4945 0.12018585205078125 -0.1503143310546875 -2.5439453125 3.614501953125 0.00036919116973876953 -0.0011928677558898926 0.1140594482421875 0.02719879150390625
18.50425 0.1128082275390625 -0.1567535400390625 -2.21923828125 3.80517578125 -0.00046521425247192383 -0.00031310319900512695 0.1175994873046875 0.02117919921875
18.514 0.106109619140625 -0.1599578857421875 -1.877685546875 3.94970703125 0.0002810359001159668 0.0005917549133300781 0.120391845703125 0.0128173828125
18.52375 0.09540557861328125 -0.16349029541015625 -1.5302734375 4.042724609375 2.110004425048828e-05 -0.0008453726768493652 0.12080764770507812 0.004207611083984375
18.5335 0.08905792236328125 -0.1675262451171875 -1.196044921875 4.106689453125 -0.00029212236404418945 -0.0003381073474884033 0.12252426147460938 -0.00299072265625
18.54325 0.080047607421875 -0.1718292236328125 -0.8759765625 4.140380859375 0.000383913516998291 -0.0007664263248443604 0.12188339233398438 -0.010982513427734375
18.553 0.07241058349609375 -0.17421722412109375 -0.562744140625 4.161376953125 0.0012415051460266113 -0.0006937384605407715 0.12009429931640625 -0.01798248291015625
18.56275 0.0620269775390625 -0.17397308349609375 -0.258056640625 4.169677734375 0.0007006525993347168 -0.00020247697830200195 0.11964035034179688 -0.02630615234375
18.5725 0.0543670654296875 -0.17722320556640625 0.05517578125 4.166015625 0.0003763735294342041 0.00030618906021118164 0.11602401733398438 -0.0342864990234375
18.58225 0.0460205078125 -0.1769561767578125 0.37451171875 4.137451171875 -0.0009270906448364258 -0.0012184381484985352 0.1145782470703125 -0.042499542236328125
18.592 0.0363616943359375 -0.17844390869140625 0.70166015625 4.0791015625 -0.0005934238433837891 -0.0018669366836547852 0.11200332641601562 -0.049053192138671875
18.60175 0.027587890625 -0.177276611328125 1.02783203125 4.0 0.0005494356155395508 -0.0007020235061645508 0.10623931884765625 -0.05460357666015625
18.6115 0.01976776123046875 -0.175689697265625 1.33349609375 3.872314453125 -4.244595766067505e-05 -1.60951167345047e-05 0.103790283203125 -0.060565948486328125
18.62125 0.01177215576171875 -0.1756439208984375 1.6162109375 3.718994140625 -0.00037664175033569336 -0.0007960796356201172 0.096405029296875 -0.06772232055664062
18.631 0.00262451171875 -0.17415618896484375 1.8603515625 3.551025390625 -0.0006965994834899902 -0.0001493692398071289 0.0925750732421875 -0.07385635375976562
18.64075 -0.0048065185546875 -0.1724090576171875 2.093017578125 3.371826171875 0.00029647350311279297 0.0006195604801177979 0.08768081665039062 -0.07785415649414062
18.6505 -0.0122833251953125 -0.171600341796875 2.309326171875 3.1943359375 0.00010916590690612793 0.0004380345344543457 0.08311843872070312 -0.082183837890625
18.66025 -0.0222625732421875 -0.168487548828125 2.5174560546875 3.014404296875 2.9802322387695312e-06 -0.000484660267829895 0.07389450073242188 -0.08476638793945312
18.67 -0.0282135009765625 -0.16436767578125 2.720458984375 2.82080078125 0.0006465315818786621 -0.0006689727306365967 0.06959915161132812 -0.08537673950195312
18.67975 -0.03874969482421875 -0.16143798828125 2.91943359375 2.61376953125 0.00020018219947814941 0.00046369433403015137 0.0640869140625 -0.09014892578125
