!Created with skrf (http://scikit-rf.org).
# GHz S RI R 50.0 
!freq ReS11 ImS11 ReS21 ImS21 ReS12 ImS12 ReS22 ImS22
17.5 0.00058746337890625 -0.1373443603515625 -2.682373046875 -3.991455078125 -0.0014307498931884766 0.0003705620765686035 0.09315872192382812 -0.01158905029296875
17.50975 -0.008209228515625 -0.132659912109375 -2.978271484375 -3.771240234375 -0.0010837316513061523 0.0005708932876586914 0.09490585327148438 -0.012939453125
17.5195 -0.01513671875 -0.12920379638671875 -3.248779296875 -3.52392578125 -0.0013829469680786133 9.012222290039062e-05 0.09583663940429688 -0.012424468994140625
17.52925 -0.0243377685546875 -0.124359130859375 -3.50732421875 -3.267578125 -0.0016355514526367188 0.0001074075698852539 0.09808349609375 -0.01763916015625
17.539 -0.0305633544921875 -0.11865234375 -3.73486328125 -2.9921875 -0.0019655227661132812 0.0008344650268554688 0.0979766845703125 -0.018798828125
17.54875 -0.03781890869140625 -0.11470794677734375 -3.934326171875 -2.7021484375 -0.001600801944732666 0.0002307295799255371 0.100341796875 -0.02234649658203125
17.5585 -0.0467681884765625 -0.10931396484375 -4.12939453125 -2.41064453125 -0.0012050271034240723 0.0013523101806640625 0.10110855102539062 -0.024143218994140625
17.56825 -0.051788330078125 -0.1037139892578125 -4.300537109375 -2.11572265625 -0.00016492605209350586 0.0007682144641876221 0.09963607788085938 -0.026882171630859375
17.578 -0.056396484375 -0.09667205810546875 -4.4599609375 -1.787353515625 -0.0007627010345458984 0.0014069676399230957 0.1023101806640625 -0.030452728271484375
17.58775 -0.06195831298828125 -0.0921783447265625 -4.595458984375 -1.439697265625 -0.0018607378005981445 0.0011998414993286133 0.10073471069335938 -0.03376007080078125
17.5975 -0.06551361083984375 -0.0850982666015625 -4.699462890625 -1.072998046875 -0.0016701817512512207 0.0007333159446716309 0.1020050048828125 -0.03757476806640625
17.60725 -0.069580078125 -0.08087158203125 -4.760498046875 -0.705322265625 -0.0013107061386108398 0.0016448497772216797 0.10025787353515625 -0.03936767578125
17.617 -0.074920654296875 -0.07259368896484375 -4.79052734375 -0.333740234375 -0.0012546181678771973 -0.0001747608184814453 0.10139083862304688 -0.042072296142578125
17.62675 -0.0794219970703125 -0.0669708251953125 -4.78076171875 0.029296875 -0.0009440183639526367 0.001573324203491211 0.09931182861328125 -0.045684814453125
17.6365 -0.0813140869140625 -0.058868408203125 -4.7490234375 0.37890625 -0.001415848731994629 0.0008450746536254883 0.09954071044921875 -0.0497283935546875
17.64625 -0.0834503173828125 -0.04987335205078125 -4.693359375 0.707275390625 -0.0001341104507446289 0.0007052719593048096 0.09650039672851562 -0.0528411865234375
17.656 -0.087799072265625 -0.04476165771484375 -4.6328125 1.031494140625 -0.0010048151016235352 0.001556992530822754 0.09345626831054688 -0.056835174560546875
17.66575 -0.0892791748046875 -0.035564422607421875 -4.573486328125 1.346923828125 -0.0009515881538391113 0.0014629960060119629 0.0928192138671875 -0.0600433349609375
17.6755 -0.09031295776367188 -0.028713226318359375 -4.48583984375 1.667236328125 -5.042552947998047e-05 0.0016951560974121094 0.09093093872070312 -0.06518936157226562
17.68525 -0.09214019775390625 -0.02165985107421875 -4.39599609375 2.00390625 -0.0011290311813354492 0.0010582804679870605 0.0859527587890625 -0.06806182861328125
17.695 -0.09224700927734375 -0.01314544677734375 -4.270751953125 2.352294921875 -4.76837158203125e-05 0.0024383068084716797 0.08538055419921875 -0.06903457641601562
17.70475 -0.0919647216796875 -0.004791259765625 -4.09912109375 2.705078125 -0.0006670951843261719 0.0015338659286499023 0.08173751831054688 -0.0716552734375
17.7145 -0.0928955078125 0.00269317626953125 -3.884765625 3.0494384765625 -7.450580596923828e-06 0.0012711882591247559 0.07938003540039062 -0.07413482666015625
17.72425 -0.09055328369140625 0.01019287109375 -3.6258544921875 3.358154296875 -0.00021719932556152344 0.0009209811687469482 0.07598114013671875 -0.07844161987304688
17.734 -0.093292236328125 0.016082763671875 -3.340576171875 3.630126953125 -1.049041748046875e-05 0.002515077590942383 0.071563720703125 -0.0814056396484375
17.74375 -0.09228515625 0.023284912109375 -3.031982421875 3.844482421875 -4.076957702636719e-05 0.0009112954139709473 0.068023681640625 -0.08423614501953125
17.7535 -0.08916091918945312 0.0294342041015625 -2.735595703125 4.043212890625 -0.0016848444938659668 0.0011102557182312012 0.06440353393554688 -0.08533859252929688
17.76325 -0.0872802734375 0.037761688232421875 -2.448486328125 4.220458984375 -0.00019598007202148438 0.0020127296447753906 0.060089111328125 -0.0869140625
17.773 -0.08490371704101562 0.043308258056640625 -2.162109375 4.38232421875 -4.798173904418945e-05 0.0012706518173217773 0.056430816650390625 -0.0903167724609375
17.78275 -0.08264923095703125 0.049427032470703125 -1.85693359375 4.5390625 -0.00018998980522155762 0.0007953941822052002 0.052978515625 -0.08975982666015625
17.7925 -0.07696533203125 0.0544281005859375 -1.545654296875 4.692138671875 -8.630752563476562e-05 0.0016042590141296387 0.04920196533203125 -0.09240341186523438
17.80225 -0.07616043090820312 0.061229705810546875 -1.200927734375 4.843505859375 -0.0005386769771575928 0.0005151927471160889 0.044757843017578125 -0.09235763549804688
17.812 -0.07152175903320312 0.06726837158203125 -0.831787109375 4.966552734375 0.0014033317565917969 0.0014426708221435547 0.0398406982421875 -0.09262466430664062
17.82175 -0.06781768798828125 0.07320022583007812 -0.446044921875 5.05029296875 -0.0006737709045410156 0.0019158720970153809 0.0367889404296875 -0.092071533203125
17.8315 -0.06300735473632812 0.07894134521484375 -0.036865234375 5.09228515625 0.00035387277603149414 0.000987708568572998 0.03159332275390625 -0.0934295654296875
17.84125 -0.05919647216796875 0.083465576171875 0.3623046875 5.09619140625 -0.0004121065139770508 6.175041198730469e-05 0.02561187744140625 -0.09285736083984375
17.851 -0.055286407470703125 0.090057373046875 0.756103515625 5.038330078125 -0.00027802586555480957 0.0005540847778320312 0.0229949951171875 -0.09381484985351562
17.86075 -0.049762725830078125 0.09364700317382812 1.127685546875 4.97265625 0.0004150867462158203 0.0012714862823486328 0.0169677734375 -0.09244918823242188
17.8705 -0.045078277587890625 0.09870147705078125 1.490478515625 4.884765625 0.0018155574798583984 0.0015964508056640625 0.0131683349609375 -0.092742919921875
17.88025 -0.039707183837890625 0.10313034057617188 1.84765625 4.7841796875 0.0010911226272583008 0.0015567541122436523 0.008899688720703125 -0.09244537353515625
17.89 -0.03570556640625 0.10768890380859375 2.19775390625 4.6708984375 0.0012305974960327148 0.0018973350524902344 0.005084991455078125 -0.08931732177734375
17.89975 -0.03049468994140625 0.11144256591796875 2.56298828125 4.526123046875 -0.00010317564010620117 0.0010069012641906738 0.0006561279296875 -0.08943557739257812
17.9095 -0.025821685791015625 0.11383056640625 2.931640625 4.355712890625 0.0006976127624511719 0.0014996528625488281 -0.005077362060546875 -0.089019775390625
17.91925 -0.017963409423828125 0.11565780639648438 3.28515625 4.140625 0.0004887282848358154 0.00031578540802001953 -0.006397247314453125 -0.08626174926757812
17.929 -0.0135955810546875 0.1185455322265625 3.63671875 3.90087890625 0.0014886856079101562 0.0011737346649169922 -0.01227569580078125 -0.0868988037109375
17.93875 -0.009067535400390625 0.12089920043945312 3.955322265625 3.610107421875 0.0009633302688598633 0.0013005733489990234 -0.015445709228515625 -0.08428573608398438
17.9485 -0.003875732421875 0.12183380126953125 4.231689453125 3.299072265625 0.0008629560470581055 0.001955389976501465 -0.018047332763671875 -0.08107757568359375
17.95825 0.00463104248046875 0.123077392578125 4.48779296875 2.96484375 0.0014172196388244629 0.00031185150146484375 -0.020416259765625 -0.079437255859375
17.968 0.00788116455078125 0.12635040283203125 4.713623046875 2.62353515625 0.0005143880844116211 0.00156402587890625 -0.027095794677734375 -0.0780792236328125
17.97775 0.01544952392578125 0.1268157958984375 4.91064453125 2.2724609375 4.8995018005371094e-05 0.0008131265640258789 -0.0292510986328125 -0.074127197265625
17.9875 0.02159881591796875 0.12726593017578125 5.110107421875 1.9013671875 0.000976860523223877 0.0007721781730651855 -0.0316162109375 -0.0717315673828125
17.99725 0.02805328369140625 0.128692626953125 5.285888671875 1.517333984375 0.001181960105895996 0.0007797479629516602 -0.03647613525390625 -0.06765365600585938
18.007 0.034149169921875 0.12735748291015625 5.431884765625 1.101806640625 0.00014859437942504883 0.0017435550689697266 -0.039920806884765625 -0.062473297119140625
18.01675 0.04157257080078125 0.12747955322265625 5.545166015625 0.6640625 0.0002931058406829834 2.9280781745910645e-05 -0.043392181396484375 -0.060390472412109375
18.0265 0.0479278564453125 0.129547119140625 5.62109375 0.2109375 0.0006175637245178223 7.170438766479492e-05 -0.04633331298828125 -0.0564422607421875
18.03625 0.05401611328125 0.1292877197265625 5.642578125 -0.25830078125 -0.00047916173934936523 0.0004120469093322754 -0.04900360107421875 -0.0524444580078125
18.046 0.05947113037109375 0.12798309326171875 5.6162109375 -0.733154296875 0.000996410846710205 0.0008371472358703613 -0.051746368408203125 -0.049510955810546875
18.05575 0.06586456298828125 0.12592315673828125 5.55078125 -1.179931640625 0.00038129091262817383 0.0010703802108764648 -0.05420684814453125 -0.04499053955078125
18.0655 0.07074737548828125 0.12656402587890625 5.4482421875 -1.619140625 0.0006990134716033936 -0.0006712973117828369 -0.057209014892578125 -0.041839599609375
18.07525 0.07915496826171875 0.12403106689453125 5.31494140625 -2.05224609375 0.0003631711006164551 0.0006470680236816406 -0.060108184814453125 -0.034725189208984375
18.085 0.08626556396484375 0.12188720703125 5.153564453125 -2.48193359375 0.001247107982635498 0.0006852149963378906 -0.061649322509765625 -0.031612396240234375
18.09475 0.08984375 0.1215057373046875 4.959716796875 -2.895751953125 0.0018066167831420898 0.0003858804702758789 -0.062145233154296875 -0.028987884521484375
18.1045 0.09698486328125 0.1184234619140625 4.733642578125 -3.30419921875 0.0010223388671875 8.660554885864258e-05 -0.06329345703125 -0.02132415771484375
18.11425 0.10277557373046875 0.1182098388671875 4.467041015625 -3.7041015625 0.0014433860778808594 0.0003342628479003906 -0.06454849243164062 -0.016696929931640625
18.124 0.1071624755859375 0.11383056640625 4.15576171875 -4.07080078125 0.0009120702743530273 -0.00017178058624267578 -0.0643157958984375 -0.01026153564453125
18.13375 0.114349365234375 0.11126708984375 3.818359375 -4.408203125 0.0004302859306335449 0.0002449154853820801 -0.06406402587890625 -0.0057830810546875
18.1435 0.118438720703125 0.10831451416015625 3.441162109375 -4.707763671875 0.001446068286895752 -0.0001252293586730957 -0.06607818603515625 0.000911712646484375
18.15325 0.12534332275390625 0.103424072265625 3.041259765625 -4.984375 0.0003731250762939453 -0.000715404748916626 -0.06625747680664062 0.0053558349609375
18.163 0.13134002685546875 0.09873199462890625 2.625244140625 -5.21142578125 0.0007090568542480469 -0.0004006326198577881 -0.06243133544921875 0.011226654052734375
18.17275 0.13788604736328125 0.0959014892578125 2.198486328125 -5.411376953125 0.0008509159088134766 -0.001265883445739746 -0.06041145324707031 0.015996932983398438
18.1825 0.14403533935546875 0.09062957763671875 1.761474609375 -5.5810546875 -0.00010673701763153076 -0.000221937894821167 -0.06003570556640625 0.02434539794921875
18.19225 0.1478118896484375 0.0850830078125 1.29541015625 -5.730224609375 0.0012562870979309082 -0.00015872716903686523 -0.0595245361328125 0.029666900634765625
18.202 0.1544342041015625 0.08158111572265625 0.8291015625 -5.823486328125 0.0012801289558410645 -0.00040340423583984375 -0.05874824523925781 0.03442955017089844
18.21175 0.1575469970703125 0.07464599609375 0.3291015625 -5.8876953125 0.00030934810638427734 -0.0007333755493164062 -0.053791046142578125 0.040863037109375
18.2215 0.16439056396484375 0.0679473876953125 -0.1728515625 -5.885986328125 0.00026217103004455566 -0.0005184412002563477 -0.05184745788574219 0.04449462890625
18.23125 0.168426513671875 0.06229400634765625 -0.660400390625 -5.842041015625 0.0006078183650970459 -0.0006258189678192139 -0.04895591735839844 0.049160003662109375
18.241 0.172149658203125 0.0547943115234375 -1.135986328125 -5.746337890625 -4.667043685913086e-05 -0.0002964437007904053 -0.04559326171875 0.05568695068359375
18.25075 0.1765899658203125 0.04853057861328125 -1.587158203125 -5.621826171875 0.0013470053672790527 -0.0007373690605163574 -0.04085350036621094 0.058399200439453125
18.2605 0.18061065673828125 0.0417327880859375 -2.022705078125 -5.460693359375 0.0009202957153320312 -0.001321256160736084 -0.03763580322265625 0.06246185302734375
18.27025 0.18178558349609375 0.03289794921875 -2.44189453125 -5.28076171875 -0.0001043081283569336 -0.0003204643726348877 -0.03028106689453125 0.06805038452148438
18.28 0.1844024658203125 0.02471160888671875 -2.86865234375 -5.07275390625 0.0007401406764984131 -0.00033843517303466797 -0.026165008544921875 0.06829452514648438
18.28975 0.1883697509765625 0.01674652099609375 -3.2646484375 -4.8330078125 0.0003165304660797119 -0.0005016326904296875 -0.019134521484375 0.07418441772460938
18.2995 0.18952178955078125 0.00969696044921875 -3.65625 -4.54296875 -0.000305861234664917 -0.0005507469177246094 -0.013957977294921875 0.07367706298828125
18.30925 0.1892852783203125 0.000274658203125 -4.0185546875 -4.2138671875 0.0001267939805984497 0.00011043250560760498 -0.00841522216796875 0.07779693603515625
18.319 0.190032958984375 -0.00881195068359375 -4.34619140625 -3.8466796875 0.00037886202335357666 -0.0003567934036254883 -0.0010223388671875 0.08255767822265625
18.32875 0.19161224365234375 -0.01479339599609375 -4.630615234375 -3.462890625 0.0010052919387817383 -0.0004252791404724121 0.007068634033203125 0.08326339721679688
18.3385 0.1917266845703125 -0.0251922607421875 -4.86328125 -3.052978515625 0.000850379467010498 0.0007888078689575195 0.013492584228515625 0.08599090576171875
18.34825 0.19165802001953125 -0.0345611572265625 -5.077392578125 -2.652587890625 -0.00020584464073181152 -0.0005302727222442627 0.02086639404296875 0.08701324462890625
18.358 0.190338134765625 -0.04222869873046875 -5.24658203125 -2.243408203125 -0.00010907649993896484 -0.0004201233386993408 0.028110504150390625 0.08575439453125
18.36775 0.1878509521484375 -0.0518798828125 -5.400634765625 -1.810302734375 0.0002238154411315918 -0.0007210075855255127 0.034206390380859375 0.08535385131835938
18.3775 0.18704986572265625 -0.05859375 -5.522216796875 -1.388916015625 0.0006462633609771729 -0.0009137094020843506 0.0420074462890625 0.08415985107421875
18.38725 0.18436431884765625 -0.06867218017578125 -5.615234375 -0.929931640625 -0.00026676058769226074 5.143880844116211e-05 0.04749298095703125 0.08367919921875
18.397 0.1826324462890625 -0.0778656005859375 -5.66064453125 -0.4619140625 -7.212162017822266e-05 -0.0009919404983520508 0.05401611328125 0.0809326171875
18.40675 0.1783447265625 -0.083587646484375 -5.671875 0.0224609375 -0.0004188418388366699 0.0005866289138793945 0.06341552734375 0.077362060546875
18.4165 0.17472076416015625 -0.09302520751953125 -5.61767578125 0.4873046875 -0.00040033459663391113 -0.00012829899787902832 0.06777191162109375 0.07563018798828125
18.42625 0.1693572998046875 -0.10114288330078125 -5.514404296875 0.93603515625 0.0007878243923187256 5.632638931274414e-06 0.07462310791015625 0.0718536376953125
18.436 0.1638336181640625 -0.1081695556640625 -5.377685546875 1.355712890625 0.0007869601249694824 -0.00020611286163330078 0.08292388916015625 0.06728363037109375
18.44575 0.1568145751953125 -0.11608123779296875 -5.224609375 1.7568359375 -0.00015425682067871094 -0.0018141865730285645 0.08563995361328125 0.06322479248046875
18.4555 0.15125274658203125 -0.12412261962890625 -5.044189453125 2.13720703125 5.796551704406738e-06 -0.0001876354217529297 0.0902252197265625 0.05619049072265625
18.46525 0.1472320556640625 -0.1307373046875 -4.86376953125 2.51025390625 2.0965933799743652e-05 -0.00042957067489624023 0.09735107421875 0.0498504638671875
18.475 0.13885498046875 -0.1379241943359375 -4.650634765625 2.87548828125 -0.0006403326988220215 -0.001201629638671875 0.10239410400390625 0.04261016845703125
18.48475 0.1335601806640625 -0.14456939697265625 -4.40380859375 3.240478515625 -0.0002519190311431885 0.0001275092363357544 0.1058807373046875 0.036102294921875
18.4945 0.12403106689453125 -0.14910125732421875 -4.102294921875 3.5830078125 9.691715240478516e-05 -0.0006162524223327637 0.1104583740234375 0.0285797119140625
18.50425 0.11663818359375 -0.1544036865234375 -3.772705078125 3.9091796875 0.0013937950134277344 0.0005620718002319336 0.111297607421875 0.022003173828125
18.514 0.1097564697265625 -0.1591033935546875 -3.40771484375 4.17919921875 6.902217864990234e-05 0.0006358027458190918 0.1150970458984375 0.0150146484375
18.52375 0.09981536865234375 -0.162750244140625 -3.024658203125 4.393310546875 0.0007008910179138184 0.0003781318664550781 0.115020751953125 0.006633758544921875
18.5335 0.09255218505859375 -0.1678009033203125 -2.64208984375 4.568603515625 -0.0004349946975708008 -0.00014668703079223633 0.11751937866210938 -0.00142669677734375
18.54325 0.0841827392578125 -0.17162322998046875 -2.26611328125 4.708740234375 0.0006279945373535156 -0.00047460198402404785 0.1180419921875 -0.008426666259765625
18.553 0.07572174072265625 -0.17450714111328125 -1.8955078125 4.818359375 0.00020522624254226685 -0.00011623650789260864 0.11676788330078125 -0.01540374755859375
18.56275 0.0671844482421875 -0.1753692626953125 -1.53125 4.91845703125 0.0009174942970275879 0.0003389120101928711 0.11689376831054688 -0.021820068359375
18.5725 0.0575103759765625 -0.1769866943359375 -1.152587890625 4.99853515625 0.0001751929521560669 0.00016286969184875488 0.11379241943359375 -0.03018951416015625
18.58225 0.049041748046875 -0.179412841796875 -0.765625 5.060546875 0.0006080865859985352 -0.00040405988693237305 0.11131668090820312 -0.038387298583984375
18.592 0.03998565673828125 -0.1806488037109375 -0.3544921875 5.08642578125 -0.0007364749908447266 -0.00017321109771728516 0.1085357666015625 -0.043643951416015625
18.60175 0.03131103515625 -0.17926025390625 0.0517578125 5.0771484375 -7.82012939453125e-05 -0.0006882548332214355 0.1036529541015625 -0.0496368408203125
18.6115 0.0230712890625 -0.17798614501953125 0.456298828125 5.01171875 -3.746151924133301e-05 -0.0004109293222427368 0.10219573974609375 -0.057949066162109375
18.62125 0.01322174072265625 -0.17772674560546875 0.840087890625 4.91455078125 0.0003306269645690918 -0.0007452070713043213 0.0955657958984375 -0.06447601318359375
18.631 0.005523681640625 -0.17733001708984375 1.1796875 4.7861328125 0.00023245811462402344 -0.0005582273006439209 0.08892440795898438 -0.06882095336914062
18.64075 -0.0031890869140625 -0.176177978515625 1.511474609375 4.63671875 0.0003225952386856079 -0.00034712255001068115 0.08688735961914062 -0.07364273071289062
18.6505 -0.011566162109375 -0.17435455322265625 1.81640625 4.485107421875 0.00022222846746444702 -0.00010591000318527222 0.08229827880859375 -0.07793426513671875
18.66025 -0.0218353271484375 -0.17104339599609375 2.1171875 4.330322265625 0.0005145668983459473 -0.0005138814449310303 0.07656097412109375 -0.08046340942382812
18.67 -0.0273590087890625 -0.16761016845703125 2.413818359375 4.15869140625 0.0009179115295410156 -0.00038507580757141113 0.06997299194335938 -0.08378219604492188
18.67975 -0.03704071044921875 -0.1641693115234375 2.712646484375 3.969970703125 0.0010767579078674316 -0.0008251070976257324 0.06374359130859375 -0.0858306884765625
18.6895 -0.04511260986328125 -0.161529541015625 3.0048828125 3.741943359375 9.47117805480957e-05 -0.0006149709224700928 0.058650970458984375 -0.0872344970703125
