!Created with skrf (http://scikit-rf.org).
# GHz S RI R 50.0 
!freq ReS11 ImS11 ReS21 ImS21 ReS12 ImS12 ReS22 ImS22
17.5 0.009613037109375 -0.15375518798828125 4.70361328125 0.925048828125 -0.002025604248046875 -0.0006303787231445312 0.1108551025390625 0.004962921142578125
17.50975 9.1552734375e-05 -0.15126800537109375 4.756103515625 0.548828125 -0.0013124346733093262 0.0003247261047363281 0.11319351196289062 0.00262451171875
17.5195 -0.00800323486328125 -0.14640045166015625 4.768798828125 0.16796875 -0.002309560775756836 0.0012203454971313477 0.11805343627929688 0.00174713134765625
17.52925 -0.01750946044921875 -0.14227294921875 4.768310546875 -0.207275390625 -0.0014591217041015625 0.000985860824584961 0.1202392578125 -0.0042724609375
17.539 -0.0247802734375 -0.13690185546875 4.73046875 -0.56787109375 -0.0009434819221496582 0.0004445314407348633 0.1194305419921875 -0.00975799560546875
17.54875 -0.0335693359375 -0.132659912109375 4.6611328125 -0.921875 -0.001103520393371582 0.001574099063873291 0.1230316162109375 -0.012195587158203125
17.5585 -0.0444793701171875 -0.1279296875 4.5859375 -1.2734375 -0.0011547207832336426 0.0010205507278442383 0.12511444091796875 -0.018096923828125
17.56825 -0.050079345703125 -0.12354278564453125 4.489990234375 -1.6142578125 -0.0014725923538208008 0.001453101634979248 0.12425994873046875 -0.023487091064453125
17.578 -0.058837890625 -0.11811065673828125 4.360595703125 -1.97265625 -0.0010495781898498535 0.0005931258201599121 0.1255035400390625 -0.028839111328125
17.58775 -0.0648651123046875 -0.1123809814453125 4.195068359375 -2.319580078125 -0.0014130473136901855 0.000674128532409668 0.1259765625 -0.03359222412109375
17.5975 -0.06859588623046875 -0.1047821044921875 3.98486328125 -2.65869140625 -0.000995039939880371 0.0010965466499328613 0.12631988525390625 -0.0378265380859375
17.60725 -0.0756072998046875 -0.10076141357421875 3.7470703125 -2.9683837890625 -0.0016404390335083008 0.0017085075378417969 0.12487030029296875 -0.04303741455078125
17.617 -0.08150482177734375 -0.09181976318359375 3.47900390625 -3.239013671875 -0.00126725435256958 0.001637279987335205 0.12474822998046875 -0.048431396484375
17.62675 -0.086395263671875 -0.084075927734375 3.191162109375 -3.47705078125 -0.0010101795196533203 0.0006010532379150391 0.12305450439453125 -0.0535888671875
17.6365 -0.090576171875 -0.0759429931640625 2.900146484375 -3.6787109375 -0.0012727975845336914 0.0008062124252319336 0.121917724609375 -0.05936431884765625
17.64625 -0.095611572265625 -0.0669708251953125 2.6221923828125 -3.8551025390625 -4.634261131286621e-06 -0.0002669990062713623 0.11800765991210938 -0.064300537109375
17.656 -0.10015106201171875 -0.06029510498046875 2.34326171875 -4.02197265625 -0.0007055997848510742 0.0004919767379760742 0.11506271362304688 -0.07001876831054688
17.66575 -0.1021575927734375 -0.049102783203125 2.0693359375 -4.186279296875 0.00011742115020751953 0.0012469887733459473 0.11336517333984375 -0.07487106323242188
17.6755 -0.10620880126953125 -0.04180145263671875 1.778564453125 -4.3447265625 0.0002142190933227539 0.0006209015846252441 0.10786819458007812 -0.08056640625
17.68525 -0.10860443115234375 -0.03313446044921875 1.47119140625 -4.509765625 -0.000788569450378418 0.0023239850997924805 0.104949951171875 -0.08487701416015625
17.695 -0.1101226806640625 -0.02466583251953125 1.11572265625 -4.6513671875 -0.0006964802742004395 0.0011469721794128418 0.10071182250976562 -0.09048843383789062
17.70475 -0.11083221435546875 -0.01404571533203125 0.7255859375 -4.756591796875 -0.0007470846176147461 0.002058267593383789 0.09687042236328125 -0.09273147583007812
17.7145 -0.11257171630859375 -0.00705718994140625 0.3134765625 -4.815673828125 0.00010979175567626953 0.00026895105838775635 0.0903472900390625 -0.0972900390625
17.72425 -0.11275482177734375 0.0039520263671875 -0.091796875 -4.810546875 -0.0005116462707519531 0.001360177993774414 0.08396148681640625 -0.10174179077148438
17.734 -0.1116180419921875 0.01031494140625 -0.4853515625 -4.75537109375 0.0005052089691162109 0.0017693042755126953 0.07944488525390625 -0.104217529296875
17.74375 -0.113250732421875 0.01915740966796875 -0.83984375 -4.6552734375 0.00042176246643066406 0.0016133785247802734 0.0750579833984375 -0.108306884765625
17.7535 -0.1104736328125 0.02864837646484375 -1.17236328125 -4.550537109375 -0.00021445751190185547 0.0014057159423828125 0.06909561157226562 -0.11080169677734375
17.76325 -0.108673095703125 0.03693389892578125 -1.477294921875 -4.44775390625 0.00022017955780029297 0.0012013912200927734 0.06320571899414062 -0.11135482788085938
17.773 -0.10742568969726562 0.04443359375 -1.77099609375 -4.338134765625 0.0012574195861816406 0.0016039609909057617 0.05718994140625 -0.11518478393554688
17.78275 -0.10340499877929688 0.05202484130859375 -2.07958984375 -4.212646484375 -5.206465721130371e-05 0.00046660006046295166 0.0514373779296875 -0.11428070068359375
17.7925 -0.10041046142578125 0.060253143310546875 -2.399169921875 -4.07861328125 -0.0004578828811645508 0.001547396183013916 0.045536041259765625 -0.11594772338867188
17.80225 -0.09682464599609375 0.066650390625 -2.734375 -3.916259765625 0.00030869245529174805 0.001419663429260254 0.040508270263671875 -0.11693191528320312
17.812 -0.09202957153320312 0.076446533203125 -3.054931640625 -3.70263671875 -0.0002549290657043457 0.00169450044631958 0.032512664794921875 -0.1172943115234375
17.82175 -0.0875701904296875 0.08339309692382812 -3.360107421875 -3.45556640625 -0.0008861422538757324 0.0011957883834838867 0.02826690673828125 -0.11589813232421875
17.8315 -0.08332061767578125 0.09078598022460938 -3.62939453125 -3.1640625 0.0011681914329528809 0.000475466251373291 0.02060699462890625 -0.11629104614257812
17.84125 -0.07602691650390625 0.0970001220703125 -3.86328125 -2.85888671875 0.001605987548828125 0.0012180805206298828 0.0148162841796875 -0.11446380615234375
17.851 -0.07080841064453125 0.10495758056640625 -4.042724609375 -2.530517578125 0.00011456012725830078 0.0013287067413330078 0.009571075439453125 -0.11434173583984375
17.86075 -0.06625747680664062 0.1100921630859375 -4.20654296875 -2.22509765625 0.00012356042861938477 0.0008689463138580322 0.002025604248046875 -0.11136245727539062
17.8705 -0.060489654541015625 0.11716079711914062 -4.352294921875 -1.916748046875 0.0005515217781066895 0.00015592575073242188 -0.003814697265625 -0.1105804443359375
17.88025 -0.05338287353515625 0.1225738525390625 -4.487548828125 -1.59814453125 0.000415802001953125 0.0010851025581359863 -0.009857177734375 -0.10975265502929688
17.89 -0.0458831787109375 0.12841796875 -4.61865234375 -1.28076171875 0.0009305477142333984 0.0007314682006835938 -0.014255523681640625 -0.10761260986328125
17.89975 -0.03922271728515625 0.13170623779296875 -4.733642578125 -0.92138671875 0.00029821693897247314 -0.00024156272411346436 -0.021270751953125 -0.10528564453125
17.9095 -0.03350067138671875 0.134765625 -4.8212890625 -0.541259765625 0.001545548439025879 0.00017195940017700195 -0.025390625 -0.10054779052734375
17.91925 -0.02544403076171875 0.1388092041015625 -4.861572265625 -0.14794921875 8.028745651245117e-05 0.0007168948650360107 -0.02974700927734375 -0.09920501708984375
17.929 -0.01702880859375 0.142822265625 -4.87109375 0.2490234375 0.00043380260467529297 0.0013991594314575195 -0.036346435546875 -0.0957794189453125
17.93875 -0.0094146728515625 0.14559173583984375 -4.828125 0.645751953125 -0.00016415119171142578 0.0009122788906097412 -0.040863037109375 -0.09047698974609375
17.9485 -0.00215911865234375 0.14565277099609375 -4.747314453125 1.007568359375 0.0005121231079101562 0.0016887187957763672 -0.04425048828125 -0.0854644775390625
17.95825 0.00528717041015625 0.148406982421875 -4.64501953125 1.36376953125 0.00012165307998657227 0.00044801831245422363 -0.047027587890625 -0.08222198486328125
17.968 0.01409149169921875 0.1492462158203125 -4.52880859375 1.700439453125 0.0009963512420654297 0.00014537572860717773 -0.05109405517578125 -0.07894134521484375
17.97775 0.0225982666015625 0.149749755859375 -4.394775390625 2.02587890625 0.0013070106506347656 0.0011703968048095703 -0.05440521240234375 -0.0721893310546875
17.9875 0.03195953369140625 0.15213775634765625 -4.248046875 2.362548828125 0.0015006065368652344 0.00086212158203125 -0.0561065673828125 -0.067535400390625
17.99725 0.03969573974609375 0.1522674560546875 -4.07958984375 2.697509765625 0.0016766786575317383 0.0015794038772583008 -0.06180572509765625 -0.0621337890625
18.007 0.04875946044921875 0.14994049072265625 -3.8719482421875 3.0345458984375 0.001728653907775879 0.0005220174789428711 -0.06379318237304688 -0.057891845703125
18.01675 0.05648040771484375 0.14920806884765625 -3.62158203125 3.3516845703125 0.0017998218536376953 0.00011360645294189453 -0.06603240966796875 -0.052886962890625
18.0265 0.064971923828125 0.1472320556640625 -3.335205078125 3.647705078125 0.0006902217864990234 0.0019335746765136719 -0.07077789306640625 -0.04541778564453125
18.03625 0.07335662841796875 0.14757537841796875 -3.013427734375 3.9058837890625 0.0008020401000976562 0.0012880563735961914 -0.07145309448242188 -0.0395050048828125
18.046 0.07935333251953125 0.14410400390625 -2.671630859375 4.123046875 0.0012946724891662598 0.00035768747329711914 -0.07246017456054688 -0.0350189208984375
18.05575 0.08721923828125 0.13958740234375 -2.336669921875 4.29931640625 0.0004036426544189453 0.0009400248527526855 -0.0764617919921875 -0.02777862548828125
18.0655 0.094635009765625 0.1398773193359375 -1.996337890625 4.445068359375 0.0018649697303771973 -0.0005759596824645996 -0.07813644409179688 -0.024036407470703125
18.07525 0.102294921875 0.1354522705078125 -1.653564453125 4.575927734375 0.00043645501136779785 0.00036346912384033203 -0.07697296142578125 -0.01624298095703125
18.085 0.11060333251953125 0.1304473876953125 -1.300537109375 4.6904296875 -5.370378494262695e-05 -0.0004296302795410156 -0.07845687866210938 -0.01143646240234375
18.09475 0.11490631103515625 0.1268463134765625 -0.939697265625 4.7861328125 0.00022795796394348145 -0.0008358955383300781 -0.07711410522460938 -0.00537872314453125
18.1045 0.1230316162109375 0.1226806640625 -0.566162109375 4.85498046875 0.0008133649826049805 0.0019834041595458984 -0.07793807983398438 0.0019989013671875
18.11425 0.129486083984375 0.118408203125 -0.168212890625 4.888916015625 0.0006209909915924072 -0.0001742541790008545 -0.07603836059570312 0.007686614990234375
18.124 0.1345367431640625 0.11181640625 0.22412109375 4.88330078125 0.0006984472274780273 0.00043189525604248047 -0.0733795166015625 0.01535797119140625
18.13375 0.13990020751953125 0.1076202392578125 0.6103515625 4.84619140625 0.0001512393355369568 -2.547353506088257e-05 -0.07248306274414062 0.01996612548828125
18.1435 0.14345550537109375 0.101104736328125 0.98779296875 4.75927734375 0.0007233023643493652 -0.0003217160701751709 -0.0706634521484375 0.02683258056640625
18.15325 0.15117645263671875 0.0941162109375 1.362060546875 4.656982421875 0.0005078017711639404 0.00035691261291503906 -0.06950759887695312 0.0326995849609375
18.163 0.15575408935546875 0.08951568603515625 1.70703125 4.52001953125 -0.000103779137134552 8.798018097877502e-05 -0.06552886962890625 0.0396575927734375
18.17275 0.15961456298828125 0.08228302001953125 2.044189453125 4.362060546875 0.0005729794502258301 -0.0007648766040802002 -0.061187744140625 0.04507255554199219
18.1825 0.16407012939453125 0.07523345947265625 2.368896484375 4.19091796875 0.0006380081176757812 -0.0012515783309936523 -0.05729484558105469 0.05156517028808594
18.19225 0.16703033447265625 0.06764984130859375 2.6953125 3.9990234375 0.0010833740234375 0.00048482418060302734 -0.053924560546875 0.05584526062011719
18.202 0.1713104248046875 0.06243896484375 2.9912109375 3.78076171875 6.23464584350586e-05 -0.00022014975547790527 -0.05127716064453125 0.06182098388671875
18.21175 0.1735382080078125 0.05548095703125 3.28271484375 3.5244140625 0.00041159987449645996 -0.00031703710556030273 -0.04572296142578125 0.0670928955078125
18.2215 0.17864227294921875 0.046722412109375 3.5419921875 3.240966796875 0.0005649924278259277 0.0005372166633605957 -0.03911590576171875 0.07043075561523438
18.23125 0.180999755859375 0.040130615234375 3.77099609375 2.94775390625 0.00044333934783935547 -0.00021301209926605225 -0.0355377197265625 0.07196426391601562
18.241 0.181884765625 0.03200531005859375 3.968994140625 2.635498046875 0.0015752315521240234 -2.2649765014648438e-05 -0.03021240234375 0.07649993896484375
18.25075 0.1832427978515625 0.024993896484375 4.142333984375 2.318603515625 0.0005465447902679443 -0.0008571445941925049 -0.022212982177734375 0.08180999755859375
18.2605 0.1840972900390625 0.016937255859375 4.286376953125 1.9931640625 0.0004741847515106201 0.0003451406955718994 -0.015949249267578125 0.08255386352539062
18.27025 0.18485260009765625 0.0091552734375 4.421875 1.662841796875 0.00017648935317993164 -0.00013647228479385376 -0.009674072265625 0.08554458618164062
18.28 0.1874847412109375 0.0019683837890625 4.541259765625 1.3173828125 -0.00022932887077331543 -0.0006353557109832764 -0.003643035888671875 0.08738327026367188
18.28975 0.18738555908203125 -0.00569915771484375 4.627197265625 0.96533203125 0.0007107257843017578 -0.0006280839443206787 0.0035247802734375 0.09000015258789062
18.2995 0.1861114501953125 -0.013763427734375 4.6826171875 0.595947265625 0.00013306736946105957 -0.0008819997310638428 0.012592315673828125 0.0875244140625
18.30925 0.184783935546875 -0.0225830078125 4.69873046875 0.21923828125 0.00012412667274475098 0.00024238228797912598 0.02008056640625 0.08754730224609375
18.319 0.1827850341796875 -0.0313873291015625 4.685302734375 -0.148681640625 0.0005869269371032715 -0.0011730790138244629 0.025974273681640625 0.09106063842773438
18.32875 0.18196868896484375 -0.0372314453125 4.637451171875 -0.503173828125 -0.0002530813217163086 -0.00044721364974975586 0.033794403076171875 0.0898895263671875
18.3385 0.180755615234375 -0.04726409912109375 4.559326171875 -0.84521484375 -0.0009889602661132812 -3.4868717193603516e-05 0.0421295166015625 0.08849334716796875
18.34825 0.1784820556640625 -0.0535125732421875 4.481689453125 -1.178466796875 0.0006278157234191895 -0.0005779862403869629 0.04886627197265625 0.0886383056640625
18.358 0.1746826171875 -0.06084442138671875 4.377685546875 -1.505859375 -1.0401010513305664e-05 -0.00016651302576065063 0.05745697021484375 0.08316802978515625
18.36775 0.17246246337890625 -0.06884765625 4.250732421875 -1.837158203125 0.00015254318714141846 0.00021277368068695068 0.06268310546875 0.08158111572265625
18.3775 0.1690521240234375 -0.0744476318359375 4.109130859375 -2.15966796875 0.0005173683166503906 -0.0009702444076538086 0.0699005126953125 0.078338623046875
18.38725 0.1659393310546875 -0.08200836181640625 3.918212890625 -2.48193359375 0.0005947351455688477 -8.305907249450684e-05 0.07608795166015625 0.07622528076171875
18.397 0.16265869140625 -0.08880615234375 3.6962890625 -2.783447265625 -0.0004502534866333008 -0.0006079673767089844 0.0812835693359375 0.071502685546875
18.40675 0.1581878662109375 -0.0940093994140625 3.443115234375 -3.06591796875 0.000849604606628418 -0.0003110170364379883 0.0875396728515625 0.0650787353515625
18.4165 0.1522064208984375 -0.1004486083984375 3.1689453125 -3.30322265625 -0.00041769444942474365 -6.188452243804932e-05 0.0933685302734375 0.06262969970703125
18.42625 0.1470184326171875 -0.10649871826171875 2.8814697265625 -3.5062255859375 0.000854790210723877 0.0001952648162841797 0.09796905517578125 0.0548095703125
18.436 0.14191436767578125 -0.111419677734375 2.60009765625 -3.6810302734375 0.00037904083728790283 -0.0001032799482345581 0.10515594482421875 0.04883575439453125
18.44575 0.13619232177734375 -0.11803436279296875 2.31201171875 -3.840087890625 0.0001998990774154663 -0.0003052353858947754 0.10625457763671875 0.04113006591796875
18.4555 0.12964630126953125 -0.1216888427734375 2.0238037109375 -3.98681640625 0.0003374814987182617 -0.0006294846534729004 0.10962677001953125 0.03490447998046875
18.46525 0.12473297119140625 -0.126190185546875 1.72705078125 -4.131591796875 0.0008614659309387207 -0.000728607177734375 0.11420440673828125 0.0250396728515625
18.475 0.11748504638671875 -0.13245391845703125 1.415283203125 -4.261474609375 -0.0005236268043518066 -8.705258369445801e-05 0.1168670654296875 0.0188446044921875
18.48475 0.113372802734375 -0.13722991943359375 1.06982421875 -4.356201171875 0.00043654441833496094 -0.0006950199604034424 0.11820220947265625 0.00962066650390625
18.4945 0.10492706298828125 -0.1396942138671875 0.71044921875 -4.42236328125 7.522106170654297e-05 0.00029505789279937744 0.12067413330078125 0.002166748046875
18.50425 0.09759521484375 -0.1452789306640625 0.34130859375 -4.439453125 0.00010442733764648438 -0.0009765625 0.12026214599609375 -0.0052337646484375
18.514 0.092681884765625 -0.1485748291015625 -0.013671875 -4.4169921875 0.0004507303237915039 -0.00040221214294433594 0.12071990966796875 -0.013671875
18.52375 0.0853424072265625 -0.149200439453125 -0.351806640625 -4.348388671875 0.0004616975784301758 0.0005716681480407715 0.11954116821289062 -0.023006439208984375
18.5335 0.07949066162109375 -0.152923583984375 -0.662109375 -4.270263671875 0.0016829967498779297 -0.00020611286163330078 0.11935806274414062 -0.028934478759765625
18.54325 0.0728607177734375 -0.155364990234375 -0.951416015625 -4.173095703125 0.0009678006172180176 -0.0006349086761474609 0.11667633056640625 -0.0372772216796875
18.553 0.0655059814453125 -0.159088134765625 -1.234375 -4.066162109375 3.822892904281616e-05 -0.00023314356803894043 0.11344146728515625 -0.045116424560546875
18.56275 0.05875396728515625 -0.15746307373046875 -1.51171875 -3.962158203125 -0.00043082237243652344 -0.00039055943489074707 0.11030197143554688 -0.05109405517578125
18.5725 0.05156707763671875 -0.15987396240234375 -1.7900390625 -3.837158203125 0.0012803077697753906 -0.0006061792373657227 0.10659408569335938 -0.057132720947265625
18.58225 0.04422760009765625 -0.161224365234375 -2.069580078125 -3.687744140625 -6.526708602905273e-05 -0.00091552734375 0.10147857666015625 -0.06434249877929688
18.592 0.037322998046875 -0.162445068359375 -2.342529296875 -3.505126953125 0.0010139942169189453 4.26173210144043e-05 0.09698867797851562 -0.07027053833007812
18.60175 0.03070068359375 -0.1620025634765625 -2.6005859375 -3.298828125 0.0005194544792175293 -0.00022155046463012695 0.09006500244140625 -0.07424163818359375
18.6115 0.02310943603515625 -0.16136932373046875 -2.8232421875 -3.0654296875 4.655122756958008e-05 -0.0012140274047851562 0.08554458618164062 -0.08063125610351562
18.62125 0.0152435302734375 -0.16252899169921875 -3.013671875 -2.81787109375 -0.00010725855827331543 -0.0005434751510620117 0.078094482421875 -0.0842132568359375
18.631 0.00786590576171875 -0.16155242919921875 -3.17041015625 -2.57763671875 0.0011101961135864258 0.00023680925369262695 0.071807861328125 -0.08785247802734375
18.64075 0.0002899169921875 -0.16143035888671875 -3.310791015625 -2.330078125 -7.763504981994629e-05 -0.0004569888114929199 0.06653594970703125 -0.089141845703125
18.6505 -0.00562286376953125 -0.16005706787109375 -3.439697265625 -2.093505859375 0.00021058320999145508 -0.0006866157054901123 0.060672760009765625 -0.09241104125976562
18.66025 -0.014373779296875 -0.158233642578125 -3.557373046875 -1.848388671875 6.236135959625244e-05 0.00012305378913879395 0.052753448486328125 -0.0932464599609375
18.67 -0.0187530517578125 -0.15564727783203125 -3.673095703125 -1.600341796875 0.0008550584316253662 -0.000780940055847168 0.047794342041015625 -0.094482421875
18.67975 -0.02812957763671875 -0.1533966064453125 -3.78076171875 -1.33251953125 0.0006839334964752197 -0.0007042586803436279 0.038242340087890625 -0.09625625610351562
18.6895 -0.034423828125 -0.15145111083984375 -3.861572265625 -1.04931640625 -0.0004943609237670898 -0.0016026496887207031 0.0341033935546875 -0.09539031982421875
