!Created with skrf (http://scikit-rf.org).
# GHz S RI R 50.0 
!freq ReS11 ImS11 ReS21 ImS21 ReS12 ImS12 ReS22 ImS22
17.5 -0.002166748046875 -0.1402130126953125 -1.1162109375 -4.1533203125 -0.0006791353225708008 0.0003553926944732666 0.09701919555664062 -0.01096343994140625
17.50975 -0.0103759765625 -0.137176513671875 -1.4296875 -4.052001953125 -0.0003799349069595337 0.00039605796337127686 0.09862518310546875 -0.013050079345703125
17.5195 -0.01746368408203125 -0.13242340087890625 -1.73046875 -3.92724609375 -0.0005679726600646973 0.0011365413665771484 0.10205841064453125 -0.012577056884765625
17.52925 -0.02679443359375 -0.127777099609375 -2.021484375 -3.783203125 -0.0012483596801757812 0.0008699893951416016 0.10393524169921875 -0.01837921142578125
17.539 -0.0322265625 -0.1221466064453125 -2.296875 -3.62255859375 -0.0006561875343322754 0.0002810955047607422 0.10221099853515625 -0.0197296142578125
17.54875 -0.04007720947265625 -0.117889404296875 -2.549560546875 -3.432861328125 -0.0017554163932800293 0.0010151267051696777 0.10308837890625 -0.022838592529296875
17.5585 -0.0494384765625 -0.112030029296875 -2.801025390625 -3.243896484375 -0.0015364885330200195 0.0011624693870544434 0.10539627075195312 -0.02576446533203125
17.56825 -0.05364227294921875 -0.10748291015625 -3.03173828125 -3.045654296875 -0.0012066960334777832 0.0007038116455078125 0.10512161254882812 -0.030269622802734375
17.578 -0.0596160888671875 -0.09975433349609375 -3.265380859375 -2.812255859375 -0.0012295246124267578 0.0010055899620056152 0.10549545288085938 -0.033351898193359375
17.58775 -0.0662841796875 -0.09593963623046875 -3.48046875 -2.55859375 0.0002605020999908447 0.00037550926208496094 0.10474395751953125 -0.03498077392578125
17.5975 -0.06868743896484375 -0.08840179443359375 -3.677490234375 -2.2734375 0.0001519918441772461 0.0021550655364990234 0.1040191650390625 -0.039661407470703125
17.60725 -0.07453155517578125 -0.0823211669921875 -3.834716796875 -1.980712890625 -0.0012983083724975586 0.0017185807228088379 0.10265350341796875 -0.04178619384765625
17.617 -0.0793609619140625 -0.0744781494140625 -3.96533203125 -1.67529296875 -0.0021795034408569336 0.00010263919830322266 0.10330963134765625 -0.045757293701171875
17.62675 -0.083282470703125 -0.067108154296875 -4.0625 -1.3642578125 -0.001287698745727539 0.0007498264312744141 0.10163116455078125 -0.0495147705078125
17.6365 -0.0856170654296875 -0.059967041015625 -4.140625 -1.05712890625 -0.0009682178497314453 0.0008729696273803711 0.1005706787109375 -0.0540924072265625
17.64625 -0.08893585205078125 -0.05208587646484375 -4.19140625 -0.76611328125 -0.0007446408271789551 0.0007855594158172607 0.09875106811523438 -0.057064056396484375
17.656 -0.09064483642578125 -0.04543304443359375 -4.236083984375 -0.4775390625 -0.0007932186126708984 0.0009454786777496338 0.09478759765625 -0.0609130859375
17.66575 -0.09290313720703125 -0.03559112548828125 -4.27978515625 -0.189697265625 -0.0008715391159057617 0.0007531344890594482 0.09289169311523438 -0.06361007690429688
17.6755 -0.09482192993164062 -0.029506683349609375 -4.302978515625 0.109375 -0.0007667839527130127 0.00042560696601867676 0.09026718139648438 -0.0683135986328125
17.68525 -0.095489501953125 -0.0202484130859375 -4.327880859375 0.4208984375 0.00020492076873779297 0.0018471479415893555 0.087554931640625 -0.07181549072265625
17.695 -0.0957794189453125 -0.0134735107421875 -4.32080078125 0.75927734375 0.0002556443214416504 0.0012958049774169922 0.08395004272460938 -0.0729522705078125
17.70475 -0.09629058837890625 -0.00392913818359375 -4.27587890625 1.110107421875 0.0008509159088134766 0.0012128353118896484 0.08231735229492188 -0.07666015625
17.7145 -0.09749221801757812 0.004650115966796875 -4.19287109375 1.470458984375 0.0008443593978881836 0.0018284320831298828 0.07660675048828125 -0.07995223999023438
17.72425 -0.09650802612304688 0.012477874755859375 -4.0595703125 1.807861328125 -0.00038114190101623535 0.0007983148097991943 0.07392120361328125 -0.08252334594726562
17.734 -0.09578704833984375 0.01862335205078125 -3.894775390625 2.122802734375 -0.00023114681243896484 0.0011621713638305664 0.06999969482421875 -0.08449554443359375
17.74375 -0.09577178955078125 0.02567291259765625 -3.698974609375 2.397216796875 -0.0005112886428833008 0.0010164976119995117 0.0667572021484375 -0.09033203125
17.7535 -0.09183502197265625 0.034275054931640625 -3.5025634765625 2.6552734375 -0.0003552436828613281 0.0013308525085449219 0.06339645385742188 -0.09100341796875
17.76325 -0.0910186767578125 0.040679931640625 -3.315673828125 2.89208984375 -0.0010155439376831055 0.0006392598152160645 0.057163238525390625 -0.08993911743164062
17.773 -0.08853912353515625 0.045742034912109375 -3.116943359375 3.1102294921875 -0.000483095645904541 0.0007453560829162598 0.05313873291015625 -0.09318161010742188
17.78275 -0.0861663818359375 0.0529937744140625 -2.9014892578125 3.3375244140625 -7.420778274536133e-06 0.0006567239761352539 0.0499420166015625 -0.09374618530273438
17.7925 -0.08198928833007812 0.059322357177734375 -2.678466796875 3.56396484375 -0.00034314393997192383 0.0014500021934509277 0.044525146484375 -0.09476470947265625
17.80225 -0.0782012939453125 0.06440353393554688 -2.4285888671875 3.79443359375 0.0011589527130126953 0.0011364221572875977 0.04266357421875 -0.09583282470703125
17.812 -0.07323837280273438 0.071929931640625 -2.14404296875 4.005859375 -0.0005471110343933105 0.001474142074584961 0.0354156494140625 -0.095367431640625
17.82175 -0.0686798095703125 0.07860183715820312 -1.83740234375 4.18994140625 0.0007036328315734863 0.0009164214134216309 0.03491973876953125 -0.09556961059570312
17.8315 -0.0636749267578125 0.08319091796875 -1.49365234375 4.343017578125 3.057718276977539e-05 0.001094222068786621 0.026485443115234375 -0.09592437744140625
17.84125 -0.06032562255859375 0.0888214111328125 -1.15185546875 4.458984375 -0.0004378855228424072 0.00027692317962646484 0.02089691162109375 -0.09578704833984375
17.851 -0.053188323974609375 0.09521102905273438 -0.79541015625 4.52392578125 -9.804964065551758e-06 0.0008271336555480957 0.018894195556640625 -0.09432220458984375
17.86075 -0.050144195556640625 0.09738922119140625 -0.460205078125 4.57470703125 0.0006545782089233398 0.0011222362518310547 0.013401031494140625 -0.0927581787109375
17.8705 -0.0449981689453125 0.10411834716796875 -0.123046875 4.605712890625 0.00067138671875 0.0015822649002075195 0.008670806884765625 -0.09348297119140625
17.88025 -0.03946685791015625 0.10752487182617188 0.21435546875 4.624755859375 0.0003588348627090454 -0.00040394067764282227 0.005344390869140625 -0.09230804443359375
17.89 -0.0350189208984375 0.11281585693359375 0.550537109375 4.633056640625 0.00030794739723205566 0.00041922926902770996 0.000621795654296875 -0.09088134765625
17.89975 -0.0292205810546875 0.11435317993164062 0.912353515625 4.613037109375 0.000348508358001709 -0.0005134940147399902 -0.005367279052734375 -0.08998489379882812
17.9095 -0.022247314453125 0.1179046630859375 1.281982421875 4.57080078125 0.001227259635925293 0.0014840364456176758 -0.0090484619140625 -0.08808517456054688
17.91925 -0.016815185546875 0.11971664428710938 1.64697265625 4.481689453125 0.0007112622261047363 0.00048083066940307617 -0.011791229248046875 -0.08580780029296875
17.929 -0.010284423828125 0.12326812744140625 2.0185546875 4.36962890625 0.0007088184356689453 0.0006271600723266602 -0.017181396484375 -0.0855865478515625
17.93875 -0.00428009033203125 0.12518310546875 2.371337890625 4.20849609375 0.0009735822677612305 0.0012372732162475586 -0.01862335205078125 -0.0815887451171875
17.9485 0.0007171630859375 0.12662506103515625 2.70068359375 4.017333984375 0.0006131529808044434 0.000693976879119873 -0.02333831787109375 -0.07881546020507812
17.95825 0.007049560546875 0.127685546875 3.015869140625 3.810546875 0.0009260177612304688 0.0013042688369750977 -0.024707794189453125 -0.07641983032226562
17.968 0.01383209228515625 0.12940216064453125 3.306640625 3.575927734375 0.0016394257545471191 0.0002607107162475586 -0.028850555419921875 -0.07319259643554688
17.97775 0.02046966552734375 0.12870025634765625 3.58056640625 3.3291015625 0.0005987882614135742 0.001063227653503418 -0.0336151123046875 -0.07092666625976562
17.9875 0.02680206298828125 0.13086700439453125 3.8564453125 3.06103515625 -3.4533441066741943e-06 0.00011868402361869812 -0.036014556884765625 -0.067291259765625
17.99725 0.0330352783203125 0.12940216064453125 4.11767578125 2.775146484375 0.0018343329429626465 -0.0003148317337036133 -0.039943695068359375 -0.06488418579101562
18.007 0.04128265380859375 0.13048553466796875 4.357666015625 2.451416015625 0.0005352795124053955 -0.0005077719688415527 -0.042827606201171875 -0.0608978271484375
18.01675 0.0463714599609375 0.13018035888671875 4.575927734375 2.102783203125 0.0012344717979431152 0.00046312808990478516 -0.044643402099609375 -0.05660247802734375
18.0265 0.0520477294921875 0.129730224609375 4.7666015625 1.7275390625 0.0018079280853271484 -2.5153160095214844e-05 -0.050537109375 -0.05207061767578125
18.03625 0.0598602294921875 0.131103515625 4.9140625 1.32470703125 0.0007798671722412109 0.00046765804290771484 -0.05011749267578125 -0.0488128662109375
18.046 0.0655059814453125 0.12833404541015625 5.019775390625 0.909912109375 0.0013992786407470703 0.0006814002990722656 -0.05218505859375 -0.043674468994140625
18.05575 0.0723114013671875 0.12532806396484375 5.083740234375 0.505859375 0.0005418360233306885 -0.0006227493286132812 -0.05579376220703125 -0.039264678955078125
18.0655 0.07757568359375 0.1258544921875 5.110595703125 0.099609375 0.0011490583419799805 0.000885009765625 -0.05963897705078125 -0.035816192626953125
18.07525 0.083892822265625 0.1224212646484375 5.11376953125 -0.308837890625 0.0006822645664215088 5.549192428588867e-05 -0.059192657470703125 -0.03240203857421875
18.085 0.09043121337890625 0.12113189697265625 5.09375 -0.723388671875 0.0008890032768249512 -7.542967796325684e-05 -0.06177520751953125 -0.0276031494140625
18.09475 0.09473419189453125 0.1190948486328125 5.043701171875 -1.13671875 0.0006099045276641846 -0.0004757046699523926 -0.059307098388671875 -0.0221099853515625
18.1045 0.10113525390625 0.11580657958984375 4.948974609375 -1.548583984375 -0.00010061264038085938 -0.0004545152187347412 -0.06278610229492188 -0.01552581787109375
18.11425 0.10672760009765625 0.11578369140625 4.81591796875 -1.967529296875 -0.0003247857093811035 0.0011105537414550781 -0.06192779541015625 -0.012973785400390625
18.124 0.1113433837890625 0.1110076904296875 4.64404296875 -2.3662109375 -0.0004042088985443115 0.0002479851245880127 -0.063262939453125 -0.00705718994140625
18.13375 0.11822509765625 0.10735321044921875 4.44287109375 -2.745361328125 0.000746309757232666 0.00024563074111938477 -0.0626678466796875 -0.0020904541015625
18.1435 0.12314605712890625 0.10463714599609375 4.197021484375 -3.10498046875 0.0010497570037841797 5.626678466796875e-05 -0.0635528564453125 0.00582122802734375
18.15325 0.12895965576171875 0.0985260009765625 3.9287109375 -3.4454345703125 0.00099259614944458 0.00021886825561523438 -0.062290191650390625 0.008975982666015625
18.163 0.1348724365234375 0.09421539306640625 3.6278076171875 -3.7459716796875 0.0015769004821777344 -0.00033664703369140625 -0.06080055236816406 0.0158233642578125
18.17275 0.140350341796875 0.089752197265625 3.310791015625 -4.0263671875 0.0008526146411895752 -0.0005044341087341309 -0.05891609191894531 0.02120208740234375
18.1825 0.1455841064453125 0.0849456787109375 2.981689453125 -4.290771484375 7.465481758117676e-06 0.0002502351999282837 -0.05631446838378906 0.026760101318359375
18.19225 0.1497955322265625 0.0789794921875 2.62353515625 -4.535888671875 0.0007897615432739258 -0.0002956092357635498 -0.05462646484375 0.03171730041503906
18.202 0.154998779296875 0.07553863525390625 2.24951171875 -4.744140625 -0.0008622109889984131 0.0003414452075958252 -0.05446434020996094 0.035594940185546875
18.21175 0.1583251953125 0.06951904296875 1.83984375 -4.92431640625 0.0008918046951293945 -3.2782554626464844e-06 -0.05127716064453125 0.041522979736328125
18.2215 0.16397857666015625 0.06324005126953125 1.40869140625 -5.055419921875 0.0014789700508117676 -0.000553131103515625 -0.04578590393066406 0.04714775085449219
18.23125 0.167816162109375 0.058135986328125 0.984619140625 -5.1484375 0.000479280948638916 -0.000506967306137085 -0.04599952697753906 0.04982757568359375
18.241 0.1711578369140625 0.0503692626953125 0.553466796875 -5.186767578125 0.00012761354446411133 -0.00028771162033081055 -0.0408477783203125 0.055637359619140625
18.25075 0.17433929443359375 0.042510986328125 0.132568359375 -5.193359375 -0.0001494288444519043 -0.0008972287178039551 -0.03658294677734375 0.05849266052246094
18.2605 0.17656707763671875 0.03716278076171875 -0.27880859375 -5.16650390625 0.00020834803581237793 -0.0007250010967254639 -0.0311737060546875 0.06359481811523438
18.27025 0.179046630859375 0.03025054931640625 -0.6865234375 -5.1220703125 -0.0003673434257507324 -0.0005009770393371582 -0.0250091552734375 0.06779861450195312
18.28 0.18265533447265625 0.021575927734375 -1.1025390625 -5.052978515625 -0.0001009032130241394 -7.554888725280762e-05 -0.020313262939453125 0.06886672973632812
18.28975 0.1851654052734375 0.01342010498046875 -1.499267578125 -4.947998046875 0.0001875460147857666 0.00019738078117370605 -0.014308929443359375 0.07345962524414062
18.2995 0.1861419677734375 0.0072784423828125 -1.90283203125 -4.802978515625 0.0011916756629943848 0.0003737211227416992 -0.008686065673828125 0.073150634765625
18.30925 0.18658447265625 -0.0023193359375 -2.29345703125 -4.611328125 -0.0005201101303100586 -0.0002894401550292969 -0.0013885498046875 0.074798583984375
18.319 0.18654632568359375 -0.011474609375 -2.663330078125 -4.38671875 -0.00030513107776641846 0.00021654367446899414 0.001796722412109375 0.07991409301757812
18.32875 0.187744140625 -0.0170745849609375 -3.004150390625 -4.13427734375 0.0005282759666442871 0.0005266666412353516 0.0099945068359375 0.08081817626953125
18.3385 0.1869354248046875 -0.02777862548828125 -3.30517578125 -3.853759765625 4.708766937255859e-06 -0.0009709596633911133 0.018035888671875 0.08192062377929688
18.34825 0.18747711181640625 -0.03606414794921875 -3.591796875 -3.571533203125 6.0111284255981445e-05 -0.0006180405616760254 0.023509979248046875 0.0847930908203125
18.358 0.18608856201171875 -0.04523468017578125 -3.84619140625 -3.271484375 -4.0918588638305664e-05 -1.3306736946105957e-05 0.03266143798828125 0.08128738403320312
18.36775 0.18413543701171875 -0.05228424072265625 -4.08740234375 -2.94580078125 0.0004267096519470215 -7.15404748916626e-05 0.038188934326171875 0.08061599731445312
18.3775 0.1834564208984375 -0.0600433349609375 -4.300537109375 -2.619384765625 -0.000353008508682251 -0.000141829252243042 0.04217529296875 0.08049392700195312
18.38725 0.1803741455078125 -0.06955718994140625 -4.4970703125 -2.24853515625 0.0005086064338684082 -0.0016278624534606934 0.05101776123046875 0.07910919189453125
18.397 0.1767730712890625 -0.07672119140625 -4.65576171875 -1.8662109375 0.0005677342414855957 -0.0004450678825378418 0.0576324462890625 0.0763397216796875
18.40675 0.1739501953125 -0.084625244140625 -4.78662109375 -1.45849609375 3.470480442047119e-05 -0.00024306774139404297 0.0627288818359375 0.0728759765625
18.4165 0.17020416259765625 -0.09317779541015625 -4.8515625 -1.052734375 -0.00045096874237060547 -0.0017580986022949219 0.06995391845703125 0.0698089599609375
18.42625 0.1654815673828125 -0.09943389892578125 -4.884765625 -0.64794921875 -0.0003253519535064697 -1.8075108528137207e-05 0.0752716064453125 0.0669708251953125
18.436 0.1585540771484375 -0.10503387451171875 -4.880126953125 -0.26171875 -0.0009113550186157227 0.0005936920642852783 0.08303070068359375 0.06101226806640625
18.44575 0.15476226806640625 -0.11425018310546875 -4.85009765625 0.11572265625 -0.0010005831718444824 0.00034999847412109375 0.08539581298828125 0.05722808837890625
18.4555 0.14730072021484375 -0.12103271484375 -4.8046875 0.482421875 -0.0001608133316040039 -0.0008251070976257324 0.089263916015625 0.05100250244140625
18.46525 0.14385223388671875 -0.12755584716796875 -4.7470703125 0.84765625 0.00020235776901245117 0.0003865957260131836 0.0954742431640625 0.0433197021484375
18.475 0.13646697998046875 -0.1339874267578125 -4.6669921875 1.2109375 0.0010392069816589355 -0.00020635128021240234 0.10100555419921875 0.0389251708984375
18.48475 0.13018798828125 -0.14107513427734375 -4.5478515625 1.5849609375 0.0007385909557342529 -0.0002760589122772217 0.1041259765625 0.03033447265625
18.4945 0.12094879150390625 -0.1461181640625 -4.384521484375 1.95263671875 -0.00014822930097579956 -5.761533975601196e-05 0.108123779296875 0.024078369140625
18.50425 0.1147003173828125 -0.1514892578125 -4.18310546875 2.30712890625 0.0007641315460205078 0.0007050037384033203 0.1097564697265625 0.017425537109375
18.514 0.1085205078125 -0.155426025390625 -3.9453125 2.62890625 -8.475780487060547e-05 -0.001146554946899414 0.11206817626953125 0.01029205322265625
18.52375 0.09941864013671875 -0.15918731689453125 -3.67529296875 2.910888671875 0.000346451997756958 -0.0006749927997589111 0.11378860473632812 0.002361297607421875
18.5335 0.0919342041015625 -0.16359710693359375 -3.401123046875 3.1514892578125 -0.00030556321144104004 -0.0004235208034515381 0.11456680297851562 -0.005039215087890625
18.54325 0.083770751953125 -0.1674041748046875 -3.1195068359375 3.36083984375 -3.2845884561538696e-05 5.136057734489441e-05 0.11446380615234375 -0.012027740478515625
18.553 0.07566070556640625 -0.1718292236328125 -2.8336181640625 3.552978515625 0.0006658434867858887 -0.000644981861114502 0.1124420166015625 -0.018463134765625
18.56275 0.06711578369140625 -0.1712646484375 -2.5538330078125 3.7283935546875 -5.1587820053100586e-05 0.0006309449672698975 0.11365509033203125 -0.025478363037109375
18.5725 0.05802154541015625 -0.1740875244140625 -2.259521484375 3.897216796875 0.001209855079650879 -0.0004267692565917969 0.10952377319335938 -0.0326690673828125
18.58225 0.05019378662109375 -0.1744384765625 -1.94482421875 4.045654296875 8.578971028327942e-05 -5.003809928894043e-05 0.10700607299804688 -0.0406036376953125
18.592 0.03989410400390625 -0.17675018310546875 -1.60693359375 4.171630859375 0.0005913078784942627 -0.00018003582954406738 0.10389328002929688 -0.0459747314453125
18.60175 0.032470703125 -0.1767120361328125 -1.259765625 4.26904296875 0.000399172306060791 -0.0005565881729125977 0.09934234619140625 -0.05230712890625
18.6115 0.02399444580078125 -0.1749267578125 -0.906494140625 4.3193359375 0.0001558065414428711 8.387863636016846e-05 0.09621429443359375 -0.05970001220703125
18.62125 0.0139923095703125 -0.17418670654296875 -0.5595703125 4.333984375 6.031990051269531e-05 -0.0014969706535339355 0.09135818481445312 -0.06430816650390625
18.631 0.0052642822265625 -0.174560546875 -0.240966796875 4.311279296875 0.0006386637687683105 9.208917617797852e-06 0.086944580078125 -0.07070159912109375
18.64075 -0.0023345947265625 -0.17421722412109375 0.07763671875 4.26904296875 2.3603439331054688e-05 -0.0013865232467651367 0.08185577392578125 -0.07176971435546875
18.6505 -0.0100860595703125 -0.17128753662109375 0.376220703125 4.2216796875 -0.00028577446937561035 -0.00019165873527526855 0.07776260375976562 -0.07741165161132812
18.66025 -0.01885986328125 -0.169281005859375 0.664306640625 4.16015625 0.0003713667392730713 -0.000839918851852417 0.07062149047851562 -0.07888412475585938
18.67 -0.02526092529296875 -0.16576385498046875 0.961181640625 4.09033203125 -7.4803829193115234e-06 -0.0007304847240447998 0.06778335571289062 -0.08022308349609375
18.67975 -0.0341644287109375 -0.163177490234375 1.26025390625 4.004638671875 -1.6748905181884766e-05 -0.001630544662475586 0.060329437255859375 -0.08409500122070312
18.6895 -0.0418548583984375 -0.16011810302734375 1.560546875 3.885498046875 -0.00159454345703125 0.00035756826400756836 0.054943084716796875 -0.08533859252929688
