!Created with skrf (http://scikit-rf.org).
# GHz S RI R 50.0 
!freq ReS11 ImS11 ReS21 ImS21 ReS12 ImS12 ReS22 ImS22
17.5 0.01910400390625 -0.14251708984375 0.215087890625 5.314208984375 -0.001426100730895996 0.0009279251098632812 0.0962066650390625 0.016117095947265625
17.50975 0.010101318359375 -0.14145660400390625 0.64892578125 5.272705078125 -0.0016304254531860352 -3.993511199951172e-06 0.1002044677734375 0.014080047607421875
17.5195 0.003021240234375 -0.13721466064453125 1.07080078125 5.18310546875 -0.0009809136390686035 0.0013788938522338867 0.1041107177734375 0.012569427490234375
17.52925 -0.00608062744140625 -0.13470458984375 1.47998046875 5.0732421875 -0.0012842416763305664 0.0007358193397521973 0.10795974731445312 0.00788116455078125
17.539 -0.0132293701171875 -0.1303863525390625 1.8701171875 4.931640625 -0.0021905899047851562 -0.0004405975341796875 0.10968017578125 0.00496673583984375
17.54875 -0.0210418701171875 -0.127197265625 2.233154296875 4.74951171875 -0.0020967721939086914 0.0012962818145751953 0.1128082275390625 0.002262115478515625
17.5585 -0.03243255615234375 -0.12337493896484375 2.590576171875 4.565185546875 -0.0004521012306213379 0.0015436410903930664 0.11684417724609375 -0.003551483154296875
17.56825 -0.0372467041015625 -0.11998748779296875 2.92236328125 4.363525390625 -0.0007194280624389648 0.0020987987518310547 0.1193695068359375 -0.00655364990234375
17.578 -0.04526519775390625 -0.1141204833984375 3.268310546875 4.121337890625 -0.0005521774291992188 0.0013720393180847168 0.12185287475585938 -0.01236724853515625
17.58775 -0.05181884765625 -0.1110687255859375 3.5986328125 3.851318359375 -0.0009427070617675781 0.0020143985748291016 0.12252044677734375 -0.01479339599609375
17.5975 -0.0558929443359375 -0.103912353515625 3.910888671875 3.53271484375 -0.0006629228591918945 0.0005210936069488525 0.12320709228515625 -0.02275848388671875
17.60725 -0.06250762939453125 -0.09979248046875 4.176025390625 3.18798828125 -0.0007401108741760254 0.001550137996673584 0.1243438720703125 -0.026519775390625
17.617 -0.06812286376953125 -0.09332275390625 4.392822265625 2.816162109375 -0.0029529333114624023 0.0002467632293701172 0.12471771240234375 -0.03141021728515625
17.62675 -0.073944091796875 -0.086181640625 4.569580078125 2.43701171875 -0.00037801265716552734 0.0017965435981750488 0.127288818359375 -0.03595733642578125
17.6365 -0.077545166015625 -0.0789642333984375 4.69775390625 2.0576171875 -0.0012503862380981445 0.0016666650772094727 0.1259307861328125 -0.04347991943359375
17.64625 -0.08135223388671875 -0.0715179443359375 4.794921875 1.702392578125 -0.0010952949523925781 0.0007994771003723145 0.12374114990234375 -0.047267913818359375
17.656 -0.08654022216796875 -0.06630706787109375 4.8857421875 1.359619140625 -0.0016422867774963379 0.0003992915153503418 0.12036895751953125 -0.0539398193359375
17.66575 -0.09020233154296875 -0.05770111083984375 4.9736328125 1.025146484375 -0.00044596195220947266 0.0014742016792297363 0.1208648681640625 -0.059963226318359375
17.6755 -0.09349822998046875 -0.0518646240234375 5.04052734375 0.675048828125 -0.0013449788093566895 0.001154184341430664 0.11763381958007812 -0.06425857543945312
17.68525 -0.09683990478515625 -0.042205810546875 5.12060546875 0.313232421875 -0.00034672021865844727 0.0011908411979675293 0.11403656005859375 -0.07091522216796875
17.695 -0.099945068359375 -0.0347900390625 5.17041015625 -0.08984375 -0.0010115504264831543 0.001318514347076416 0.11265182495117188 -0.07662200927734375
17.70475 -0.101043701171875 -0.0249481201171875 5.169189453125 -0.521728515625 -0.0003758072853088379 0.0014815330505371094 0.1086273193359375 -0.0805206298828125
17.7145 -0.10382843017578125 -0.019012451171875 5.12158203125 -0.97021484375 -0.001353144645690918 0.0018424391746520996 0.10354232788085938 -0.08636093139648438
17.72425 -0.10536956787109375 -0.008441925048828125 4.999267578125 -1.400146484375 -0.0006405115127563477 0.0010357499122619629 0.1005096435546875 -0.09135055541992188
17.734 -0.10719680786132812 -0.000324249267578125 4.833740234375 -1.799560546875 -0.0016112923622131348 0.0012767910957336426 0.09374237060546875 -0.096771240234375
17.74375 -0.10791015625 0.00634765625 4.61865234375 -2.1435546875 0.00036215782165527344 0.0002974271774291992 0.08950042724609375 -0.10109710693359375
17.7535 -0.10713958740234375 0.014461517333984375 4.40625 -2.457275390625 -0.000537186861038208 0.0007814466953277588 0.08486557006835938 -0.10561752319335938
17.76325 -0.10681533813476562 0.02452850341796875 4.20556640625 -2.737548828125 -0.00012242794036865234 0.00028321146965026855 0.0776824951171875 -0.107513427734375
17.773 -0.105194091796875 0.031490325927734375 4.0 -2.999267578125 0.001037895679473877 0.0002707839012145996 0.07463836669921875 -0.11057662963867188
17.78275 -0.104156494140625 0.03887176513671875 3.7889404296875 -3.2679443359375 0.0012807250022888184 8.672475814819336e-05 0.069549560546875 -0.11269378662109375
17.7925 -0.09930801391601562 0.04544830322265625 3.57177734375 -3.54736328125 0.0007229447364807129 0.000840604305267334 0.0625762939453125 -0.1156005859375
17.80225 -0.09874725341796875 0.05313873291015625 3.3153076171875 -3.8389892578125 -0.00041943788528442383 0.0006108880043029785 0.0567779541015625 -0.11762237548828125
17.812 -0.09475326538085938 0.062290191650390625 3.017578125 -4.111328125 0.0012184381484985352 0.0003427267074584961 0.048007965087890625 -0.118377685546875
17.82175 -0.09055328369140625 0.07025146484375 2.685302734375 -4.3525390625 -0.0017760396003723145 0.0010901689529418945 0.046070098876953125 -0.11963272094726562
17.8315 -0.0886383056640625 0.07666397094726562 2.313232421875 -4.557373046875 -0.00016570091247558594 0.0016183853149414062 0.0367431640625 -0.1214447021484375
17.84125 -0.0843505859375 0.0851898193359375 1.93408203125 -4.71240234375 0.0012507438659667969 0.0006070137023925781 0.03034210205078125 -0.120147705078125
17.851 -0.07906723022460938 0.09165191650390625 1.5498046875 -4.803955078125 0.0010334253311157227 0.0018954277038574219 0.02358245849609375 -0.12117385864257812
17.86075 -0.07371902465820312 0.09803009033203125 1.1943359375 -4.87890625 0.0004597902297973633 0.0006848573684692383 0.018123626708984375 -0.12006378173828125
17.8705 -0.06956863403320312 0.10408401489257812 0.846435546875 -4.930908203125 0.0008800029754638672 0.0015265941619873047 0.01105499267578125 -0.11883926391601562
17.88025 -0.06458282470703125 0.11180877685546875 0.500244140625 -4.976318359375 0.001071155071258545 0.0007507205009460449 0.003185272216796875 -0.11807632446289062
17.89 -0.0583343505859375 0.11868667602539062 0.16015625 -5.020263671875 0.0002987086772918701 0.0005622506141662598 -0.00199127197265625 -0.11677169799804688
17.89975 -0.050800323486328125 0.12244033813476562 -0.22021484375 -5.046630859375 -0.0002817213535308838 0.0002765357494354248 -0.008880615234375 -0.116363525390625
17.9095 -0.0481414794921875 0.12863922119140625 -0.612548828125 -5.048828125 0.0007302165031433105 0.0007483363151550293 -0.01390838623046875 -0.11305999755859375
17.91925 -0.0384674072265625 0.13146209716796875 -1.014892578125 -5.0 0.0012910962104797363 -1.0788440704345703e-05 -0.02099609375 -0.1121978759765625
17.929 -0.0322418212890625 0.137481689453125 -1.41748046875 -4.9228515625 0.0009080171585083008 0.0007023811340332031 -0.02593994140625 -0.1089019775390625
17.93875 -0.02513885498046875 0.141448974609375 -1.803955078125 -4.77783203125 0.0008501410484313965 0.0009950995445251465 -0.03314971923828125 -0.1071319580078125
17.9485 -0.01860809326171875 0.14238739013671875 -2.154541015625 -4.60693359375 0.0005065202713012695 0.0010062456130981445 -0.0381927490234375 -0.1016387939453125
17.95825 -0.010986328125 0.14669036865234375 -2.480224609375 -4.413818359375 0.0007145404815673828 -8.794665336608887e-05 -0.03993988037109375 -0.0994873046875
17.968 -0.00334930419921875 0.149078369140625 -2.781494140625 -4.21728515625 0.0009645223617553711 0.0014117956161499023 -0.04604339599609375 -0.095672607421875
17.97775 0.0062255859375 0.1507568359375 -3.06494140625 -4.005859375 0.0008219480514526367 -0.0006696581840515137 -0.05185699462890625 -0.08843994140625
17.9875 0.01729583740234375 0.15366363525390625 -3.359130859375 -3.792236328125 0.0008041858673095703 0.0003885030746459961 -0.0569610595703125 -0.0851593017578125
17.99725 0.02402496337890625 0.153076171875 -3.648681640625 -3.559326171875 0.0009111762046813965 0.0007538795471191406 -0.06118011474609375 -0.08034515380859375
18.007 0.03266143798828125 0.1550750732421875 -3.93994140625 -3.29638671875 0.0017260313034057617 0.0009579658508300781 -0.0658111572265625 -0.0740966796875
18.01675 0.041656494140625 0.1546783447265625 -4.20458984375 -2.990966796875 7.703155279159546e-05 -0.00021645426750183105 -0.07012176513671875 -0.06851959228515625
18.0265 0.0499114990234375 0.1563720703125 -4.4501953125 -2.654296875 0.0019981861114501953 3.0994415283203125e-05 -0.0747528076171875 -0.0630950927734375
18.03625 0.05902099609375 0.156005859375 -4.65380859375 -2.2802734375 -5.072355270385742e-05 -0.0008242130279541016 -0.077606201171875 -0.058502197265625
18.046 0.06884765625 0.1543731689453125 -4.81591796875 -1.892333984375 0.00042319297790527344 0.0013954639434814453 -0.0804290771484375 -0.050811767578125
18.05575 0.07624053955078125 0.1521453857421875 -4.925537109375 -1.515869140625 0.0007326006889343262 0.0009982585906982422 -0.08370208740234375 -0.04692840576171875
18.0655 0.0843353271484375 0.1506500244140625 -5.007568359375 -1.143310546875 0.0018027424812316895 -0.00025731325149536133 -0.08727264404296875 -0.037872314453125
18.07525 0.093597412109375 0.147857666015625 -5.06640625 -0.77197265625 0.00047028064727783203 0.0003381669521331787 -0.08799362182617188 -0.03070068359375
18.085 0.101654052734375 0.1461029052734375 -5.119873046875 -0.3984375 -0.0009946823120117188 0.0004151463508605957 -0.09002685546875 -0.0251922607421875
18.09475 0.1097412109375 0.141143798828125 -5.151123046875 -0.02001953125 0.0013911724090576172 0.0002491474151611328 -0.08932113647460938 -0.018398284912109375
18.1045 0.1165618896484375 0.137451171875 -5.156494140625 0.366943359375 0.0006871819496154785 0.0008478164672851562 -0.09033203125 -0.00977325439453125
18.11425 0.1246185302734375 0.1339263916015625 -5.131591796875 0.774169921875 0.0011864900588989258 0.00018668174743652344 -0.08990859985351562 -0.003570556640625
18.124 0.131805419921875 0.1300048828125 -5.06396484375 1.17626953125 0.0013310909271240234 0.000542759895324707 -0.08895111083984375 0.00499725341796875
18.13375 0.13916015625 0.125213623046875 -4.963623046875 1.5654296875 -0.00021916627883911133 0.001442551612854004 -0.08813858032226562 0.0114898681640625
18.1435 0.146270751953125 0.1175994873046875 -4.819091796875 1.9482421875 0.0007095634937286377 -0.00032576918601989746 -0.08679962158203125 0.020442962646484375
18.15325 0.1522369384765625 0.1111907958984375 -4.65234375 2.3193359375 0.0011908411979675293 0.000455319881439209 -0.08686447143554688 0.026187896728515625
18.163 0.1595458984375 0.1034698486328125 -4.458984375 2.66259765625 0.0004781186580657959 0.00012305378913879395 -0.08295440673828125 0.034580230712890625
18.17275 0.1665191650390625 0.0977020263671875 -4.240234375 2.9931640625 0.0014328360557556152 -0.0005944967269897461 -0.07857513427734375 0.041961669921875
18.1825 0.1707000732421875 0.0894927978515625 -4.010986328125 3.312255859375 0.0006355643272399902 -0.00013434886932373047 -0.07457351684570312 0.050472259521484375
18.19225 0.17572021484375 0.082916259765625 -3.7515869140625 3.6265869140625 0.0005202889442443848 0.0008407235145568848 -0.070159912109375 0.058376312255859375
18.202 0.180419921875 0.0746612548828125 -3.4730224609375 3.9136962890625 5.112588405609131e-05 -9.184703230857849e-05 -0.06912994384765625 0.06399917602539062
18.21175 0.18499755859375 0.0664215087890625 -3.1513671875 4.18408203125 0.0009340047836303711 -0.0010405778884887695 -0.06301116943359375 0.0704345703125
18.2215 0.19062042236328125 0.05823516845703125 -2.805908203125 4.418701171875 0.00157850980758667 -0.0006422996520996094 -0.055309295654296875 0.07465362548828125
18.23125 0.192657470703125 0.05016326904296875 -2.453857421875 4.614013671875 -0.00034505128860473633 -0.0008285641670227051 -0.0518035888671875 0.077362060546875
18.241 0.194580078125 0.04103851318359375 -2.08642578125 4.771728515625 0.0008775293827056885 -0.0006445944309234619 -0.046260833740234375 0.08350753784179688
18.25075 0.1975555419921875 0.03365325927734375 -1.719482421875 4.90625 0.000466078519821167 -0.0007141530513763428 -0.04029083251953125 0.08958053588867188
18.2605 0.197509765625 0.023956298828125 -1.345458984375 5.0126953125 0.0011426210403442383 -0.00028508901596069336 -0.032070159912109375 0.0920867919921875
18.27025 0.19970703125 0.01441192626953125 -0.96826171875 5.10888671875 0.0014799833297729492 -0.0004197359085083008 -0.024272918701171875 0.09797286987304688
18.28 0.20111083984375 0.00560760498046875 -0.57275390625 5.19287109375 -0.0003630518913269043 0.00027874112129211426 -0.015522003173828125 0.09911727905273438
18.28975 0.20113372802734375 -0.00501251220703125 -0.17041015625 5.232421875 0.00037710368633270264 -0.00031663477420806885 -0.008800506591796875 0.10369110107421875
18.2995 0.2018280029296875 -0.01244354248046875 0.2470703125 5.236328125 0.00083962082862854 -0.0003612041473388672 0.00116729736328125 0.10237884521484375
18.30925 0.1997528076171875 -0.023529052734375 0.673828125 5.185546875 -0.0007987618446350098 0.0007944107055664062 0.00994110107421875 0.1041717529296875
18.319 0.196533203125 -0.033203125 1.083740234375 5.099365234375 0.0004162639379501343 -0.0004399418830871582 0.01674652099609375 0.10782241821289062
18.32875 0.19550323486328125 -0.0396270751953125 1.470703125 4.9775390625 -0.00018149614334106445 -0.00048148632049560547 0.02797698974609375 0.1063690185546875
18.3385 0.1933135986328125 -0.05065155029296875 1.828369140625 4.828369140625 0.0007276237010955811 -0.00018450617790222168 0.03717041015625 0.1063232421875
18.34825 0.1907196044921875 -0.05889129638671875 2.175537109375 4.677734375 0.0007552504539489746 -0.00154876708984375 0.04339599609375 0.10504150390625
18.358 0.18843841552734375 -0.0680084228515625 2.514404296875 4.514892578125 -0.0002665519714355469 0.00026567280292510986 0.0534515380859375 0.10305023193359375
18.36775 0.18558502197265625 -0.07662200927734375 2.85302734375 4.3134765625 0.0009042322635650635 -0.00021770596504211426 0.061370849609375 0.09947967529296875
18.3775 0.18115997314453125 -0.08226776123046875 3.179931640625 4.10302734375 0.0002816617488861084 -0.00021022558212280273 0.06739044189453125 0.0986328125
18.38725 0.1759185791015625 -0.09238433837890625 3.51123046875 3.837890625 0.0006262063980102539 -0.0003561675548553467 0.07666778564453125 0.0937042236328125
18.397 0.1707611083984375 -0.0991668701171875 3.81005859375 3.5390625 0.00014853477478027344 -0.0008600354194641113 0.0840911865234375 0.0912017822265625
18.40675 0.1659088134765625 -0.1057891845703125 4.08837890625 3.20361328125 -0.0003478527069091797 -0.00037032365798950195 0.0928192138671875 0.086273193359375
18.4165 0.15959930419921875 -0.1122894287109375 4.301513671875 2.848876953125 0.00016585737466812134 -0.0001069977879524231 0.09789276123046875 0.07854461669921875
18.42625 0.15459442138671875 -0.11887359619140625 4.47119140625 2.486083984375 7.75754451751709e-05 -0.0008443593978881836 0.10675811767578125 0.07318878173828125
18.436 0.14614105224609375 -0.12445068359375 4.60595703125 2.1337890625 0.0009191334247589111 -0.0002606213092803955 0.1154327392578125 0.0655517578125
18.44575 0.13896942138671875 -0.13091278076171875 4.72216796875 1.786865234375 0.0012969970703125 -0.0005735158920288086 0.11490631103515625 0.0584869384765625
18.4555 0.13262176513671875 -0.13536834716796875 4.822998046875 1.443115234375 -0.0007471740245819092 0.0001283884048461914 0.121002197265625 0.0501556396484375
18.46525 0.12564849853515625 -0.14162445068359375 4.930419921875 1.098388671875 0.00030794739723205566 1.5541911125183105e-05 0.12697601318359375 0.03908538818359375
18.475 0.11617279052734375 -0.14580535888671875 5.017822265625 0.7314453125 -0.00021472573280334473 -0.0005856156349182129 0.13153076171875 0.03044891357421875
18.48475 0.11188507080078125 -0.149200439453125 5.06884765625 0.33447265625 0.000890880823135376 -0.0002613067626953125 0.1342010498046875 0.022491455078125
18.4945 0.1029815673828125 -0.15320587158203125 5.080810546875 -0.08349609375 -3.896653652191162e-05 -0.00013086944818496704 0.1363677978515625 0.01174163818359375
18.50425 0.094085693359375 -0.157073974609375 5.04248046875 -0.50390625 0.0008566379547119141 -0.0006685853004455566 0.13818359375 0.0033111572265625
18.514 0.0872802734375 -0.15935516357421875 4.950439453125 -0.905029296875 0.00025075674057006836 0.0007767081260681152 0.13726806640625 -0.00615692138671875
18.52375 0.07881927490234375 -0.16036224365234375 4.8095703125 -1.273681640625 0.000522911548614502 0.0005522370338439941 0.13597869873046875 -0.015411376953125
18.5335 0.0720062255859375 -0.162811279296875 4.657470703125 -1.608642578125 0.0008488893508911133 0.0005519390106201172 0.13694000244140625 -0.0236358642578125
18.54325 0.06511688232421875 -0.1642608642578125 4.495849609375 -1.914306640625 0.0007981061935424805 -0.00031942129135131836 0.13426971435546875 -0.0332794189453125
18.553 0.05776214599609375 -0.16638946533203125 4.323486328125 -2.207275390625 0.0008377134799957275 -0.0004239082336425781 0.13191986083984375 -0.04158782958984375
18.56275 0.0496063232421875 -0.16538238525390625 4.1572265625 -2.4931640625 0.0010294318199157715 -0.0004513263702392578 0.12895965576171875 -0.0487518310546875
18.5725 0.04129791259765625 -0.1667633056640625 3.96826171875 -2.7828369140625 -0.0004208683967590332 8.493661880493164e-07 0.12237930297851562 -0.058544158935546875
18.58225 0.03452301025390625 -0.16656494140625 3.75341796875 -3.0748291015625 1.990795135498047e-05 -0.0010423064231872559 0.12012863159179688 -0.0663299560546875
18.592 0.0272674560546875 -0.1657867431640625 3.500732421875 -3.35498046875 0.0005027055740356445 -0.000993192195892334 0.1138916015625 -0.07351303100585938
18.60175 0.0189666748046875 -0.1657867431640625 3.220703125 -3.610595703125 0.0006532669067382812 -0.000615239143371582 0.1077880859375 -0.08011627197265625
18.6115 0.01183319091796875 -0.16310882568359375 2.9136962890625 -3.8209228515625 0.0006092190742492676 -0.0004845857620239258 0.10106658935546875 -0.08573532104492188
18.62125 0.00473785400390625 -0.16260528564453125 2.598388671875 -3.990966796875 0.0009617507457733154 -0.00011202692985534668 0.0943450927734375 -0.092620849609375
18.631 -0.00179290771484375 -0.16028594970703125 2.294677734375 -4.117431640625 0.0003973543643951416 -0.0004059523344039917 0.087493896484375 -0.09671783447265625
18.64075 -0.00884246826171875 -0.16021728515625 1.994873046875 -4.23193359375 0.0006116330623626709 -0.00012814998626708984 0.08170318603515625 -0.10003662109375
18.6505 -0.01520538330078125 -0.157623291015625 1.704833984375 -4.336669921875 0.00026679039001464844 -0.0015169382095336914 0.0729522705078125 -0.10318756103515625
18.66025 -0.02320098876953125 -0.15438079833984375 1.414794921875 -4.4345703125 0.0006904006004333496 -0.000745624303817749 0.06583404541015625 -0.10614013671875
18.67 -0.02771759033203125 -0.1514739990234375 1.11328125 -4.526123046875 2.7418136596679688e-05 -0.0006354153156280518 0.0592803955078125 -0.10750198364257812
18.67975 -0.0355224609375 -0.14897918701171875 0.794921875 -4.607666015625 0.0007449984550476074 -0.0011817216873168945 0.051788330078125 -0.1104736328125
18.6895 -0.0418548583984375 -0.1467742919921875 0.455078125 -4.6552734375 0.00015725940465927124 -0.00018036365509033203 0.043933868408203125 -0.10911178588867188
18.69925 -0.0475006103515625 -0.1436767578125 0.11474609375 -4.6796875 0.0003935396671295166 6.508827209472656e-05 0.03798675537109375 -0.10805511474609375
