!Created with skrf (http://scikit-rf.org).
# GHz S RI R 50.0 
!freq ReS11 ImS11 ReS21 ImS21 ReS12 ImS12 ReS22 ImS22
17.5 0.019378662109375 -0.14404296875 0.455810546875 4.82373046875 -0.0016576647758483887 0.000586092472076416 0.09785079956054688 0.013675689697265625
17.50975 0.0085601806640625 -0.14182281494140625 0.849853515625 4.7646484375 -0.002274155616760254 -2.288818359375e-05 0.10105133056640625 0.01233673095703125
17.5195 0.0006256103515625 -0.1388397216796875 1.227294921875 4.66162109375 -0.0005121231079101562 0.0005655288696289062 0.10660171508789062 0.010784149169921875
17.52925 -0.00853729248046875 -0.13469696044921875 1.599853515625 4.544677734375 -0.00043910741806030273 -0.0011333823204040527 0.10889434814453125 0.006656646728515625
17.539 -0.013458251953125 -0.1309814453125 1.94189453125 4.3955078125 -0.00157928466796875 6.461143493652344e-05 0.109039306640625 0.0037384033203125
17.54875 -0.023529052734375 -0.1268463134765625 2.2666015625 4.2119140625 -0.0017464756965637207 0.00013059377670288086 0.113555908203125 5.7220458984375e-05
17.5585 -0.0325469970703125 -0.12328338623046875 2.579833984375 4.02587890625 -0.0019696950912475586 9.417533874511719e-05 0.11728668212890625 -0.004322052001953125
17.56825 -0.03922271728515625 -0.12104034423828125 2.87841796875 3.82666015625 -0.0005716979503631592 -0.0001513659954071045 0.11804962158203125 -0.00798797607421875
17.578 -0.0448150634765625 -0.11542510986328125 3.179443359375 3.591552734375 -0.0009368062019348145 0.0010849237442016602 0.12060546875 -0.013492584228515625
17.58775 -0.05243682861328125 -0.10973358154296875 3.463134765625 3.32666015625 -0.0011326074600219727 0.002014636993408203 0.1225128173828125 -0.0174560546875
17.5975 -0.05741119384765625 -0.1033935546875 3.73193359375 3.019775390625 -0.002293825149536133 0.001017451286315918 0.1234893798828125 -0.02268218994140625
17.60725 -0.06436920166015625 -0.1008758544921875 3.94970703125 2.689697265625 -0.0011889338493347168 0.0009739398956298828 0.12266921997070312 -0.026943206787109375
17.617 -0.068206787109375 -0.09210968017578125 4.13818359375 2.34521484375 -0.0009778141975402832 0.0013722777366638184 0.12604522705078125 -0.03338623046875
17.62675 -0.0756683349609375 -0.0862579345703125 4.27392578125 1.990966796875 -0.0017760396003723145 0.001639246940612793 0.125213623046875 -0.03789520263671875
17.6365 -0.0799560546875 -0.0789031982421875 4.37353515625 1.6416015625 -0.0014235973358154297 -0.0001055002212524414 0.1243133544921875 -0.044952392578125
17.64625 -0.08341217041015625 -0.071533203125 4.442138671875 1.312255859375 -0.0010284781455993652 0.0012949705123901367 0.122467041015625 -0.0499114990234375
17.656 -0.08725738525390625 -0.06606292724609375 4.508056640625 0.99560546875 -0.0006811022758483887 0.0007596015930175781 0.1199798583984375 -0.05572509765625
17.66575 -0.08934783935546875 -0.05588531494140625 4.56884765625 0.683837890625 -0.0006237626075744629 0.0009673535823822021 0.11967849731445312 -0.058444976806640625
17.6755 -0.0946044921875 -0.04906463623046875 4.61669921875 0.361083984375 -4.3720006942749023e-05 0.00039267539978027344 0.11522293090820312 -0.06569290161132812
17.68525 -0.097076416015625 -0.040374755859375 4.671630859375 0.029541015625 -0.00018933415412902832 0.0005602836608886719 0.11305618286132812 -0.07138824462890625
17.695 -0.0998992919921875 -0.03292083740234375 4.6962890625 -0.340576171875 -0.0005980134010314941 0.0013257861137390137 0.1099700927734375 -0.07614898681640625
17.70475 -0.10105133056640625 -0.0250244140625 4.671875 -0.734619140625 -0.00016057491302490234 0.0011224150657653809 0.1063385009765625 -0.0818939208984375
17.7145 -0.10286712646484375 -0.015899658203125 4.608642578125 -1.138671875 0.0007333755493164062 0.001325845718383789 0.1011962890625 -0.086669921875
17.72425 -0.10478973388671875 -0.00775909423828125 4.473388671875 -1.524169921875 0.0003521442413330078 0.0006604790687561035 0.096893310546875 -0.09164047241210938
17.734 -0.10610198974609375 0.000499725341796875 4.3017578125 -1.876953125 0.0001697540283203125 0.002165555953979492 0.09442520141601562 -0.09554290771484375
17.74375 -0.108367919921875 0.00766754150390625 4.089111328125 -2.1796875 0.0011012554168701172 0.0007528066635131836 0.0890350341796875 -0.10107421875
17.7535 -0.10478973388671875 0.01543426513671875 3.8836669921875 -2.4525146484375 -0.0008101463317871094 0.0025513172149658203 0.08298110961914062 -0.10577774047851562
17.76325 -0.10504531860351562 0.02431488037109375 3.68505859375 -2.6976318359375 -0.0007271766662597656 0.0021730661392211914 0.07761383056640625 -0.1072235107421875
17.773 -0.10327911376953125 0.03179931640625 3.486328125 -2.9263916015625 -0.00027301907539367676 0.0009315907955169678 0.07222366333007812 -0.1108551025390625
17.78275 -0.10285186767578125 0.03951263427734375 3.2767333984375 -3.162841796875 -0.00014454126358032227 0.0014753937721252441 0.06628036499023438 -0.11190032958984375
17.7925 -0.10060501098632812 0.04695892333984375 3.0645751953125 -3.4031982421875 0.0006388425827026367 0.0012915730476379395 0.061985015869140625 -0.11568069458007812
17.80225 -0.09723663330078125 0.053501129150390625 2.8162841796875 -3.650634765625 -0.0004942417144775391 0.0014851093292236328 0.05780792236328125 -0.11746597290039062
17.812 -0.09350204467773438 0.06163787841796875 2.5341796875 -3.889404296875 0.00027740001678466797 0.0017527341842651367 0.04834747314453125 -0.11767196655273438
17.82175 -0.0902252197265625 0.0700531005859375 2.212646484375 -4.09130859375 -0.0001971125602722168 0.0009341239929199219 0.042728424072265625 -0.11860275268554688
17.8315 -0.08734893798828125 0.07828140258789062 1.8681640625 -4.255126953125 0.0010521411895751953 0.0007396340370178223 0.036586761474609375 -0.11863327026367188
17.84125 -0.0821533203125 0.08486175537109375 1.51416015625 -4.37451171875 0.0006060600280761719 0.0008082389831542969 0.02913665771484375 -0.12078857421875
17.851 -0.07711410522460938 0.09387588500976562 1.162353515625 -4.440185546875 7.003545761108398e-05 0.0014807581901550293 0.02503204345703125 -0.12175369262695312
17.86075 -0.07237625122070312 0.09756088256835938 0.837158203125 -4.4873046875 -0.00023978948593139648 0.0008170902729034424 0.01493072509765625 -0.11855316162109375
17.8705 -0.06804275512695312 0.10587692260742188 0.51513671875 -4.51806640625 0.0007965564727783203 0.002014756202697754 0.008701324462890625 -0.11742019653320312
17.88025 -0.06350326538085938 0.11249160766601562 0.201171875 -4.54638671875 0.0010309219360351562 0.0010603666305541992 0.002590179443359375 -0.11655044555664062
17.89 -0.057140350341796875 0.11782455444335938 -0.114013671875 -4.5673828125 -0.0007838904857635498 0.00045871734619140625 -0.003101348876953125 -0.11478805541992188
17.89975 -0.05035400390625 0.12303924560546875 -0.45751953125 -4.5654296875 0.0005773305892944336 0.0013862848281860352 -0.009002685546875 -0.1151885986328125
17.9095 -0.04510498046875 0.12772369384765625 -0.814453125 -4.550048828125 0.0012717247009277344 0.00017505884170532227 -0.01470947265625 -0.112457275390625
17.91925 -0.0379180908203125 0.13199615478515625 -1.177734375 -4.482177734375 0.0003998279571533203 0.0007107257843017578 -0.02007293701171875 -0.11023712158203125
17.929 -0.0305328369140625 0.13702392578125 -1.537109375 -4.388671875 0.00030618906021118164 0.0005936026573181152 -0.0268096923828125 -0.1093902587890625
17.93875 -0.02569580078125 0.1407470703125 -1.8798828125 -4.239990234375 -0.00010653585195541382 -6.0789287090301514e-05 -0.03081512451171875 -0.105621337890625
17.9485 -0.016204833984375 0.143890380859375 -2.18798828125 -4.0654296875 -0.0004832148551940918 0.001371920108795166 -0.036865234375 -0.099456787109375
17.95825 -0.00963592529296875 0.14608001708984375 -2.47607421875 -3.875 0.0026189088821411133 0.00030815601348876953 -0.04071044921875 -0.09690093994140625
17.968 4.57763671875e-05 0.15001678466796875 -2.73583984375 -3.678955078125 -6.13480806350708e-05 0.00027851760387420654 -0.04769134521484375 -0.09358978271484375
17.97775 0.00719451904296875 0.1506195068359375 -2.98291015625 -3.476318359375 0.0016693472862243652 3.337860107421875e-06 -0.0517578125 -0.08568572998046875
17.9875 0.0177001953125 0.15245819091796875 -3.23388671875 -3.260009765625 0.0008297264575958252 -0.00031307339668273926 -0.05670928955078125 -0.08438873291015625
17.99725 0.02571868896484375 0.1538238525390625 -3.4814453125 -3.033935546875 0.0007001757621765137 0.0008946657180786133 -0.05908203125 -0.0781402587890625
18.007 0.0348052978515625 0.15329742431640625 -3.729736328125 -2.77734375 0.0014390945434570312 -0.0008199810981750488 -0.064453125 -0.0728607177734375
18.01675 0.04291534423828125 0.154754638671875 -3.954345703125 -2.48974609375 0.0010707378387451172 -0.000279843807220459 -0.06941986083984375 -0.068023681640625
18.0265 0.051116943359375 0.154693603515625 -4.16064453125 -2.1708984375 0.0003813505172729492 0.0007518529891967773 -0.07452392578125 -0.06280517578125
18.03625 0.05914306640625 0.1572418212890625 -4.3232421875 -1.82275390625 0.00018006563186645508 -0.0007872581481933594 -0.07672119140625 -0.0565338134765625
18.046 0.06805419921875 0.1551666259765625 -4.4443359375 -1.464599609375 0.0005056262016296387 0.00010719895362854004 -0.07916259765625 -0.05001068115234375
18.05575 0.0772705078125 0.14996337890625 -4.527587890625 -1.12109375 0.001764535903930664 0.00043976306915283203 -0.08289337158203125 -0.04325103759765625
18.0655 0.08478546142578125 0.14931488037109375 -4.576416015625 -0.778564453125 0.0006495118141174316 0.00038355588912963867 -0.0868988037109375 -0.037075042724609375
18.07525 0.09275054931640625 0.147552490234375 -4.614990234375 -0.441162109375 0.0007207393646240234 0.00042241811752319336 -0.08705902099609375 -0.03220367431640625
18.085 0.1022796630859375 0.1452178955078125 -4.641845703125 -0.103271484375 0.001272737979888916 -0.00020831823348999023 -0.08785247802734375 -0.022701263427734375
18.09475 0.109619140625 0.1415252685546875 -4.652587890625 0.238525390625 0.0006076693534851074 0.0009378194808959961 -0.08625030517578125 -0.0177764892578125
18.1045 0.116729736328125 0.1355743408203125 -4.636962890625 0.589111328125 0.0010586977005004883 0.00072479248046875 -0.08916854858398438 -0.00899505615234375
18.11425 0.1250762939453125 0.1326446533203125 -4.59423828125 0.951904296875 0.00017152726650238037 0.00012615323066711426 -0.087921142578125 -0.003513336181640625
18.124 0.131927490234375 0.12762451171875 -4.515625 1.310546875 0.0006984472274780273 0.00012737512588500977 -0.08599853515625 0.00495147705078125
18.13375 0.138946533203125 0.122955322265625 -4.41552734375 1.658935546875 0.001362442970275879 -0.0004336237907409668 -0.08469009399414062 0.011783599853515625
18.1435 0.1443939208984375 0.1166534423828125 -4.263671875 1.996337890625 0.0013060569763183594 0.0003166794776916504 -0.08564376831054688 0.02132415771484375
18.15325 0.152313232421875 0.1102752685546875 -4.09228515625 2.321044921875 0.0002351999282836914 -0.0003035515546798706 -0.08547210693359375 0.026611328125
18.163 0.159027099609375 0.1027069091796875 -3.89697265625 2.6199951171875 0.0007205009460449219 0.0003446340560913086 -0.08118057250976562 0.0350341796875
18.17275 0.1629638671875 0.0966644287109375 -3.6865234375 2.9078369140625 -0.0004093050956726074 -0.00021961331367492676 -0.0768585205078125 0.041683197021484375
18.1825 0.17034912109375 0.0880279541015625 -3.467529296875 3.185791015625 -0.0002655833959579468 -0.0001261979341506958 -0.07394790649414062 0.051441192626953125
18.19225 0.175506591796875 0.08074951171875 -3.22314453125 3.4605712890625 0.0012568235397338867 -0.00033539533615112305 -0.07005691528320312 0.05535125732421875
18.202 0.1802978515625 0.0741729736328125 -2.9500732421875 3.6947021484375 0.0004169344902038574 0.001009523868560791 -0.06665802001953125 0.06284713745117188
18.21175 0.1831207275390625 0.06683349609375 -2.648681640625 3.92919921875 0.0006551146507263184 -0.0004666447639465332 -0.06162261962890625 0.06987762451171875
18.2215 0.18854522705078125 0.05803680419921875 -2.326171875 4.122802734375 -0.0001500248908996582 0.0005714893341064453 -0.054172515869140625 0.07476043701171875
18.23125 0.19133758544921875 0.05027008056640625 -2.0048828125 4.28662109375 0.0002613067626953125 -0.0007769167423248291 -0.0509033203125 0.07826995849609375
18.241 0.19477081298828125 0.04044342041015625 -1.663818359375 4.412841796875 0.00036537647247314453 -0.0003708153963088989 -0.045162200927734375 0.08353805541992188
18.25075 0.1958465576171875 0.032867431640625 -1.325439453125 4.518798828125 -0.0006923079490661621 -0.0008996129035949707 -0.038303375244140625 0.08808517456054688
18.2605 0.197601318359375 0.024200439453125 -0.983642578125 4.59716796875 0.0007189810276031494 -0.0008062124252319336 -0.03199005126953125 0.09177398681640625
18.27025 0.19820404052734375 0.01519012451171875 -0.6416015625 4.66796875 -0.0001773238182067871 -0.0008448362350463867 -0.023578643798828125 0.09659576416015625
18.28 0.19898223876953125 0.00580596923828125 -0.2763671875 4.7216796875 0.0008042752742767334 -0.00043267011642456055 -0.01641845703125 0.0974273681640625
18.28975 0.19966888427734375 -0.0043792724609375 0.084716796875 4.74560546875 -0.0006592273712158203 -0.0005231499671936035 -0.005764007568359375 0.10205841064453125
18.2995 0.1998291015625 -0.01324462890625 0.46240234375 4.725341796875 -1.2390315532684326e-05 -0.00019278377294540405 0.000370025634765625 0.10100555419921875
18.30925 0.199188232421875 -0.0228729248046875 0.84619140625 4.66552734375 0.0005254745483398438 -2.008676528930664e-05 0.00890350341796875 0.1018218994140625
18.319 0.19667816162109375 -0.0331878662109375 1.211669921875 4.56982421875 0.0008762180805206299 -0.0005319118499755859 0.01688385009765625 0.10528182983398438
18.32875 0.1937255859375 -0.03887176513671875 1.552978515625 4.44384765625 0.0006812214851379395 -0.0007993578910827637 0.02696990966796875 0.10472869873046875
18.3385 0.19284820556640625 -0.05103302001953125 1.8740234375 4.2890625 0.0001361370086669922 0.00042119622230529785 0.03809356689453125 0.106048583984375
18.34825 0.190948486328125 -0.05847930908203125 2.18359375 4.142822265625 0.00026801228523254395 0.0004776418209075928 0.043701171875 0.10417938232421875
18.358 0.18656158447265625 -0.06740570068359375 2.478271484375 3.971435546875 -0.0009759664535522461 -6.0498714447021484e-05 0.05254364013671875 0.1027984619140625
18.36775 0.1831817626953125 -0.0751190185546875 2.78271484375 3.779541015625 -0.00010907649993896484 -0.0003141164779663086 0.06174468994140625 0.0988006591796875
18.3775 0.18093109130859375 -0.08221435546875 3.06494140625 3.57373046875 0.0005989670753479004 0.0009128451347351074 0.06801605224609375 0.09581756591796875
18.38725 0.17597198486328125 -0.0909881591796875 3.352294921875 3.318603515625 0.0010669231414794922 0.00040078163146972656 0.0765838623046875 0.091888427734375
18.397 0.17108154296875 -0.0989990234375 3.61181640625 3.0361328125 -0.0003294646739959717 0.00014796853065490723 0.083892822265625 0.0879974365234375
18.40675 0.1649169921875 -0.1042938232421875 3.84765625 2.71728515625 -0.00010585784912109375 -0.0002879798412322998 0.0919036865234375 0.081634521484375
18.4165 0.16063690185546875 -0.11115264892578125 4.0205078125 2.389404296875 -1.6517937183380127e-05 -0.0001512765884399414 0.09832763671875 0.07740020751953125
18.42625 0.154388427734375 -0.11840057373046875 4.160400390625 2.052490234375 0.0008634328842163086 0.0008676052093505859 0.105377197265625 0.0714569091796875
18.436 0.1464080810546875 -0.12353515625 4.26708984375 1.725830078125 0.00028537213802337646 -8.809566497802734e-05 0.11194610595703125 0.064361572265625
18.44575 0.13823699951171875 -0.12845611572265625 4.36181640625 1.408447265625 0.0010117888450622559 -0.000491797924041748 0.1150360107421875 0.05663299560546875
18.4555 0.1321563720703125 -0.13421630859375 4.43896484375 1.095947265625 0.0005310475826263428 -0.0003223419189453125 0.1209564208984375 0.04840850830078125
18.46525 0.12532806396484375 -0.1393890380859375 4.516357421875 0.77490234375 0.00030553340911865234 0.00020208954811096191 0.12481689453125 0.0381927490234375
18.475 0.116851806640625 -0.14406585693359375 4.58154296875 0.438232421875 0.00017473101615905762 -0.000666201114654541 0.12935638427734375 0.03076934814453125
18.48475 0.11114501953125 -0.14934539794921875 4.61376953125 0.076171875 -0.0012015700340270996 -0.0001779794692993164 0.1314849853515625 0.021392822265625
18.4945 0.102783203125 -0.15186309814453125 4.5986328125 -0.30029296875 0.0008793473243713379 -0.0010842680931091309 0.1332244873046875 0.0113983154296875
18.50425 0.0943756103515625 -0.1564788818359375 4.55078125 -0.6806640625 0.0007202625274658203 -0.000723421573638916 0.135345458984375 0.00341796875
18.514 0.088348388671875 -0.1591644287109375 4.449951171875 -1.039306640625 0.00016026198863983154 0.000118255615234375 0.13689422607421875 -0.00634765625
18.52375 0.0794525146484375 -0.16002655029296875 4.31103515625 -1.3701171875 -0.0002906918525695801 -0.0003401041030883789 0.13541412353515625 -0.01514434814453125
18.5335 0.07286834716796875 -0.1625518798828125 4.156494140625 -1.66748046875 0.0006589293479919434 0.0004969239234924316 0.13634490966796875 -0.0252227783203125
18.54325 0.064910888671875 -0.16461944580078125 3.9957275390625 -1.9339599609375 0.0007418990135192871 -0.001183152198791504 0.13297271728515625 -0.033782958984375
18.553 0.05811309814453125 -0.16674041748046875 3.8260498046875 -2.1927490234375 7.402896881103516e-05 0.0006979703903198242 0.13001251220703125 -0.03973388671875
18.56275 0.0498504638671875 -0.16536712646484375 3.6639404296875 -2.4510498046875 0.0004779994487762451 -0.0006877779960632324 0.12789154052734375 -0.04955291748046875
18.5725 0.0435028076171875 -0.16556549072265625 3.479736328125 -2.7034912109375 0.00036787986755371094 -0.0015024542808532715 0.12220382690429688 -0.0569000244140625
18.58225 0.03629302978515625 -0.16674041748046875 3.27197265625 -2.953125 -0.0001719743013381958 -0.00031387805938720703 0.11736679077148438 -0.06653213500976562
18.592 0.0276947021484375 -0.166534423828125 3.0286865234375 -3.1953125 -0.00015223026275634766 0.0012944936752319336 0.11075592041015625 -0.0719757080078125
18.60175 0.021026611328125 -0.1646270751953125 2.76123046875 -3.413818359375 0.0005965232849121094 -0.0009273886680603027 0.10541534423828125 -0.0783843994140625
18.6115 0.01280975341796875 -0.16287994384765625 2.4722900390625 -3.593505859375 0.0012218952178955078 -0.0008722543716430664 0.10029220581054688 -0.08643341064453125
18.62125 0.00626373291015625 -0.1627044677734375 2.1826171875 -3.73828125 0.0009343624114990234 -0.0012032389640808105 0.09247970581054688 -0.09067153930664062
18.631 -0.00188446044921875 -0.16204833984375 1.90478515625 -3.84033203125 -0.0003647804260253906 -0.00039631128311157227 0.08603286743164062 -0.09552001953125
18.64075 -0.008209228515625 -0.160400390625 1.6259765625 -3.9310302734375 -8.291006088256836e-05 -0.0009333491325378418 0.080169677734375 -0.09853363037109375
18.6505 -0.0144195556640625 -0.1584930419921875 1.3583984375 -4.01220703125 0.0004980266094207764 -0.00026744604110717773 0.07251739501953125 -0.10303115844726562
18.66025 -0.023529052734375 -0.15508270263671875 1.090576171875 -4.087646484375 0.0006261169910430908 -0.00023791193962097168 0.06370162963867188 -0.10486984252929688
18.67 -0.0286407470703125 -0.152618408203125 0.814208984375 -4.156494140625 0.0004687309265136719 -0.0018240809440612793 0.05937957763671875 -0.1067047119140625
18.67975 -0.0360107421875 -0.14940643310546875 0.523193359375 -4.21826171875 -0.0005309581756591797 -0.0016525983810424805 0.049465179443359375 -0.10894012451171875
18.6895 -0.0419769287109375 -0.147674560546875 0.21142578125 -4.2490234375 0.0004756450653076172 -0.0013370513916015625 0.0439300537109375 -0.10760879516601562
