!Created with skrf (http://scikit-rf.org).
# GHz S RI R 50.0 
!freq ReS11 ImS11 ReS21 ImS21 ReS12 ImS12 ReS22 ImS22
17.5 0.01617431640625 -0.140869140625 -1.16357421875 4.44140625 -0.0014650225639343262 6.586313247680664e-05 0.09287261962890625 0.013702392578125
17.50975 0.0087432861328125 -0.13774871826171875 -0.797119140625 4.518798828125 -0.0011606216430664062 0.00032633543014526367 0.09703445434570312 0.011051177978515625
17.5195 0.0006866455078125 -0.13602447509765625 -0.425048828125 4.551025390625 -0.001201033592224121 -9.226799011230469e-05 0.10078811645507812 0.011260986328125
17.52925 -0.00820159912109375 -0.1318511962890625 -0.060302734375 4.56494140625 -0.0005812644958496094 0.00011923909187316895 0.10295486450195312 0.00540924072265625
17.539 -0.0134124755859375 -0.1268310546875 0.29638671875 4.54248046875 -0.0010744333267211914 0.0010641813278198242 0.10678863525390625 0.00305938720703125
17.54875 -0.02264404296875 -0.1235809326171875 0.643798828125 4.48779296875 -0.0011751651763916016 0.0002993941307067871 0.109771728515625 0.000690460205078125
17.5585 -0.03266143798828125 -0.1201019287109375 0.983154296875 4.423828125 -0.0005655288696289062 0.0027674436569213867 0.11223983764648438 -0.003582000732421875
17.56825 -0.03607177734375 -0.117034912109375 1.310546875 4.342041015625 -0.0008869767189025879 0.00032192468643188477 0.11352920532226562 -0.00865936279296875
17.578 -0.04521942138671875 -0.1117706298828125 1.654052734375 4.22998046875 -0.0011394023895263672 0.000835120677947998 0.11716461181640625 -0.0124359130859375
17.58775 -0.05152130126953125 -0.107452392578125 1.99267578125 4.089111328125 -0.0014224648475646973 0.0015366673469543457 0.11870193481445312 -0.015483856201171875
17.5975 -0.055999755859375 -0.10120391845703125 2.32861328125 3.9033203125 -0.0012548565864562988 0.0010845065116882324 0.1192474365234375 -0.0211944580078125
17.60725 -0.06267547607421875 -0.0968017578125 2.630859375 3.687744140625 0.00040280818939208984 0.0009053945541381836 0.12013626098632812 -0.02404022216796875
17.617 -0.066375732421875 -0.09041595458984375 2.9072265625 3.442138671875 1.6808509826660156e-05 0.0012782812118530273 0.12155914306640625 -0.029468536376953125
17.62675 -0.0727386474609375 -0.08274078369140625 3.149169921875 3.175048828125 -0.0010041594505310059 0.0015984773635864258 0.1219024658203125 -0.0341339111328125
17.6365 -0.0773468017578125 -0.07574462890625 3.353515625 2.8955078125 -0.0005918741226196289 0.0009813308715820312 0.12140655517578125 -0.04129791259765625
17.64625 -0.0804595947265625 -0.06917572021484375 3.526611328125 2.6298828125 -0.000993490219116211 0.0013521909713745117 0.11945343017578125 -0.04628753662109375
17.656 -0.08449554443359375 -0.06464385986328125 3.6875 2.364990234375 -0.0014911890029907227 0.0016819238662719727 0.11783981323242188 -0.050457000732421875
17.66575 -0.087982177734375 -0.05429840087890625 3.841064453125 2.10693359375 -0.0005840063095092773 0.0015497207641601562 0.11622238159179688 -0.055751800537109375
17.6755 -0.0908660888671875 -0.04864501953125 3.983642578125 1.83544921875 -0.0013949275016784668 0.0009744763374328613 0.11321640014648438 -0.061573028564453125
17.68525 -0.093292236328125 -0.04044342041015625 4.142333984375 1.564453125 -0.00020509958267211914 0.00044733285903930664 0.11051559448242188 -0.06905364990234375
17.695 -0.09600830078125 -0.03098297119140625 4.281005859375 1.2431640625 -0.0004572272300720215 0.0007597804069519043 0.11059951782226562 -0.07292938232421875
17.70475 -0.09786224365234375 -0.022335052490234375 4.39013671875 0.8896484375 -0.00014418363571166992 0.0010770559310913086 0.1063995361328125 -0.0771942138671875
17.7145 -0.09993743896484375 -0.016086578369140625 4.4677734375 0.50732421875 -0.0014303326606750488 0.0011233687400817871 0.10197830200195312 -0.08234786987304688
17.72425 -0.10087203979492188 -0.00719451904296875 4.4794921875 0.125732421875 0.0005840063095092773 0.0013458728790283203 0.09746932983398438 -0.088714599609375
17.734 -0.10190582275390625 -9.1552734375e-05 4.44140625 -0.24267578125 0.0006017684936523438 0.0018936395645141602 0.09587860107421875 -0.0918121337890625
17.74375 -0.10279083251953125 0.0070037841796875 4.35693359375 -0.58349609375 -0.0005486011505126953 0.0016913414001464844 0.088470458984375 -0.0963897705078125
17.7535 -0.10153961181640625 0.014495849609375 4.260009765625 -0.891845703125 -4.607439041137695e-05 0.0011082291603088379 0.08457565307617188 -0.0999298095703125
17.76325 -0.09946060180664062 0.023197174072265625 4.16796875 -1.17529296875 -0.0006986856460571289 0.002402782440185547 0.07989120483398438 -0.10274887084960938
17.773 -0.10154342651367188 0.030059814453125 4.067626953125 -1.444091796875 0.0007488131523132324 0.0006121397018432617 0.0758514404296875 -0.10712432861328125
17.78275 -0.099609375 0.036785125732421875 3.9615478515625 -1.7216796875 -0.0006282329559326172 0.0013118386268615723 0.06969070434570312 -0.10800933837890625
17.7925 -0.09675979614257812 0.044246673583984375 3.85107421875 -2.0062255859375 0.000568389892578125 0.0006881356239318848 0.06332778930664062 -0.11133575439453125
17.80225 -0.0942535400390625 0.0514984130859375 3.7183837890625 -2.3067626953125 -0.0009772777557373047 0.0024851560592651367 0.05962371826171875 -0.11379623413085938
17.812 -0.09111404418945312 0.06023406982421875 3.5435791015625 -2.6011962890625 -7.49826431274414e-05 0.0015253424644470215 0.0519256591796875 -0.11353683471679688
17.82175 -0.08686065673828125 0.0676116943359375 3.33203125 -2.889892578125 0.00033104419708251953 0.00012345612049102783 0.047882080078125 -0.11463546752929688
17.8315 -0.0845489501953125 0.0743560791015625 3.0810546875 -3.1478271484375 0.0006121397018432617 0.0013642311096191406 0.038745880126953125 -0.11640548706054688
17.84125 -0.07959747314453125 0.08007049560546875 2.8154296875 -3.3779296875 0.001085519790649414 0.001016378402709961 0.0324859619140625 -0.116455078125
17.851 -0.07537841796875 0.08894729614257812 2.5208740234375 -3.551513671875 0.0006057322025299072 0.00013706088066101074 0.0275115966796875 -0.11739730834960938
17.86075 -0.07322311401367188 0.09466552734375 2.2489013671875 -3.705078125 0.001845240592956543 0.0010869503021240234 0.018764495849609375 -0.1148529052734375
17.8705 -0.0664215087890625 0.10081100463867188 1.977783203125 -3.8404541015625 0.0013383030891418457 0.000518798828125 0.01494598388671875 -0.11580657958984375
17.88025 -0.061946868896484375 0.10803604125976562 1.70458984375 -3.969970703125 -0.0002391338348388672 0.001011192798614502 0.006603240966796875 -0.11400222778320312
17.89 -0.056377410888671875 0.1136627197265625 1.435546875 -4.088623046875 0.0010575056076049805 0.002065300941467285 0.001613616943359375 -0.11420059204101562
17.89975 -0.0517425537109375 0.120849609375 1.134765625 -4.208251953125 0.0011344552040100098 0.0006632804870605469 -0.004093170166015625 -0.11382293701171875
17.9095 -0.04587554931640625 0.12488555908203125 0.815673828125 -4.31298828125 0.0009573101997375488 0.0005859136581420898 -0.010822296142578125 -0.11220932006835938
17.91925 -0.0384979248046875 0.12863922119140625 0.476806640625 -4.3818359375 -0.00046011805534362793 0.0006694495677947998 -0.0149993896484375 -0.1108551025390625
17.929 -0.031097412109375 0.1317596435546875 0.1279296875 -4.4228515625 0.0011463165283203125 0.001527547836303711 -0.02386474609375 -0.1082000732421875
17.93875 -0.02495574951171875 0.136138916015625 -0.22802734375 -4.410888671875 0.0009074807167053223 0.0009711980819702148 -0.028472900390625 -0.105865478515625
17.9485 -0.01801300048828125 0.1390380859375 -0.55908203125 -4.3603515625 0.00032448768615722656 0.001844167709350586 -0.03255462646484375 -0.102386474609375
17.95825 -0.011138916015625 0.14267730712890625 -0.87841796875 -4.291748046875 0.00038552284240722656 0.0010395646095275879 -0.0360107421875 -0.0983123779296875
17.968 -0.00315093994140625 0.14456939697265625 -1.17822265625 -4.208740234375 0.0020807981491088867 0.00040471553802490234 -0.04375457763671875 -0.09566497802734375
17.97775 0.00484466552734375 0.1479949951171875 -1.46435546875 -4.113037109375 0.0015828609466552734 0.0006878376007080078 -0.0482330322265625 -0.08931732177734375
17.9875 0.01444244384765625 0.1493682861328125 -1.765625 -4.016357421875 0.0004169940948486328 0.001252293586730957 -0.05029296875 -0.084930419921875
17.99725 0.02130126953125 0.150390625 -2.06298828125 -3.904541015625 0.0006979107856750488 0.0008499026298522949 -0.05742645263671875 -0.08197021484375
18.007 0.0304718017578125 0.151763916015625 -2.3671875 -3.76171875 0.00019547343254089355 0.00040844082832336426 -0.06018829345703125 -0.07587432861328125
18.01675 0.03932952880859375 0.15305328369140625 -2.666748046875 -3.5859375 0.0009209513664245605 0.0007031559944152832 -0.06404876708984375 -0.07111358642578125
18.0265 0.046630859375 0.152801513671875 -2.96044921875 -3.37939453125 0.00032699108123779297 0.0007450580596923828 -0.0702362060546875 -0.06475830078125
18.03625 0.0565032958984375 0.1542205810546875 -3.22900390625 -3.12841796875 0.0009301304817199707 -8.368492126464844e-05 -0.07403564453125 -0.05963134765625
18.046 0.06516265869140625 0.15373992919921875 -3.466552734375 -2.857177734375 0.0010963678359985352 -0.0004906654357910156 -0.07541656494140625 -0.05345916748046875
18.05575 0.07318115234375 0.150421142578125 -3.665283203125 -2.58251953125 0.0001550912857055664 0.001072227954864502 -0.08026123046875 -0.047760009765625
18.0655 0.0802459716796875 0.14994049072265625 -3.834716796875 -2.2958984375 0.00035703182220458984 0.0005891621112823486 -0.08475494384765625 -0.04016876220703125
18.07525 0.08838653564453125 0.14699554443359375 -3.98779296875 -2.006103515625 0.0021096467971801758 -0.00024235248565673828 -0.0851898193359375 -0.034389495849609375
18.085 0.09723663330078125 0.14475250244140625 -4.13134765625 -1.710693359375 0.0008409619331359863 0.00013506412506103516 -0.08836746215820312 -0.0280914306640625
18.09475 0.10446929931640625 0.14019775390625 -4.260009765625 -1.406005859375 -1.8328428268432617e-05 0.0006201863288879395 -0.08559799194335938 -0.022705078125
18.1045 0.113006591796875 0.137420654296875 -4.377197265625 -1.088623046875 0.00026619434356689453 0.0007185935974121094 -0.0904998779296875 -0.016323089599609375
18.11425 0.121002197265625 0.1352081298828125 -4.464111328125 -0.745849609375 0.0008036494255065918 -0.0004684329032897949 -0.08829879760742188 -0.008716583251953125
18.124 0.127410888671875 0.129608154296875 -4.525390625 -0.39453125 0.0006837844848632812 0.0003401041030883789 -0.08774566650390625 0.00032806396484375
18.13375 0.1345672607421875 0.125335693359375 -4.55078125 -0.043212890625 0.000751495361328125 0.001123189926147461 -0.08727264404296875 0.007617950439453125
18.1435 0.1410064697265625 0.119140625 -4.53955078125 0.309814453125 0.0007296204566955566 0.0003084540367126465 -0.08743667602539062 0.015979766845703125
18.15325 0.14910888671875 0.1127777099609375 -4.50537109375 0.667724609375 0.00015844404697418213 -0.0003496706485748291 -0.0856475830078125 0.0213165283203125
18.163 0.156280517578125 0.1060028076171875 -4.443115234375 1.008544921875 0.000858992338180542 5.963444709777832e-05 -0.0830230712890625 0.02935028076171875
18.17275 0.162109375 0.099822998046875 -4.352783203125 1.346435546875 -0.00016808509826660156 -0.00017435848712921143 -0.080352783203125 0.037067413330078125
18.1825 0.167694091796875 0.0926971435546875 -4.254150390625 1.676513671875 0.0006425678730010986 -0.0006763339042663574 -0.07677459716796875 0.04479217529296875
18.19225 0.1724395751953125 0.08538818359375 -4.1279296875 2.013916015625 -0.000379413366317749 -0.00037539005279541016 -0.07152557373046875 0.0531768798828125
18.202 0.1767578125 0.0797576904296875 -3.968994140625 2.3299560546875 0.0001225396990776062 4.456937313079834e-05 -0.069793701171875 0.05876922607421875
18.21175 0.18218994140625 0.07147216796875 -3.7744140625 2.651123046875 0.0019223690032958984 0.00034499168395996094 -0.06423187255859375 0.06640625
18.2215 0.18747711181640625 0.0605316162109375 -3.5509033203125 2.9461669921875 0.0003789067268371582 -0.0008829236030578613 -0.058868408203125 0.07073211669921875
18.23125 0.19182586669921875 0.05340576171875 -3.3070068359375 3.206298828125 -9.083747863769531e-05 -0.000922083854675293 -0.053722381591796875 0.0743408203125
18.241 0.19335174560546875 0.04627227783203125 -3.0445556640625 3.44775390625 0.00013056397438049316 0.0002518594264984131 -0.048458099365234375 0.07971572875976562
18.25075 0.19675445556640625 0.03536224365234375 -2.77197265625 3.660888671875 0.0009743571281433105 5.519390106201172e-05 -0.04319000244140625 0.08606338500976562
18.2605 0.1975860595703125 0.02727508544921875 -2.4871826171875 3.85546875 0.002637624740600586 -7.748603820800781e-06 -0.0345916748046875 0.08940505981445312
18.27025 0.198760986328125 0.01953887939453125 -2.1953125 4.03857421875 0.0004995465278625488 7.984042167663574e-05 -0.0275421142578125 0.09378814697265625
18.28 0.20192718505859375 0.00920867919921875 -1.883056640625 4.21826171875 -0.00046831369400024414 -0.000692903995513916 -0.02203369140625 0.09533309936523438
18.28975 0.20200347900390625 -0.0011138916015625 -1.553466796875 4.3642578125 -0.0005085468292236328 -0.000878453254699707 -0.013111114501953125 0.1011199951171875
18.2995 0.2007293701171875 -0.009521484375 -1.2021484375 4.48388671875 0.0007806122303009033 -0.0009160935878753662 -0.00576019287109375 0.10039520263671875
18.30925 0.2011871337890625 -0.0201568603515625 -0.82568359375 4.56494140625 0.0007899999618530273 -0.00044840574264526367 0.0058746337890625 0.10358428955078125
18.319 0.19805908203125 -0.0297698974609375 -0.456298828125 4.611083984375 -9.894371032714844e-06 -0.001673579216003418 0.01078033447265625 0.1066436767578125
18.32875 0.19657135009765625 -0.0360870361328125 -0.0927734375 4.607421875 0.000223502516746521 -0.00034925341606140137 0.02158355712890625 0.10498428344726562
18.3385 0.19606781005859375 -0.04813385009765625 0.259033203125 4.576904296875 -2.6851892471313477e-05 -0.000838160514831543 0.03156280517578125 0.1059722900390625
18.34825 0.19361114501953125 -0.056182861328125 0.59716796875 4.539306640625 -5.5704265832901e-05 0.00010387599468231201 0.03963470458984375 0.10599517822265625
18.358 0.190582275390625 -0.06458282470703125 0.9267578125 4.48486328125 -0.00011211633682250977 0.00029963254928588867 0.04895782470703125 0.1021270751953125
18.36775 0.18805694580078125 -0.07277679443359375 1.267578125 4.40234375 0.001567065715789795 -0.0006396770477294922 0.0566558837890625 0.099945068359375
18.3775 0.1855316162109375 -0.08087158203125 1.600830078125 4.31396484375 0.0007193386554718018 -0.0007018148899078369 0.0667266845703125 0.0978546142578125
18.38725 0.17957305908203125 -0.09029388427734375 1.953125 4.17919921875 -0.0014500617980957031 -0.0003401041030883789 0.07207489013671875 0.09682464599609375
18.397 0.1755523681640625 -0.0976715087890625 2.2890625 4.00341796875 -0.0004903078079223633 -0.0009238719940185547 0.0797119140625 0.09173583984375
18.40675 0.168670654296875 -0.1030731201171875 2.61181640625 3.79296875 -0.0006184577941894531 -0.0014612674713134766 0.08856201171875 0.0876617431640625
18.4165 0.16257476806640625 -0.11165618896484375 2.89306640625 3.55126953125 0.0003689229488372803 -0.0002834796905517578 0.09433746337890625 0.08121490478515625
18.42625 0.1564483642578125 -0.11814117431640625 3.135986328125 3.28662109375 -5.406886339187622e-05 9.715557098388672e-05 0.102142333984375 0.0753021240234375
18.436 0.150787353515625 -0.1248931884765625 3.346435546875 3.01953125 -0.0006145834922790527 0.0004468262195587158 0.11067962646484375 0.0690765380859375
18.44575 0.1426544189453125 -0.13129425048828125 3.534423828125 2.754150390625 0.00015281140804290771 -0.00033274292945861816 0.11438751220703125 0.060699462890625
18.4555 0.1346893310546875 -0.13503265380859375 3.71435546875 2.491455078125 0.00039821863174438477 0.0004120469093322754 0.118316650390625 0.05322265625
18.46525 0.1291961669921875 -0.14141845703125 3.89404296875 2.22119140625 -0.00010129809379577637 0.000711977481842041 0.12444305419921875 0.04286956787109375
18.475 0.11975860595703125 -0.1455535888671875 4.062744140625 1.932861328125 0.0007726550102233887 0.0005235075950622559 0.1285247802734375 0.03542327880859375
18.48475 0.114227294921875 -0.151458740234375 4.2138671875 1.61083984375 0.00038407742977142334 -0.0004148036241531372 0.13161468505859375 0.0260009765625
18.4945 0.10480499267578125 -0.15319061279296875 4.332763671875 1.258544921875 0.00014316290616989136 8.899718523025513e-05 0.1351318359375 0.01624298095703125
18.50425 0.0971832275390625 -0.1592559814453125 4.4130859375 0.89111328125 9.530782699584961e-05 0.0003407299518585205 0.1350860595703125 0.0070037841796875
18.514 0.09002685546875 -0.1610260009765625 4.44140625 0.5263671875 0.0005911588668823242 -0.001032710075378418 0.13739013671875 -0.000640869140625
18.52375 0.080810546875 -0.16278076171875 4.419189453125 0.171875 0.0008602440357208252 -0.0008887350559234619 0.13730621337890625 -0.0114898681640625
18.5335 0.07323455810546875 -0.1649627685546875 4.3818359375 -0.156982421875 8.314847946166992e-05 -0.0003662705421447754 0.1371917724609375 -0.019775390625
18.54325 0.06683349609375 -0.16735076904296875 4.3193359375 -0.45751953125 0.0001764744520187378 -0.00042401254177093506 0.13506317138671875 -0.0302734375
18.553 0.05877685546875 -0.1683197021484375 4.247314453125 -0.754638671875 0.00018417835235595703 -0.0010886192321777344 0.13338470458984375 -0.0360870361328125
18.56275 0.05107879638671875 -0.167266845703125 4.18359375 -1.044189453125 0.0009286403656005859 -0.0004767179489135742 0.13019561767578125 -0.04572296142578125
18.5725 0.04167938232421875 -0.16841888427734375 4.100830078125 -1.34228515625 0.000587761402130127 8.699297904968262e-05 0.12408447265625 -0.055034637451171875
18.58225 0.035125732421875 -0.169189453125 3.9912109375 -1.6435546875 -0.0005986690521240234 -0.0009384751319885254 0.12024307250976562 -0.062381744384765625
18.592 0.0266265869140625 -0.16834259033203125 3.8480224609375 -1.948486328125 0.0008496642112731934 -0.0004450976848602295 0.11687850952148438 -0.07101821899414062
18.60175 0.0192718505859375 -0.1676788330078125 3.676513671875 -2.244384765625 0.001608729362487793 -0.0008232593536376953 0.10945892333984375 -0.07611083984375
18.6115 0.012115478515625 -0.16576385498046875 3.468017578125 -2.50244140625 0.0005847811698913574 -0.0015086531639099121 0.1042938232421875 -0.08306884765625
18.62125 0.00368499755859375 -0.1645965576171875 3.2421875 -2.733154296875 0.0004748404026031494 -0.0003290921449661255 0.09747314453125 -0.08972549438476562
18.631 -0.00347137451171875 -0.16424560546875 3.0169677734375 -2.924072265625 -2.3990869522094727e-06 -0.0004698038101196289 0.09075927734375 -0.09375381469726562
18.64075 -0.00914764404296875 -0.16118621826171875 2.7877197265625 -3.0972900390625 9.757280349731445e-05 -0.0013009309768676758 0.0850067138671875 -0.09767532348632812
18.6505 -0.0169525146484375 -0.15964508056640625 2.5682373046875 -3.2608642578125 0.000395357608795166 -0.0004017651081085205 0.07770538330078125 -0.10141754150390625
18.66025 -0.0244903564453125 -0.15679168701171875 2.3446044921875 -3.4193115234375 2.1696090698242188e-05 -0.0006041526794433594 0.069671630859375 -0.10383987426757812
18.67 -0.02909088134765625 -0.1534271240234375 2.1103515625 -3.5770263671875 -6.654858589172363e-05 -0.00040209293365478516 0.0626068115234375 -0.10539627075195312
18.67975 -0.03795623779296875 -0.1509857177734375 1.85888671875 -3.727294921875 -8.434802293777466e-05 0.00010703876614570618 0.054409027099609375 -0.1081085205078125
18.6895 -0.04265594482421875 -0.14781951904296875 1.5816650390625 -3.857177734375 0.0011880993843078613 -0.0007985830307006836 0.0480194091796875 -0.10883712768554688
18.69925 -0.0486602783203125 -0.145477294921875 1.29541015625 -3.96826171875 0.0021867752075195312 -0.0007688999176025391 0.0426483154296875 -0.10736083984375
