!Created with skrf (http://scikit-rf.org).
# GHz S RI R 50.0 
!freq ReS11 ImS11 ReS21 ImS21 ReS12 ImS12 ReS22 ImS22
17.5 0.00722503662109375 -0.15471649169921875 4.824462890625 -0.0439453125 -0.0013150572776794434 0.00032192468643188477 0.11227035522460938 0.002521514892578125
17.50975 -0.0031890869140625 -0.15125274658203125 4.801025390625 -0.4267578125 -0.0021094083786010742 0.0007756948471069336 0.11427688598632812 -0.00083160400390625
17.5195 -0.0105438232421875 -0.14632415771484375 4.73583984375 -0.800537109375 -0.0007853209972381592 0.00040149688720703125 0.11776351928710938 -0.00231170654296875
17.52925 -0.02081298828125 -0.14298248291015625 4.656982421875 -1.164794921875 -0.000620722770690918 0.0007229447364807129 0.11894607543945312 -0.009708404541015625
17.539 -0.0276641845703125 -0.1365966796875 4.55126953125 -1.5185546875 -0.0018727779388427734 0.00038623809814453125 0.11959075927734375 -0.0113525390625
17.54875 -0.0357208251953125 -0.13324737548828125 4.410888671875 -1.84912109375 -0.0024461746215820312 0.0006287097930908203 0.121795654296875 -0.015567779541015625
17.5585 -0.04659271240234375 -0.127044677734375 4.268798828125 -2.18212890625 -0.0014130473136901855 0.0012562274932861328 0.12393951416015625 -0.020046234130859375
17.56825 -0.05194091796875 -0.122894287109375 4.11083984375 -2.4970703125 -0.0013685822486877441 0.00011837482452392578 0.12445449829101562 -0.0255126953125
17.578 -0.06067657470703125 -0.11571502685546875 3.9105224609375 -2.825439453125 -0.0005991458892822266 0.0012358427047729492 0.1256256103515625 -0.03073883056640625
17.58775 -0.0683135986328125 -0.1113128662109375 3.67919921875 -3.13427734375 -0.001077890396118164 0.0009623169898986816 0.12415313720703125 -0.03559112548828125
17.5975 -0.072845458984375 -0.103759765625 3.4066162109375 -3.43017578125 -0.0008848607540130615 0.0003076791763305664 0.124420166015625 -0.0417633056640625
17.60725 -0.07910919189453125 -0.09786224365234375 3.1077880859375 -3.68310546875 -0.00028061866760253906 0.0018794536590576172 0.12198257446289062 -0.044895172119140625
17.617 -0.0843963623046875 -0.0900726318359375 2.791015625 -3.900634765625 -0.0007395148277282715 0.0012912750244140625 0.122161865234375 -0.050312042236328125
17.62675 -0.0896759033203125 -0.0821990966796875 2.46240234375 -4.0791015625 -0.0009247064590454102 0.001185297966003418 0.12235260009765625 -0.05448150634765625
17.6365 -0.093780517578125 -0.07269287109375 2.13623046875 -4.22216796875 -0.001278996467590332 0.00021219253540039062 0.1195831298828125 -0.06108856201171875
17.64625 -0.09766387939453125 -0.06497955322265625 1.82275390625 -4.3388671875 -0.0010001659393310547 0.0016263723373413086 0.11560821533203125 -0.0645599365234375
17.656 -0.10062408447265625 -0.05759429931640625 1.516845703125 -4.44970703125 -0.0008833408355712891 -0.0001894831657409668 0.11156845092773438 -0.06950759887695312
17.66575 -0.1026763916015625 -0.0482025146484375 1.215576171875 -4.56298828125 -0.000634312629699707 0.001250147819519043 0.1111602783203125 -0.07571029663085938
17.6755 -0.10800933837890625 -0.03986358642578125 0.890869140625 -4.658935546875 -0.0004385709762573242 0.0019388794898986816 0.10615921020507812 -0.08051300048828125
17.68525 -0.10950469970703125 -0.03154754638671875 0.552978515625 -4.760009765625 -0.0008436441421508789 0.0008563697338104248 0.10312652587890625 -0.08485031127929688
17.695 -0.110595703125 -0.0224456787109375 0.173828125 -4.8359375 -0.0008782446384429932 0.0007692575454711914 0.09827423095703125 -0.08922195434570312
17.70475 -0.1115875244140625 -0.012908935546875 -0.232177734375 -4.862548828125 -0.0003594011068344116 0.0001805722713470459 0.09386062622070312 -0.09301376342773438
17.7145 -0.11290740966796875 -0.003025054931640625 -0.64892578125 -4.839599609375 -0.0009469985961914062 0.0003101825714111328 0.08799362182617188 -0.09704208374023438
17.72425 -0.11215591430664062 0.00592041015625 -1.05224609375 -4.751708984375 -0.000514984130859375 0.0012001991271972656 0.08280181884765625 -0.10082626342773438
17.734 -0.11299896240234375 0.01517486572265625 -1.4306640625 -4.6279296875 -0.001893758773803711 0.0008380413055419922 0.07782745361328125 -0.10498046875
17.74375 -0.11296844482421875 0.02265167236328125 -1.76513671875 -4.453125 0.0006020069122314453 0.0019092559814453125 0.0718536376953125 -0.1084442138671875
17.7535 -0.1087799072265625 0.029682159423828125 -2.072509765625 -4.2880859375 -0.0008514523506164551 0.0017824769020080566 0.0663299560546875 -0.11121749877929688
17.76325 -0.10717391967773438 0.039642333984375 -2.355712890625 -4.122802734375 -2.726912498474121e-05 -7.66552984714508e-05 0.060245513916015625 -0.1114349365234375
17.773 -0.10643386840820312 0.047725677490234375 -2.6298828125 -3.95751953125 -0.0007064342498779297 0.0013042688369750977 0.055606842041015625 -0.11229324340820312
17.78275 -0.10413360595703125 0.05489349365234375 -2.915283203125 -3.771240234375 -0.00016009807586669922 0.001346886157989502 0.04909515380859375 -0.11399459838867188
17.7925 -0.09975814819335938 0.06317520141601562 -3.20654296875 -3.576904296875 0.000773012638092041 0.0005906224250793457 0.04322052001953125 -0.11463546752929688
17.80225 -0.09526443481445312 0.06935501098632812 -3.5048828125 -3.34130859375 0.0010027289390563965 0.0007330775260925293 0.0380706787109375 -0.1163787841796875
17.812 -0.09037399291992188 0.07893753051757812 -3.785888671875 -3.0732421875 -0.0007406175136566162 0.0009033381938934326 0.02985382080078125 -0.1165618896484375
17.82175 -0.08516311645507812 0.08555984497070312 -4.03369140625 -2.76123046875 0.0013163089752197266 0.0012919902801513672 0.026432037353515625 -0.11347198486328125
17.8315 -0.08075332641601562 0.09370803833007812 -4.251708984375 -2.4189453125 0.0004010200500488281 0.0011306405067443848 0.0201873779296875 -0.1145782470703125
17.84125 -0.074615478515625 0.0989532470703125 -4.423828125 -2.0703125 0.00014144182205200195 0.0007793903350830078 0.01177978515625 -0.11321258544921875
17.851 -0.06951904296875 0.10692596435546875 -4.544921875 -1.711181640625 0.0006693601608276367 0.000994265079498291 0.0091094970703125 -0.11088180541992188
17.86075 -0.06355667114257812 0.11248779296875 -4.647705078125 -1.37158203125 6.447732448577881e-05 0.00039218366146087646 0.00092315673828125 -0.1094207763671875
17.8705 -0.057407379150390625 0.118011474609375 -4.733154296875 -1.031494140625 -0.00021636486053466797 0.001155257225036621 -0.005268096923828125 -0.10772705078125
17.88025 -0.05072021484375 0.12284469604492188 -4.812255859375 -0.68701171875 -0.00018709897994995117 0.0012525320053100586 -0.010589599609375 -0.10512924194335938
17.89 -0.044464111328125 0.12914276123046875 -4.876708984375 -0.3388671875 0.0010165572166442871 0.0004093050956726074 -0.015499114990234375 -0.10370254516601562
17.89975 -0.036895751953125 0.13253021240234375 -4.91748046875 0.04443359375 0.0014837980270385742 0.0019350051879882812 -0.020206451416015625 -0.10196304321289062
17.9095 -0.030364990234375 0.13732147216796875 -4.930419921875 0.44091796875 0.0010623931884765625 0.0012514591217041016 -0.0267333984375 -0.09868621826171875
17.91925 -0.02211761474609375 0.13765716552734375 -4.88916015625 0.84521484375 0.0015282630920410156 0.0004926919937133789 -0.0299072265625 -0.095184326171875
17.929 -0.0156097412109375 0.1426544189453125 -4.8173828125 1.2421875 -0.0005915164947509766 -0.0004489421844482422 -0.036834716796875 -0.092193603515625
17.93875 -0.00753021240234375 0.14409637451171875 -4.693359375 1.629638671875 -0.000835418701171875 0.0003120899200439453 -0.04018402099609375 -0.0876007080078125
17.9485 0.00115966796875 0.145111083984375 -4.5380859375 1.9794921875 0.0011686086654663086 0.001946568489074707 -0.0433197021484375 -0.083831787109375
17.95825 0.00827789306640625 0.14788818359375 -4.364990234375 2.31787109375 0.0010361671447753906 0.0019913911819458008 -0.045444488525390625 -0.07900619506835938
17.968 0.01642608642578125 0.1483917236328125 -4.182861328125 2.632568359375 0.0006601214408874512 0.0008265376091003418 -0.05043792724609375 -0.0759124755859375
17.97775 0.02477264404296875 0.14820098876953125 -3.980712890625 2.938232421875 0.0006729960441589355 -0.00016868114471435547 -0.05408477783203125 -0.070892333984375
17.9875 0.03277587890625 0.1486358642578125 -3.7647705078125 3.25048828125 0.0003936290740966797 0.0004420280456542969 -0.05558013916015625 -0.0673065185546875
17.99725 0.04193115234375 0.1479949951171875 -3.525634765625 3.553466796875 0.00036309659481048584 8.228421211242676e-05 -0.0597991943359375 -0.0620269775390625
18.007 0.0509796142578125 0.14804840087890625 -3.244140625 3.8475341796875 0.0014128684997558594 0.00047963857650756836 -0.06255340576171875 -0.055408477783203125
18.01675 0.0579986572265625 0.146728515625 -2.924072265625 4.11376953125 -7.060915231704712e-05 0.00022289901971817017 -0.06665802001953125 -0.04932403564453125
18.0265 0.0673675537109375 0.1446533203125 -2.57421875 4.35009765625 0.001669168472290039 0.0004627704620361328 -0.06726837158203125 -0.04508209228515625
18.03625 0.07407379150390625 0.14446258544921875 -2.19580078125 4.53857421875 0.00037789344787597656 0.00034487247467041016 -0.0704803466796875 -0.039058685302734375
18.046 0.08087158203125 0.14363861083984375 -1.80712890625 4.68896484375 0.0011170506477355957 -2.968311309814453e-05 -0.07114791870117188 -0.032444000244140625
18.05575 0.0892486572265625 0.13739776611328125 -1.4345703125 4.798095703125 0.0012469887733459473 -0.0007219314575195312 -0.07416915893554688 -0.0272979736328125
18.0655 0.09528350830078125 0.13653564453125 -1.061767578125 4.87353515625 0.0008064508438110352 0.0013715028762817383 -0.0745391845703125 -0.021816253662109375
18.07525 0.10305023193359375 0.13091278076171875 -0.685302734375 4.93212890625 0.0015103816986083984 0.0010714530944824219 -0.07501983642578125 -0.01671600341796875
18.085 0.11029815673828125 0.127655029296875 -0.302734375 4.977294921875 0.001388251781463623 -0.0010703802108764648 -0.0747222900390625 -0.009670257568359375
18.09475 0.11502838134765625 0.12436676025390625 0.081787109375 4.995361328125 0.0010713934898376465 -0.000133514404296875 -0.0743865966796875 -0.003810882568359375
18.1045 0.12282562255859375 0.118560791015625 0.4736328125 4.9833984375 0.0009701251983642578 0.0004023909568786621 -0.074615478515625 0.00311279296875
18.11425 0.12892913818359375 0.11507415771484375 0.880859375 4.930908203125 0.0017025470733642578 0.0006892681121826172 -0.07367324829101562 0.007030487060546875
18.124 0.1338958740234375 0.1114654541015625 1.27587890625 4.84326171875 0.0016891956329345703 -0.0007517337799072266 -0.07138824462890625 0.01363372802734375
18.13375 0.13924407958984375 0.104827880859375 1.65869140625 4.717041015625 0.0003967881202697754 0.0005439817905426025 -0.0693817138671875 0.01897430419921875
18.1435 0.14432525634765625 0.09923553466796875 2.023681640625 4.55419921875 -0.0004909932613372803 -0.00011917948722839355 -0.069000244140625 0.02740478515625
18.15325 0.14795684814453125 0.09241485595703125 2.371826171875 4.36181640625 0.0009769201278686523 0.0010666847229003906 -0.06609344482421875 0.0315093994140625
18.163 0.15351104736328125 0.0854949951171875 2.695068359375 4.151123046875 0.0012655854225158691 -0.00017648935317993164 -0.06162452697753906 0.03692054748535156
18.17275 0.1574859619140625 0.080078125 2.9990234375 3.91796875 0.0006685256958007812 0.00039130449295043945 -0.05753517150878906 0.04347038269042969
18.1825 0.1626434326171875 0.0735626220703125 3.28759765625 3.67333984375 0.0006239712238311768 -0.00036591291427612305 -0.054599761962890625 0.0492706298828125
18.19225 0.16678619384765625 0.06633758544921875 3.572021484375 3.4091796875 0.0006722211837768555 0.0003362298011779785 -0.0514373779296875 0.05340766906738281
18.202 0.169891357421875 0.060333251953125 3.8212890625 3.11865234375 0.00044333934783935547 0.0003330111503601074 -0.047664642333984375 0.058971405029296875
18.21175 0.173004150390625 0.05419921875 4.0546875 2.79541015625 0.00026351213455200195 -0.0002568066120147705 -0.041412353515625 0.0643463134765625
18.2215 0.17650604248046875 0.0455169677734375 4.250732421875 2.450927734375 0.000723719596862793 -0.0011071562767028809 -0.0380401611328125 0.06729888916015625
18.23125 0.179290771484375 0.03990936279296875 4.41455078125 2.105224609375 -0.0002541542053222656 -0.0007770061492919922 -0.033336639404296875 0.06969833374023438
18.241 0.18062591552734375 0.0325164794921875 4.546142578125 1.747802734375 -0.00033527612686157227 -0.0008318424224853516 -0.028171539306640625 0.07373046875
18.25075 0.17952728271484375 0.0246124267578125 4.64794921875 1.390380859375 0.0020085573196411133 -0.0004603862762451172 -0.02333831787109375 0.07795333862304688
18.2605 0.18194580078125 0.017974853515625 4.7236328125 1.029541015625 7.06017017364502e-05 -0.0009609460830688477 -0.0145263671875 0.07978057861328125
18.27025 0.18304443359375 0.009796142578125 4.775634765625 0.668212890625 7.179379463195801e-05 -0.000459134578704834 -0.0079498291015625 0.08288192749023438
18.28 0.18413543701171875 0.00261688232421875 4.81884765625 0.29248046875 0.0004806816577911377 -0.0006156265735626221 -0.00189971923828125 0.08380508422851562
18.28975 0.18457794189453125 -0.00778961181640625 4.824951171875 -0.07470703125 -0.00020629167556762695 -0.0006916821002960205 0.00522613525390625 0.08584976196289062
18.2995 0.1848297119140625 -0.013519287109375 4.794189453125 -0.45361328125 0.00014677643775939941 0.00044471025466918945 0.011959075927734375 0.08520126342773438
18.30925 0.18310546875 -0.0213470458984375 4.7216796875 -0.8359375 -0.00016367435455322266 0.0008477568626403809 0.02072906494140625 0.08470916748046875
18.319 0.18141937255859375 -0.03081512451171875 4.622314453125 -1.199951171875 0.0005002915859222412 -0.0008220076560974121 0.02536773681640625 0.08771133422851562
18.32875 0.1794891357421875 -0.03565216064453125 4.494140625 -1.541748046875 -0.00021889805793762207 -0.0003406405448913574 0.03446197509765625 0.085052490234375
18.3385 0.17804718017578125 -0.04489898681640625 4.340576171875 -1.87060546875 -7.081776857376099e-05 0.0002133399248123169 0.0416412353515625 0.0849761962890625
18.34825 0.17696380615234375 -0.05187225341796875 4.182373046875 -2.185302734375 -9.438395500183105e-05 -0.0003692507743835449 0.048828125 0.08376312255859375
18.358 0.1732025146484375 -0.05859375 4.00732421875 -2.48828125 -0.0004725456237792969 -0.00024878978729248047 0.0561065673828125 0.08060455322265625
18.36775 0.17168426513671875 -0.06755828857421875 3.80078125 -2.7906494140625 -0.0004222393035888672 -7.459521293640137e-05 0.06056976318359375 0.07830810546875
18.3775 0.1678466796875 -0.073028564453125 3.58544921875 -3.0784912109375 0.000972062349319458 -0.0006111562252044678 0.0680999755859375 0.07616424560546875
18.38725 0.16454315185546875 -0.080718994140625 3.322265625 -3.3548583984375 8.83638858795166e-05 -0.00015317648649215698 0.07482147216796875 0.07315826416015625
18.397 0.1619720458984375 -0.0859832763671875 3.02783203125 -3.6005859375 0.00010979175567626953 -0.001270294189453125 0.0797576904296875 0.069305419921875
18.40675 0.1570281982421875 -0.0929412841796875 2.712158203125 -3.823974609375 -0.0012063980102539062 -0.00025963783264160156 0.0867156982421875 0.0623779296875
18.4165 0.1528472900390625 -0.0997161865234375 2.3868408203125 -3.9970703125 0.00019085407257080078 -0.0006965100765228271 0.08977508544921875 0.05809783935546875
18.42625 0.1471405029296875 -0.10486602783203125 2.054443359375 -4.132568359375 0.00036835670471191406 -0.001131296157836914 0.09607696533203125 0.05272674560546875
18.436 0.14206695556640625 -0.10858917236328125 1.728515625 -4.239501953125 -0.0003248453140258789 -0.0010769963264465332 0.102325439453125 0.0477142333984375
18.44575 0.136322021484375 -0.1160736083984375 1.408447265625 -4.3330078125 0.0005681514739990234 -0.00017347931861877441 0.1051177978515625 0.0395660400390625
18.4555 0.13175201416015625 -0.11959075927734375 1.0859375 -4.406494140625 1.811981201171875e-05 -0.00038217008113861084 0.106842041015625 0.03246307373046875
18.46525 0.12503814697265625 -0.12531280517578125 0.75439453125 -4.484619140625 0.00032955408096313477 -0.0010025501251220703 0.11096954345703125 0.02411651611328125
18.475 0.118804931640625 -0.1302337646484375 0.41357421875 -4.53173828125 0.0011973977088928223 6.842613220214844e-05 0.11232757568359375 0.01789093017578125
18.48475 0.11322021484375 -0.13574981689453125 0.050537109375 -4.54833984375 0.00020104646682739258 -0.000763237476348877 0.114593505859375 0.00893402099609375
18.4945 0.1063690185546875 -0.139129638671875 -0.322265625 -4.518798828125 4.430115222930908e-05 -0.00047115981578826904 0.11803436279296875 0.002025604248046875
18.50425 0.1000823974609375 -0.142669677734375 -0.6904296875 -4.45947265625 -7.162988185882568e-05 0.00013850629329681396 0.11737060546875 -0.00533294677734375
18.514 0.094451904296875 -0.14727783203125 -1.03857421875 -4.3515625 0.00033104419708251953 0.00022584199905395508 0.11821746826171875 -0.01242828369140625
18.52375 0.08528900146484375 -0.1488800048828125 -1.35791015625 -4.210693359375 -2.7745962142944336e-05 -0.0005892515182495117 0.1155242919921875 -0.02056121826171875
18.5335 0.08090972900390625 -0.15198516845703125 -1.646484375 -4.054931640625 0.00046372413635253906 -0.0007662177085876465 0.11568450927734375 -0.02794647216796875
18.54325 0.0731964111328125 -0.15589141845703125 -1.910888671875 -3.892333984375 0.000761568546295166 -0.0008034408092498779 0.11187744140625 -0.034854888916015625
18.553 0.0663299560546875 -0.157196044921875 -2.163818359375 -3.716064453125 0.0002023652195930481 1.5832483768463135e-05 0.11061859130859375 -0.042041778564453125
18.56275 0.05914306640625 -0.15921783447265625 -2.416015625 -3.549072265625 -0.0001589357852935791 -0.0004146099090576172 0.10679244995117188 -0.048213958740234375
18.5725 0.0539703369140625 -0.16080474853515625 -2.65966796875 -3.353271484375 0.0008739829063415527 -0.000646740198135376 0.10154342651367188 -0.054187774658203125
18.58225 0.0462493896484375 -0.16066741943359375 -2.897705078125 -3.13720703125 0.0007857084274291992 -0.0003495216369628906 0.09812545776367188 -0.06130218505859375
18.592 0.03737640380859375 -0.162872314453125 -3.120361328125 -2.891357421875 -7.69495964050293e-05 -0.000528186559677124 0.09377288818359375 -0.06545639038085938
18.60175 0.0311737060546875 -0.1617584228515625 -3.326171875 -2.62744140625 0.0004515349864959717 -0.00017216801643371582 0.087249755859375 -0.07183074951171875
18.6115 0.023162841796875 -0.16103363037109375 -3.486083984375 -2.3427734375 0.0008429884910583496 -0.0011348724365234375 0.08311080932617188 -0.07647705078125
18.62125 0.0156097412109375 -0.1626129150390625 -3.61865234375 -2.054931640625 0.0008469521999359131 -0.0007669627666473389 0.076019287109375 -0.08204269409179688
18.631 0.0095062255859375 -0.16262054443359375 -3.7109375 -1.780029296875 -0.00032207369804382324 -0.00026795268058776855 0.07212448120117188 -0.08436203002929688
18.64075 0.0020904541015625 -0.161590576171875 -3.788818359375 -1.501953125 -0.0004330873489379883 -0.0008491873741149902 0.06540679931640625 -0.08742904663085938
18.6505 -0.0039215087890625 -0.16080474853515625 -3.860595703125 -1.23583984375 0.0005438327789306641 -0.0017177462577819824 0.06097412109375 -0.09002304077148438
18.66025 -0.01398468017578125 -0.1588897705078125 -3.923828125 -0.9697265625 -1.4007091522216797e-06 -0.0005622208118438721 0.053325653076171875 -0.09062957763671875
18.67 -0.01862335205078125 -0.156707763671875 -3.97509765625 -0.694091796875 -0.00043064355850219727 -0.0009554624557495117 0.04718780517578125 -0.09193038940429688
18.67975 -0.02819061279296875 -0.1540985107421875 -4.014892578125 -0.406982421875 -5.2481889724731445e-05 -0.00025103986263275146 0.040439605712890625 -0.09344100952148438
18.6895 -0.03478240966796875 -0.15236663818359375 -4.021240234375 -0.10595703125 0.00023597478866577148 -0.0005552768707275391 0.035003662109375 -0.09287261962890625
