!Created with skrf (http://scikit-rf.org).
# GHz S RI R 50.0 
!freq ReS11 ImS11 ReS21 ImS21 ReS12 ImS12 ReS22 ImS22
17.5 0.01322174072265625 -0.13617706298828125 -3.4520263671875 2.5592041015625 -0.002086639404296875 0.0009795427322387695 0.0872802734375 0.00582122802734375
17.50975 0.00390625 -0.13318634033203125 -3.22998046875 2.8231201171875 -0.001307368278503418 0.001119375228881836 0.09018707275390625 0.0048980712890625
17.5195 -0.00429534912109375 -0.13022613525390625 -2.9822998046875 3.063232421875 -0.0014794468879699707 0.0002543330192565918 0.094512939453125 0.006290435791015625
17.52925 -0.01097869873046875 -0.12662506103515625 -2.7254638671875 3.2872314453125 -0.00029896199703216553 0.0003787875175476074 0.09749984741210938 0.000728607177734375
17.539 -0.0162353515625 -0.1213531494140625 -2.4560546875 3.479248046875 -0.0013813972473144531 0.0011348724365234375 0.0970001220703125 7.62939453125e-05
17.54875 -0.02434539794921875 -0.11862945556640625 -2.17578125 3.6387939453125 -0.0014261603355407715 0.0011236071586608887 0.10132598876953125 -0.003337860107421875
17.5585 -0.03337860107421875 -0.113037109375 -1.8953857421875 3.7911376953125 -0.0023261308670043945 0.0016378164291381836 0.10478973388671875 -0.0058746337890625
17.56825 -0.03961944580078125 -0.109039306640625 -1.6103515625 3.91943359375 -0.0010938644409179688 -0.00014138221740722656 0.1055145263671875 -0.01015472412109375
17.578 -0.04650115966796875 -0.10445404052734375 -1.30078125 4.044677734375 -0.0011682510375976562 0.0013578534126281738 0.10923385620117188 -0.014392852783203125
17.58775 -0.05086517333984375 -0.0998687744140625 -0.97705078125 4.137939453125 -0.0004912316799163818 0.0003758668899536133 0.109588623046875 -0.0164794921875
17.5975 -0.05548095703125 -0.09397125244140625 -0.6337890625 4.204345703125 -0.0014930367469787598 0.0007865428924560547 0.11074066162109375 -0.021575927734375
17.60725 -0.05985260009765625 -0.0901336669921875 -0.290771484375 4.23193359375 -0.0005227327346801758 0.0004304945468902588 0.110565185546875 -0.024417877197265625
17.617 -0.065277099609375 -0.08220672607421875 0.048583984375 4.223388671875 -0.00048553943634033203 0.0017406344413757324 0.11301803588867188 -0.028926849365234375
17.62675 -0.07108306884765625 -0.07785797119140625 0.3779296875 4.17626953125 -0.0012406110763549805 0.0012298226356506348 0.11330795288085938 -0.032749176025390625
17.6365 -0.0738067626953125 -0.069488525390625 0.69091796875 4.103515625 -0.0005251169204711914 0.0013926029205322266 0.11275482177734375 -0.0379486083984375
17.64625 -0.0788726806640625 -0.0612030029296875 0.97607421875 4.012939453125 -0.0013676285743713379 0.000584721565246582 0.11151885986328125 -0.041904449462890625
17.656 -0.0810089111328125 -0.0577545166015625 1.248291015625 3.921630859375 -0.0019582509994506836 0.0013973712921142578 0.10958480834960938 -0.04851531982421875
17.66575 -0.08362579345703125 -0.0487060546875 1.513916015625 3.8330078125 -0.0013055801391601562 0.0017507672309875488 0.10942840576171875 -0.051616668701171875
17.6755 -0.08843231201171875 -0.04322052001953125 1.779296875 3.723388671875 -0.00029349327087402344 0.00015319883823394775 0.1059112548828125 -0.058773040771484375
17.68525 -0.08899688720703125 -0.03558349609375 2.05224609375 3.610595703125 -0.001050412654876709 0.0014142394065856934 0.1058502197265625 -0.06069183349609375
17.695 -0.09123992919921875 -0.028003692626953125 2.339599609375 3.470947265625 -0.0005936026573181152 0.0018330812454223633 0.10349273681640625 -0.064971923828125
17.70475 -0.09130859375 -0.018909454345703125 2.63134765625 3.28955078125 0.0005762577056884766 0.0017470121383666992 0.10064315795898438 -0.0714111328125
17.7145 -0.0931854248046875 -0.0122833251953125 2.90869140625 3.068603515625 -0.0005547404289245605 0.0017170906066894531 0.09677505493164062 -0.074798583984375
17.72425 -0.0948486328125 -0.004871368408203125 3.1474609375 2.80859375 -0.00027555227279663086 0.0012972354888916016 0.09423828125 -0.07926559448242188
17.734 -0.09551239013671875 0.00237274169921875 3.349365234375 2.52685546875 -0.0005109310150146484 0.002205371856689453 0.0904388427734375 -0.08475494384765625
17.74375 -0.09619903564453125 0.00946044921875 3.49609375 2.23486328125 3.2186508178710938e-06 0.0009872913360595703 0.0874176025390625 -0.09075164794921875
17.7535 -0.09563827514648438 0.016201019287109375 3.624755859375 1.95703125 -0.00021946430206298828 0.0009936094284057617 0.08313751220703125 -0.09313583374023438
17.76325 -0.09468460083007812 0.02397918701171875 3.73046875 1.696044921875 -0.0001736283302307129 0.0004089176654815674 0.07745742797851562 -0.09495925903320312
17.773 -0.09396743774414062 0.029903411865234375 3.82568359375 1.444580078125 -0.0004330575466156006 0.0008113086223602295 0.07300186157226562 -0.09866714477539062
17.78275 -0.0930023193359375 0.037982940673828125 3.914794921875 1.1787109375 -0.00014737248420715332 0.00082358717918396 0.06877517700195312 -0.09972381591796875
17.7925 -0.08945083618164062 0.04390716552734375 4.0087890625 0.9111328125 0.0010428428649902344 0.0003752708435058594 0.06280517578125 -0.10209274291992188
17.80225 -0.08840179443359375 0.050281524658203125 4.098388671875 0.61376953125 0.0011200904846191406 0.0004907846450805664 0.059185028076171875 -0.10561370849609375
17.812 -0.08418655395507812 0.0579071044921875 4.15869140625 0.30078125 0.0002053976058959961 0.0023807287216186523 0.053600311279296875 -0.10534286499023438
17.82175 -0.0804901123046875 0.06455230712890625 4.19091796875 -0.028564453125 0.00025981664657592773 0.0011501908302307129 0.049137115478515625 -0.10683822631835938
17.8315 -0.07886505126953125 0.0721435546875 4.1806640625 -0.3662109375 0.0017722845077514648 0.0015488862991333008 0.0430145263671875 -0.11046600341796875
17.84125 -0.073944091796875 0.07807159423828125 4.12841796875 -0.697265625 -0.0002827644348144531 0.0020780563354492188 0.03609466552734375 -0.10939788818359375
17.851 -0.06904220581054688 0.08600234985351562 4.034912109375 -1.00439453125 0.0005747675895690918 0.001134634017944336 0.031673431396484375 -0.111175537109375
17.86075 -0.06682968139648438 0.09088897705078125 3.9410400390625 -1.2899169921875 3.254413604736328e-05 0.0010671615600585938 0.025089263916015625 -0.10991287231445312
17.8705 -0.061725616455078125 0.09663772583007812 3.8291015625 -1.556884765625 0.000592648983001709 0.001309812068939209 0.0185546875 -0.11033248901367188
17.88025 -0.05684661865234375 0.1017303466796875 3.716064453125 -1.8192138671875 0.0004849433898925781 0.0005911588668823242 0.01274871826171875 -0.10969161987304688
17.89 -0.05205535888671875 0.10814666748046875 3.60400390625 -2.075439453125 0.00030231475830078125 0.0014680027961730957 0.006984710693359375 -0.10927200317382812
17.89975 -0.046215057373046875 0.113250732421875 3.4609375 -2.350341796875 0.0010008811950683594 0.0013564825057983398 0.002025604248046875 -0.10866165161132812
17.9095 -0.0423126220703125 0.11755752563476562 3.3006591796875 -2.625 0.000992119312286377 -4.798173904418945e-05 -0.003963470458984375 -0.10756301879882812
17.91925 -0.03685760498046875 0.11952590942382812 3.1024169921875 -2.887939453125 0.0007710456848144531 0.0005577206611633301 -0.00799560546875 -0.10586166381835938
17.929 -0.029510498046875 0.125732421875 2.8818359375 -3.14013671875 0.00031566619873046875 0.0005521178245544434 -0.0155792236328125 -0.1043243408203125
17.93875 -0.0234527587890625 0.12911224365234375 2.625244140625 -3.362548828125 0.0005661249160766602 0.0008709430694580078 -0.020343780517578125 -0.10306167602539062
17.9485 -0.0179595947265625 0.13297271728515625 2.3580322265625 -3.5511474609375 0.0005974471569061279 -0.0007783770561218262 -0.023822784423828125 -0.09948348999023438
17.95825 -0.00997161865234375 0.1337890625 2.08203125 -3.7100830078125 0.0012683868408203125 0.00034439563751220703 -0.028560638427734375 -0.09673309326171875
17.968 -0.00331878662109375 0.13799285888671875 1.8099365234375 -3.84716796875 -0.0006802976131439209 -8.812546730041504e-05 -0.0347900390625 -0.095794677734375
17.97775 0.0033721923828125 0.1400909423828125 1.536376953125 -3.9686279296875 0.0010910630226135254 0.0005663037300109863 -0.0419921875 -0.08942413330078125
17.9875 0.011322021484375 0.1424102783203125 1.256591796875 -4.091796875 0.0004221796989440918 0.0007579922676086426 -0.043365478515625 -0.08661651611328125
17.99725 0.01940155029296875 0.14374542236328125 0.96728515625 -4.20166015625 -0.0005636513233184814 0.00026726722717285156 -0.04927825927734375 -0.08205413818359375
18.007 0.02752685546875 0.14429473876953125 0.6533203125 -4.2998046875 0.0011388063430786133 -2.849102020263672e-05 -0.05385589599609375 -0.07779693603515625
18.01675 0.03450775146484375 0.1468963623046875 0.3193359375 -4.368896484375 0.00018678605556488037 -0.0001385211944580078 -0.057830810546875 -0.07349395751953125
18.0265 0.04108428955078125 0.14649200439453125 -0.03271484375 -4.413818359375 0.0013138055801391602 0.001322031021118164 -0.06275177001953125 -0.068756103515625
18.03625 0.050201416015625 0.1486968994140625 -0.39111328125 -4.408203125 0.00028437376022338867 -0.0008220672607421875 -0.0668792724609375 -0.0625
18.046 0.05847930908203125 0.1466217041015625 -0.7509765625 -4.370849609375 0.00144118070602417 -0.0003293752670288086 -0.06861114501953125 -0.056884765625
18.05575 0.06494903564453125 0.14464569091796875 -1.08447265625 -4.30078125 0.0012183189392089844 -0.000771641731262207 -0.0728302001953125 -0.05385589599609375
18.0655 0.0732574462890625 0.14565277099609375 -1.40673828125 -4.20361328125 0.0008677244186401367 0.00011092424392700195 -0.078521728515625 -0.0462646484375
18.07525 0.0826568603515625 0.14281463623046875 -1.718505859375 -4.0888671875 0.0005860328674316406 0.000758826732635498 -0.07989120483398438 -0.04062652587890625
18.085 0.0906982421875 0.14214324951171875 -2.028564453125 -3.959228515625 0.001054227352142334 5.030632019042969e-05 -0.08252334594726562 -0.0352783203125
18.09475 0.09703826904296875 0.13873291015625 -2.330810546875 -3.81494140625 0.0005935728549957275 -0.0002352595329284668 -0.08127593994140625 -0.0283660888671875
18.1045 0.106658935546875 0.135284423828125 -2.6318359375 -3.64892578125 0.001337885856628418 -0.001616060733795166 -0.08423233032226562 -0.0213775634765625
18.11425 0.1129302978515625 0.13445281982421875 -2.927001953125 -3.44384765625 0.0018877983093261719 4.887580871582031e-06 -0.08503341674804688 -0.015987396240234375
18.124 0.1202545166015625 0.12896728515625 -3.20849609375 -3.2177734375 0.000837862491607666 -0.0003911256790161133 -0.083831787109375 -0.00586700439453125
18.13375 0.127166748046875 0.126312255859375 -3.46630859375 -2.96923828125 0.001526474952697754 0.0001596212387084961 -0.0845489501953125 -0.00103759765625
18.1435 0.13409423828125 0.121551513671875 -3.698974609375 -2.68994140625 0.00015746057033538818 -0.0002104043960571289 -0.08493804931640625 0.009883880615234375
18.15325 0.141265869140625 0.11541748046875 -3.9111328125 -2.38671875 0.0007171928882598877 -6.35385513305664e-05 -0.08502960205078125 0.013286590576171875
18.163 0.1501922607421875 0.1097412109375 -4.085693359375 -2.07763671875 0.0016745924949645996 -0.0004035830497741699 -0.0833740234375 0.02323150634765625
18.17275 0.15484619140625 0.1036529541015625 -4.244384765625 -1.755126953125 0.0007779896259307861 -0.0006332099437713623 -0.07854080200195312 0.028106689453125
18.1825 0.161865234375 0.0967254638671875 -4.3857421875 -1.42578125 0.0014148354530334473 -0.00039583444595336914 -0.07614517211914062 0.0377044677734375
18.19225 0.16644287109375 0.090057373046875 -4.507080078125 -1.073486328125 5.833804607391357e-06 -0.0002395138144493103 -0.07432174682617188 0.04193115234375
18.202 0.1727142333984375 0.08447265625 -4.598388671875 -0.719482421875 0.00014790892601013184 -0.000486910343170166 -0.0720367431640625 0.0510101318359375
18.21175 0.178131103515625 0.07586669921875 -4.65185546875 -0.33447265625 0.000773310661315918 0.0005068778991699219 -0.06893157958984375 0.05672454833984375
18.2215 0.1829376220703125 0.06702423095703125 -4.66455078125 0.0478515625 -0.00020219385623931885 0.00036866962909698486 -0.062713623046875 0.06323623657226562
18.23125 0.1871185302734375 0.05956268310546875 -4.642333984375 0.420654296875 -0.00013911724090576172 -0.0010161399841308594 -0.059230804443359375 0.06732177734375
18.241 0.19103240966796875 0.0515289306640625 -4.58837890625 0.786376953125 0.000940859317779541 -0.0007355213165283203 -0.05297088623046875 0.07508087158203125
18.25075 0.1951904296875 0.043243408203125 -4.51025390625 1.13671875 0.0009696483612060547 -0.00023376941680908203 -0.047885894775390625 0.07873153686523438
18.2605 0.19695281982421875 0.034942626953125 -4.40185546875 1.476806640625 0.000641554594039917 -0.000902324914932251 -0.041316986083984375 0.08332061767578125
18.27025 0.1987152099609375 0.02596282958984375 -4.287109375 1.814697265625 -0.0010120272636413574 -0.0008401870727539062 -0.03448486328125 0.08809280395507812
18.28 0.20209503173828125 0.015655517578125 -4.14599609375 2.157470703125 0.0010290741920471191 -0.0005102753639221191 -0.028179168701171875 0.09086990356445312
18.28975 0.20221710205078125 0.00559234619140625 -3.97314453125 2.4881591796875 0.0002229064702987671 0.0001531839370727539 -0.01961517333984375 0.096405029296875
18.2995 0.203369140625 -0.0035552978515625 -3.763916015625 2.8128662109375 0.000992119312286377 -0.00022715330123901367 -0.01180267333984375 0.09717559814453125
18.30925 0.2026519775390625 -0.0130615234375 -3.511962890625 3.116943359375 -0.00010353326797485352 -0.0006718039512634277 -0.0038604736328125 0.10015869140625
18.319 0.20215606689453125 -0.0226593017578125 -3.2376708984375 3.3875732421875 0.0008273124694824219 -0.0007152557373046875 0.00339508056640625 0.10261154174804688
18.32875 0.201141357421875 -0.0313720703125 -2.9378662109375 3.6199951171875 0.0010411739349365234 0.0001379251480102539 0.01385498046875 0.10347747802734375
18.3385 0.19881439208984375 -0.04099273681640625 -2.631591796875 3.8170166015625 -0.00020548701286315918 -0.0005858242511749268 0.02325439453125 0.10478973388671875
18.34825 0.19640350341796875 -0.0511016845703125 -2.32666015625 4.00048828125 -0.0002835392951965332 -0.0007240176200866699 0.02989959716796875 0.1037139892578125
18.358 0.19469451904296875 -0.05966949462890625 -2.0224609375 4.158203125 2.905726432800293e-05 -0.0006392002105712891 0.0400848388671875 0.1035308837890625
18.36775 0.19115447998046875 -0.069427490234375 -1.693359375 4.302001953125 0.00026920437812805176 0.00019080936908721924 0.04705047607421875 0.1001129150390625
18.3775 0.18810272216796875 -0.07570648193359375 -1.36669921875 4.43505859375 0.0009305477142333984 5.447864532470703e-05 0.05596160888671875 0.10004425048828125
18.38725 0.18483734130859375 -0.0862884521484375 -1.0 4.541259765625 -0.0004595816135406494 -2.1770596504211426e-05 0.06383514404296875 0.098663330078125
18.397 0.181396484375 -0.095245361328125 -0.62060546875 4.60791015625 -0.0008254051208496094 -7.76052474975586e-05 0.0720672607421875 0.09442138671875
18.40675 0.174407958984375 -0.1030120849609375 -0.22607421875 4.64306640625 0.0005979537963867188 -0.0014084577560424805 0.079986572265625 0.0887451171875
18.4165 0.17029571533203125 -0.10929107666015625 0.150634765625 4.62060546875 0.0004563629627227783 -0.0009723305702209473 0.0877532958984375 0.08490753173828125
18.42625 0.1631317138671875 -0.1168975830078125 0.5166015625 4.555908203125 -0.00012888014316558838 -0.00027538836002349854 0.09468841552734375 0.078582763671875
18.436 0.15625 -0.1225128173828125 0.85498046875 4.466064453125 -0.0006309747695922852 -0.001026153564453125 0.102020263671875 0.07488250732421875
18.44575 0.14797210693359375 -0.1308441162109375 1.178466796875 4.362548828125 -0.0008832812309265137 -0.0009620785713195801 0.10752105712890625 0.06717681884765625
18.4555 0.14183807373046875 -0.1364898681640625 1.486572265625 4.25048828125 -0.00010305643081665039 0.00034436583518981934 0.11330413818359375 0.05805206298828125
18.46525 0.13459014892578125 -0.143646240234375 1.7958984375 4.138427734375 0.00011485442519187927 -0.0001202896237373352 0.11772918701171875 0.05045318603515625
18.475 0.1248321533203125 -0.1473846435546875 2.10546875 3.996826171875 0.0004927515983581543 -0.0002511739730834961 0.12305450439453125 0.0430908203125
18.48475 0.120147705078125 -0.15312957763671875 2.421875 3.82763671875 -0.0006775557994842529 -0.00021499395370483398 0.1277923583984375 0.033599853515625
18.4945 0.109771728515625 -0.156707763671875 2.728271484375 3.610595703125 -0.0021033287048339844 0.00022017955780029297 0.13101959228515625 0.02557373046875
18.50425 0.1013946533203125 -0.1617889404296875 3.01904296875 3.3623046875 8.910894393920898e-05 -0.0005864500999450684 0.131256103515625 0.01483154296875
18.514 0.0946502685546875 -0.164581298828125 3.265625 3.08203125 -0.0003457069396972656 -0.000574648380279541 0.1347198486328125 0.007781982421875
18.52375 0.08489990234375 -0.16550445556640625 3.46630859375 2.78173828125 0.0012881755828857422 0.0003713369369506836 0.13562774658203125 -0.0036773681640625
18.5335 0.0774078369140625 -0.16996002197265625 3.631591796875 2.484130859375 0.0005939602851867676 -0.0010908246040344238 0.13623046875 -0.0125274658203125
18.54325 0.0682830810546875 -0.1728057861328125 3.76708984375 2.1953125 0.0005768835544586182 -0.0002626776695251465 0.1342926025390625 -0.02066802978515625
18.553 0.059661865234375 -0.17423248291015625 3.88671875 1.907958984375 0.0013766288757324219 1.990795135498047e-05 0.13253021240234375 -0.02922821044921875
18.56275 0.052093505859375 -0.17333221435546875 4.001708984375 1.626708984375 0.00014784187078475952 -0.00019447505474090576 0.13053131103515625 -0.03620147705078125
18.5725 0.0435791015625 -0.1738128662109375 4.10205078125 1.3291015625 0.0009807348251342773 -0.00038570165634155273 0.12699127197265625 -0.04575347900390625
18.58225 0.03595733642578125 -0.1734619140625 4.193603515625 1.02001953125 -0.00036919116973876953 -0.0013910531997680664 0.124267578125 -0.054805755615234375
18.592 0.027191162109375 -0.17436981201171875 4.254638671875 0.6845703125 0.0004577040672302246 -0.0009168088436126709 0.11883163452148438 -0.061115264892578125
18.60175 0.0197601318359375 -0.173309326171875 4.28857421875 0.341796875 -0.00017113983631134033 0.00018756091594696045 0.11415863037109375 -0.069671630859375
18.6115 0.0121612548828125 -0.16991424560546875 4.2685546875 0.00634765625 5.458667874336243e-05 4.2416155338287354e-05 0.10904693603515625 -0.07613754272460938
18.62125 0.0030517578125 -0.16992950439453125 4.21923828125 -0.3173828125 0.0007354021072387695 -0.0005288422107696533 0.10153579711914062 -0.0827484130859375
18.631 -0.00438690185546875 -0.1681365966796875 4.145751953125 -0.60888671875 0.0004436969757080078 -0.0007589459419250488 0.0950927734375 -0.08711624145507812
18.64075 -0.01172637939453125 -0.1670379638671875 4.060791015625 -0.889404296875 -0.00034427642822265625 -0.0019015073776245117 0.08889389038085938 -0.09107208251953125
18.6505 -0.0180511474609375 -0.1638031005859375 3.97119140625 -1.154296875 0.0012730956077575684 -0.0011824369430541992 0.08233642578125 -0.09576797485351562
18.66025 -0.02672576904296875 -0.16049957275390625 3.87646484375 -1.4154052734375 0.0009006261825561523 -0.001132965087890625 0.07476043701171875 -0.10023117065429688
18.67 -0.0323944091796875 -0.157318115234375 3.778076171875 -1.68017578125 0.00015679001808166504 -0.00013564527034759521 0.0693511962890625 -0.10153961181640625
18.67975 -0.03966522216796875 -0.154998779296875 3.658203125 -1.951171875 0.0014187097549438477 -0.0005998611450195312 0.061779022216796875 -0.10454940795898438
18.6895 -0.04705047607421875 -0.150299072265625 3.501220703125 -2.2188720703125 0.0004954636096954346 -0.0007512867450714111 0.054290771484375 -0.10467147827148438
18.69925 -0.051910400390625 -0.1473846435546875 3.330078125 -2.474609375 2.6226043701171875e-05 -0.0017840862274169922 0.04894256591796875 -0.10433197021484375
