!Created with skrf (http://scikit-rf.org).
# GHz S RI R 50.0 
!freq ReS11 ImS11 ReS21 ImS21 ReS12 ImS12 ReS22 ImS22
17.5 0.00376129150390625 -0.13535308837890625 -3.574462890625 -2.18701171875 -0.00039289891719818115 0.0004414469003677368 0.089691162109375 -0.00795745849609375
17.50975 -0.00518798828125 -0.13201141357421875 -3.73193359375 -1.90478515625 -0.0019731521606445312 0.0010803937911987305 0.090972900390625 -0.00749969482421875
17.5195 -0.0119781494140625 -0.1265869140625 -3.854736328125 -1.605224609375 -0.001340031623840332 0.0008581876754760742 0.09470367431640625 -0.009067535400390625
17.52925 -0.020721435546875 -0.12209320068359375 -3.96484375 -1.30712890625 -0.0009098052978515625 0.0008066296577453613 0.09591293334960938 -0.0122528076171875
17.539 -0.0261993408203125 -0.1180267333984375 -4.04443359375 -1.0029296875 -0.0016576051712036133 0.0012344121932983398 0.095703125 -0.0137786865234375
17.54875 -0.03337860107421875 -0.115264892578125 -4.095703125 -0.697998046875 -0.0015854239463806152 7.671117782592773e-05 0.098724365234375 -0.01592254638671875
17.5585 -0.04290008544921875 -0.1081390380859375 -4.13720703125 -0.395263671875 -0.0020186901092529297 9.131431579589844e-05 0.10107803344726562 -0.019542694091796875
17.56825 -0.047119140625 -0.1038970947265625 -4.162353515625 -0.099609375 -0.0020036697387695312 0.0006303787231445312 0.10016250610351562 -0.021930694580078125
17.578 -0.05312347412109375 -0.0973968505859375 -4.1669921875 0.218505859375 9.59634780883789e-05 0.0013726353645324707 0.1020660400390625 -0.02674102783203125
17.58775 -0.05927276611328125 -0.09302520751953125 -4.14892578125 0.540283203125 -0.0008915066719055176 0.001789867877960205 0.10121536254882812 -0.02811431884765625
17.5975 -0.061737060546875 -0.08712005615234375 -4.093505859375 0.8701171875 -0.002055644989013672 4.8041343688964844e-05 0.10263442993164062 -0.031085968017578125
17.60725 -0.06624603271484375 -0.082275390625 -4.0078125 1.184326171875 -0.0012860298156738281 -0.00014269351959228516 0.10114669799804688 -0.033466339111328125
17.617 -0.0709228515625 -0.07518768310546875 -3.8909912109375 1.4915771484375 -0.0013764500617980957 0.0009045600891113281 0.10270309448242188 -0.037105560302734375
17.62675 -0.07570648193359375 -0.0675811767578125 -3.7508544921875 1.7742919921875 -0.0001614689826965332 0.001113593578338623 0.10323715209960938 -0.040050506591796875
17.6365 -0.0785980224609375 -0.060302734375 -3.590576171875 2.036865234375 0.00012814998626708984 0.001070857048034668 0.1024322509765625 -0.04413604736328125
17.64625 -0.08034515380859375 -0.053955078125 -3.423583984375 2.2733154296875 -0.0012706518173217773 -0.00017005205154418945 0.099639892578125 -0.04892730712890625
17.656 -0.082763671875 -0.0475921630859375 -3.253173828125 2.5008544921875 -9.936094284057617e-05 0.0005538761615753174 0.09720993041992188 -0.05178070068359375
17.66575 -0.08465194702148438 -0.039272308349609375 -3.0911865234375 2.72265625 -0.00109022855758667 0.0012316107749938965 0.0971527099609375 -0.056121826171875
17.6755 -0.08874893188476562 -0.033367156982421875 -2.902099609375 2.939697265625 -0.0003209114074707031 0.0012438297271728516 0.09481048583984375 -0.05915069580078125
17.68525 -0.08967208862304688 -0.023868560791015625 -2.7149658203125 3.164794921875 -0.000444263219833374 0.0002575516700744629 0.09201431274414062 -0.063079833984375
17.695 -0.08933258056640625 -0.015750885009765625 -2.4874267578125 3.391357421875 -0.0011330246925354004 0.0013293623924255371 0.08955764770507812 -0.0657196044921875
17.70475 -0.09096908569335938 -0.009983062744140625 -2.2247314453125 3.604248046875 -0.00010794401168823242 0.001663506031036377 0.086517333984375 -0.06969833374023438
17.7145 -0.09139633178710938 -0.001697540283203125 -1.9332275390625 3.793701171875 4.100799560546875e-05 0.0021442174911499023 0.08309555053710938 -0.07273101806640625
17.72425 -0.09016036987304688 0.004840850830078125 -1.615966796875 3.943115234375 -0.0008309781551361084 0.0004711151123046875 0.08050155639648438 -0.07669448852539062
17.734 -0.09038162231445312 0.011844635009765625 -1.291015625 4.05078125 -0.0002945065498352051 0.0009917020797729492 0.07818222045898438 -0.08025360107421875
17.74375 -0.09064483642578125 0.01908111572265625 -0.97265625 4.10693359375 0.0006632804870605469 0.0004640817642211914 0.07299041748046875 -0.0838165283203125
17.7535 -0.089691162109375 0.0266571044921875 -0.668701171875 4.147705078125 -0.00022792816162109375 0.0017129778861999512 0.07073211669921875 -0.0871429443359375
17.76325 -0.087921142578125 0.033107757568359375 -0.3818359375 4.177978515625 -0.0007424354553222656 0.0030412673950195312 0.06606674194335938 -0.08831405639648438
17.773 -0.08567047119140625 0.03916168212890625 -0.103515625 4.197021484375 -0.0004298686981201172 0.0015797019004821777 0.06281280517578125 -0.0911102294921875
17.78275 -0.083404541015625 0.044246673583984375 0.18359375 4.2080078125 -2.682209014892578e-05 0.0012500286102294922 0.05727386474609375 -0.09253692626953125
17.7925 -0.08034133911132812 0.04959869384765625 0.483642578125 4.214599609375 0.0003160238265991211 0.00124436616897583 0.054325103759765625 -0.09442901611328125
17.80225 -0.07816314697265625 0.05564117431640625 0.801513671875 4.2080078125 -0.0002570152282714844 0.0021981000900268555 0.05075836181640625 -0.0935211181640625
17.812 -0.07401275634765625 0.0631103515625 1.130615234375 4.167724609375 -0.000598609447479248 0.00030860304832458496 0.044116973876953125 -0.09481430053710938
17.82175 -0.07040786743164062 0.069854736328125 1.4619140625 4.09423828125 0.001082301139831543 0.0003260374069213867 0.04278564453125 -0.09675216674804688
17.8315 -0.066619873046875 0.07545089721679688 1.793701171875 3.980224609375 -0.00020635128021240234 0.000531613826751709 0.035884857177734375 -0.09640121459960938
17.84125 -0.0621795654296875 0.080413818359375 2.1064453125 3.8349609375 -0.000546574592590332 0.0011810064315795898 0.03137969970703125 -0.09789276123046875
17.851 -0.05687713623046875 0.08625411987304688 2.389404296875 3.6484375 -2.8967857360839844e-05 0.0007928013801574707 0.027271270751953125 -0.09645462036132812
17.86075 -0.054595947265625 0.09066390991210938 2.65234375 3.46630859375 0.0008258223533630371 0.0004812479019165039 0.02144622802734375 -0.09641647338867188
17.8705 -0.050083160400390625 0.09552383422851562 2.897216796875 3.26708984375 0.0009917020797729492 0.0017586946487426758 0.01598358154296875 -0.0971832275390625
17.88025 -0.04451751708984375 0.10065460205078125 3.1328125 3.06640625 0.0004412233829498291 0.0002619326114654541 0.0117340087890625 -0.09735870361328125
17.89 -0.04019927978515625 0.10562515258789062 3.36328125 2.85791015625 0.0007843673229217529 8.559226989746094e-05 0.0066986083984375 -0.09572982788085938
17.89975 -0.0353851318359375 0.10875701904296875 3.59423828125 2.617431640625 0.0008175373077392578 0.001578688621520996 0.002643585205078125 -0.09432220458984375
17.9095 -0.03150177001953125 0.11267471313476562 3.822998046875 2.361572265625 0.0014535188674926758 0.0015395879745483398 0.00048065185546875 -0.0943450927734375
17.91925 -0.023601531982421875 0.115692138671875 4.021240234375 2.06982421875 0.0006291866302490234 0.0009129643440246582 -0.0037384033203125 -0.09190750122070312
17.929 -0.02086639404296875 0.11933135986328125 4.20654296875 1.75927734375 0.00025981664657592773 0.0007044672966003418 -0.011566162109375 -0.0916290283203125
17.93875 -0.013843536376953125 0.12075042724609375 4.351806640625 1.4208984375 -6.0111284255981445e-05 0.0002479255199432373 -0.014801025390625 -0.09057235717773438
17.9485 -0.008754730224609375 0.1229095458984375 4.45751953125 1.080810546875 0.0004006624221801758 0.0004990994930267334 -0.017238616943359375 -0.08701705932617188
17.95825 -0.0012664794921875 0.12511444091796875 4.5390625 0.732177734375 0.0006985068321228027 0.0003001093864440918 -0.020938873291015625 -0.08525466918945312
17.968 0.00482940673828125 0.127288818359375 4.59814453125 0.39404296875 0.0013262629508972168 0.0003795623779296875 -0.026397705078125 -0.08246994018554688
17.97775 0.01019287109375 0.129058837890625 4.62255859375 0.054931640625 0.0010581612586975098 0.00023186206817626953 -0.030406951904296875 -0.07971954345703125
17.9875 0.0174713134765625 0.13042449951171875 4.651611328125 -0.2958984375 0.002034902572631836 0.0016143321990966797 -0.034671783447265625 -0.07664108276367188
17.99725 0.023681640625 0.13071441650390625 4.657470703125 -0.652587890625 -5.289912223815918e-05 0.0006629824638366699 -0.0386199951171875 -0.07360458374023438
18.007 0.03017425537109375 0.1316375732421875 4.63232421875 -1.02197265625 0.0013680458068847656 0.001798391342163086 -0.0420684814453125 -0.06943511962890625
18.01675 0.0389251708984375 0.1330718994140625 4.573974609375 -1.399658203125 0.0010728240013122559 0.00012797117233276367 -0.0466461181640625 -0.06602096557617188
18.0265 0.04327392578125 0.1330108642578125 4.48388671875 -1.78369140625 0.0023136138916015625 0.0005943775177001953 -0.050567626953125 -0.0627899169921875
18.03625 0.0493621826171875 0.1343994140625 4.33984375 -2.1591796875 -0.00015729665756225586 0.0006296634674072266 -0.0531005859375 -0.05810546875
18.046 0.0573883056640625 0.13352203369140625 4.15869140625 -2.525390625 0.0006342530250549316 0.00043064355850219727 -0.055995941162109375 -0.054897308349609375
18.05575 0.064178466796875 0.13098907470703125 3.951904296875 -2.8499755859375 0.00040161609649658203 0.00016120076179504395 -0.05939483642578125 -0.04913330078125
18.0655 0.07064056396484375 0.132598876953125 3.718017578125 -3.1575927734375 0.0010262131690979004 0.00041282176971435547 -0.06304168701171875 -0.045444488525390625
18.07525 0.07715606689453125 0.13143157958984375 3.4674072265625 -3.4510498046875 0.0005018413066864014 -0.00020581483840942383 -0.0654449462890625 -0.04055023193359375
18.085 0.083892822265625 0.12955474853515625 3.1964111328125 -3.7291259765625 -0.00048232078552246094 -9.691715240478516e-05 -0.06742095947265625 -0.03382110595703125
18.09475 0.0898895263671875 0.12731170654296875 2.90380859375 -3.991943359375 0.0012527704238891602 -0.0002396702766418457 -0.06710052490234375 -0.030887603759765625
18.1045 0.09747314453125 0.12508392333984375 2.594482421875 -4.23681640625 0.0005606412887573242 0.00043958425521850586 -0.07056045532226562 -0.024066925048828125
18.11425 0.10327911376953125 0.12502288818359375 2.2421875 -4.45654296875 0.001327812671661377 -0.0009845495223999023 -0.07030105590820312 -0.0191192626953125
18.124 0.1096954345703125 0.119659423828125 1.88037109375 -4.6474609375 0.0004639625549316406 -0.00032582879066467285 -0.07074737548828125 -0.011138916015625
18.13375 0.11553955078125 0.1172637939453125 1.49951171875 -4.802734375 0.0015864372253417969 0.0007052421569824219 -0.0717315673828125 -0.00751495361328125
18.1435 0.12255859375 0.11389923095703125 1.100341796875 -4.917724609375 0.00089302659034729 -0.0005015730857849121 -0.0727386474609375 0.00107574462890625
18.15325 0.12928009033203125 0.10884857177734375 0.68896484375 -4.997802734375 0.0011037588119506836 -0.0008997321128845215 -0.071136474609375 0.005725860595703125
18.163 0.13581085205078125 0.10286712646484375 0.28515625 -5.035888671875 0.0008381903171539307 0.00011542439460754395 -0.070098876953125 0.012653350830078125
18.17275 0.14299774169921875 0.09970855712890625 -0.124267578125 -5.048828125 0.0009909272193908691 0.00047892332077026367 -0.06985855102539062 0.0187835693359375
18.1825 0.14871978759765625 0.0936126708984375 -0.53125 -5.044189453125 0.0007512569427490234 -0.0008375942707061768 -0.067657470703125 0.02635955810546875
18.19225 0.15332794189453125 0.0885467529296875 -0.949951171875 -5.005126953125 0.0006383955478668213 -0.0003205239772796631 -0.0655517578125 0.031543731689453125
18.202 0.1590576171875 0.08338165283203125 -1.355712890625 -4.925537109375 0.0006228983402252197 -0.00016045570373535156 -0.06404495239257812 0.03708648681640625
18.21175 0.1624603271484375 0.0770263671875 -1.7744140625 -4.796875 0.00039204955101013184 9.924173355102539e-05 -0.06011199951171875 0.04561614990234375
18.2215 0.1714324951171875 0.06931304931640625 -2.177978515625 -4.629150390625 0.00012506544589996338 0.00019346177577972412 -0.05747222900390625 0.04830741882324219
18.23125 0.174896240234375 0.065155029296875 -2.547607421875 -4.42529296875 0.0018329024314880371 4.9948692321777344e-05 -0.05485725402832031 0.05396842956542969
18.241 0.17840576171875 0.0569915771484375 -2.895751953125 -4.189697265625 0.0010782480239868164 -0.00025594234466552734 -0.05013465881347656 0.059741973876953125
18.25075 0.1817779541015625 0.04903411865234375 -3.21533203125 -3.9326171875 8.374452590942383e-06 -0.0005717873573303223 -0.04502105712890625 0.06386947631835938
18.2605 0.1856231689453125 0.04277801513671875 -3.5078125 -3.65625 0.00019618868827819824 -0.0002708733081817627 -0.0396270751953125 0.0674896240234375
18.27025 0.18755340576171875 0.0343017578125 -3.780517578125 -3.3671875 7.900595664978027e-05 -0.0008225739002227783 -0.033145904541015625 0.0739898681640625
18.28 0.19110107421875 0.02497100830078125 -4.0517578125 -3.05908203125 -0.00037553906440734863 -0.0004017949104309082 -0.029205322265625 0.07579421997070312
18.28975 0.19329833984375 0.01625823974609375 -4.292236328125 -2.730224609375 0.0002894103527069092 -0.0008721053600311279 -0.022449493408203125 0.08092117309570312
18.2995 0.19423675537109375 0.00754547119140625 -4.50927734375 -2.36767578125 0.00036513805389404297 -0.0004033893346786499 -0.015777587890625 0.08084487915039062
18.30925 0.1962890625 -0.000885009765625 -4.6923828125 -1.9716796875 7.092952728271484e-05 -0.0010203123092651367 -0.00817108154296875 0.08400726318359375
18.319 0.19571685791015625 -0.010650634765625 -4.828369140625 -1.564453125 0.0002847909927368164 -0.0005785226821899414 -0.00165557861328125 0.0881195068359375
18.32875 0.195465087890625 -0.0172271728515625 -4.912841796875 -1.155029296875 0.000606834888458252 0.00041806697845458984 0.006069183349609375 0.08971023559570312
18.3385 0.19510650634765625 -0.030609130859375 -4.957763671875 -0.7451171875 -8.386373519897461e-05 -0.0009195804595947266 0.014774322509765625 0.09090805053710938
18.34825 0.1956329345703125 -0.03916168212890625 -4.99169921875 -0.353515625 -0.00023442506790161133 -0.0014844536781311035 0.021068572998046875 0.0917816162109375
18.358 0.19354248046875 -0.04828643798828125 -4.990478515625 0.03271484375 0.00014021992683410645 -0.0006274580955505371 0.0303192138671875 0.09243011474609375
18.36775 0.1908416748046875 -0.056243896484375 -4.96240234375 0.428466796875 0.00029562413692474365 -0.00025750696659088135 0.03621673583984375 0.09271240234375
18.3775 0.18973541259765625 -0.0645599365234375 -4.921630859375 0.81396484375 -0.0007780194282531738 -0.0006746649742126465 0.04335784912109375 0.09009552001953125
18.38725 0.18631744384765625 -0.0748291015625 -4.839111328125 1.213623046875 -0.00026169419288635254 -0.00042808055877685547 0.04956817626953125 0.08930206298828125
18.397 0.183349609375 -0.0818023681640625 -4.716796875 1.61083984375 0.000272214412689209 -0.0006358623504638672 0.0580902099609375 0.0865631103515625
18.40675 0.179931640625 -0.0903472900390625 -4.5546875 2.00390625 0.00013256072998046875 0.0006942152976989746 0.0662078857421875 0.0834808349609375
18.4165 0.1744232177734375 -0.09929656982421875 -4.345458984375 2.35888671875 0.0006279349327087402 0.00010579824447631836 0.07192230224609375 0.08022308349609375
18.42625 0.16881561279296875 -0.10742950439453125 -4.104248046875 2.6865234375 9.754300117492676e-05 -0.0005424320697784424 0.07973480224609375 0.075897216796875
18.436 0.16368865966796875 -0.114410400390625 -3.8487548828125 2.9764404296875 0.0006697177886962891 0.000413358211517334 0.08835601806640625 0.07146453857421875
18.44575 0.15654754638671875 -0.1224517822265625 -3.584716796875 3.240478515625 -0.00010529905557632446 -7.62641429901123e-05 0.09217071533203125 0.06607818603515625
18.4555 0.1501312255859375 -0.1287384033203125 -3.3135986328125 3.4853515625 0.0010991692543029785 0.0003319978713989258 0.0977935791015625 0.0595550537109375
18.46525 0.14545440673828125 -0.13587188720703125 -3.041748046875 3.720458984375 -0.0010184645652770996 0.00021517276763916016 0.10333251953125 0.05135345458984375
18.475 0.136566162109375 -0.1416473388671875 -2.74853515625 3.9456787109375 0.0004329681396484375 -0.00033992528915405273 0.10816192626953125 0.04692840576171875
18.48475 0.1299896240234375 -0.14795684814453125 -2.422607421875 4.153564453125 0.0009611248970031738 -0.0004063844680786133 0.11284637451171875 0.03752899169921875
18.4945 0.11937713623046875 -0.1517486572265625 -2.0615234375 4.33251953125 -0.0005307197570800781 4.082918167114258e-05 0.1164703369140625 0.02968597412109375
18.50425 0.1129302978515625 -0.1589813232421875 -1.6806640625 4.48046875 -0.0008684396743774414 0.00018101930618286133 0.1197967529296875 0.023284912109375
18.514 0.1049652099609375 -0.161865234375 -1.29150390625 4.57568359375 -0.0003591179847717285 -0.00030857324600219727 0.122039794921875 0.0153045654296875
18.52375 0.0963287353515625 -0.16522216796875 -0.90185546875 4.61279296875 -0.00039039552211761475 0.0004062056541442871 0.1230316162109375 0.00653839111328125
18.5335 0.08856201171875 -0.16961669921875 -0.532470703125 4.627197265625 0.0005874931812286377 0.00036463141441345215 0.12465286254882812 -0.002410888671875
18.54325 0.0799560546875 -0.1735076904296875 -0.185302734375 4.605224609375 0.001216888427734375 -0.0009914040565490723 0.12424087524414062 -0.010097503662109375
18.553 0.07074737548828125 -0.1764678955078125 0.15283203125 4.564697265625 0.0007767379283905029 -0.00039261579513549805 0.12252044677734375 -0.017627716064453125
18.56275 0.0629119873046875 -0.1761474609375 0.48095703125 4.519775390625 0.0002916306257247925 -0.00021378695964813232 0.12233352661132812 -0.025989532470703125
18.5725 0.0540771484375 -0.1788330078125 0.8134765625 4.458984375 0.0006173253059387207 -0.0008425712585449219 0.11964797973632812 -0.03359222412109375
18.58225 0.04453277587890625 -0.17652130126953125 1.152587890625 4.37548828125 0.0010995864868164062 -0.0007596611976623535 0.11672210693359375 -0.042720794677734375
18.592 0.03568267822265625 -0.17977142333984375 1.4892578125 4.254150390625 0.0007255673408508301 -0.0002485811710357666 0.11418533325195312 -0.048187255859375
18.60175 0.0276641845703125 -0.1786346435546875 1.8251953125 4.10986328125 0.0007951259613037109 -0.0004882216453552246 0.10919952392578125 -0.05504608154296875
18.6115 0.0184478759765625 -0.17647552490234375 2.12939453125 3.915283203125 0.00046819448471069336 -0.0012949705123901367 0.10712814331054688 -0.062168121337890625
18.62125 0.0104217529296875 -0.1755828857421875 2.406982421875 3.704833984375 -5.207955837249756e-05 -0.00032944977283477783 0.10054779052734375 -0.068817138671875
18.631 0.00115966796875 -0.17555999755859375 2.637451171875 3.478271484375 0.0007994472980499268 -0.0003437995910644531 0.09578704833984375 -0.0736846923828125
18.64075 -0.006866455078125 -0.1730499267578125 2.8515625 3.24609375 0.00015223026275634766 -0.0005885958671569824 0.0885467529296875 -0.0789337158203125
18.6505 -0.01595306396484375 -0.171295166015625 3.053466796875 3.018310546875 0.0002048015594482422 -0.0011978745460510254 0.084716796875 -0.08276748657226562
18.66025 -0.02321624755859375 -0.16898345947265625 3.239990234375 2.7900390625 -0.00013975054025650024 0.00022631138563156128 0.0777130126953125 -0.08596038818359375
18.67 -0.02976226806640625 -0.1659088134765625 3.427978515625 2.552001953125 0.00036084651947021484 -0.0008594095706939697 0.07324600219726562 -0.08939743041992188
18.67975 -0.0388031005859375 -0.16192626953125 3.60693359375 2.295654296875 0.0009093880653381348 -0.00047647953033447266 0.06427383422851562 -0.09185791015625
18.6895 -0.045867919921875 -0.1588287353515625 3.76806640625 2.01025390625 -0.0005570948123931885 4.7266483306884766e-05 0.0587921142578125 -0.09296417236328125
