!Created with skrf (http://scikit-rf.org).
# GHz S RI R 50.0 
!freq ReS11 ImS11 ReS21 ImS21 ReS12 ImS12 ReS22 ImS22
17.5 0.00562286376953125 -0.15296173095703125 4.395751953125 -1.490966796875 -0.00057259202003479 0.0004897117614746094 0.11024856567382812 -0.00119781494140625
17.50975 -0.00466156005859375 -0.1504669189453125 4.260009765625 -1.828369140625 -0.0030668973922729492 0.0006077289581298828 0.11363601684570312 -0.005123138427734375
17.5195 -0.01299285888671875 -0.14534759521484375 4.09375 -2.149169921875 -0.0010480880737304688 0.0008170008659362793 0.11677169799804688 -0.0063629150390625
17.52925 -0.02309417724609375 -0.14087677001953125 3.9183349609375 -2.460205078125 -0.0013194680213928223 0.0008484721183776855 0.119049072265625 -0.012439727783203125
17.539 -0.02899169921875 -0.1341094970703125 3.712646484375 -2.745849609375 -0.0014996528625488281 0.0006241798400878906 0.11800384521484375 -0.01544189453125
17.54875 -0.03873443603515625 -0.13169097900390625 3.494140625 -3.0086669921875 -0.0011537671089172363 0.00012242794036865234 0.11857223510742188 -0.01959228515625
17.5585 -0.04840087890625 -0.1251678466796875 3.263916015625 -3.2669677734375 -0.0005486607551574707 0.00045883655548095703 0.12169647216796875 -0.0244293212890625
17.56825 -0.054290771484375 -0.120269775390625 3.0272216796875 -3.5098876953125 -0.0007733404636383057 0.0003376603126525879 0.1203460693359375 -0.02877044677734375
17.578 -0.06121826171875 -0.11310577392578125 2.7498779296875 -3.7462158203125 -0.0013356208801269531 -0.0003604888916015625 0.12369918823242188 -0.033843994140625
17.58775 -0.0687255859375 -0.10877227783203125 2.450439453125 -3.9659423828125 -0.0014396309852600098 0.001014411449432373 0.12285995483398438 -0.037872314453125
17.5975 -0.07347869873046875 -0.1007232666015625 2.117919921875 -4.15478515625 -0.001696467399597168 0.0009351372718811035 0.12134933471679688 -0.043071746826171875
17.60725 -0.0800018310546875 -0.09505462646484375 1.773681640625 -4.300048828125 -0.0015178322792053223 0.0009723901748657227 0.1190338134765625 -0.047916412353515625
17.617 -0.08341217041015625 -0.086944580078125 1.419677734375 -4.4091796875 -0.0019778013229370117 0.0012810230255126953 0.1200103759765625 -0.051105499267578125
17.62675 -0.0896453857421875 -0.0789031982421875 1.07080078125 -4.47412109375 -0.001203298568725586 0.0012230873107910156 0.11869049072265625 -0.05664825439453125
17.6365 -0.09381103515625 -0.07110595703125 0.7314453125 -4.51513671875 -0.0014233589172363281 0.0009589195251464844 0.11566925048828125 -0.06235504150390625
17.64625 -0.0977783203125 -0.0626678466796875 0.410888671875 -4.533203125 -0.001020669937133789 0.0021070241928100586 0.11338424682617188 -0.06623077392578125
17.656 -0.09954071044921875 -0.05632781982421875 0.096923828125 -4.554443359375 -0.0017962455749511719 0.0002734661102294922 0.10725784301757812 -0.07116317749023438
17.66575 -0.10286712646484375 -0.0462646484375 -0.213134765625 -4.5732421875 -0.0010520219802856445 0.0020395517349243164 0.10807037353515625 -0.0757904052734375
17.6755 -0.1054840087890625 -0.0363006591796875 -0.540771484375 -4.570556640625 0.0001926422119140625 0.000848233699798584 0.1009979248046875 -0.08002471923828125
17.68525 -0.1076812744140625 -0.02716827392578125 -0.881103515625 -4.565673828125 -0.0006172657012939453 0.001591324806213379 0.09740066528320312 -0.08518218994140625
17.695 -0.11014556884765625 -0.01857757568359375 -1.253173828125 -4.515625 -0.0011385679244995117 0.00028645992279052734 0.09393692016601562 -0.08683013916015625
17.70475 -0.10964584350585938 -0.008655548095703125 -1.635009765625 -4.43115234375 -0.0005028247833251953 0.0014446377754211426 0.09020614624023438 -0.092529296875
17.7145 -0.1097259521484375 -0.0009002685546875 -2.01220703125 -4.286865234375 0.00031757354736328125 0.0006827116012573242 0.08390045166015625 -0.09606170654296875
17.72425 -0.11029052734375 0.007602691650390625 -2.3623046875 -4.09765625 0.00039184093475341797 0.0015344619750976562 0.079559326171875 -0.09927749633789062
17.734 -0.11081695556640625 0.0172882080078125 -2.673828125 -3.875 0.0008211135864257812 0.000899195671081543 0.073486328125 -0.10224151611328125
17.74375 -0.1111602783203125 0.025604248046875 -2.935791015625 -3.622802734375 -0.000149652361869812 0.00030282139778137207 0.06833648681640625 -0.106536865234375
17.7535 -0.10612869262695312 0.03379058837890625 -3.1748046875 -3.380859375 -5.733966827392578e-05 0.0019387006759643555 0.0631561279296875 -0.10877227783203125
17.76325 -0.10515975952148438 0.042694091796875 -3.395263671875 -3.150146484375 0.00041115283966064453 0.0012700557708740234 0.05629730224609375 -0.1082611083984375
17.773 -0.10353851318359375 0.04803466796875 -3.60498046875 -2.91650390625 -0.000664830207824707 0.0014330148696899414 0.05126190185546875 -0.11039352416992188
17.78275 -0.10106277465820312 0.058010101318359375 -3.815185546875 -2.66259765625 -0.00038421154022216797 0.0022935867309570312 0.045391082763671875 -0.11145782470703125
17.7925 -0.09622573852539062 0.06445693969726562 -4.031982421875 -2.394287109375 0.0004336833953857422 0.0017699003219604492 0.040645599365234375 -0.11147689819335938
17.80225 -0.09093475341796875 0.0706939697265625 -4.245361328125 -2.095703125 0.0010100603103637695 0.0010669231414794922 0.0355377197265625 -0.11126327514648438
17.812 -0.0865936279296875 0.08017730712890625 -4.42529296875 -1.75927734375 0.00040203332901000977 0.00048866868019104 0.0291748046875 -0.11142730712890625
17.82175 -0.08116531372070312 0.08803939819335938 -4.5751953125 -1.402099609375 0.00016731023788452148 0.0013527870178222656 0.02376556396484375 -0.10940933227539062
17.8315 -0.07736968994140625 0.09335708618164062 -4.6796875 -1.01904296875 0.0010199546813964844 0.0012328624725341797 0.018833160400390625 -0.1108245849609375
17.84125 -0.0720672607421875 0.09949493408203125 -4.7451171875 -0.64697265625 -8.249282836914062e-05 0.0005955100059509277 0.01276397705078125 -0.1092071533203125
17.851 -0.06529998779296875 0.10668182373046875 -4.756591796875 -0.2734375 0.000520855188369751 0.00028884410858154297 0.0059356689453125 -0.10805511474609375
17.86075 -0.060138702392578125 0.11117172241210938 -4.755859375 0.074951171875 0.0007408857345581055 0.0005342960357666016 0.0006103515625 -0.1059112548828125
17.8705 -0.053653717041015625 0.11701202392578125 -4.73828125 0.42041015625 0.00010427460074424744 -5.0902366638183594e-05 -0.00357818603515625 -0.1046905517578125
17.88025 -0.047618865966796875 0.12100601196289062 -4.71533203125 0.765625 0.00019568204879760742 0.0007373392581939697 -0.01049041748046875 -0.1019134521484375
17.89 -0.04067230224609375 0.1280670166015625 -4.674072265625 1.113525390625 0.001074671745300293 0.0005415081977844238 -0.013751983642578125 -0.10005950927734375
17.89975 -0.0332489013671875 0.13069915771484375 -4.604248046875 1.49072265625 0.00012117624282836914 0.001281440258026123 -0.021007537841796875 -0.09787368774414062
17.9095 -0.028656005859375 0.13359832763671875 -4.498291015625 1.86865234375 0.00045669078826904297 0.0014649629592895508 -0.025333404541015625 -0.09401321411132812
17.91925 -0.01944732666015625 0.1351470947265625 -4.344482421875 2.235595703125 0.0015263557434082031 0.00029796361923217773 -0.027957916259765625 -0.09074783325195312
17.929 -0.0120849609375 0.1391754150390625 -4.1650390625 2.5908203125 0.0020787715911865234 0.0005290508270263672 -0.033416748046875 -0.08867645263671875
17.93875 -0.0048370361328125 0.140869140625 -3.9368896484375 2.9193115234375 0.0023131370544433594 0.00033080577850341797 -0.0362548828125 -0.08295440673828125
17.9485 0.0035400390625 0.14227294921875 -3.690673828125 3.2069091796875 0.00047135353088378906 -0.00024384260177612305 -0.04167938232421875 -0.07935333251953125
17.95825 0.0107421875 0.14311981201171875 -3.43359375 3.4815673828125 0.000399172306060791 -0.0005218088626861572 -0.0419464111328125 -0.07685089111328125
17.968 0.01755523681640625 0.1456451416015625 -3.162353515625 3.7281494140625 0.0008925199508666992 0.0012558698654174805 -0.04817962646484375 -0.07217025756835938
17.97775 0.02555084228515625 0.14557647705078125 -2.8836669921875 3.9627685546875 0.0006381869316101074 0.00041300058364868164 -0.051788330078125 -0.06755828857421875
17.9875 0.03447723388671875 0.14511871337890625 -2.5830078125 4.193603515625 0.0005189180374145508 0.001462101936340332 -0.05213165283203125 -0.06362152099609375
17.99725 0.04236602783203125 0.1443634033203125 -2.266357421875 4.415771484375 -0.00021192431449890137 0.0007001161575317383 -0.056529998779296875 -0.058429718017578125
18.007 0.04962921142578125 0.1439056396484375 -1.911865234375 4.6083984375 0.0015071630477905273 8.881092071533203e-05 -0.058078765869140625 -0.055088043212890625
18.01675 0.05915069580078125 0.14313507080078125 -1.52880859375 4.7724609375 0.00037544965744018555 0.00038698315620422363 -0.062221527099609375 -0.04824066162109375
18.0265 0.0656890869140625 0.1397552490234375 -1.1259765625 4.8935546875 0.0023941993713378906 -0.0008990764617919922 -0.06420135498046875 -0.044708251953125
18.03625 0.0736083984375 0.14131927490234375 -0.708740234375 4.960693359375 0.0009108781814575195 0.0012453794479370117 -0.06722259521484375 -0.038768768310546875
18.046 0.08111572265625 0.13818359375 -0.293701171875 4.989990234375 0.0007527470588684082 0.0008884072303771973 -0.06696701049804688 -0.033107757568359375
18.05575 0.08722686767578125 0.13286590576171875 0.09765625 4.98291015625 0.000645071268081665 0.00029778480529785156 -0.07022857666015625 -0.027912139892578125
18.0655 0.093231201171875 0.1328277587890625 0.477294921875 4.94873046875 9.559094905853271e-05 0.00023092329502105713 -0.0702056884765625 -0.021854400634765625
18.07525 0.1014556884765625 0.1283721923828125 0.85693359375 4.889404296875 0.000817716121673584 0.0006362795829772949 -0.07032394409179688 -0.016613006591796875
18.085 0.10784149169921875 0.1249847412109375 1.237548828125 4.81103515625 0.0003710836172103882 -0.0004600733518600464 -0.07141876220703125 -0.01181793212890625
18.09475 0.1135711669921875 0.12058258056640625 1.61279296875 4.71142578125 0.0013613700866699219 0.0017900466918945312 -0.06811141967773438 -0.0050506591796875
18.1045 0.119842529296875 0.1154632568359375 1.98876953125 4.575927734375 0.00036203861236572266 -0.000552445650100708 -0.06974411010742188 0.00200653076171875
18.11425 0.12425994873046875 0.11318206787109375 2.3623046875 4.402099609375 0.0010281205177307129 4.863739013671875e-05 -0.06744384765625 0.00521087646484375
18.124 0.1295166015625 0.1060028076171875 2.70947265625 4.19140625 0.0008267760276794434 -0.0003235936164855957 -0.06790924072265625 0.011810302734375
18.13375 0.135528564453125 0.1026611328125 3.03662109375 3.954833984375 0.0006601810455322266 0.00012111663818359375 -0.06534957885742188 0.017734527587890625
18.1435 0.13956451416015625 0.0973968505859375 3.33251953125 3.681396484375 8.33272933959961e-05 -0.0011505484580993652 -0.06407546997070312 0.0250091552734375
18.15325 0.14402008056640625 0.0916595458984375 3.6123046875 3.390380859375 0.0005504190921783447 0.0003947317600250244 -0.0628814697265625 0.02843475341796875
18.163 0.1486358642578125 0.08506011962890625 3.849853515625 3.087646484375 0.0007814466953277588 -2.6106834411621094e-05 -0.06033897399902344 0.03450584411621094
18.17275 0.1535186767578125 0.08016204833984375 4.0703125 2.768310546875 0.0009607672691345215 0.0004157423973083496 -0.05489921569824219 0.03925132751464844
18.1825 0.15948486328125 0.07335662841796875 4.27001953125 2.444091796875 3.695860505104065e-05 -0.00011599436402320862 -0.05095481872558594 0.04667472839355469
18.19225 0.1610565185546875 0.066375732421875 4.452392578125 2.096923828125 0.0007935762405395508 -0.001044929027557373 -0.04799079895019531 0.0498199462890625
18.202 0.164764404296875 0.0605926513671875 4.599609375 1.740234375 0.0014948844909667969 -6.580352783203125e-05 -0.0458526611328125 0.054821014404296875
18.21175 0.1690826416015625 0.0545501708984375 4.720703125 1.3564453125 0.00020328164100646973 0.0001958906650543213 -0.03923797607421875 0.061374664306640625
18.2215 0.1722564697265625 0.0469818115234375 4.802001953125 0.964599609375 0.0012589693069458008 -0.0008665919303894043 -0.03619575500488281 0.062366485595703125
18.23125 0.173919677734375 0.0406951904296875 4.843994140625 0.582275390625 0.0012909173965454102 9.638071060180664e-05 -0.031696319580078125 0.06530380249023438
18.241 0.175506591796875 0.035125732421875 4.85546875 0.19677734375 0.0003580152988433838 -0.00010211765766143799 -0.027919769287109375 0.07048416137695312
18.25075 0.1775665283203125 0.0263671875 4.8359375 -0.177978515625 0.0004204660654067993 5.945563316345215e-05 -0.0219268798828125 0.07284927368164062
18.2605 0.17847442626953125 0.02117919921875 4.781982421875 -0.546142578125 0.0024782419204711914 -7.784366607666016e-05 -0.014434814453125 0.07403564453125
18.27025 0.1796417236328125 0.01305389404296875 4.715576171875 -0.90771484375 -3.134831786155701e-05 8.150190114974976e-05 -0.01004791259765625 0.07726287841796875
18.28 0.18144989013671875 0.0054931640625 4.630126953125 -1.2744140625 0.0002332627773284912 -0.0005462467670440674 -0.0037078857421875 0.07876205444335938
18.28975 0.18231201171875 -0.00263214111328125 4.5146484375 -1.626220703125 0.0005357861518859863 -0.0006213486194610596 0.003337860107421875 0.08135986328125
18.2995 0.180633544921875 -0.0094451904296875 4.361083984375 -1.978515625 0.0008513331413269043 -0.0007829070091247559 0.0114898681640625 0.08014678955078125
18.30925 0.180511474609375 -0.0185699462890625 4.17578125 -2.3154296875 0.000823676586151123 0.00015401840209960938 0.0181884765625 0.08083343505859375
18.319 0.17897796630859375 -0.026153564453125 3.9598388671875 -2.62744140625 0.00028406083583831787 1.049041748046875e-05 0.023059844970703125 0.08092117309570312
18.32875 0.1784820556640625 -0.0311279296875 3.7236328125 -2.9110107421875 -0.0007932186126708984 -0.0011932849884033203 0.031902313232421875 0.0819091796875
18.3385 0.17580413818359375 -0.0407257080078125 3.4708251953125 -3.17138671875 0.0016085505485534668 -0.0008390545845031738 0.038604736328125 0.08213043212890625
18.34825 0.17594146728515625 -0.0479888916015625 3.2132568359375 -3.416748046875 0.00029496848583221436 -9.556114673614502e-05 0.0462188720703125 0.08112335205078125
18.358 0.17430877685546875 -0.05545806884765625 2.943115234375 -3.64013671875 -0.00015476346015930176 -0.0005137026309967041 0.05265045166015625 0.07723236083984375
18.36775 0.17218017578125 -0.06160736083984375 2.6480712890625 -3.855224609375 6.51627779006958e-05 -0.00044226646423339844 0.05725860595703125 0.075958251953125
18.3775 0.1687164306640625 -0.06841278076171875 2.34912109375 -4.05322265625 -0.0007141828536987305 -0.000729680061340332 0.06369781494140625 0.07387542724609375
18.38725 0.1664886474609375 -0.07707977294921875 2.010498046875 -4.22265625 -0.0004685819149017334 -0.00023123621940612793 0.0707550048828125 0.06926727294921875
18.397 0.163238525390625 -0.082183837890625 1.6572265625 -4.361328125 0.0005967617034912109 8.32676887512207e-05 0.0747222900390625 0.067840576171875
18.40675 0.1584014892578125 -0.0878448486328125 1.28662109375 -4.4638671875 0.0014475584030151367 9.715557098388672e-05 0.082550048828125 0.0621337890625
18.4165 0.15467071533203125 -0.094879150390625 0.921630859375 -4.52001953125 0.0007642507553100586 -0.0006287992000579834 0.0863037109375 0.0565948486328125
18.42625 0.14990234375 -0.101470947265625 0.5634765625 -4.5361328125 -0.0004940330982208252 -0.0003304779529571533 0.09130859375 0.05277252197265625
18.436 0.1439208984375 -0.1058502197265625 0.222412109375 -4.530029296875 -5.5789947509765625e-05 0.000685572624206543 0.09633636474609375 0.0463714599609375
18.44575 0.14003753662109375 -0.11252593994140625 -0.112060546875 -4.505859375 0.0010899901390075684 -0.0008595585823059082 0.099853515625 0.04071044921875
18.4555 0.13402557373046875 -0.11754608154296875 -0.44384765625 -4.476318359375 0.00018298625946044922 0.0004930794239044189 0.10164642333984375 0.03376007080078125
18.46525 0.1292724609375 -0.12347412109375 -0.7783203125 -4.43017578125 0.00023737549781799316 -0.0002138391137123108 0.10436248779296875 0.02429962158203125
18.475 0.12294769287109375 -0.12789154052734375 -1.11376953125 -4.360595703125 0.0008060932159423828 -0.0004845261573791504 0.10948944091796875 0.019378662109375
18.48475 0.11644744873046875 -0.133880615234375 -1.458251953125 -4.250244140625 -0.0006259381771087646 0.0001309514045715332 0.11217880249023438 0.0112762451171875
18.4945 0.1100921630859375 -0.1366729736328125 -1.79638671875 -4.101318359375 0.0005001723766326904 -0.0007929503917694092 0.11236572265625 0.004032135009765625
18.50425 0.103485107421875 -0.1423797607421875 -2.1201171875 -3.91845703125 8.511543273925781e-05 0.0004375576972961426 0.11222076416015625 -0.00366973876953125
18.514 0.09783935546875 -0.1460723876953125 -2.412109375 -3.7060546875 -8.58306884765625e-05 0.00025603175163269043 0.1142425537109375 -0.01076507568359375
18.52375 0.08928680419921875 -0.1492156982421875 -2.662109375 -3.462646484375 -0.00020998716354370117 0.0001664683222770691 0.11259841918945312 -0.01862335205078125
18.5335 0.08411407470703125 -0.15305328369140625 -2.881103515625 -3.22119140625 0.0005313754081726074 0.0004987716674804688 0.11278152465820312 -0.02347564697265625
18.54325 0.07656097412109375 -0.15515899658203125 -3.072021484375 -2.9755859375 -7.68899917602539e-06 -0.000474780797958374 0.11066055297851562 -0.03231048583984375
18.553 0.07027435302734375 -0.15765380859375 -3.251953125 -2.7255859375 0.001005709171295166 0.0002720355987548828 0.10683059692382812 -0.036571502685546875
18.56275 0.063720703125 -0.1590423583984375 -3.42724609375 -2.481689453125 0.0011255741119384766 0.0007549524307250977 0.10554122924804688 -0.042449951171875
18.5725 0.0553741455078125 -0.16263580322265625 -3.58837890625 -2.2177734375 -0.0005996823310852051 -0.000783085823059082 0.10042572021484375 -0.0518341064453125
18.58225 0.048919677734375 -0.161895751953125 -3.73388671875 -1.934814453125 0.0007246732711791992 -0.00030872225761413574 0.09626007080078125 -0.05817413330078125
18.592 0.04010009765625 -0.16434478759765625 -3.862548828125 -1.63037109375 0.00100022554397583 -0.0017992854118347168 0.09195709228515625 -0.062091827392578125
18.60175 0.0332183837890625 -0.164459228515625 -3.958984375 -1.31201171875 -0.0004107952117919922 -0.0012187957763671875 0.0861663818359375 -0.06668853759765625
18.6115 0.02617645263671875 -0.1633148193359375 -4.01171875 -0.993896484375 0.0002371072769165039 -0.00115889310836792 0.08269500732421875 -0.07275390625
18.62125 0.0178375244140625 -0.16432952880859375 -4.03271484375 -0.67919921875 0.0004909634590148926 -2.9295682907104492e-05 0.07591629028320312 -0.0767364501953125
18.631 0.01079559326171875 -0.1640472412109375 -4.025146484375 -0.39208984375 0.0007497668266296387 -0.00040340423583984375 0.07097244262695312 -0.080291748046875
18.64075 0.00444793701171875 -0.16387176513671875 -4.00634765625 -0.105224609375 0.00018262863159179688 -0.0009554028511047363 0.06733322143554688 -0.0817413330078125
18.6505 -0.0033416748046875 -0.16314697265625 -3.9757080078125 0.1658935546875 0.001520693302154541 -0.0017194151878356934 0.060546875 -0.0871429443359375
18.66025 -0.0120849609375 -0.161956787109375 -3.939453125 0.433349609375 0.0007580816745758057 -9.015202522277832e-05 0.05603790283203125 -0.08688735961914062
18.67 -0.0178985595703125 -0.1591644287109375 -3.8907470703125 0.7071533203125 0.00039827823638916016 -7.063150405883789e-05 0.05002593994140625 -0.08823013305664062
18.67975 -0.0267333984375 -0.15705108642578125 -3.8253173828125 0.9871826171875 5.194544792175293e-05 -0.0008502602577209473 0.043178558349609375 -0.0890045166015625
18.6895 -0.03507232666015625 -0.15445709228515625 -3.7235107421875 1.2657470703125 0.001356363296508789 -9.453296661376953e-05 0.03673553466796875 -0.0880889892578125
