!Created with skrf (http://scikit-rf.org).
# GHz S RI R 50.0 
!freq ReS11 ImS11 ReS21 ImS21 ReS12 ImS12 ReS22 ImS22
17.5 -0.00157928466796875 -0.1392974853515625 -2.02197265625 -4.080078125 -0.0011699795722961426 0.0009721517562866211 0.095306396484375 -0.01070404052734375
17.50975 -0.0090484619140625 -0.1352691650390625 -2.327392578125 -3.911865234375 -0.0014303922653198242 0.0008974671363830566 0.09505462646484375 -0.01267242431640625
17.5195 -0.016082763671875 -0.12995147705078125 -2.610595703125 -3.7109375 -0.0017096996307373047 0.001475512981414795 0.09886932373046875 -0.0132904052734375
17.52925 -0.0254974365234375 -0.125091552734375 -2.8857421875 -3.50390625 -0.001589655876159668 0.0015690326690673828 0.09989166259765625 -0.01822662353515625
17.539 -0.0313873291015625 -0.119903564453125 -3.1318359375 -3.2744140625 -0.001165151596069336 0.0007604360580444336 0.09990692138671875 -0.0196533203125
17.54875 -0.037841796875 -0.1156463623046875 -3.355224609375 -3.02880859375 -0.0003269314765930176 -0.00020584464073181152 0.10154342651367188 -0.021697998046875
17.5585 -0.046234130859375 -0.11006927490234375 -3.577392578125 -2.781005859375 -0.0009570121765136719 0.000651240348815918 0.10379409790039062 -0.026233673095703125
17.56825 -0.0507965087890625 -0.10520172119140625 -3.7744140625 -2.527099609375 -0.0020627975463867188 0.001338362693786621 0.10263442993164062 -0.029052734375
17.578 -0.05747222900390625 -0.09760284423828125 -3.964111328125 -2.234619140625 -0.0009301900863647461 0.0010409355163574219 0.10505294799804688 -0.03122711181640625
17.58775 -0.0636749267578125 -0.09389495849609375 -4.135498046875 -1.928955078125 -0.000652700662612915 0.0007828474044799805 0.10289764404296875 -0.033542633056640625
17.5975 -0.067535400390625 -0.08734130859375 -4.27978515625 -1.592529296875 -0.0008294582366943359 0.0019495487213134766 0.10364532470703125 -0.037899017333984375
17.60725 -0.07172393798828125 -0.08110809326171875 -4.3837890625 -1.257568359375 -0.001455843448638916 0.00022304058074951172 0.10018157958984375 -0.040130615234375
17.617 -0.076934814453125 -0.07407379150390625 -4.452392578125 -0.910400390625 -0.0013006925582885742 0.00205230712890625 0.10080337524414062 -0.04476165771484375
17.62675 -0.0804595947265625 -0.066314697265625 -4.49462890625 -0.5703125 -0.0020499229431152344 0.0021872520446777344 0.101226806640625 -0.04669952392578125
17.6365 -0.08380126953125 -0.0590057373046875 -4.50537109375 -0.23779296875 -0.002237081527709961 0.0015270709991455078 0.09955596923828125 -0.05240631103515625
17.64625 -0.086944580078125 -0.0511322021484375 -4.495849609375 0.074951171875 -0.0009750127792358398 0.000717461109161377 0.09764480590820312 -0.05513763427734375
17.656 -0.089447021484375 -0.045257568359375 -4.481689453125 0.384033203125 -0.0018424391746520996 0.001383066177368164 0.09384536743164062 -0.058475494384765625
17.66575 -0.089691162109375 -0.035060882568359375 -4.461181640625 0.689208984375 -0.0007108449935913086 0.001239776611328125 0.09286117553710938 -0.061908721923828125
17.6755 -0.09259033203125 -0.027950286865234375 -4.4267578125 1.00341796875 -0.0009459257125854492 0.0012279748916625977 0.09106826782226562 -0.06745147705078125
17.68525 -0.09277725219726562 -0.02100372314453125 -4.386962890625 1.32958984375 -0.0004929304122924805 0.002048015594482422 0.08808517456054688 -0.06924057006835938
17.695 -0.09317779541015625 -0.011127471923828125 -4.3125 1.674072265625 -0.001042783260345459 0.0011156797409057617 0.08446884155273438 -0.071502685546875
17.70475 -0.09276199340820312 -0.004932403564453125 -4.192138671875 2.027587890625 -6.67572021484375e-06 0.002298712730407715 0.08174514770507812 -0.07401275634765625
17.7145 -0.09504318237304688 0.001850128173828125 -4.031494140625 2.3779296875 -0.0013910531997680664 0.0019963979721069336 0.0775299072265625 -0.07810592651367188
17.72425 -0.09371566772460938 0.010707855224609375 -3.8248291015625 2.70166015625 -0.0006763637065887451 0.0008872151374816895 0.07325363159179688 -0.07947540283203125
17.734 -0.0943145751953125 0.0183563232421875 -3.59228515625 2.989990234375 -0.0007308125495910645 -0.00017601251602172852 0.07151031494140625 -0.08234405517578125
17.74375 -0.09415435791015625 0.024017333984375 -3.333740234375 3.237060546875 -0.0006011724472045898 0.0014548301696777344 0.0683441162109375 -0.0853271484375
17.7535 -0.09040069580078125 0.031330108642578125 -3.081787109375 3.4613037109375 1.0088086128234863e-05 0.0004243403673171997 0.06292724609375 -0.08899688720703125
17.76325 -0.08825302124023438 0.03893280029296875 -2.8349609375 3.662109375 -0.0008677840232849121 0.0015524625778198242 0.057750701904296875 -0.0897064208984375
17.773 -0.085968017578125 0.0446014404296875 -2.5841064453125 3.849609375 0.0001270771026611328 0.0012587904930114746 0.055576324462890625 -0.09235763549804688
17.78275 -0.08414840698242188 0.051273345947265625 -2.31787109375 4.040771484375 -0.0014330744743347168 0.0006496310234069824 0.050502777099609375 -0.09171676635742188
17.7925 -0.08002853393554688 0.057834625244140625 -2.0400390625 4.224853515625 -0.0007849335670471191 0.0015323758125305176 0.046825408935546875 -0.09273529052734375
17.80225 -0.07664108276367188 0.060726165771484375 -1.73828125 4.415283203125 0.0002675652503967285 0.0010620355606079102 0.044036865234375 -0.093658447265625
17.812 -0.07205963134765625 0.07024765014648438 -1.40380859375 4.568115234375 -0.00017336010932922363 0.000916600227355957 0.0388641357421875 -0.09409332275390625
17.82175 -0.0681915283203125 0.07508087158203125 -1.0478515625 4.699951171875 0.0012623071670532227 0.0008884668350219727 0.036045074462890625 -0.09407806396484375
17.8315 -0.06452560424804688 0.08031845092773438 -0.667236328125 4.78662109375 8.884072303771973e-05 0.0007433891296386719 0.02863311767578125 -0.09461593627929688
17.84125 -0.06069183349609375 0.08451080322265625 -0.2900390625 4.8427734375 0.0010769367218017578 0.0010826587677001953 0.02352142333984375 -0.09378814697265625
17.851 -0.053188323974609375 0.09276580810546875 0.087646484375 4.835205078125 0.0006000995635986328 0.001475214958190918 0.0216827392578125 -0.09491348266601562
17.86075 -0.050281524658203125 0.09511566162109375 0.4443359375 4.82568359375 -0.0006837844848632812 0.0019598007202148438 0.016448974609375 -0.09198379516601562
17.8705 -0.04467010498046875 0.1002655029296875 0.799072265625 4.785400390625 0.0011355876922607422 0.0007184743881225586 0.0111083984375 -0.09124374389648438
17.88025 -0.040317535400390625 0.10487747192382812 1.1474609375 4.740478515625 -4.380941390991211e-05 0.0013265013694763184 0.006969451904296875 -0.09254837036132812
17.89 -0.034877777099609375 0.1099700927734375 1.491943359375 4.67333984375 8.83638858795166e-06 0.0004651397466659546 0.002227783203125 -0.09010696411132812
17.89975 -0.029285430908203125 0.11220932006835938 1.86083984375 4.583251953125 -3.4458935260772705e-05 0.00012255460023880005 -0.002910614013671875 -0.08823013305664062
17.9095 -0.02513885498046875 0.1157379150390625 2.22998046875 4.468017578125 0.000731050968170166 0.00035828351974487305 -0.0064544677734375 -0.08769989013671875
17.91925 -0.019046783447265625 0.11787796020507812 2.590087890625 4.307373046875 0.0010777115821838379 0.0006504058837890625 -0.0096893310546875 -0.08698654174804688
17.929 -0.01222991943359375 0.1204376220703125 2.947265625 4.1171875 0.001802682876586914 0.0004913806915283203 -0.0137481689453125 -0.0865020751953125
17.93875 -0.007781982421875 0.12232208251953125 3.284912109375 3.884521484375 -0.00022935867309570312 0.0010243654251098633 -0.017528533935546875 -0.08238983154296875
17.9485 -0.00054931640625 0.12319183349609375 3.5830078125 3.6220703125 0.00019937753677368164 0.0004207193851470947 -0.021320343017578125 -0.07912445068359375
17.95825 0.00449371337890625 0.12442779541015625 3.869140625 3.3466796875 0.0014023780822753906 0.0017958879470825195 -0.021793365478515625 -0.07733154296875
17.968 0.01024627685546875 0.127471923828125 4.129638671875 3.05419921875 -4.83095645904541e-05 0.0004730522632598877 -0.02733612060546875 -0.07586669921875
17.97775 0.01752471923828125 0.1279449462890625 4.361083984375 2.744384765625 0.0005021095275878906 0.0009659528732299805 -0.0312042236328125 -0.07034683227539062
17.9875 0.02313232421875 0.1288604736328125 4.588134765625 2.412109375 1.9922852516174316e-05 -0.0004320293664932251 -0.032596588134765625 -0.070587158203125
17.99725 0.03090667724609375 0.12888336181640625 4.79931640625 2.06982421875 0.00028762221336364746 0.0002804100513458252 -0.036952972412109375 -0.06668853759765625
18.007 0.03730010986328125 0.1287841796875 4.989501953125 1.694580078125 0.0007935762405395508 0.0008439421653747559 -0.04007720947265625 -0.061664581298828125
18.01675 0.0431365966796875 0.12921142578125 5.14697265625 1.296142578125 0.0007659792900085449 0.0010237693786621094 -0.045673370361328125 -0.059844970703125
18.0265 0.0485076904296875 0.128143310546875 5.27392578125 0.873046875 0.001529693603515625 0.0009367465972900391 -0.04613494873046875 -0.05523681640625
18.03625 0.0568084716796875 0.1312713623046875 5.35205078125 0.43115234375 0.0007309913635253906 -1.0251998901367188e-05 -0.0492401123046875 -0.05086517333984375
18.046 0.063262939453125 0.1282196044921875 5.386962890625 -0.019775390625 0.0013909339904785156 0.0010744333267211914 -0.051090240478515625 -0.04811859130859375
18.05575 0.0686492919921875 0.1260833740234375 5.378662109375 -0.45166015625 0.00042575597763061523 0.0004074275493621826 -0.05596923828125 -0.042957305908203125
18.0655 0.0742034912109375 0.12677001953125 5.327392578125 -0.877685546875 -0.0003847479820251465 -0.000533759593963623 -0.05742645263671875 -0.037540435791015625
18.07525 0.08164215087890625 0.12410736083984375 5.25390625 -1.301025390625 0.0014081597328186035 -0.0002747178077697754 -0.059783935546875 -0.032909393310546875
18.085 0.08708953857421875 0.12192535400390625 5.15185546875 -1.72412109375 0.00043150782585144043 -0.0006593465805053711 -0.061710357666015625 -0.030406951904296875
18.09475 0.09192657470703125 0.1207427978515625 5.0205078125 -2.141357421875 0.0008304417133331299 -3.7848949432373047e-06 -0.05963897705078125 -0.025562286376953125
18.1045 0.09882354736328125 0.1179656982421875 4.8525390625 -2.55419921875 0.0005373954772949219 -8.71419906616211e-05 -0.06280899047851562 -0.019840240478515625
18.11425 0.10497283935546875 0.11650848388671875 4.6357421875 -2.960205078125 0.0009115934371948242 0.0005366802215576172 -0.06407928466796875 -0.01515960693359375
18.124 0.108917236328125 0.1132049560546875 4.38720703125 -3.34423828125 -9.85860824584961e-05 -0.0009235143661499023 -0.06313323974609375 -0.00925445556640625
18.13375 0.1154327392578125 0.110931396484375 4.10693359375 -3.703125 0.0007764101028442383 0.0006111860275268555 -0.06280517578125 -0.00421905517578125
18.1435 0.12067413330078125 0.1060943603515625 3.790771484375 -4.031005859375 0.00015738606452941895 0.0007854104042053223 -0.06421661376953125 0.002002716064453125
18.15325 0.12677001953125 0.1010284423828125 3.445556640625 -4.337158203125 0.00019657611846923828 -0.0012447237968444824 -0.06445693969726562 0.006866455078125
18.163 0.13295745849609375 0.09761810302734375 3.083251953125 -4.6015625 0.0006781220436096191 0.001187145709991455 -0.06322097778320312 0.0123443603515625
18.17275 0.13794708251953125 0.09340667724609375 2.69775390625 -4.8330078125 0.000254213809967041 -0.0015265941619873047 -0.061458587646484375 0.018646240234375
18.1825 0.1450653076171875 0.08806610107421875 2.310791015625 -5.051025390625 0.00012052059173583984 -0.0005492866039276123 -0.0577850341796875 0.025482177734375
18.19225 0.149322509765625 0.08205413818359375 1.885498046875 -5.234130859375 -0.0004735589027404785 -0.0005193948745727539 -0.05634498596191406 0.029718399047851562
18.202 0.153656005859375 0.079071044921875 1.456787109375 -5.3876953125 0.00029258430004119873 -0.00021150708198547363 -0.05792808532714844 0.035755157470703125
18.21175 0.1581573486328125 0.07257080078125 0.99462890625 -5.49755859375 0.0002453327178955078 -0.0007027983665466309 -0.0528411865234375 0.041706085205078125
18.2215 0.1640167236328125 0.06772613525390625 0.524658203125 -5.55859375 0.0019873380661010742 -0.0004578828811645508 -0.04969978332519531 0.04606819152832031
18.23125 0.16837310791015625 0.0602264404296875 0.05908203125 -5.571533203125 -0.00017321109771728516 -0.0004630088806152344 -0.04718780517578125 0.04906654357910156
18.241 0.1721343994140625 0.05342864990234375 -0.399169921875 -5.537841796875 0.0005028843879699707 -0.00010710954666137695 -0.04274177551269531 0.05420112609863281
18.25075 0.17545318603515625 0.04688262939453125 -0.841064453125 -5.467529296875 -0.00041162967681884766 -0.00044205784797668457 -0.039989471435546875 0.059215545654296875
18.2605 0.17905426025390625 0.0410614013671875 -1.267822265625 -5.3642578125 0.0011428594589233398 -0.0008110404014587402 -0.034008026123046875 0.06372833251953125
18.27025 0.17966461181640625 0.03160858154296875 -1.68798828125 -5.2412109375 0.0002969503402709961 -0.0007503926753997803 -0.0296478271484375 0.06662368774414062
18.28 0.1839141845703125 0.0248565673828125 -2.104736328125 -5.095458984375 0.00038927793502807617 -0.0007100999355316162 -0.02382659912109375 0.06991958618164062
18.28975 0.18778228759765625 0.0153350830078125 -2.50341796875 -4.9091796875 -0.000478208065032959 -0.0006226301193237305 -0.016391754150390625 0.07471084594726562
18.2995 0.18853759765625 0.00920867919921875 -2.90380859375 -4.683837890625 0.00022063404321670532 -0.00014159828424453735 -0.01220703125 0.07468032836914062
18.30925 0.188568115234375 -0.00048828125 -3.283203125 -4.4130859375 -0.0007045269012451172 -0.00037491321563720703 -0.00397491455078125 0.07631683349609375
18.319 0.18869781494140625 -0.00860595703125 -3.63134765625 -4.108642578125 0.0006450414657592773 0.00044471025466918945 0.000728607177734375 0.08198928833007812
18.32875 0.19011688232421875 -0.01511383056640625 -3.938720703125 -3.779541015625 0.0006326436996459961 0.00037223100662231445 0.00772857666015625 0.0821990966796875
18.3385 0.189361572265625 -0.0260009765625 -4.20654296875 -3.427001953125 0.0008706450462341309 -0.001542508602142334 0.01636505126953125 0.08318710327148438
18.34825 0.1898193359375 -0.03484344482421875 -4.45361328125 -3.074462890625 -0.0006145238876342773 -0.0015517473220825195 0.0228271484375 0.08414840698242188
18.358 0.18869781494140625 -0.0428009033203125 -4.66259765625 -2.7138671875 1.0728836059570312e-05 -0.0011948347091674805 0.03108978271484375 0.08300399780273438
18.36775 0.18758392333984375 -0.05219268798828125 -4.8515625 -2.32568359375 -0.00016325712203979492 -0.000830531120300293 0.0361175537109375 0.08170700073242188
18.3775 0.18537139892578125 -0.05852508544921875 -5.0224609375 -1.943359375 0.0006963610649108887 0.0007072687149047852 0.04248046875 0.0814971923828125
18.38725 0.18365478515625 -0.0693359375 -5.1572265625 -1.51806640625 4.4405460357666016e-05 -0.0005526840686798096 0.04852294921875 0.08144378662109375
18.397 0.1804656982421875 -0.0766448974609375 -5.25537109375 -1.08642578125 -1.2755393981933594e-05 -0.0011292695999145508 0.05572509765625 0.0792236328125
18.40675 0.175506591796875 -0.08404541015625 -5.31591796875 -0.63134765625 0.0010727643966674805 0.00024008750915527344 0.0628814697265625 0.0755157470703125
18.4165 0.17174530029296875 -0.09243011474609375 -5.315673828125 -0.191162109375 0.00036579370498657227 -0.0011430978775024414 0.0683441162109375 0.072418212890625
18.42625 0.16783905029296875 -0.1008453369140625 -5.273681640625 0.239501953125 -0.00015413761138916016 -0.0014826655387878418 0.07508087158203125 0.06920623779296875
18.436 0.16364288330078125 -0.10747528076171875 -5.19873046875 0.647705078125 0.0007526874542236328 -0.00044336915016174316 0.0819854736328125 0.06573486328125
18.44575 0.15596771240234375 -0.115966796875 -5.095703125 1.0400390625 -0.0001386404037475586 -0.0008689761161804199 0.08587646484375 0.0590972900390625
18.4555 0.15084075927734375 -0.12139129638671875 -4.971435546875 1.415771484375 -0.00024208426475524902 0.00041459500789642334 0.091156005859375 0.05472564697265625
18.46525 0.1439208984375 -0.1300048828125 -4.84326171875 1.7880859375 0.00015823543071746826 -0.0004759281873703003 0.09709930419921875 0.04734039306640625
18.475 0.136627197265625 -0.13562774658203125 -4.688232421875 2.158935546875 0.0001087188720703125 -0.0005150437355041504 0.1019287109375 0.04100799560546875
18.48475 0.13117218017578125 -0.1422119140625 -4.4951171875 2.53076171875 -0.00010747462511062622 0.00018496066331863403 0.1053466796875 0.035369873046875
18.4945 0.12299346923828125 -0.1470794677734375 -4.258056640625 2.892333984375 0.00044524669647216797 0.0012877583503723145 0.10936737060546875 0.0264739990234375
18.50425 0.114837646484375 -0.1539764404296875 -3.984619140625 3.22900390625 0.0003952980041503906 0.0006417036056518555 0.1102447509765625 0.0212860107421875
18.514 0.109100341796875 -0.15826416015625 -3.674560546875 3.524658203125 0.00022482872009277344 -0.0005497932434082031 0.11425018310546875 0.01239776611328125
18.52375 0.09995269775390625 -0.16158294677734375 -3.3326416015625 3.7691650390625 0.0002943277359008789 -0.00035871565341949463 0.114410400390625 0.004261016845703125
18.5335 0.0927276611328125 -0.166717529296875 -2.9969482421875 3.979248046875 -3.829598426818848e-06 -0.00047062337398529053 0.11618423461914062 -0.003223419189453125
18.54325 0.08444976806640625 -0.17023468017578125 -2.664794921875 4.147216796875 0.00041544437408447266 -0.0008720159530639648 0.11687850952148438 -0.009548187255859375
18.553 0.075347900390625 -0.172698974609375 -2.325927734375 4.2939453125 0.0007628798484802246 -0.0010976791381835938 0.11584091186523438 -0.01700592041015625
18.56275 0.0668487548828125 -0.17496490478515625 -1.9951171875 4.43115234375 0.0005365908145904541 -0.0008642375469207764 0.1143798828125 -0.023403167724609375
18.5725 0.0580291748046875 -0.175811767578125 -1.65380859375 4.552490234375 0.0006059408187866211 -0.0003503262996673584 0.11151885986328125 -0.032688140869140625
18.58225 0.04979705810546875 -0.17725372314453125 -1.294677734375 4.6484375 0.00013627111911773682 -0.00012212246656417847 0.11092376708984375 -0.0395355224609375
18.592 0.04013824462890625 -0.17893218994140625 -0.91357421875 4.723876953125 0.000989079475402832 -0.0005206465721130371 0.10572052001953125 -0.04598236083984375
18.60175 0.032501220703125 -0.17822265625 -0.5283203125 4.75830078125 0.00019291043281555176 -0.00024121999740600586 0.1017608642578125 -0.05130767822265625
18.6115 0.0215606689453125 -0.17751312255859375 -0.14599609375 4.7431640625 0.00014221668243408203 0.0004455447196960449 0.09839248657226562 -0.05811309814453125
18.62125 0.01450347900390625 -0.177093505859375 0.224609375 4.692138671875 -0.00045233964920043945 -0.001458585262298584 0.0936737060546875 -0.0641937255859375
18.631 0.0059051513671875 -0.175750732421875 0.560791015625 4.61328125 0.001820683479309082 -0.000687718391418457 0.0901031494140625 -0.06923675537109375
18.64075 -0.0027313232421875 -0.17491912841796875 0.88623046875 4.510498046875 0.001072525978088379 -0.0013710856437683105 0.08470916748046875 -0.07270431518554688
18.6505 -0.00984954833984375 -0.17340087890625 1.192626953125 4.40380859375 0.0005925297737121582 -0.0006921291351318359 0.07802963256835938 -0.07733154296875
18.66025 -0.02008056640625 -0.16921234130859375 1.490478515625 4.2890625 6.669759750366211e-05 -0.0011690855026245117 0.07427597045898438 -0.07994461059570312
18.67 -0.02605438232421875 -0.1673583984375 1.7880859375 4.16357421875 0.0004165768623352051 -0.0010582208633422852 0.06826019287109375 -0.08217620849609375
18.67975 -0.03568267822265625 -0.164276123046875 2.09033203125 4.017578125 -0.00010633468627929688 -0.00048467516899108887 0.061603546142578125 -0.08591842651367188
