!Created with skrf (http://scikit-rf.org).
# GHz S RI R 50.0 
!freq ReS11 ImS11 ReS21 ImS21 ReS12 ImS12 ReS22 ImS22
17.5 0.017822265625 -0.1471405029296875 1.937255859375 4.075927734375 -0.0022156238555908203 0.0004942417144775391 0.10053634643554688 0.0117034912109375
17.50975 0.0071258544921875 -0.14487457275390625 2.260986328125 3.897705078125 -0.0013401508331298828 0.0001965165138244629 0.10503387451171875 0.010894775390625
17.5195 -0.00110626220703125 -0.1414337158203125 2.55908203125 3.68798828125 -0.0006152689456939697 0.0007731914520263672 0.1098175048828125 0.009181976318359375
17.52925 -0.01042938232421875 -0.13813018798828125 2.84375 3.470947265625 -0.0023758411407470703 0.0015581846237182617 0.11199951171875 0.004451751708984375
17.539 -0.016815185546875 -0.134002685546875 3.09765625 3.2236328125 -0.001181960105895996 -2.765655517578125e-05 0.11431884765625 0.0011444091796875
17.54875 -0.0254058837890625 -0.130584716796875 3.326416015625 2.969482421875 -0.0014532208442687988 -0.0002504587173461914 0.11642074584960938 -0.003173828125
17.5585 -0.03430938720703125 -0.1259613037109375 3.544677734375 2.707763671875 -0.000689774751663208 0.000475466251373291 0.11974334716796875 -0.008914947509765625
17.56825 -0.0425872802734375 -0.122161865234375 3.74755859375 2.440185546875 -0.0020856857299804688 0.0001035928726196289 0.12211227416992188 -0.01222991943359375
17.578 -0.04772186279296875 -0.11620330810546875 3.93408203125 2.135009765625 -0.0016255974769592285 0.0013771653175354004 0.123077392578125 -0.015453338623046875
17.58775 -0.05579376220703125 -0.1123199462890625 4.104736328125 1.8115234375 -0.0013132691383361816 -2.3066997528076172e-05 0.1248626708984375 -0.02135467529296875
17.5975 -0.0607757568359375 -0.10585784912109375 4.239990234375 1.455322265625 -0.0006316304206848145 0.0015856623649597168 0.126251220703125 -0.02758026123046875
17.60725 -0.0671844482421875 -0.101165771484375 4.32861328125 1.09619140625 -0.0017355680465698242 0.001607060432434082 0.1240997314453125 -0.0320892333984375
17.617 -0.0728302001953125 -0.09284210205078125 4.380126953125 0.736083984375 -0.0013919472694396973 0.0012493729591369629 0.1245574951171875 -0.037506103515625
17.62675 -0.0792388916015625 -0.08686065673828125 4.391357421875 0.37939453125 -0.0010495781898498535 0.001682579517364502 0.1268310546875 -0.04225921630859375
17.6365 -0.082763671875 -0.0786285400390625 4.3642578125 0.04345703125 -0.0015490055084228516 0.0012263059616088867 0.1241302490234375 -0.0489959716796875
17.64625 -0.08739471435546875 -0.06964111328125 4.324951171875 -0.267578125 -0.0010750889778137207 0.0008522868156433105 0.12255859375 -0.054256439208984375
17.656 -0.0916290283203125 -0.06496429443359375 4.282470703125 -0.56591796875 -0.0011761188507080078 0.0008095502853393555 0.11953353881835938 -0.059055328369140625
17.66575 -0.0963287353515625 -0.0560760498046875 4.238525390625 -0.861572265625 -0.0005035400390625 0.0012953877449035645 0.11809921264648438 -0.06365203857421875
17.6755 -0.098175048828125 -0.0474700927734375 4.17626953125 -1.1640625 -0.0008266568183898926 0.0008224844932556152 0.1150665283203125 -0.07065963745117188
17.68525 -0.100982666015625 -0.0395965576171875 4.12060546875 -1.476806640625 -0.0005156993865966797 0.001033484935760498 0.11167144775390625 -0.07624435424804688
17.695 -0.1035919189453125 -0.0322113037109375 4.0224609375 -1.812744140625 -0.0008106231689453125 0.001544952392578125 0.11020660400390625 -0.0806732177734375
17.70475 -0.1052398681640625 -0.02068328857421875 3.87353515625 -2.1541748046875 -9.351968765258789e-05 0.0014810562133789062 0.10490798950195312 -0.08538818359375
17.7145 -0.10604095458984375 -0.013698577880859375 3.6832275390625 -2.48974609375 -0.0009590983390808105 0.000878751277923584 0.099761962890625 -0.08905029296875
17.72425 -0.10733413696289062 -0.00440216064453125 3.447998046875 -2.7840576171875 -0.0006900429725646973 0.0014289617538452148 0.0947723388671875 -0.09582901000976562
17.734 -0.11048126220703125 0.0029296875 3.1787109375 -3.0401611328125 7.665157318115234e-05 0.0015249252319335938 0.08909988403320312 -0.099395751953125
17.74375 -0.10973358154296875 0.0105133056640625 2.894287109375 -3.239501953125 -0.0009317398071289062 0.002400636672973633 0.0851287841796875 -0.10416412353515625
17.7535 -0.1068267822265625 0.01963043212890625 2.6219482421875 -3.409423828125 -7.222592830657959e-05 0.0003258734941482544 0.08133697509765625 -0.1077117919921875
17.76325 -0.10769271850585938 0.0276641845703125 2.3701171875 -3.5662841796875 -0.0005006790161132812 0.0010936260223388672 0.07335281372070312 -0.10932540893554688
17.773 -0.1054534912109375 0.034099578857421875 2.123291015625 -3.7091064453125 5.364418029785156e-06 0.001165926456451416 0.06869888305664062 -0.11301040649414062
17.78275 -0.10419845581054688 0.042964935302734375 1.859375 -3.8470458984375 9.322166442871094e-05 0.0017696619033813477 0.06369400024414062 -0.115753173828125
17.7925 -0.10092926025390625 0.049358367919921875 1.5880126953125 -3.99169921875 -0.001277148723602295 0.0017233490943908691 0.058055877685546875 -0.11551284790039062
17.80225 -0.0993194580078125 0.058013916015625 1.28759765625 -4.134033203125 1.4066696166992188e-05 0.0007662177085876465 0.05242919921875 -0.11896514892578125
17.812 -0.09534454345703125 0.06603240966796875 0.95458984375 -4.244873046875 0.0002601146697998047 0.0026903152465820312 0.0453338623046875 -0.1196746826171875
17.82175 -0.08947372436523438 0.0750732421875 0.60791015625 -4.317138671875 0.00010752677917480469 0.0015949606895446777 0.03978729248046875 -0.11946487426757812
17.8315 -0.08655548095703125 0.08211898803710938 0.25 -4.3515625 0.00011991336941719055 -9.172409772872925e-05 0.03209686279296875 -0.1211700439453125
17.84125 -0.08321380615234375 0.0886688232421875 -0.09619140625 -4.34130859375 0.0003408193588256836 0.00019299983978271484 0.02437591552734375 -0.1188201904296875
17.851 -0.07540130615234375 0.09875869750976562 -0.429443359375 -4.27978515625 0.0002524852752685547 0.0009588003158569336 0.01924896240234375 -0.11965179443359375
17.86075 -0.07230377197265625 0.10329055786132812 -0.733154296875 -4.219482421875 0.00042760372161865234 0.0009854435920715332 0.011249542236328125 -0.11760711669921875
17.8705 -0.06654739379882812 0.10950851440429688 -1.026611328125 -4.1396484375 0.0005685091018676758 0.0011098384857177734 0.003505706787109375 -0.11566925048828125
17.88025 -0.05931854248046875 0.11533737182617188 -1.3154296875 -4.063720703125 0.0007655620574951172 0.001387953758239746 -0.00051116943359375 -0.11641311645507812
17.89 -0.055187225341796875 0.12212753295898438 -1.60498046875 -3.973876953125 2.9325485229492188e-05 0.0009596943855285645 -0.0062255859375 -0.11299514770507812
17.89975 -0.04843902587890625 0.127227783203125 -1.91064453125 -3.86181640625 0.0010654926300048828 0.0012744665145874023 -0.01348114013671875 -0.11261749267578125
17.9095 -0.04351806640625 0.13112640380859375 -2.222412109375 -3.72314453125 0.0011303424835205078 0.0014472007751464844 -0.02074432373046875 -0.11026763916015625
17.91925 -0.03376007080078125 0.13579559326171875 -2.517333984375 -3.5419921875 0.0010479092597961426 0.0005886554718017578 -0.02458953857421875 -0.10810089111328125
17.929 -0.027435302734375 0.1397705078125 -2.80224609375 -3.3330078125 0.0006456375122070312 0.0013092756271362305 -0.030487060546875 -0.105743408203125
17.93875 -0.020416259765625 0.14287567138671875 -3.0498046875 -3.084228515625 0.0008582472801208496 0.0003808736801147461 -0.035064697265625 -0.1018829345703125
17.9485 -0.01168060302734375 0.14548492431640625 -3.260498046875 -2.824951171875 0.0021448135375976562 0.0001685619354248047 -0.040130615234375 -0.0960845947265625
17.95825 -0.00435638427734375 0.14859771728515625 -3.4501953125 -2.5634765625 0.0009781718254089355 0.0001659989356994629 -0.04341888427734375 -0.0933837890625
17.968 0.00312042236328125 0.15111541748046875 -3.611328125 -2.30078125 0.0001920163631439209 0.0006513297557830811 -0.04967498779296875 -0.09027862548828125
17.97775 0.01165008544921875 0.15116119384765625 -3.760986328125 -2.04345703125 0.002296924591064453 0.00013148784637451172 -0.053802490234375 -0.0827484130859375
17.9875 0.02194976806640625 0.153656005859375 -3.9130859375 -1.767822265625 -0.00010010600090026855 0.0006358623504638672 -0.0558929443359375 -0.07949066162109375
17.99725 0.02999114990234375 0.1547088623046875 -4.05908203125 -1.48583984375 0.0009664297103881836 0.0003934502601623535 -0.06127166748046875 -0.07550048828125
18.007 0.03920745849609375 0.15381622314453125 -4.18359375 -1.175048828125 0.0006569027900695801 0.0006573200225830078 -0.06400299072265625 -0.0697174072265625
18.01675 0.04878997802734375 0.15512847900390625 -4.28076171875 -0.843017578125 0.002158045768737793 0.0003848075866699219 -0.06988525390625 -0.06353759765625
18.0265 0.0560302734375 0.1541290283203125 -4.3447265625 -0.49169921875 0.00099945068359375 0.00031757354736328125 -0.074432373046875 -0.05718994140625
18.03625 0.0634613037109375 0.153961181640625 -4.365234375 -0.1328125 0.00045368075370788574 -0.0004069805145263672 -0.0765838623046875 -0.0511627197265625
18.046 0.072601318359375 0.1514892578125 -4.3466796875 0.21826171875 0.0013723969459533691 -0.0005236268043518066 -0.0790863037109375 -0.046539306640625
18.05575 0.08086395263671875 0.14809417724609375 -4.299072265625 0.54248046875 0.0005865693092346191 0.0005456805229187012 -0.08150863647460938 -0.038974761962890625
18.0655 0.0890045166015625 0.14829254150390625 -4.2265625 0.855224609375 0.0012031793594360352 -0.0001431107521057129 -0.08451080322265625 -0.033447265625
18.07525 0.09806060791015625 0.145782470703125 -4.146728515625 1.15771484375 1.570582389831543e-05 -0.0007972419261932373 -0.08554840087890625 -0.0249481201171875
18.085 0.10576629638671875 0.1405181884765625 -4.048583984375 1.46142578125 0.0006011724472045898 -0.0005178153514862061 -0.0877685546875 -0.0200653076171875
18.09475 0.11224365234375 0.13763427734375 -3.9373779296875 1.7568359375 1.1458992958068848e-05 0.00025935471057891846 -0.085906982421875 -0.013614654541015625
18.1045 0.1214447021484375 0.1319580078125 -3.808837890625 2.0576171875 0.0011484622955322266 -0.00015741586685180664 -0.08691787719726562 -0.006137847900390625
18.11425 0.1270751953125 0.1293182373046875 -3.6397705078125 2.353759765625 0.0004693269729614258 0.0005544424057006836 -0.08492660522460938 -0.00072479248046875
18.124 0.132293701171875 0.12249755859375 -3.451904296875 2.636962890625 0.0013555288314819336 -0.00039505958557128906 -0.08478546142578125 0.00707244873046875
18.13375 0.14111328125 0.1180877685546875 -3.2392578125 2.89501953125 0.001286923885345459 -0.00030809640884399414 -0.08261871337890625 0.0147247314453125
18.1435 0.145751953125 0.1123046875 -2.997314453125 3.1314697265625 0.0007739365100860596 -0.0002688765525817871 -0.08326339721679688 0.024566650390625
18.15325 0.1536407470703125 0.1058502197265625 -2.73779296875 3.351318359375 0.0005078911781311035 0.0007760524749755859 -0.08163833618164062 0.029918670654296875
18.163 0.1591339111328125 0.0985260009765625 -2.4742431640625 3.541259765625 0.001432955265045166 -0.0003682374954223633 -0.0762939453125 0.03682708740234375
18.17275 0.1639862060546875 0.09185791015625 -2.198486328125 3.7161865234375 0.001212775707244873 4.4345855712890625e-05 -0.07254409790039062 0.04419708251953125
18.1825 0.169830322265625 0.0843505859375 -1.9190673828125 3.87451171875 0.00017958879470825195 -0.0011260509490966797 -0.06901931762695312 0.0515594482421875
18.19225 0.17327880859375 0.0765533447265625 -1.616455078125 4.016357421875 0.0003279000520706177 1.8209218978881836e-05 -0.06613922119140625 0.057422637939453125
18.202 0.1780548095703125 0.0702972412109375 -1.31005859375 4.13427734375 0.0011540651321411133 -0.001007080078125 -0.06342315673828125 0.0633544921875
18.21175 0.1827239990234375 0.0626678466796875 -0.9775390625 4.22705078125 0.00026303529739379883 0.0004725456237792969 -0.056640625 0.0701751708984375
18.2215 0.1873016357421875 0.05399322509765625 -0.64306640625 4.284423828125 0.00047075748443603516 -0.0008165538311004639 -0.050060272216796875 0.07363128662109375
18.23125 0.18920135498046875 0.0455474853515625 -0.31103515625 4.3125 0.00031262636184692383 -0.0006321072578430176 -0.046230316162109375 0.07662582397460938
18.241 0.19211578369140625 0.0379486083984375 0.017333984375 4.313232421875 0.0009437799453735352 -0.0010488629341125488 -0.04062652587890625 0.08449172973632812
18.25075 0.193328857421875 0.028900146484375 0.3349609375 4.2919921875 0.0006695985794067383 -0.000999748706817627 -0.033473968505859375 0.08621978759765625
18.2605 0.19519805908203125 0.02118682861328125 0.65185546875 4.24755859375 -0.0005203783512115479 4.363059997558594e-05 -0.02588653564453125 0.0908355712890625
18.27025 0.196014404296875 0.011749267578125 0.965087890625 4.192626953125 6.940960884094238e-05 -0.0002020522952079773 -0.01938629150390625 0.09383392333984375
18.28 0.1960296630859375 0.002349853515625 1.289794921875 4.119873046875 -5.692243576049805e-06 0.000744253396987915 -0.011859893798828125 0.09577178955078125
18.28975 0.19675445556640625 -0.00656890869140625 1.605712890625 4.01708984375 0.00047457218170166016 -0.0013743042945861816 -0.003261566162109375 0.09913253784179688
18.2995 0.19637298583984375 -0.01438140869140625 1.9169921875 3.878662109375 -0.0006136298179626465 -0.0006554126739501953 0.00588226318359375 0.09785842895507812
18.30925 0.194854736328125 -0.025054931640625 2.2177734375 3.70361328125 0.0008546710014343262 -0.0006893277168273926 0.01345062255859375 0.10037994384765625
18.319 0.19317626953125 -0.033599853515625 2.496337890625 3.5087890625 -0.000943303108215332 -0.0006576776504516602 0.02149200439453125 0.10312652587890625
18.32875 0.1906280517578125 -0.039520263671875 2.7431640625 3.29052734375 -7.802993059158325e-05 0.00014118105173110962 0.03119659423828125 0.10057830810546875
18.3385 0.18833160400390625 -0.0504913330078125 2.96923828125 3.062744140625 -2.7239322662353516e-05 -0.0012719035148620605 0.04006195068359375 0.101226806640625
18.34825 0.1871490478515625 -0.05926513671875 3.179931640625 2.8330078125 0.0004705190658569336 -0.00024333596229553223 0.04673004150390625 0.10031890869140625
18.358 0.18466949462890625 -0.06682586669921875 3.378173828125 2.59765625 0.0007218122482299805 0.00019356608390808105 0.05474090576171875 0.09761810302734375
18.36775 0.17974853515625 -0.07477569580078125 3.569580078125 2.33447265625 0.0007162094116210938 0.00013071298599243164 0.061920166015625 0.09458160400390625
18.3775 0.17708587646484375 -0.08127593994140625 3.751708984375 2.0703125 -0.00021892786026000977 -0.0015114545822143555 0.06981658935546875 0.09273529052734375
18.38725 0.17205810546875 -0.0899200439453125 3.91259765625 1.761474609375 0.0003124922513961792 6.046891212463379e-05 0.07715606689453125 0.0890655517578125
18.397 0.1680755615234375 -0.09637451171875 4.0390625 1.4404296875 -0.00044423341751098633 -0.00017845630645751953 0.0853271484375 0.083648681640625
18.40675 0.1620941162109375 -0.10321044921875 4.13623046875 1.0966796875 -1.2278556823730469e-05 -0.00034677982330322266 0.091796875 0.078094482421875
18.4165 0.1573333740234375 -0.10958099365234375 4.186279296875 0.766845703125 0.00024272501468658447 -0.00028152763843536377 0.0982208251953125 0.07398223876953125
18.42625 0.15045166015625 -0.11516571044921875 4.197021484375 0.437255859375 0.001189112663269043 0.00014150142669677734 0.10465240478515625 0.06665802001953125
18.436 0.1427459716796875 -0.12032318115234375 4.1904296875 0.127685546875 -2.2360123693943024e-05 9.648501873016357e-07 0.11174774169921875 0.058624267578125
18.44575 0.1370391845703125 -0.12679290771484375 4.162109375 -0.169921875 0.0003435462713241577 -0.00010229647159576416 0.11429595947265625 0.05094146728515625
18.4555 0.1300811767578125 -0.132415771484375 4.13134765625 -0.464599609375 -0.0002727508544921875 -0.00036782026290893555 0.11753082275390625 0.04339599609375
18.46525 0.1244964599609375 -0.13697052001953125 4.09912109375 -0.760986328125 -0.0001958981156349182 5.042552947998047e-05 0.12357330322265625 0.0352630615234375
18.475 0.11573028564453125 -0.14115142822265625 4.047119140625 -1.0673828125 0.000643610954284668 -0.0001958906650543213 0.12741851806640625 0.0261077880859375
18.48475 0.11060333251953125 -0.14559173583984375 3.957763671875 -1.3851318359375 0.00017246603965759277 -0.0002636909484863281 0.13100433349609375 0.0175933837890625
18.4945 0.10115814208984375 -0.147857666015625 3.826904296875 -1.703125 -0.0003829002380371094 -0.000794529914855957 0.13249969482421875 0.00785064697265625
18.50425 0.0944671630859375 -0.153564453125 3.662841796875 -2.005615234375 0.0004981160163879395 5.894899368286133e-05 0.130615234375 -0.00115966796875
18.514 0.08803558349609375 -0.15491485595703125 3.4649658203125 -2.2774658203125 0.000306934118270874 0.00025594234466552734 0.132843017578125 -0.00994873046875
18.52375 0.0795440673828125 -0.1557769775390625 3.2406005859375 -2.510986328125 0.0003752708435058594 -0.0011548995971679688 0.1324310302734375 -0.01807403564453125
18.5335 0.07421875 -0.1592864990234375 3.0220947265625 -2.7142333984375 -0.0001605302095413208 -0.00015592575073242188 0.13177490234375 -0.026458740234375
18.54325 0.06580352783203125 -0.16211700439453125 2.80224609375 -2.8944091796875 0.00015142560005187988 -0.0005508661270141602 0.13036346435546875 -0.0353851318359375
18.553 0.05826568603515625 -0.16329193115234375 2.579833984375 -3.0625 0.000249713659286499 0.00033587217330932617 0.12526702880859375 -0.0422821044921875
18.56275 0.05224609375 -0.1626129150390625 2.3619384765625 -3.2298583984375 0.0006358921527862549 0.00031051039695739746 0.12248611450195312 -0.050548553466796875
18.5725 0.04517364501953125 -0.16417694091796875 2.126708984375 -3.3878173828125 1.2159347534179688e-05 -0.0009116232395172119 0.11815261840820312 -0.0591888427734375
18.58225 0.03675079345703125 -0.16344451904296875 1.8701171875 -3.537109375 -2.726912498474121e-06 -5.8338046073913574e-05 0.11230850219726562 -0.0662078857421875
18.592 0.03108978271484375 -0.1651763916015625 1.5880126953125 -3.66943359375 0.00030118227005004883 0.00029355287551879883 0.107574462890625 -0.0734100341796875
18.60175 0.022003173828125 -0.1638336181640625 1.295654296875 -3.77294921875 9.530782699584961e-05 -0.0004981756210327148 0.100250244140625 -0.07707977294921875
18.6115 0.01473236083984375 -0.16133880615234375 0.996337890625 -3.8336181640625 0.0005688369274139404 -0.0007508695125579834 0.095367431640625 -0.08505630493164062
18.62125 0.0087890625 -0.16153717041015625 0.7042236328125 -3.86328125 -8.058547973632812e-05 -0.0007851719856262207 0.08906936645507812 -0.08959579467773438
18.631 0.00020599365234375 -0.16092681884765625 0.4346923828125 -3.86474609375 0.00018490850925445557 5.3569674491882324e-05 0.08168792724609375 -0.09507369995117188
18.64075 -0.00608062744140625 -0.15879058837890625 0.17041015625 -3.8533935546875 0.0008263885974884033 -0.0007202327251434326 0.0749664306640625 -0.09813690185546875
18.6505 -0.0122528076171875 -0.15775299072265625 -0.082763671875 -3.841796875 -7.402896881103516e-05 -0.0007335841655731201 0.06824111938476562 -0.100677490234375
18.66025 -0.02142333984375 -0.15413665771484375 -0.332763671875 -3.82373046875 -0.0009973645210266113 0.0003787875175476074 0.061614990234375 -0.10332870483398438
18.67 -0.0266876220703125 -0.1529541015625 -0.593505859375 -3.798095703125 0.00035244226455688477 -0.0004490017890930176 0.05443572998046875 -0.103485107421875
18.67975 -0.03359222412109375 -0.1509552001953125 -0.860107421875 -3.762451171875 -0.0002689361572265625 -0.000988781452178955 0.046443939208984375 -0.1059417724609375
18.6895 -0.03974151611328125 -0.1469573974609375 -1.131591796875 -3.684814453125 0.00033095479011535645 0.00037980079650878906 0.040439605712890625 -0.10447311401367188
