!Created with skrf (http://scikit-rf.org).
# GHz S RI R 50.0 
!freq ReS11 ImS11 ReS21 ImS21 ReS12 ImS12 ReS22 ImS22
17.5 0.01711273193359375 -0.14402008056640625 0.695068359375 4.51171875 0.00036644935607910156 0.0007423758506774902 0.09749221801757812 0.01409912109375
17.50975 0.0084381103515625 -0.1427459716796875 1.061279296875 4.43408203125 -0.0007405281066894531 0.0008922219276428223 0.10088729858398438 0.012470245361328125
17.5195 0.00067901611328125 -0.138214111328125 1.413330078125 4.318359375 -0.00222170352935791 0.0013004541397094727 0.1058349609375 0.010929107666015625
17.52925 -0.0089874267578125 -0.1359100341796875 1.75341796875 4.183837890625 -0.0020154714584350586 0.0007454156875610352 0.109375 0.006618499755859375
17.539 -0.0145111083984375 -0.1307373046875 2.068359375 4.02001953125 -0.0023720264434814453 -2.574920654296875e-05 0.10980987548828125 0.00199127197265625
17.54875 -0.023468017578125 -0.12799072265625 2.362060546875 3.833251953125 -0.0020543336868286133 0.0005952119827270508 0.11326217651367188 0.000675201416015625
17.5585 -0.0336151123046875 -0.12429046630859375 2.64892578125 3.644775390625 -0.0009626150131225586 -0.00030744075775146484 0.11671829223632812 -0.005828857421875
17.56825 -0.03993988037109375 -0.11975860595703125 2.91943359375 3.44140625 -0.0009250044822692871 0.000998079776763916 0.11957550048828125 -0.011749267578125
17.578 -0.04578399658203125 -0.11407470703125 3.190673828125 3.203857421875 -0.0013953447341918945 0.0010054707527160645 0.1212615966796875 -0.01490020751953125
17.58775 -0.052978515625 -0.10994720458984375 3.44384765625 2.93798828125 -0.0007717013359069824 0.00011590123176574707 0.12285995483398438 -0.018970489501953125
17.5975 -0.057464599609375 -0.10439300537109375 3.681884765625 2.633544921875 -0.00041425228118896484 0.0018979310989379883 0.123291015625 -0.024627685546875
17.60725 -0.0642242431640625 -0.100921630859375 3.870361328125 2.311279296875 -0.00045680999755859375 0.0014376044273376465 0.12343597412109375 -0.029327392578125
17.617 -0.0702056884765625 -0.0925750732421875 4.02587890625 1.97802734375 -0.0014608502388000488 0.0002560615539550781 0.12506103515625 -0.034149169921875
17.62675 -0.07627105712890625 -0.08536529541015625 4.135498046875 1.638427734375 -0.0008371472358703613 0.0019091367721557617 0.12437820434570312 -0.037830352783203125
17.6365 -0.079833984375 -0.0792236328125 4.20849609375 1.3017578125 -4.3332576751708984e-05 0.000606834888458252 0.12445831298828125 -0.04586029052734375
17.64625 -0.0840911865234375 -0.07097625732421875 4.25927734375 0.98974609375 -0.0018658638000488281 0.0012963414192199707 0.12152481079101562 -0.0494232177734375
17.656 -0.08753204345703125 -0.06427764892578125 4.301513671875 0.68603515625 -0.0010515451431274414 0.0008687973022460938 0.11937332153320312 -0.055019378662109375
17.66575 -0.0917510986328125 -0.057159423828125 4.3427734375 0.38916015625 0.00027883052825927734 0.002557992935180664 0.11878204345703125 -0.061473846435546875
17.6755 -0.0961151123046875 -0.048919677734375 4.3701171875 0.083251953125 -0.0008955597877502441 0.0014238953590393066 0.11252975463867188 -0.06737518310546875
17.68525 -0.0968017578125 -0.0406494140625 4.40380859375 -0.2333984375 -0.0008093714714050293 -8.189678192138672e-05 0.11291122436523438 -0.07161712646484375
17.695 -0.1003875732421875 -0.03167724609375 4.40234375 -0.5849609375 -0.0004984140396118164 0.000855863094329834 0.109771728515625 -0.0768890380859375
17.70475 -0.1025238037109375 -0.0233612060546875 4.3583984375 -0.955810546875 4.172325134277344e-06 0.0014261603355407715 0.1058349609375 -0.0818328857421875
17.7145 -0.10486602783203125 -0.01580810546875 4.276123046875 -1.3310546875 -0.0014650225639343262 0.0010116100311279297 0.10169601440429688 -0.08657073974609375
17.72425 -0.10553359985351562 -0.008106231689453125 4.128173828125 -1.689697265625 -0.0009116530418395996 0.0015781521797180176 0.097808837890625 -0.09151840209960938
17.734 -0.10829925537109375 0.00052642822265625 3.9501953125 -2.01171875 -0.0002690553665161133 0.0008908212184906006 0.09231948852539062 -0.09607315063476562
17.74375 -0.1077117919921875 0.0091094970703125 3.730224609375 -2.283935546875 -0.0007417201995849609 0.0008209943771362305 0.08733367919921875 -0.100799560546875
17.7535 -0.10491180419921875 0.0164337158203125 3.520263671875 -2.530029296875 0.00027251243591308594 0.0010418891906738281 0.08205413818359375 -0.10550689697265625
17.76325 -0.10451507568359375 0.024471282958984375 3.320556640625 -2.7498779296875 0.0005143880844116211 0.0022929906845092773 0.07434844970703125 -0.10766220092773438
17.773 -0.10438156127929688 0.03229522705078125 3.118896484375 -2.95361328125 9.371340274810791e-05 6.426870822906494e-05 0.07107162475585938 -0.11017608642578125
17.78275 -0.1026611328125 0.04073333740234375 2.9095458984375 -3.16259765625 -0.0007485151290893555 0.0015162229537963867 0.06631851196289062 -0.11166763305664062
17.7925 -0.10008621215820312 0.046649932861328125 2.6890869140625 -3.383544921875 0.0004520416259765625 0.0016772747039794922 0.059421539306640625 -0.11438369750976562
17.80225 -0.09751129150390625 0.055225372314453125 2.4434814453125 -3.6014404296875 -0.00024902820587158203 0.0016422271728515625 0.05596923828125 -0.11760330200195312
17.812 -0.09410476684570312 0.0642852783203125 2.1622314453125 -3.8067626953125 -0.0006679296493530273 0.001900792121887207 0.04817962646484375 -0.11938095092773438
17.82175 -0.08953475952148438 0.07171249389648438 1.850341796875 -3.979736328125 0.0005037784576416016 1.9669532775878906e-05 0.042362213134765625 -0.11594009399414062
17.8315 -0.08585357666015625 0.07890701293945312 1.514892578125 -4.1123046875 0.0005297064781188965 -0.0001989603042602539 0.034099578857421875 -0.11827468872070312
17.84125 -0.0820770263671875 0.08541107177734375 1.17822265625 -4.2021484375 0.00033414363861083984 0.0009766817092895508 0.02845001220703125 -0.1197357177734375
17.851 -0.07735061645507812 0.09373855590820312 0.842041015625 -4.247314453125 -0.00012114644050598145 0.0009312033653259277 0.022441864013671875 -0.1190948486328125
17.86075 -0.07223129272460938 0.09954071044921875 0.5322265625 -4.275146484375 -0.0003787875175476074 0.0013112425804138184 0.015064239501953125 -0.11728668212890625
17.8705 -0.06727218627929688 0.10695266723632812 0.227294921875 -4.28125 -5.0887465476989746e-05 0.00023490190505981445 0.0092010498046875 -0.11681747436523438
17.88025 -0.06198883056640625 0.11313629150390625 -0.072021484375 -4.284912109375 0.000705718994140625 0.0011144280433654785 0.00274658203125 -0.11591720581054688
17.89 -0.056758880615234375 0.11871719360351562 -0.3701171875 -4.28955078125 0.0010054707527160645 0.0007944107055664062 -0.00211334228515625 -0.1152191162109375
17.89975 -0.05010223388671875 0.1235809326171875 -0.6943359375 -4.27099609375 0.00033943355083465576 8.630752563476562e-05 -0.00971221923828125 -0.11376953125
17.9095 -0.044952392578125 0.12923431396484375 -1.030029296875 -4.230224609375 0.000842750072479248 0.0005521178245544434 -0.0162353515625 -0.111907958984375
17.91925 -0.03606414794921875 0.1317596435546875 -1.366455078125 -4.147216796875 0.00024580955505371094 0.0008374452590942383 -0.02115631103515625 -0.1099090576171875
17.929 -0.0312042236328125 0.13629150390625 -1.7001953125 -4.0341796875 0.0020906925201416016 0.0014357566833496094 -0.026885986328125 -0.1065826416015625
17.93875 -0.02321624755859375 0.1406707763671875 -2.01416015625 -3.873046875 0.0011394023895263672 0.0008233785629272461 -0.032440185546875 -0.103118896484375
17.9485 -0.0160675048828125 0.14307403564453125 -2.2919921875 -3.6904296875 0.0005600452423095703 0.0009382367134094238 -0.038055419921875 -0.0981597900390625
17.95825 -0.00829315185546875 0.1458282470703125 -2.54931640625 -3.494140625 0.0010350346565246582 -0.00034421682357788086 -0.04170989990234375 -0.0949249267578125
17.968 -0.00014495849609375 0.14937591552734375 -2.78662109375 -3.29296875 0.0010527372360229492 0.0003027915954589844 -0.047576904296875 -0.09256744384765625
17.97775 0.0096282958984375 0.15001678466796875 -3.003173828125 -3.088134765625 0.00048467516899108887 -0.00019973516464233398 -0.0513763427734375 -0.0874176025390625
17.9875 0.0186767578125 0.15340423583984375 -3.2294921875 -2.8740234375 0.0007886588573455811 -4.6193599700927734e-06 -0.0565185546875 -0.08301544189453125
17.99725 0.02625274658203125 0.1524505615234375 -3.453857421875 -2.650390625 0.0015357136726379395 3.2186508178710938e-06 -0.0612030029296875 -0.07745361328125
18.007 0.03568267822265625 0.152801513671875 -3.670654296875 -2.393310546875 0.0008365809917449951 -2.518296241760254e-05 -0.06280517578125 -0.071746826171875
18.01675 0.043243408203125 0.155517578125 -3.862548828125 -2.107666015625 0.0011054277420043945 -0.0003247857093811035 -0.06920623779296875 -0.06713104248046875
18.0265 0.0513153076171875 0.154510498046875 -4.03466796875 -1.7958984375 0.0012055635452270508 0.0007475614547729492 -0.0747222900390625 -0.061309814453125
18.03625 0.0603790283203125 0.1560821533203125 -4.16357421875 -1.458984375 0.0020842552185058594 0.0003323554992675781 -0.0760345458984375 -0.0561065673828125
18.046 0.06990814208984375 0.15242767333984375 -4.259521484375 -1.117431640625 0.0003079921007156372 -0.00017602741718292236 -0.07874298095703125 -0.0491485595703125
18.05575 0.07763671875 0.14898681640625 -4.315673828125 -0.7900390625 0.0009135603904724121 -0.0003580152988433838 -0.08222198486328125 -0.043365478515625
18.0655 0.08547210693359375 0.14837646484375 -4.344970703125 -0.46630859375 0.0008667111396789551 0.00016182661056518555 -0.08426284790039062 -0.037502288818359375
18.07525 0.09427642822265625 0.14588165283203125 -4.357177734375 -0.147705078125 0.0002627819776535034 -0.00047272443771362305 -0.08607101440429688 -0.029232025146484375
18.085 0.1027984619140625 0.143218994140625 -4.35986328125 0.17236328125 9.60230827331543e-05 -0.0006303489208221436 -0.08819198608398438 -0.023036956787109375
18.09475 0.1096954345703125 0.1390228271484375 -4.347412109375 0.49365234375 0.0005578994750976562 0.0007126927375793457 -0.08746719360351562 -0.0166168212890625
18.1045 0.11749267578125 0.13494873046875 -4.31103515625 0.81982421875 0.0010478496551513672 -0.00010412931442260742 -0.08881378173828125 -0.008480072021484375
18.11425 0.1255645751953125 0.132965087890625 -4.24951171875 1.158203125 -0.0003921389579772949 -0.001262664794921875 -0.08661651611328125 -0.0036773681640625
18.124 0.131317138671875 0.126312255859375 -4.15576171875 1.48876953125 0.0006039142608642578 -0.0009989738464355469 -0.087066650390625 0.0045318603515625
18.13375 0.139678955078125 0.12188720703125 -4.030517578125 1.806884765625 0.00027102231979370117 -0.00021848082542419434 -0.08572769165039062 0.012054443359375
18.1435 0.144744873046875 0.115478515625 -3.8765869140625 2.11181640625 -0.0005651116371154785 -0.0003635287284851074 -0.08663558959960938 0.020435333251953125
18.15325 0.1508331298828125 0.1093292236328125 -3.69677734375 2.4075927734375 0.0009205937385559082 -0.000306546688079834 -0.08353424072265625 0.027462005615234375
18.163 0.159210205078125 0.102294921875 -3.503173828125 2.676025390625 0.0006234347820281982 -0.0003317892551422119 -0.08092880249023438 0.035747528076171875
18.17275 0.164276123046875 0.096527099609375 -3.288818359375 2.9312744140625 0.0004548579454421997 -0.0003210902214050293 -0.0770111083984375 0.040752410888671875
18.1825 0.1697540283203125 0.0885467529296875 -3.06689453125 3.1795654296875 0.00024455785751342773 -0.0011286735534667969 -0.07259750366210938 0.050289154052734375
18.19225 0.173309326171875 0.080780029296875 -2.822998046875 3.41845703125 0.0001684427261352539 -0.0008709430694580078 -0.06970596313476562 0.055492401123046875
18.202 0.1792144775390625 0.073974609375 -2.556640625 3.6251220703125 0.0002678036689758301 -0.0015162229537963867 -0.0674591064453125 0.061370849609375
18.21175 0.1833038330078125 0.0663299560546875 -2.262451171875 3.826171875 0.0008629560470581055 0.0007671117782592773 -0.0598907470703125 0.0679779052734375
18.2215 0.18778228759765625 0.05649566650390625 -1.9488525390625 3.989501953125 -0.0005891323089599609 -7.039308547973633e-05 -0.055522918701171875 0.07332992553710938
18.23125 0.19159698486328125 0.05036163330078125 -1.635498046875 4.11962890625 0.00041174888610839844 0.000620722770690918 -0.050060272216796875 0.07768630981445312
18.241 0.19397735595703125 0.04058837890625 -1.311767578125 4.220458984375 0.000755012035369873 -0.0004942715167999268 -0.04419708251953125 0.08348846435546875
18.25075 0.195556640625 0.0324554443359375 -0.99267578125 4.300048828125 0.0009596645832061768 -0.0005644857883453369 -0.037425994873046875 0.08681106567382812
18.2605 0.19622039794921875 0.02449798583984375 -0.669921875 4.35791015625 -0.00040471553802490234 -0.0005846023559570312 -0.030284881591796875 0.08965682983398438
18.27025 0.19776153564453125 0.01570892333984375 -0.343505859375 4.4033203125 0.0009680986404418945 -0.00014835596084594727 -0.02215576171875 0.09547042846679688
18.28 0.1993255615234375 0.00426483154296875 -0.002685546875 4.432861328125 0.0009356439113616943 -0.00016295909881591797 -0.015773773193359375 0.09708786010742188
18.28975 0.19947052001953125 -0.004608154296875 0.3359375 4.43994140625 -0.00016640126705169678 -0.00028933584690093994 -0.006927490234375 0.09998703002929688
18.2995 0.19832611083984375 -0.01337432861328125 0.689208984375 4.39990234375 -5.424022674560547e-05 -0.0018159151077270508 -0.000141143798828125 0.09914016723632812
18.30925 0.1964569091796875 -0.0236358642578125 1.04248046875 4.32177734375 0.0004903674125671387 -0.00012826919555664062 0.01055145263671875 0.10161590576171875
18.319 0.19443511962890625 -0.033111572265625 1.380126953125 4.20654296875 0.0011317133903503418 0.00013113021850585938 0.017070770263671875 0.10309219360351562
18.32875 0.19365692138671875 -0.0378265380859375 1.690185546875 4.07666015625 0.0006904900074005127 0.00014486908912658691 0.02745819091796875 0.10302734375
18.3385 0.1905975341796875 -0.050140380859375 1.984130859375 3.914794921875 0.0019207596778869629 -0.0007330775260925293 0.03653717041015625 0.10373687744140625
18.34825 0.190155029296875 -0.05840301513671875 2.263916015625 3.7568359375 0.00011646747589111328 -0.0011989474296569824 0.04320526123046875 0.10247802734375
18.358 0.1863250732421875 -0.06589508056640625 2.53271484375 3.582275390625 0.0002308487892150879 -0.0007118284702301025 0.05389404296875 0.10022735595703125
18.36775 0.18238067626953125 -0.0750732421875 2.802734375 3.386962890625 0.00041496753692626953 0.0006030797958374023 0.05974578857421875 0.09694671630859375
18.3775 0.17972564697265625 -0.0811309814453125 3.061767578125 3.178955078125 0.0003705024719238281 -0.0013579130172729492 0.06693267822265625 0.0950927734375
18.38725 0.17502593994140625 -0.090362548828125 3.31689453125 2.9296875 -0.0001697540283203125 -0.0009486675262451172 0.07555389404296875 0.09130859375
18.397 0.1713714599609375 -0.0953826904296875 3.54052734375 2.65087890625 0.0014095306396484375 0.0007696151733398438 0.08270263671875 0.086822509765625
18.40675 0.1646270751953125 -0.1031951904296875 3.748046875 2.34228515625 2.4616718292236328e-05 -0.0006167292594909668 0.09130859375 0.081512451171875
18.4165 0.1599884033203125 -0.1114654541015625 3.896728515625 2.024658203125 0.0005105733871459961 0.00010707974433898926 0.0973052978515625 0.07830810546875
18.42625 0.1533966064453125 -0.11661529541015625 4.00830078125 1.702880859375 -0.001082777976989746 -0.0010863542556762695 0.10363006591796875 0.07032012939453125
18.436 0.14582061767578125 -0.1223602294921875 4.092529296875 1.392822265625 -0.0003014206886291504 -7.455050945281982e-05 0.11199188232421875 0.0641326904296875
18.44575 0.14023590087890625 -0.12934112548828125 4.15771484375 1.092041015625 -0.0009505152702331543 -0.00025337934494018555 0.1167144775390625 0.05511474609375
18.4555 0.1322479248046875 -0.132476806640625 4.21630859375 0.790283203125 -7.021427154541016e-05 -0.0013200044631958008 0.11927032470703125 0.04843902587890625
18.46525 0.12545013427734375 -0.13909912109375 4.27490234375 0.486572265625 0.0007889270782470703 0.0008809566497802734 0.12237548828125 0.0366973876953125
18.475 0.11690521240234375 -0.14405059814453125 4.3154296875 0.169677734375 0.0004588961601257324 -0.0006311535835266113 0.12891387939453125 0.031036376953125
18.48475 0.11208343505859375 -0.1484832763671875 4.3291015625 -0.169677734375 0.0007815062999725342 0.00015425682067871094 0.13116455078125 0.0216827392578125
18.4945 0.10292816162109375 -0.14939117431640625 4.29248046875 -0.524658203125 -0.00011141598224639893 -0.00029741227626800537 0.1337432861328125 0.01053619384765625
18.50425 0.0948333740234375 -0.154754638671875 4.2294921875 -0.87646484375 9.447336196899414e-06 -0.00037416815757751465 0.13446044921875 0.002655029296875
18.514 0.08881378173828125 -0.15775299072265625 4.114013671875 -1.20654296875 -0.0005549192428588867 -0.00033861398696899414 0.13484954833984375 -0.0060577392578125
18.52375 0.08016204833984375 -0.159088134765625 3.9674072265625 -1.5081787109375 0.0003024935722351074 -0.00010782480239868164 0.1345062255859375 -0.0168914794921875
18.5335 0.07416534423828125 -0.16316986083984375 3.8082275390625 -1.7786865234375 -0.0004667937755584717 -0.0003133118152618408 0.135009765625 -0.02512359619140625
18.54325 0.0663909912109375 -0.16378021240234375 3.644775390625 -2.0225830078125 6.16312026977539e-05 -0.0010609030723571777 0.13031768798828125 -0.0337371826171875
18.553 0.05908966064453125 -0.16619110107421875 3.472412109375 -2.25390625 0.0001161620020866394 -1.0356307029724121e-05 0.129669189453125 -0.04157257080078125
18.56275 0.05043792724609375 -0.16487884521484375 3.30810546875 -2.486328125 0.00027105212211608887 -5.798041820526123e-05 0.1258087158203125 -0.0491790771484375
18.5725 0.0431060791015625 -0.16515350341796875 3.12158203125 -2.7149658203125 0.0007078647613525391 -6.0111284255981445e-05 0.12137985229492188 -0.057342529296875
18.58225 0.03594970703125 -0.1650238037109375 2.9136962890625 -2.9410400390625 0.0005806684494018555 -0.0004741251468658447 0.11640548706054688 -0.06471633911132812
18.592 0.02840423583984375 -0.165985107421875 2.674072265625 -3.1558837890625 0.00023347139358520508 -0.0010986328125 0.11131668090820312 -0.0727081298828125
18.60175 0.0205078125 -0.1638031005859375 2.416259765625 -3.349853515625 0.000973045825958252 -0.0009673237800598145 0.10463714599609375 -0.07909393310546875
18.6115 0.01390838623046875 -0.1632537841796875 2.134033203125 -3.498046875 -0.000209808349609375 -0.0012545585632324219 0.10003662109375 -0.08369064331054688
18.62125 0.0066680908203125 -0.16321563720703125 1.854248046875 -3.61669921875 0.00048530101776123047 0.0002378225326538086 0.09228897094726562 -0.09091949462890625
18.631 -0.00139617919921875 -0.16120147705078125 1.587890625 -3.702392578125 0.00043392181396484375 -0.0015553832054138184 0.08498764038085938 -0.0956573486328125
18.64075 -0.00722503662109375 -0.16098785400390625 1.3221435546875 -3.7703857421875 -0.0005306005477905273 -0.0007710456848144531 0.0793609619140625 -0.09784698486328125
18.6505 -0.013153076171875 -0.15769195556640625 1.0677490234375 -3.836669921875 0.0007991194725036621 -0.0017896294593811035 0.07248306274414062 -0.10182571411132812
18.66025 -0.02093505859375 -0.15583038330078125 0.8134765625 -3.8909912109375 7.05420970916748e-05 -0.0005994737148284912 0.06380462646484375 -0.10382080078125
18.67 -0.0273284912109375 -0.15416717529296875 0.549560546875 -3.94189453125 0.000508725643157959 0.00039583444595336914 0.05796051025390625 -0.10604476928710938
18.67975 -0.0345916748046875 -0.150726318359375 0.271240234375 -3.986328125 0.00022071599960327148 -0.0017244815826416016 0.049407958984375 -0.10773849487304688
18.6895 -0.041656494140625 -0.1479644775390625 -0.01953125 -3.997314453125 -0.00021708011627197266 -0.0014620423316955566 0.042560577392578125 -0.10717010498046875
