!Created with skrf (http://scikit-rf.org).
# GHz S RI R 50.0 
!freq ReS11 ImS11 ReS21 ImS21 ReS12 ImS12 ReS22 ImS22
17.5 0.0059356689453125 -0.1533966064453125 4.50146484375 -0.889404296875 -0.00041106343269348145 -0.0002709925174713135 0.11112594604492188 0.000957489013671875
17.50975 -0.0045623779296875 -0.1503448486328125 4.412353515625 -1.241455078125 -0.0016858577728271484 0.00035572052001953125 0.1143798828125 -0.0022430419921875
17.5195 -0.01216888427734375 -0.14629364013671875 4.287109375 -1.575439453125 -0.000632166862487793 0.002321004867553711 0.11623001098632812 -0.003749847412109375
17.52925 -0.02196502685546875 -0.1424407958984375 4.154541015625 -1.904541015625 -0.0029348134994506836 0.0003058910369873047 0.11855316162109375 -0.009967803955078125
17.539 -0.0291595458984375 -0.13629150390625 3.989990234375 -2.21240234375 -0.0014591217041015625 0.0012013912200927734 0.1197967529296875 -0.01396942138671875
17.54875 -0.03882598876953125 -0.13205718994140625 3.80615234375 -2.49951171875 -0.0008047521114349365 0.0005903840065002441 0.12015914916992188 -0.017879486083984375
17.5585 -0.04790496826171875 -0.12714385986328125 3.6181640625 -2.78466796875 -0.001963376998901367 0.0010113716125488281 0.12322235107421875 -0.022705078125
17.56825 -0.05492401123046875 -0.12134552001953125 3.41357421875 -3.052001953125 -0.0006606578826904297 0.00025260448455810547 0.12277984619140625 -0.028667449951171875
17.578 -0.06235504150390625 -0.11454010009765625 3.1683349609375 -3.3187255859375 -0.0015354156494140625 0.0010086894035339355 0.12345504760742188 -0.0339202880859375
17.58775 -0.06786346435546875 -0.1092376708984375 2.9029541015625 -3.5706787109375 -0.0016593337059020996 0.0013939142227172852 0.12307357788085938 -0.0369720458984375
17.5975 -0.0730133056640625 -0.1024932861328125 2.5980224609375 -3.803955078125 -0.000693976879119873 0.0012532472610473633 0.1229095458984375 -0.04201507568359375
17.60725 -0.07907867431640625 -0.09720611572265625 2.278076171875 -3.9892578125 -0.0013965368270874023 0.0015954375267028809 0.12129592895507812 -0.047298431396484375
17.617 -0.084686279296875 -0.08855438232421875 1.944580078125 -4.138916015625 0.0005109906196594238 0.0009528398513793945 0.12018585205078125 -0.052898406982421875
17.62675 -0.088714599609375 -0.07965087890625 1.6103515625 -4.2529296875 -0.0016204118728637695 0.0014919042587280273 0.119476318359375 -0.05489349365234375
17.6365 -0.0933074951171875 -0.07098388671875 1.27880859375 -4.3330078125 -0.0005918145179748535 0.0008295178413391113 0.1169891357421875 -0.06118011474609375
17.64625 -0.09723663330078125 -0.06398773193359375 0.96875 -4.390869140625 -0.0006483197212219238 0.0011929869651794434 0.1138916015625 -0.06618118286132812
17.656 -0.1015472412109375 -0.0562286376953125 0.66064453125 -4.446044921875 7.992982864379883e-05 0.0013636350631713867 0.11042404174804688 -0.07223129272460938
17.66575 -0.10272216796875 -0.04473114013671875 0.357666015625 -4.49853515625 -0.0007306933403015137 0.0012082457542419434 0.10806655883789062 -0.07582473754882812
17.6755 -0.10577392578125 -0.0376129150390625 0.036865234375 -4.538330078125 0.00031122565269470215 -5.5924057960510254e-05 0.10237884521484375 -0.08053207397460938
17.68525 -0.10779571533203125 -0.02916717529296875 -0.297119140625 -4.579345703125 4.023313522338867e-05 0.001523137092590332 0.09949493408203125 -0.08469772338867188
17.695 -0.10950469970703125 -0.01943206787109375 -0.668701171875 -4.5771484375 0.0007881522178649902 0.0011396408081054688 0.09584808349609375 -0.08774185180664062
17.70475 -0.110321044921875 -0.009342193603515625 -1.051513671875 -4.533935546875 -0.0004845857620239258 0.0022966861724853516 0.09044647216796875 -0.09117889404296875
17.7145 -0.11143875122070312 -0.000812530517578125 -1.440673828125 -4.44091796875 -8.037686347961426e-05 0.0007384419441223145 0.08726882934570312 -0.09700775146484375
17.72425 -0.11161422729492188 0.00806427001953125 -1.80859375 -4.2919921875 0.0005768537521362305 0.0011996030807495117 0.08035659790039062 -0.09994888305664062
17.734 -0.11017608642578125 0.01556396484375 -2.14306640625 -4.11328125 0.0004712343215942383 0.0013085603713989258 0.0765228271484375 -0.10338592529296875
17.74375 -0.11155319213867188 0.0251922607421875 -2.43017578125 -3.898681640625 0.00011527538299560547 0.0009123682975769043 0.07035446166992188 -0.10726547241210938
17.7535 -0.10855484008789062 0.03217315673828125 -2.692626953125 -3.689453125 0.0006999969482421875 0.0014340877532958984 0.064300537109375 -0.10876846313476562
17.76325 -0.10636520385742188 0.040882110595703125 -2.936279296875 -3.49267578125 -0.0008254647254943848 0.0009929537773132324 0.059337615966796875 -0.10992813110351562
17.773 -0.10520172119140625 0.047954559326171875 -3.166259765625 -3.28564453125 1.430511474609375e-06 0.0014610886573791504 0.053943634033203125 -0.11198043823242188
17.78275 -0.10039901733398438 0.05693817138671875 -3.404052734375 -3.061279296875 0.0007417201995849609 0.0013885498046875 0.047176361083984375 -0.11186981201171875
17.7925 -0.09727096557617188 0.06303787231445312 -3.646240234375 -2.8251953125 -0.00023826956748962402 0.0009567737579345703 0.041778564453125 -0.11336135864257812
17.80225 -0.09343338012695312 0.07159042358398438 -3.890869140625 -2.556396484375 0.0008013248443603516 0.0025577545166015625 0.036510467529296875 -0.11322021484375
17.812 -0.08789825439453125 0.07876968383789062 -4.108642578125 -2.250244140625 0.0003677159547805786 8.924305438995361e-05 0.029933929443359375 -0.11286163330078125
17.82175 -0.08261489868164062 0.086395263671875 -4.293212890625 -1.91552734375 7.793307304382324e-05 0.0006491243839263916 0.02564239501953125 -0.1121978759765625
17.8315 -0.078216552734375 0.09257125854492188 -4.436279296875 -1.555419921875 0.0009598135948181152 0.00041919946670532227 0.01879119873046875 -0.1132965087890625
17.84125 -0.07207489013671875 0.09780120849609375 -4.5439453125 -1.1962890625 -0.00033295154571533203 0.0014237165451049805 0.01203155517578125 -0.10980224609375
17.851 -0.06478118896484375 0.1073760986328125 -4.599609375 -0.835693359375 -0.0001887679100036621 0.0010423660278320312 0.008060455322265625 -0.10889816284179688
17.86075 -0.060916900634765625 0.11042022705078125 -4.6357421875 -0.493896484375 -4.3064355850219727e-05 0.0006813406944274902 0.00121307373046875 -0.10655593872070312
17.8705 -0.05466461181640625 0.11746978759765625 -4.662109375 -0.154541015625 0.0008442401885986328 0.00022178888320922852 -0.002925872802734375 -0.10615921020507812
17.88025 -0.047344207763671875 0.12338638305664062 -4.674560546875 0.18408203125 0.0011177659034729004 4.4226646423339844e-05 -0.01023101806640625 -0.1046295166015625
17.89 -0.04109954833984375 0.12828826904296875 -4.6806640625 0.53125 0.0004642605781555176 0.0010150671005249023 -0.014713287353515625 -0.10070419311523438
17.89975 -0.0356292724609375 0.1305389404296875 -4.65478515625 0.90087890625 0.001331329345703125 0.000756382942199707 -0.020565032958984375 -0.10038375854492188
17.9095 -0.0293426513671875 0.13437652587890625 -4.597412109375 1.281005859375 0.0022411346435546875 0.0001710653305053711 -0.025638580322265625 -0.09633255004882812
17.91925 -0.0198211669921875 0.1376800537109375 -4.489501953125 1.6552734375 0.0001441165804862976 -0.0001783221960067749 -0.02916717529296875 -0.09272384643554688
17.929 -0.01318359375 0.1399383544921875 -4.3525390625 2.02099609375 0.00041687488555908203 0.001089334487915039 -0.0347137451171875 -0.09027862548828125
17.93875 -0.00408172607421875 0.14302825927734375 -4.167236328125 2.368896484375 0.0018138885498046875 0.0005090236663818359 -0.037418365478515625 -0.08636093139648438
17.9485 0.002105712890625 0.14383697509765625 -3.9639892578125 2.6787109375 0.0015736818313598633 0.0009726285934448242 -0.041286468505859375 -0.0822601318359375
17.95825 0.00970458984375 0.1448974609375 -3.7427978515625 2.9708251953125 0.00039958953857421875 0.0008842349052429199 -0.042797088623046875 -0.07697296142578125
17.968 0.0172882080078125 0.1463623046875 -3.50830078125 3.2415771484375 0.0009739995002746582 0.0009049177169799805 -0.048885345458984375 -0.07373046875
17.97775 0.02516937255859375 0.145721435546875 -3.2655029296875 3.4979248046875 0.000507354736328125 0.0012575984001159668 -0.05150604248046875 -0.06793975830078125
17.9875 0.0334625244140625 0.1470947265625 -3.0003662109375 3.760498046875 0.0009238123893737793 0.0005701780319213867 -0.0539093017578125 -0.06349945068359375
17.99725 0.04296875 0.146636962890625 -2.716064453125 4.007568359375 0.0004081130027770996 0.0010709166526794434 -0.058506011962890625 -0.059490203857421875
18.007 0.04906463623046875 0.14482879638671875 -2.396240234375 4.238525390625 1.998990774154663e-05 0.00013234466314315796 -0.060367584228515625 -0.05387115478515625
18.01675 0.05844879150390625 0.14434051513671875 -2.0439453125 4.431884765625 0.0012382864952087402 0.00011396408081054688 -0.0630035400390625 -0.050418853759765625
18.0265 0.0659942626953125 0.143096923828125 -1.6708984375 4.60546875 0.0007318258285522461 0.00046539306640625 -0.0672607421875 -0.04364776611328125
18.03625 0.0743408203125 0.14290618896484375 -1.2734375 4.716552734375 -0.00020740926265716553 3.2454729080200195e-05 -0.06789779663085938 -0.03972625732421875
18.046 0.08099365234375 0.1382904052734375 -0.87548828125 4.788818359375 0.0011568665504455566 0.0001919269561767578 -0.06833267211914062 -0.033451080322265625
18.05575 0.0876922607421875 0.1344146728515625 -0.498046875 4.8271484375 5.621463060379028e-05 0.00014571845531463623 -0.071624755859375 -0.028728485107421875
18.0655 0.09454345703125 0.1334991455078125 -0.129638671875 4.83642578125 0.0011304020881652832 0.0006575584411621094 -0.07244873046875 -0.022335052490234375
18.07525 0.1024169921875 0.1290283203125 0.2451171875 4.82568359375 0.0007613897323608398 0.0006971359252929688 -0.07180023193359375 -0.015262603759765625
18.085 0.10871124267578125 0.12616729736328125 0.61767578125 4.795654296875 0.001269996166229248 0.0005505084991455078 -0.07342147827148438 -0.01059722900390625
18.09475 0.11309814453125 0.12236785888671875 0.9931640625 4.744384765625 0.0008075237274169922 -0.0009657740592956543 -0.07155609130859375 -0.00720977783203125
18.1045 0.12139892578125 0.11685943603515625 1.369384765625 4.65625 0.0010107159614562988 0.00012344121932983398 -0.07115936279296875 0.000385284423828125
18.11425 0.1259765625 0.11476898193359375 1.74951171875 4.529052734375 0.0007927417755126953 0.00040471553802490234 -0.07003402709960938 0.00469207763671875
18.124 0.1299591064453125 0.1095733642578125 2.10986328125 4.369140625 0.00016200542449951172 -0.001082301139831543 -0.06928253173828125 0.0128631591796875
18.13375 0.1369781494140625 0.10384368896484375 2.451416015625 4.18212890625 0.0003300607204437256 -0.0005052387714385986 -0.06627655029296875 0.01711273193359375
18.1435 0.14130401611328125 0.0981597900390625 2.769287109375 3.959716796875 0.000840306282043457 0.00048792362213134766 -0.06509780883789062 0.025482177734375
18.15325 0.147003173828125 0.09210205078125 3.07421875 3.7109375 0.0012665390968322754 0.0004946589469909668 -0.0635528564453125 0.0301361083984375
18.163 0.15128326416015625 0.08550262451171875 3.341796875 3.45068359375 0.0006218254566192627 -0.00041925907135009766 -0.06201171875 0.03577423095703125
18.17275 0.15622711181640625 0.08019256591796875 3.59033203125 3.168701171875 0.0005895793437957764 0.00015693902969360352 -0.05674171447753906 0.04134368896484375
18.1825 0.16083526611328125 0.0725860595703125 3.818359375 2.881103515625 -5.336850881576538e-05 0.00011306628584861755 -0.05403900146484375 0.04902076721191406
18.19225 0.16268157958984375 0.0671844482421875 4.036376953125 2.5693359375 0.0002123713493347168 -0.0007558465003967285 -0.05105400085449219 0.052196502685546875
18.202 0.1676177978515625 0.0613555908203125 4.21923828125 2.24609375 0.0001557767391204834 -0.0002343207597732544 -0.04630279541015625 0.05663299560546875
18.21175 0.1702117919921875 0.05401611328125 4.3818359375 1.8876953125 0.0006652474403381348 -0.0003069639205932617 -0.040283203125 0.061550140380859375
18.2215 0.17315673828125 0.046295166015625 4.504150390625 1.521484375 0.0005695521831512451 -0.0008088946342468262 -0.036853790283203125 0.0647735595703125
18.23125 0.1770782470703125 0.04122161865234375 4.59521484375 1.15869140625 -0.00014418363571166992 -0.0014888644218444824 -0.03308868408203125 0.06735992431640625
18.241 0.1774444580078125 0.0333099365234375 4.653076171875 0.793212890625 0.0005394220352172852 -0.0007605552673339844 -0.02742767333984375 0.07080078125
18.25075 0.17861175537109375 0.0247344970703125 4.676513671875 0.428955078125 0.00028955936431884766 0.0004910528659820557 -0.022045135498046875 0.07581329345703125
18.2605 0.18072509765625 0.019134521484375 4.675537109375 0.07177734375 0.000625908374786377 0.0007824301719665527 -0.01560211181640625 0.0765380859375
18.27025 0.180389404296875 0.01036834716796875 4.661865234375 -0.280029296875 0.0001531839370727539 0.00036343932151794434 -0.00847625732421875 0.07961273193359375
18.28 0.1822357177734375 0.00390625 4.6298828125 -0.648681640625 0.0006542801856994629 -0.0007100701332092285 -0.003307342529296875 0.08113861083984375
18.28975 0.182586669921875 -0.00563812255859375 4.55810546875 -0.999755859375 4.655122756958008e-05 -0.0009714961051940918 0.0046844482421875 0.08405685424804688
18.2995 0.18309783935546875 -0.010955810546875 4.460693359375 -1.3583984375 -0.00022327899932861328 -0.001337289810180664 0.010875701904296875 0.08298110961914062
18.30925 0.180877685546875 -0.018707275390625 4.31884765625 -1.70654296875 0.0009919404983520508 -0.0014363527297973633 0.01861572265625 0.0838775634765625
18.319 0.1794586181640625 -0.02919769287109375 4.15185546875 -2.033935546875 0.0019888877868652344 -0.00039696693420410156 0.02434539794921875 0.08438491821289062
18.32875 0.17913055419921875 -0.03276824951171875 3.9598388671875 -2.3345947265625 0.0004756152629852295 -0.0007614791393280029 0.03284454345703125 0.08388900756835938
18.3385 0.1771087646484375 -0.0427093505859375 3.74609375 -2.615234375 0.0011295676231384277 -0.0006281733512878418 0.039760589599609375 0.0828094482421875
18.34825 0.1761474609375 -0.04999542236328125 3.5350341796875 -2.883544921875 7.319450378417969e-05 -0.0002714395523071289 0.04628753662109375 0.08336639404296875
18.358 0.174072265625 -0.05707550048828125 3.3062744140625 -3.1328125 0.0005641579627990723 -0.0006080865859985352 0.0528717041015625 0.07946014404296875
18.36775 0.17200469970703125 -0.06402587890625 3.0472412109375 -3.3768310546875 0.00041222572326660156 -0.0009683370590209961 0.05916595458984375 0.0776519775390625
18.3775 0.1685943603515625 -0.06931304931640625 2.78271484375 -3.6041259765625 0.00048273801803588867 -0.0003383159637451172 0.06488037109375 0.07418060302734375
18.38725 0.16559600830078125 -0.07828521728515625 2.477294921875 -3.8125 -8.763372898101807e-05 -0.0002958625555038452 0.07178497314453125 0.07213592529296875
18.397 0.1602630615234375 -0.08477783203125 2.15478515625 -3.98828125 8.07642936706543e-05 -0.000517725944519043 0.077728271484375 0.06781005859375
18.40675 0.1585540771484375 -0.0897216796875 1.8134765625 -4.13671875 0.0001614689826965332 -0.00010426342487335205 0.083740234375 0.0625152587890625
18.4165 0.15323638916015625 -0.096282958984375 1.472412109375 -4.23974609375 0.00019475072622299194 2.1502375602722168e-05 0.08666229248046875 0.0592803955078125
18.42625 0.14920806884765625 -0.1033172607421875 1.127685546875 -4.2998046875 0.0005761682987213135 0.00011485815048217773 0.09261322021484375 0.05274200439453125
18.436 0.1429443359375 -0.108001708984375 0.801513671875 -4.33935546875 0.0005410313606262207 -0.0004158616065979004 0.09930419921875 0.0467987060546875
18.44575 0.138458251953125 -0.1141815185546875 0.474853515625 -4.36328125 -0.00033211708068847656 -0.000981748104095459 0.1012115478515625 0.03997039794921875
18.4555 0.13243865966796875 -0.1193084716796875 0.1552734375 -4.369873046875 -0.0002763420343399048 0.00032451748847961426 0.10340118408203125 0.03209686279296875
18.46525 0.125640869140625 -0.12569427490234375 -0.172119140625 -4.36962890625 -0.0014473199844360352 -0.0010260343551635742 0.10738372802734375 0.02664947509765625
18.475 0.11946868896484375 -0.1295928955078125 -0.505126953125 -4.34765625 -8.803606033325195e-05 -0.0005586445331573486 0.1098480224609375 0.01932525634765625
18.48475 0.116851806640625 -0.135528564453125 -0.849609375 -4.287353515625 -0.0009981989860534668 -0.00019782781600952148 0.11374664306640625 0.01093292236328125
18.4945 0.1076202392578125 -0.13881683349609375 -1.19580078125 -4.1884765625 -0.00014394521713256836 1.8149614334106445e-05 0.1146240234375 0.00299072265625
18.50425 0.102203369140625 -0.1428985595703125 -1.53076171875 -4.052734375 0.0009233355522155762 -0.0003923773765563965 0.1136322021484375 -0.00308990478515625
18.514 0.095977783203125 -0.145904541015625 -1.83642578125 -3.8837890625 -0.0002002716064453125 -0.0008423328399658203 0.114593505859375 -0.01119232177734375
18.52375 0.09026336669921875 -0.14813232421875 -2.10546875 -3.681396484375 -0.0003681182861328125 -0.0015302300453186035 0.11472702026367188 -0.019702911376953125
18.5335 0.0827178955078125 -0.15172576904296875 -2.3486328125 -3.4794921875 -0.0003706514835357666 -0.0003692507743835449 0.11503219604492188 -0.025936126708984375
18.54325 0.07559967041015625 -0.1552581787109375 -2.563232421875 -3.27099609375 0.0002353191375732422 0.0002539604902267456 0.11248397827148438 -0.033267974853515625
18.553 0.06914520263671875 -0.15911102294921875 -2.77099609375 -3.059326171875 0.0002942681312561035 -0.0010748505592346191 0.1096954345703125 -0.03818511962890625
18.56275 0.06226348876953125 -0.15923309326171875 -2.97119140625 -2.846923828125 -0.0003609657287597656 0.00033961236476898193 0.10564041137695312 -0.04571533203125
18.5725 0.053955078125 -0.160552978515625 -3.161865234375 -2.61474609375 0.00020381808280944824 -0.0003505200147628784 0.100311279296875 -0.05233001708984375
18.58225 0.04732513427734375 -0.16217803955078125 -3.338134765625 -2.3623046875 0.0006080865859985352 -0.00025153160095214844 0.09823989868164062 -0.05847930908203125
18.592 0.03856658935546875 -0.16364288330078125 -3.502197265625 -2.083984375 0.0004360377788543701 0.0001030266284942627 0.09373092651367188 -0.06418228149414062
18.60175 0.031768798828125 -0.163177490234375 -3.638671875 -1.796875 0.0002658963203430176 -0.0003598630428314209 0.088592529296875 -0.06850433349609375
18.6115 0.02477264404296875 -0.1643218994140625 -3.732666015625 -1.496337890625 0.0006380081176757812 -0.0011428594589233398 0.0828399658203125 -0.07437515258789062
18.62125 0.01753997802734375 -0.16443634033203125 -3.795166015625 -1.19677734375 0.00018167495727539062 -0.0010079741477966309 0.07635116577148438 -0.07840347290039062
18.631 0.00998687744140625 -0.1627960205078125 -3.828125 -0.92041015625 0.0003081411123275757 1.767277717590332e-05 0.07165145874023438 -0.08228683471679688
18.64075 0.00131988525390625 -0.16274261474609375 -3.844482421875 -0.641845703125 0.0011301636695861816 0.00014293193817138672 0.06598281860351562 -0.084716796875
18.6505 -0.005645751953125 -0.16229248046875 -3.855712890625 -0.377197265625 0.0006057620048522949 -0.0006058812141418457 0.0614166259765625 -0.08762741088867188
18.66025 -0.01422882080078125 -0.158782958984375 -3.8544921875 -0.114501953125 0.0003819763660430908 -0.00046209990978240967 0.0529632568359375 -0.08856964111328125
18.67 -0.01967620849609375 -0.15814208984375 -3.8447265625 0.1544189453125 -0.0003180503845214844 -0.0007379055023193359 0.047809600830078125 -0.08826065063476562
18.67975 -0.0277252197265625 -0.15541839599609375 -3.8209228515625 0.43017578125 -0.0001176595687866211 -0.000851362943649292 0.041473388671875 -0.09017562866210938
18.6895 -0.03408050537109375 -0.152801513671875 -3.7674560546875 0.71240234375 -5.4135918617248535e-05 -0.00022144615650177002 0.036266326904296875 -0.08849334716796875
