!Created with skrf (http://scikit-rf.org).
# GHz S RI R 50.0 
!freq ReS11 ImS11 ReS21 ImS21 ReS12 ImS12 ReS22 ImS22
17.5 0.0138702392578125 -0.1529541015625 4.173828125 2.739013671875 -0.0010787248611450195 -0.000319063663482666 0.10704421997070312 0.009647369384765625
17.50975 0.00443267822265625 -0.14977264404296875 4.373779296875 2.388427734375 -0.0015674233436584473 0.0003082752227783203 0.11138534545898438 0.008014678955078125
17.5195 -0.00433349609375 -0.14575958251953125 4.533203125 2.025634765625 -0.0024170875549316406 0.0013201236724853516 0.11516571044921875 0.006786346435546875
17.52925 -0.0139617919921875 -0.14165496826171875 4.67724609375 1.656494140625 -0.001313626766204834 2.6702880859375e-05 0.11898422241210938 -0.000713348388671875
17.539 -0.021392822265625 -0.1376190185546875 4.78271484375 1.287109375 -0.0012804269790649414 0.0017691850662231445 0.1199798583984375 -0.0041351318359375
17.54875 -0.02948760986328125 -0.13248443603515625 4.85009765625 0.915771484375 -0.001608431339263916 0.0011920332908630371 0.12266159057617188 -0.008373260498046875
17.5585 -0.0387420654296875 -0.1289520263671875 4.9072265625 0.544677734375 -0.0013796091079711914 0.0009600520133972168 0.12517547607421875 -0.013427734375
17.56825 -0.04563140869140625 -0.1248779296875 4.946533203125 0.1787109375 -0.0026091337203979492 0.0009918212890625 0.12621307373046875 -0.01772308349609375
17.578 -0.0540771484375 -0.11846923828125 4.958984375 -0.212890625 -0.001317441463470459 0.0003212094306945801 0.127105712890625 -0.022369384765625
17.58775 -0.0605010986328125 -0.11376190185546875 4.934326171875 -0.616943359375 -0.0015394091606140137 0.0009706020355224609 0.12848663330078125 -0.027008056640625
17.5975 -0.06597137451171875 -0.10710906982421875 4.863037109375 -1.032958984375 -0.0014958381652832031 7.897615432739258e-05 0.12775421142578125 -0.03372955322265625
17.60725 -0.07176971435546875 -0.10195159912109375 4.7431640625 -1.4208984375 -0.0006858706474304199 0.0011251568794250488 0.1284027099609375 -0.03823089599609375
17.617 -0.0785064697265625 -0.0931243896484375 4.587646484375 -1.78857421875 -0.0009689927101135254 0.000686347484588623 0.12665557861328125 -0.0440216064453125
17.62675 -0.0844268798828125 -0.0870361328125 4.402099609375 -2.127197265625 -0.002022862434387207 0.0013374090194702148 0.1264801025390625 -0.04799652099609375
17.6365 -0.0886993408203125 -0.0786285400390625 4.18896484375 -2.43603515625 -0.0011258125305175781 0.0008783340454101562 0.124481201171875 -0.05626678466796875
17.64625 -0.09262847900390625 -0.07112884521484375 3.979248046875 -2.7083740234375 0.0005835294723510742 0.0017281770706176758 0.12179183959960938 -0.0600128173828125
17.656 -0.096923828125 -0.06451416015625 3.7762451171875 -2.9678955078125 -0.0009577274322509766 0.0013770461082458496 0.11832809448242188 -0.06825637817382812
17.66575 -0.09893035888671875 -0.0540924072265625 3.57568359375 -3.2325439453125 -0.00014212727546691895 0.00036953389644622803 0.11663055419921875 -0.0718994140625
17.6755 -0.10285186767578125 -0.04665374755859375 3.3509521484375 -3.4930419921875 1.4185905456542969e-05 0.0005255043506622314 0.11093521118164062 -0.076812744140625
17.68525 -0.10631561279296875 -0.037506103515625 3.1148681640625 -3.7618408203125 -0.00022453069686889648 0.0012975335121154785 0.10852432250976562 -0.08228683471679688
17.695 -0.1089630126953125 -0.0283355712890625 2.82861328125 -4.028564453125 -0.0004106760025024414 0.001143336296081543 0.10733795166015625 -0.08695220947265625
17.70475 -0.110107421875 -0.017608642578125 2.49365234375 -4.275146484375 -0.0009671449661254883 0.0025506019592285156 0.09975051879882812 -0.09154510498046875
17.7145 -0.11258697509765625 -0.01126861572265625 2.12109375 -4.4892578125 -0.0009607672691345215 0.0012086033821105957 0.09626007080078125 -0.0968780517578125
17.72425 -0.1109466552734375 -0.001216888427734375 1.72314453125 -4.638671875 -0.0005517005920410156 0.0014374852180480957 0.09131622314453125 -0.09957122802734375
17.734 -0.1131744384765625 0.00763702392578125 1.32470703125 -4.728515625 -0.0010139942169189453 0.0013780593872070312 0.0849456787109375 -0.10376739501953125
17.74375 -0.113677978515625 0.01517486572265625 0.939453125 -4.7626953125 -0.00015020370483398438 0.0020918846130371094 0.0786590576171875 -0.10933685302734375
17.7535 -0.11083221435546875 0.023799896240234375 0.589111328125 -4.781982421875 0.0008947849273681641 0.0013093948364257812 0.07396697998046875 -0.11173629760742188
17.76325 -0.11053848266601562 0.0335845947265625 0.2587890625 -4.791015625 0.00043272972106933594 0.0009750127792358398 0.06691360473632812 -0.113372802734375
17.773 -0.10829544067382812 0.0410003662109375 -0.06298828125 -4.790283203125 -0.0012093782424926758 0.0007461309432983398 0.061859130859375 -0.11553192138671875
17.78275 -0.10782241821289062 0.04815673828125 -0.39892578125 -4.788330078125 -0.0004774928092956543 0.0017688870429992676 0.0567626953125 -0.11670303344726562
17.7925 -0.10271072387695312 0.056644439697265625 -0.75 -4.78125 0.0014550089836120605 -0.00014394521713256836 0.050693511962890625 -0.1190948486328125
17.80225 -0.09898757934570312 0.0644989013671875 -1.126708984375 -4.74658203125 -0.0006839632987976074 0.0017249584197998047 0.045024871826171875 -0.11986923217773438
17.812 -0.09572601318359375 0.07257461547851562 -1.510986328125 -4.666015625 0.00017189979553222656 0.0008617043495178223 0.036830902099609375 -0.11963272094726562
17.82175 -0.09027481079101562 0.081329345703125 -1.892822265625 -4.538818359375 0.0005072355270385742 0.0010923147201538086 0.03165435791015625 -0.11837387084960938
17.8315 -0.0851287841796875 0.08858871459960938 -2.260498046875 -4.36083984375 0.0004673600196838379 0.0004450976848602295 0.0254669189453125 -0.11962890625
17.84125 -0.08142852783203125 0.094573974609375 -2.5908203125 -4.154296875 -0.0002713203430175781 0.0009925365447998047 0.0160675048828125 -0.11919403076171875
17.851 -0.07529830932617188 0.10263824462890625 -2.8798828125 -3.906494140625 4.696846008300781e-05 0.0009500980377197266 0.01216888427734375 -0.116058349609375
17.86075 -0.07001495361328125 0.1076202392578125 -3.14306640625 -3.6767578125 0.00036835670471191406 0.0009329915046691895 0.006160736083984375 -0.11555099487304688
17.8705 -0.063720703125 0.11472320556640625 -3.392822265625 -3.43359375 0.0001754164695739746 0.0016118288040161133 -0.000720977783203125 -0.11467361450195312
17.88025 -0.05750274658203125 0.121826171875 -3.63720703125 -3.18994140625 0.0011560916900634766 0.0011180639266967773 -0.007984161376953125 -0.11277008056640625
17.89 -0.05179595947265625 0.125762939453125 -3.87548828125 -2.938720703125 -3.597140312194824e-05 0.0002768486738204956 -0.013011932373046875 -0.11085128784179688
17.89975 -0.04384613037109375 0.13112640380859375 -4.113037109375 -2.646240234375 0.0014211535453796387 -0.0003325343132019043 -0.01827239990234375 -0.10935211181640625
17.9095 -0.03929901123046875 0.1365966796875 -4.33935546875 -2.327880859375 0.00042575597763061523 0.0011240243911743164 -0.02439117431640625 -0.10684967041015625
17.91925 -0.02973175048828125 0.1379852294921875 -4.520751953125 -1.970703125 0.0029145479202270508 -6.54458999633789e-05 -0.02861785888671875 -0.1028594970703125
17.929 -0.0219573974609375 0.1424560546875 -4.67919921875 -1.60107421875 4.297494888305664e-05 0.00026342272758483887 -0.03485107421875 -0.1012115478515625
17.93875 -0.0149688720703125 0.14507293701171875 -4.778076171875 -1.214111328125 0.0012533068656921387 0.0006368160247802734 -0.04004669189453125 -0.09546661376953125
17.9485 -0.00771331787109375 0.1483154296875 -4.833740234375 -0.84033203125 -0.00014884769916534424 0.00034350156784057617 -0.043548583984375 -0.09091949462890625
17.95825 0.001556396484375 0.14951324462890625 -4.871337890625 -0.470703125 0.00103682279586792 -0.00030726194381713867 -0.0477142333984375 -0.08797454833984375
17.968 0.0090179443359375 0.15125274658203125 -4.884521484375 -0.116455078125 0.0007682442665100098 0.0006012916564941406 -0.054168701171875 -0.083221435546875
17.97775 0.018890380859375 0.15252685546875 -4.877685546875 0.232177734375 -6.243586540222168e-06 0.0003596991300582886 -0.05684661865234375 -0.0777740478515625
17.9875 0.0273284912109375 0.15399932861328125 -4.8671875 0.597900390625 -0.00020365417003631592 0.00047582387924194336 -0.05957794189453125 -0.0716400146484375
17.99725 0.036468505859375 0.15367889404296875 -4.838623046875 0.969970703125 0.00021952390670776367 -0.0005101263523101807 -0.06270599365234375 -0.06573486328125
18.007 0.04552459716796875 0.1543426513671875 -4.771728515625 1.357666015625 0.002668619155883789 0.00017750263214111328 -0.0673065185546875 -0.0614471435546875
18.01675 0.05310821533203125 0.1529388427734375 -4.663818359375 1.74462890625 0.00014418363571166992 0.0007316172122955322 -0.0699005126953125 -0.0570220947265625
18.0265 0.06103515625 0.1522369384765625 -4.5107421875 2.1279296875 0.000896453857421875 -0.0014286041259765625 -0.0737457275390625 -0.0516357421875
18.03625 0.06926727294921875 0.15132904052734375 -4.308837890625 2.487060546875 0.001031637191772461 0.00035703182220458984 -0.07724761962890625 -0.0437774658203125
18.046 0.0778350830078125 0.14911651611328125 -4.075439453125 2.81982421875 0.0006518363952636719 4.476308822631836e-05 -0.07741928100585938 -0.0364990234375
18.05575 0.08686065673828125 0.14430999755859375 -3.83203125 3.11181640625 0.0008815526962280273 -0.000585019588470459 -0.0805206298828125 -0.031925201416015625
18.0655 0.09228515625 0.14434051513671875 -3.5733642578125 3.3707275390625 0.0008910894393920898 0.0008965134620666504 -0.08200836181640625 -0.025691986083984375
18.07525 0.10213470458984375 0.14022064208984375 -3.3104248046875 3.6239013671875 9.608268737792969e-05 -0.0013359785079956055 -0.08306121826171875 -0.018901824951171875
18.085 0.10821533203125 0.13742828369140625 -3.027587890625 3.85986328125 -0.0002899467945098877 -0.000531315803527832 -0.082977294921875 -0.013851165771484375
18.09475 0.1160736083984375 0.1315765380859375 -2.7353515625 4.086669921875 0.00041741132736206055 0.0002359449863433838 -0.08097457885742188 -0.006977081298828125
18.1045 0.1233062744140625 0.1268768310546875 -2.41943359375 4.29638671875 0.00017583370208740234 0.0003814101219177246 -0.08240127563476562 0.00069427490234375
18.11425 0.129791259765625 0.123931884765625 -2.07080078125 4.47900390625 0.001219332218170166 0.00043702125549316406 -0.08161544799804688 0.00579071044921875
18.124 0.134521484375 0.117950439453125 -1.70947265625 4.62939453125 0.0005296468734741211 -0.0004170536994934082 -0.07987213134765625 0.0133209228515625
18.13375 0.1419830322265625 0.1131744384765625 -1.338623046875 4.742431640625 0.0015950202941894531 0.0005844831466674805 -0.07690811157226562 0.02085113525390625
18.1435 0.1482086181640625 0.1057281494140625 -0.957763671875 4.816650390625 0.001608431339263916 -4.2557716369628906e-05 -0.0763092041015625 0.028125762939453125
18.15325 0.152801513671875 0.0993194580078125 -0.57373046875 4.8671875 0.0006974339485168457 -0.00040543079376220703 -0.07453536987304688 0.03372955322265625
18.163 0.159423828125 0.0919952392578125 -0.203369140625 4.87841796875 0.0007152557373046875 0.0003222227096557617 -0.070953369140625 0.039825439453125
18.17275 0.1634521484375 0.08685302734375 0.171142578125 4.872314453125 -6.893277168273926e-05 -0.0005858242511749268 -0.06557846069335938 0.045139312744140625
18.1825 0.16832733154296875 0.07813262939453125 0.536376953125 4.848388671875 0.0005391240119934082 -0.0007925927639007568 -0.06328964233398438 0.0536651611328125
18.19225 0.17192840576171875 0.0711822509765625 0.91064453125 4.798095703125 -0.0002428293228149414 0.00057181715965271 -0.05832481384277344 0.05917167663574219
18.202 0.17584228515625 0.064056396484375 1.27490234375 4.71240234375 0.0007992386817932129 -0.00012677907943725586 -0.05548858642578125 0.06584930419921875
18.21175 0.1787567138671875 0.0562286376953125 1.64453125 4.59423828125 0.00138092041015625 0.00023555755615234375 -0.04816436767578125 0.069854736328125
18.2215 0.18282318115234375 0.0485687255859375 1.99658203125 4.43359375 0.0005266368389129639 -0.0001068115234375 -0.04305267333984375 0.074188232421875
18.23125 0.18601226806640625 0.04155731201171875 2.326416015625 4.2568359375 -0.0005854964256286621 -0.0005891323089599609 -0.038623809814453125 0.07797622680664062
18.241 0.1866302490234375 0.03385162353515625 2.632568359375 4.05078125 0.00018329918384552002 -2.0772218704223633e-05 -0.032489776611328125 0.08170700073242188
18.25075 0.188995361328125 0.02490997314453125 2.92138671875 3.829345703125 -0.0007415711879730225 -0.00017264485359191895 -0.026584625244140625 0.08443069458007812
18.2605 0.18973541259765625 0.0173187255859375 3.190185546875 3.595947265625 0.0002980828285217285 4.7206878662109375e-05 -0.018566131591796875 0.08726882934570312
18.27025 0.189727783203125 0.00829315185546875 3.450439453125 3.347412109375 -0.0008416175842285156 -0.00035113096237182617 -0.01221466064453125 0.09064102172851562
18.28 0.19089508056640625 0.000396728515625 3.7021484375 3.074462890625 -0.0004176795482635498 -6.556510925292969e-06 -0.00530242919921875 0.09244155883789062
18.28975 0.19170379638671875 -0.0079193115234375 3.931396484375 2.786376953125 0.0002497434616088867 3.2201409339904785e-05 0.0034332275390625 0.09443283081054688
18.2995 0.18933868408203125 -0.015625 4.134033203125 2.464599609375 0.001175224781036377 -0.0006199479103088379 0.00998687744140625 0.09289169311523438
18.30925 0.1888885498046875 -0.0246124267578125 4.3095703125 2.1220703125 0.0005677938461303711 -0.000614464282989502 0.02005767822265625 0.0961151123046875
18.319 0.18762969970703125 -0.03360748291015625 4.4462890625 1.77197265625 -0.00038549304008483887 -0.00024649500846862793 0.026470184326171875 0.09577178955078125
18.32875 0.1843414306640625 -0.0404815673828125 4.544677734375 1.422607421875 0.00019150972366333008 0.0001786947250366211 0.035430908203125 0.0962982177734375
18.3385 0.182861328125 -0.04961395263671875 4.61474609375 1.07421875 -0.00020778179168701172 -0.0017693042755126953 0.04311370849609375 0.0947113037109375
18.34825 0.18184661865234375 -0.0571136474609375 4.680419921875 0.73291015625 0.0012480616569519043 -0.00023382902145385742 0.04964447021484375 0.0926361083984375
18.358 0.17795562744140625 -0.06426239013671875 4.715087890625 0.389404296875 -0.0005521774291992188 -0.0012167692184448242 0.058197021484375 0.090850830078125
18.36775 0.1750335693359375 -0.0719146728515625 4.7353515625 0.0263671875 0.0005663037300109863 -9.92119312286377e-05 0.0653839111328125 0.08609771728515625
18.3775 0.1711578369140625 -0.07654571533203125 4.73828125 -0.329833984375 0.00030347704887390137 -0.0004073530435562134 0.07232666015625 0.085113525390625
18.38725 0.167144775390625 -0.0868682861328125 4.699951171875 -0.712158203125 0.0002615898847579956 -0.00016452372074127197 0.07913970947265625 0.08020782470703125
18.397 0.1641693115234375 -0.0922698974609375 4.61669921875 -1.083984375 0.00040435791015625 -0.00026237964630126953 0.0847320556640625 0.0762939453125
18.40675 0.15869140625 -0.09771728515625 4.49951171875 -1.45703125 0.0014178752899169922 6.520748138427734e-05 0.092315673828125 0.0692138671875
18.4165 0.15320587158203125 -0.10589599609375 4.347900390625 -1.793212890625 0.0003331899642944336 -0.00030368566513061523 0.0979461669921875 0.06404876708984375
18.42625 0.14768218994140625 -0.110626220703125 4.153564453125 -2.100830078125 -0.001277923583984375 -0.0007631778717041016 0.10388946533203125 0.05828094482421875
18.436 0.14121246337890625 -0.115966796875 3.96240234375 -2.38134765625 -0.0004857182502746582 0.0005924403667449951 0.11083984375 0.05059814453125
18.44575 0.1353912353515625 -0.12061309814453125 3.763916015625 -2.64697265625 0.0012260079383850098 0.00011742115020751953 0.11071014404296875 0.04266357421875
18.4555 0.12938690185546875 -0.12566375732421875 3.5570068359375 -2.9014892578125 0.0014765262603759766 -0.0009117722511291504 0.1161041259765625 0.03632354736328125
18.46525 0.12316131591796875 -0.1317138671875 3.342041015625 -3.162841796875 0.0008524656295776367 -0.00043338537216186523 0.11905670166015625 0.02675628662109375
18.475 0.11568450927734375 -0.13482666015625 3.1082763671875 -3.4163818359375 0.0006595253944396973 0.0004356503486633301 0.12245941162109375 0.01934051513671875
18.48475 0.11203765869140625 -0.1407928466796875 2.833740234375 -3.6536865234375 0.0002053380012512207 -0.0007275640964508057 0.12470245361328125 0.01108551025390625
18.4945 0.10314178466796875 -0.14325714111328125 2.519775390625 -3.864013671875 -2.205371856689453e-06 -0.001110374927520752 0.12646484375 0.002777099609375
18.50425 0.0949554443359375 -0.1470489501953125 2.18408203125 -4.044921875 -0.0004221200942993164 -0.0010161399841308594 0.12587738037109375 -0.00577545166015625
18.514 0.090087890625 -0.150604248046875 1.83740234375 -4.171875 -0.0006310343742370605 0.00012511014938354492 0.12682342529296875 -0.01528167724609375
18.52375 0.08164215087890625 -0.15155792236328125 1.49169921875 -4.25341796875 6.273388862609863e-05 -0.0009495019912719727 0.12458419799804688 -0.022735595703125
18.5335 0.07648468017578125 -0.15538787841796875 1.168701171875 -4.307373046875 -0.00032401084899902344 -0.00016605854034423828 0.12476348876953125 -0.030994415283203125
18.54325 0.06951141357421875 -0.15752410888671875 0.856689453125 -4.33740234375 3.2201409339904785e-05 0.0003003627061843872 0.12192153930664062 -0.039287567138671875
18.553 0.06256866455078125 -0.15932464599609375 0.55078125 -4.360595703125 0.0005982518196105957 5.97834587097168e-05 0.11786651611328125 -0.04538726806640625
18.56275 0.0560150146484375 -0.16027069091796875 0.245849609375 -4.3837890625 3.2842159271240234e-05 -0.0011322498321533203 0.11391448974609375 -0.052425384521484375
18.5725 0.047943115234375 -0.16120147705078125 -0.067626953125 -4.38525390625 0.001517653465270996 2.2232532501220703e-05 0.11021041870117188 -0.060237884521484375
18.58225 0.04091644287109375 -0.16217041015625 -0.39306640625 -4.364501953125 -0.00042776763439178467 0.0002018958330154419 0.10443878173828125 -0.06650543212890625
18.592 0.033203125 -0.16217803955078125 -0.728759765625 -4.314697265625 0.0008072853088378906 -0.0005362927913665771 0.09989166259765625 -0.07306671142578125
18.60175 0.02703857421875 -0.1606597900390625 -1.05908203125 -4.23046875 0.0007333755493164062 -0.0016754865646362305 0.09380340576171875 -0.07814788818359375
18.6115 0.0185089111328125 -0.16019439697265625 -1.36767578125 -4.1044921875 0.00046962499618530273 -0.0005691945552825928 0.08916091918945312 -0.0852813720703125
18.62125 0.01207733154296875 -0.16088104248046875 -1.652099609375 -3.95263671875 -0.00036638975143432617 -0.0010250210762023926 0.08106613159179688 -0.08667373657226562
18.631 0.0055999755859375 -0.15898895263671875 -1.897216796875 -3.794677734375 4.4694170355796814e-05 -5.6723132729530334e-05 0.07525634765625 -0.09254837036132812
18.64075 -0.001708984375 -0.15930938720703125 -2.13720703125 -3.6279296875 0.00034914910793304443 -0.00014550983905792236 0.068878173828125 -0.09380722045898438
18.6505 -0.00800323486328125 -0.15895843505859375 -2.3623046875 -3.4609375 0.00038745999336242676 -8.566677570343018e-05 0.06215667724609375 -0.09762191772460938
18.66025 -0.016876220703125 -0.15566253662109375 -2.580322265625 -3.2890625 -0.001056075096130371 -0.0009617805480957031 0.053203582763671875 -0.09960556030273438
18.67 -0.0217132568359375 -0.15428924560546875 -2.800537109375 -3.107421875 -0.0010987520217895508 -0.0005856156349182129 0.048946380615234375 -0.09969711303710938
18.67975 -0.0293121337890625 -0.15120697021484375 -3.017578125 -2.906005859375 0.00038927793502807617 -0.00041687488555908203 0.040828704833984375 -0.10207748413085938
18.6895 -0.03652191162109375 -0.15053558349609375 -3.2197265625 -2.67431640625 -0.00048291683197021484 -0.0012243986129760742 0.035919189453125 -0.09939193725585938
