!Created with skrf (http://scikit-rf.org).
# GHz S RI R 50.0 
!freq ReS11 ImS11 ReS21 ImS21 ReS12 ImS12 ReS22 ImS22
17.5 0.01123046875 -0.1343231201171875 -3.998291015625 1.6337890625 -0.0015860795974731445 0.0005519986152648926 0.08675003051757812 0.004291534423828125
17.50975 0.00269317626953125 -0.1318206787109375 -3.8487548828125 1.94580078125 -0.001292407512664795 0.0007997751235961914 0.08916091918945312 0.00115203857421875
17.5195 -0.0037841796875 -0.127899169921875 -3.668212890625 2.23681640625 -0.002594470977783203 0.0004661083221435547 0.092864990234375 0.002513885498046875
17.52925 -0.0125732421875 -0.12422943115234375 -3.47509765625 2.51708984375 -0.0019032955169677734 0.0006899237632751465 0.09563827514648438 -0.000759124755859375
17.539 -0.0174713134765625 -0.119171142578125 -3.2646484375 2.76953125 -0.0011643171310424805 0.0007078647613525391 0.097442626953125 -0.00323486328125
17.54875 -0.02555084228515625 -0.11554718017578125 -3.031005859375 2.9962158203125 -0.0009766817092895508 0.001352071762084961 0.09957122802734375 -0.0052032470703125
17.5585 -0.035308837890625 -0.1106719970703125 -2.7994384765625 3.2158203125 -0.0015366077423095703 3.3974647521972656e-06 0.10106658935546875 -0.008880615234375
17.56825 -0.03926849365234375 -0.10836029052734375 -2.556396484375 3.41259765625 -0.0009578466415405273 0.0010714530944824219 0.10455322265625 -0.01203155517578125
17.578 -0.046295166015625 -0.10176849365234375 -2.2872314453125 3.60595703125 -0.0011143684387207031 7.390975952148438e-05 0.10519027709960938 -0.014789581298828125
17.58775 -0.05236053466796875 -0.0972442626953125 -1.998291015625 3.779052734375 -0.0007081031799316406 0.001038670539855957 0.10704803466796875 -0.017856597900390625
17.5975 -0.055419921875 -0.0923309326171875 -1.683837890625 3.93603515625 -0.00109022855758667 0.0009110569953918457 0.108184814453125 -0.02203369140625
17.60725 -0.06032562255859375 -0.0886383056640625 -1.35791015625 4.043701171875 -0.0015028119087219238 0.0006337165832519531 0.10810470581054688 -0.024623870849609375
17.617 -0.06689453125 -0.08060455322265625 -1.03076171875 4.121337890625 -0.000698387622833252 0.0012225508689880371 0.11036300659179688 -0.030521392822265625
17.62675 -0.07079315185546875 -0.0739898681640625 -0.698974609375 4.163330078125 -0.0011010169982910156 0.001876235008239746 0.11018753051757812 -0.033092498779296875
17.6365 -0.0742950439453125 -0.068359375 -0.37841796875 4.17529296875 0.0003173351287841797 0.0017254352569580078 0.110260009765625 -0.03693389892578125
17.64625 -0.07692718505859375 -0.0614471435546875 -0.079833984375 4.161865234375 -0.0010010600090026855 -0.00012230873107910156 0.1091156005859375 -0.042987823486328125
17.656 -0.0802459716796875 -0.0563812255859375 0.211181640625 4.14306640625 -0.0004026442766189575 0.0003266632556915283 0.10784912109375 -0.045257568359375
17.66575 -0.081329345703125 -0.045429229736328125 0.492919921875 4.12353515625 -0.0013100504875183105 0.0017426609992980957 0.10607147216796875 -0.051464080810546875
17.6755 -0.0865478515625 -0.0408782958984375 0.777587890625 4.08544921875 0.0004208087921142578 0.002128005027770996 0.10285568237304688 -0.0569305419921875
17.68525 -0.08726119995117188 -0.033222198486328125 1.070556640625 4.052978515625 -0.0006306767463684082 0.00061798095703125 0.10264205932617188 -0.059482574462890625
17.695 -0.0904388427734375 -0.02503204345703125 1.387451171875 3.988525390625 0.00014847517013549805 0.001807868480682373 0.10243988037109375 -0.06376266479492188
17.70475 -0.09069061279296875 -0.01741790771484375 1.71533203125 3.889404296875 0.0005091428756713867 0.0022516250610351562 0.09907913208007812 -0.06789016723632812
17.7145 -0.0930328369140625 -0.010894775390625 2.044189453125 3.74853515625 0.00014388561248779297 0.0013701319694519043 0.09557723999023438 -0.07295608520507812
17.72425 -0.09377288818359375 -0.00394439697265625 2.343017578125 3.5546875 -0.00030994415283203125 0.0025746822357177734 0.09084320068359375 -0.07613754272460938
17.734 -0.09482192993164062 0.003383636474609375 2.61376953125 3.33984375 -0.0010076165199279785 0.0009592175483703613 0.09024810791015625 -0.0825347900390625
17.74375 -0.0944671630859375 0.01194000244140625 2.837890625 3.095703125 -0.0006356239318847656 0.00044929981231689453 0.08400726318359375 -0.087158203125
17.7535 -0.09302520751953125 0.017314910888671875 3.037109375 2.86376953125 -0.0007411837577819824 -0.0001017153263092041 0.08009719848632812 -0.0894775390625
17.76325 -0.09253692626953125 0.024509429931640625 3.211669921875 2.637451171875 0.0005509853363037109 0.0008118748664855957 0.07483673095703125 -0.09174346923828125
17.773 -0.09103775024414062 0.03277587890625 3.3681640625 2.4140625 -0.00032269954681396484 0.0020918846130371094 0.07169723510742188 -0.09637832641601562
17.78275 -0.09088134765625 0.037677764892578125 3.529052734375 2.179443359375 0.001192331314086914 0.0007178783416748047 0.06722259521484375 -0.09819793701171875
17.7925 -0.08648681640625 0.044284820556640625 3.691650390625 1.94384765625 -0.00020843744277954102 0.0014840960502624512 0.0632781982421875 -0.10033798217773438
17.80225 -0.08536148071289062 0.050090789794921875 3.863525390625 1.678955078125 -0.0001869797706604004 0.0008324384689331055 0.057888031005859375 -0.10118484497070312
17.812 -0.0813140869140625 0.058818817138671875 4.004150390625 1.388671875 0.0004527270793914795 0.000357210636138916 0.05135345458984375 -0.10280609130859375
17.82175 -0.07898712158203125 0.06479263305664062 4.122802734375 1.07373046875 0.0005608797073364258 0.0017087459564208984 0.049102783203125 -0.10378265380859375
17.8315 -0.074981689453125 0.07171249389648438 4.20361328125 0.735595703125 9.375810623168945e-05 0.0012721419334411621 0.043476104736328125 -0.10569000244140625
17.84125 -0.07167816162109375 0.0767822265625 4.24853515625 0.40673828125 1.728534698486328e-05 0.0015981197357177734 0.03720855712890625 -0.1060791015625
17.851 -0.06755447387695312 0.08465957641601562 4.2421875 0.0732421875 0.0006510615348815918 0.0009326338768005371 0.033138275146484375 -0.10853195190429688
17.86075 -0.06494903564453125 0.08875656127929688 4.224365234375 -0.22998046875 -0.0002588629722595215 0.0010395646095275879 0.025188446044921875 -0.106719970703125
17.8705 -0.05919647216796875 0.09569168090820312 4.1904296875 -0.527587890625 0.0004692673683166504 0.0012665987014770508 0.0196075439453125 -0.10688400268554688
17.88025 -0.054859161376953125 0.10129165649414062 4.146728515625 -0.81494140625 3.591179847717285e-05 0.0005413591861724854 0.0150146484375 -0.1084136962890625
17.89 -0.04975128173828125 0.10577011108398438 4.1005859375 -1.1015625 0.0008260011672973633 0.0018178224563598633 0.0081024169921875 -0.1065521240234375
17.89975 -0.045757293701171875 0.1109771728515625 4.0380859375 -1.408935546875 0.001171112060546875 0.0009920597076416016 0.0029449462890625 -0.10561370849609375
17.9095 -0.041538238525390625 0.11472702026367188 3.9554443359375 -1.72314453125 0.0022058486938476562 0.0017452239990234375 -0.002262115478515625 -0.10528564453125
17.91925 -0.0334320068359375 0.1197052001953125 3.834228515625 -2.0386962890625 0.0007380247116088867 0.0009338855743408203 -0.006687164306640625 -0.1042327880859375
17.929 -0.03035736083984375 0.12259674072265625 3.685791015625 -2.346435546875 0.0007445812225341797 0.00040662288665771484 -0.01220703125 -0.1026458740234375
17.93875 -0.022552490234375 0.12700653076171875 3.4910888671875 -2.6387939453125 0.000409543514251709 0.001161038875579834 -0.018230438232421875 -0.1016082763671875
17.9485 -0.01758575439453125 0.1294097900390625 3.2789306640625 -2.8961181640625 0.0013614892959594727 0.0006766319274902344 -0.022953033447265625 -0.09828567504882812
17.95825 -0.01078033447265625 0.1318206787109375 3.0467529296875 -3.13671875 0.0013289451599121094 0.0010752677917480469 -0.025432586669921875 -0.09577560424804688
17.968 -0.00357818603515625 0.13492584228515625 2.8128662109375 -3.3472900390625 0.0003536343574523926 0.00108259916305542 -0.03244781494140625 -0.0931396484375
17.97775 0.0032196044921875 0.13632965087890625 2.5712890625 -3.5399169921875 0.00077858567237854 0.000167161226272583 -0.03807830810546875 -0.08776092529296875
17.9875 0.011566162109375 0.1394500732421875 2.3211669921875 -3.7379150390625 0.0006747245788574219 0.0006103515625 -0.041839599609375 -0.08499908447265625
17.99725 0.0196685791015625 0.14035797119140625 2.0645751953125 -3.9290771484375 0.0009683370590209961 0.0005458593368530273 -0.04637908935546875 -0.08267974853515625
18.007 0.0246734619140625 0.14147186279296875 1.77294921875 -4.11083984375 0.0005813837051391602 0.0011353492736816406 -0.0490264892578125 -0.07709503173828125
18.01675 0.0330810546875 0.1426239013671875 1.4638671875 -4.271484375 0.0005460381507873535 0.0009595751762390137 -0.05478668212890625 -0.07280731201171875
18.0265 0.04042816162109375 0.14435577392578125 1.124755859375 -4.411376953125 0.0005695819854736328 0.0009247064590454102 -0.06113433837890625 -0.06916046142578125
18.03625 0.04937744140625 0.14495849609375 0.76171875 -4.5068359375 0.0005352497100830078 0.0006636381149291992 -0.0633697509765625 -0.0630340576171875
18.046 0.0573577880859375 0.14479827880859375 0.389892578125 -4.560546875 0.0018173456192016602 -0.00022292137145996094 -0.0657196044921875 -0.05760955810546875
18.05575 0.06456756591796875 0.143463134765625 0.035400390625 -4.585205078125 0.0007832050323486328 -0.00022304058074951172 -0.07019424438476562 -0.0537567138671875
18.0655 0.0712738037109375 0.14336395263671875 -0.312744140625 -4.5712890625 2.6553869247436523e-05 0.0008613169193267822 -0.07392501831054688 -0.048412322998046875
18.07525 0.07996368408203125 0.14209747314453125 -0.66162109375 -4.542236328125 0.0014922022819519043 -0.00012761354446411133 -0.07659149169921875 -0.0418243408203125
18.085 0.08730316162109375 0.1404571533203125 -1.008056640625 -4.49462890625 0.00033533573150634766 -0.00028659403324127197 -0.08034133911132812 -0.035457611083984375
18.09475 0.09658050537109375 0.1367645263671875 -1.3544921875 -4.431396484375 0.0003190934658050537 -0.0004556924104690552 -0.07690811157226562 -0.0307464599609375
18.1045 0.1029052734375 0.13488006591796875 -1.70068359375 -4.3349609375 2.8014183044433594e-06 -0.0007374882698059082 -0.08160400390625 -0.02254486083984375
18.11425 0.10982513427734375 0.13355255126953125 -2.055419921875 -4.208740234375 0.00013262033462524414 -0.0007116496562957764 -0.08221054077148438 -0.018215179443359375
18.124 0.117095947265625 0.1289215087890625 -2.39453125 -4.05078125 0.0003367960453033447 -0.00021317601203918457 -0.08402252197265625 -0.00974273681640625
18.13375 0.123992919921875 0.1249847412109375 -2.7216796875 -3.86376953125 0.0012178421020507812 -0.00023031234741210938 -0.08208465576171875 -0.00284576416015625
18.1435 0.1309051513671875 0.119659423828125 -3.028076171875 -3.640869140625 0.001226961612701416 -0.0006244182586669922 -0.08435821533203125 0.00519561767578125
18.15325 0.1379547119140625 0.11444091796875 -3.322021484375 -3.39208984375 0.0004704594612121582 -0.00040459632873535156 -0.08479690551757812 0.0120391845703125
18.163 0.1450347900390625 0.109954833984375 -3.582763671875 -3.123291015625 0.001549065113067627 -0.001336216926574707 -0.081390380859375 0.018444061279296875
18.17275 0.152069091796875 0.1059112548828125 -3.824951171875 -2.834228515625 0.0006766319274902344 -0.0009796619415283203 -0.079010009765625 0.025806427001953125
18.1825 0.1593017578125 0.097564697265625 -4.05126953125 -2.53759765625 0.00026626884937286377 -0.0003275871276855469 -0.07706451416015625 0.033725738525390625
18.19225 0.1641387939453125 0.0914764404296875 -4.265625 -2.213623046875 0.0017161965370178223 -0.00022530555725097656 -0.07299041748046875 0.040958404541015625
18.202 0.170318603515625 0.0842132568359375 -4.44287109375 -1.873291015625 0.00044342875480651855 -0.0006110072135925293 -0.072540283203125 0.045742034912109375
18.21175 0.175079345703125 0.077880859375 -4.59228515625 -1.4970703125 0.0007422566413879395 -0.0006824731826782227 -0.0673675537109375 0.05458831787109375
18.2215 0.18146514892578125 0.06804656982421875 -4.70703125 -1.110107421875 0.0005541443824768066 -0.0005997717380523682 -0.0628662109375 0.05901336669921875
18.23125 0.18611907958984375 0.062347412109375 -4.77978515625 -0.72802734375 0.0015474557876586914 -0.00013893842697143555 -0.059909820556640625 0.06484603881835938
18.241 0.18791961669921875 0.05365753173828125 -4.813232421875 -0.340087890625 0.0002594590187072754 -0.00045430660247802734 -0.053409576416015625 0.07073593139648438
18.25075 0.19362640380859375 0.0451202392578125 -4.81591796875 0.034423828125 0.0002451688051223755 0.0001767575740814209 -0.048847198486328125 0.07472610473632812
18.2605 0.19675445556640625 0.038116455078125 -4.792236328125 0.408203125 0.0004960000514984131 -0.0006123483180999756 -0.042407989501953125 0.07961654663085938
18.27025 0.197845458984375 0.0287933349609375 -4.757568359375 0.776123046875 -0.0001805424690246582 -0.0003834068775177002 -0.03635406494140625 0.08421707153320312
18.28 0.199951171875 0.01882171630859375 -4.696044921875 1.159912109375 0.0002357959747314453 -0.0010796785354614258 -0.030338287353515625 0.08913040161132812
18.28975 0.20282745361328125 0.0089874267578125 -4.6064453125 1.5341796875 0.00010982155799865723 0.0006280243396759033 -0.021366119384765625 0.09357833862304688
18.2995 0.20262908935546875 0.0 -4.466064453125 1.9111328125 0.00025337934494018555 -0.0007591545581817627 -0.013690948486328125 0.09503555297851562
18.30925 0.20220947265625 -0.01092529296875 -4.29150390625 2.28271484375 0.0006802678108215332 -8.022785186767578e-05 -0.00507354736328125 0.09746551513671875
18.319 0.20196533203125 -0.02100372314453125 -4.07373046875 2.625732421875 0.0001442432403564453 -0.000703275203704834 -0.00032806396484375 0.100555419921875
18.32875 0.20040130615234375 -0.0273590087890625 -3.8299560546875 2.9365234375 0.0003787577152252197 5.6117773056030273e-05 0.01149749755859375 0.10301589965820312
18.3385 0.19893646240234375 -0.038970947265625 -3.5628662109375 3.2086181640625 0.0002774745225906372 -0.0003196895122528076 0.020538330078125 0.1047210693359375
18.34825 0.19820404052734375 -0.04851531982421875 -3.3006591796875 3.4658203125 0.00020503997802734375 -0.0009949803352355957 0.02752685546875 0.1038665771484375
18.358 0.19602203369140625 -0.0584716796875 -3.0283203125 3.697265625 -0.000616610050201416 0.00018936395645141602 0.037506103515625 0.102203369140625
18.36775 0.19366455078125 -0.06624603271484375 -2.730224609375 3.9249267578125 -0.00034052133560180664 -0.00026792287826538086 0.04405975341796875 0.1006622314453125
18.3775 0.190216064453125 -0.0736846923828125 -2.4296875 4.135009765625 0.0008495450019836426 0.0001838207244873047 0.05303192138671875 0.09874725341796875
18.38725 0.1860809326171875 -0.084808349609375 -2.083251953125 4.32568359375 0.000898212194442749 -0.00019091367721557617 0.06034088134765625 0.097869873046875
18.397 0.1824798583984375 -0.0920867919921875 -1.71728515625 4.47802734375 1.31949782371521e-05 -6.261467933654785e-05 0.06781005859375 0.0944976806640625
18.40675 0.1765289306640625 -0.10028076171875 -1.32763671875 4.60693359375 0.0009504556655883789 -0.000906527042388916 0.077117919921875 0.088592529296875
18.4165 0.17124176025390625 -0.10729217529296875 -0.9423828125 4.677490234375 -0.0004089176654815674 -0.00026094913482666016 0.0830230712890625 0.08760833740234375
18.42625 0.16570281982421875 -0.1165771484375 -0.555908203125 4.697998046875 0.0009544789791107178 -0.0007325112819671631 0.09151458740234375 0.0802459716796875
18.436 0.15798187255859375 -0.12287139892578125 -0.192138671875 4.686279296875 0.0005731284618377686 0.0003555417060852051 0.09960174560546875 0.07525634765625
18.44575 0.1514129638671875 -0.13085174560546875 0.1591796875 4.658447265625 0.0006700456142425537 4.285573959350586e-05 0.1034088134765625 0.0682373046875
18.4555 0.1440582275390625 -0.1367645263671875 0.498779296875 4.6162109375 -0.0002781599760055542 0.00014992058277130127 0.1112213134765625 0.06037139892578125
18.46525 0.1370391845703125 -0.142578125 0.83740234375 4.569580078125 -0.00010719895362854004 0.0008417367935180664 0.11578369140625 0.0510711669921875
18.475 0.1285858154296875 -0.14817047119140625 1.179931640625 4.505615234375 -5.840510129928589e-05 7.794797420501709e-05 0.12126922607421875 0.04520416259765625
18.48475 0.12300872802734375 -0.153289794921875 1.53955078125 4.402587890625 0.0006349086761474609 -0.000636368989944458 0.12487030029296875 0.03655242919921875
18.4945 0.11237335205078125 -0.1571044921875 1.89990234375 4.26171875 8.612871170043945e-05 0.0004900991916656494 0.12964630126953125 0.02741241455078125
18.50425 0.10260009765625 -0.1610870361328125 2.248046875 4.0732421875 0.00034415721893310547 -0.00023743510246276855 0.131744384765625 0.02001953125
18.514 0.0974273681640625 -0.1646881103515625 2.56103515625 3.8505859375 0.0008045434951782227 -9.78708267211914e-05 0.1337890625 0.0091705322265625
18.52375 0.08571624755859375 -0.16629791259765625 2.830810546875 3.586669921875 -0.00041572749614715576 0.0002807825803756714 0.13410186767578125 -0.000152587890625
18.5335 0.08129119873046875 -0.17079925537109375 3.06982421875 3.33056640625 -0.00013212859630584717 -0.0002554953098297119 0.13460540771484375 -0.00860595703125
18.54325 0.0709075927734375 -0.17369842529296875 3.2734375 3.067626953125 -0.0002078413963317871 -0.0007493793964385986 0.13419342041015625 -0.0166473388671875
18.553 0.06250762939453125 -0.17502593994140625 3.45849609375 2.802734375 0.0011074542999267578 -0.0006012916564941406 0.132110595703125 -0.02542877197265625
18.56275 0.05255889892578125 -0.17475128173828125 3.639404296875 2.546630859375 0.0006592273712158203 -0.0007038116455078125 0.1312408447265625 -0.03363800048828125
18.5725 0.0448760986328125 -0.176025390625 3.809326171875 2.27001953125 0.0010289549827575684 0.0007063746452331543 0.12754058837890625 -0.04366302490234375
18.58225 0.03614044189453125 -0.1759796142578125 3.966796875 1.975830078125 -0.0004597306251525879 -0.0008651018142700195 0.1234893798828125 -0.050365447998046875
18.592 0.02728271484375 -0.17684173583984375 4.10595703125 1.656005859375 0.00018769502639770508 0.0005407631397247314 0.12000656127929688 -0.05865478515625
18.60175 0.020477294921875 -0.1745758056640625 4.21728515625 1.31787109375 0.0007784366607666016 -0.000984787940979004 0.11345672607421875 -0.06478118896484375
18.6115 0.01247406005859375 -0.17246246337890625 4.2763671875 0.973876953125 0.0009836554527282715 -0.001171886920928955 0.11040496826171875 -0.07355880737304688
18.62125 0.004486083984375 -0.17156219482421875 4.300048828125 0.6376953125 -1.862645149230957e-05 0.00011213496327400208 0.10311126708984375 -0.07990646362304688
18.631 -0.00504302978515625 -0.17079925537109375 4.2890625 0.32666015625 0.0003210008144378662 0.00010178983211517334 0.096710205078125 -0.08578109741210938
18.64075 -0.01235198974609375 -0.1670684814453125 4.26171875 0.0234375 0.00018459558486938477 -0.0010715723037719727 0.0904693603515625 -0.08945846557617188
18.6505 -0.019012451171875 -0.1649017333984375 4.232421875 -0.263916015625 0.0005742907524108887 -0.0004417598247528076 0.08498382568359375 -0.09453201293945312
18.66025 -0.02809906005859375 -0.1623382568359375 4.193359375 -0.546142578125 0.0009404122829437256 -0.0009253025054931641 0.07609176635742188 -0.09776687622070312
18.67 -0.03137969970703125 -0.1591644287109375 4.1513671875 -0.835205078125 -6.222724914550781e-05 -0.0005522966384887695 0.07106781005859375 -0.09942245483398438
18.67975 -0.039947509765625 -0.15747833251953125 4.0927734375 -1.132568359375 0.00027930736541748047 -0.001204371452331543 0.063995361328125 -0.10243606567382812
18.6895 -0.0481719970703125 -0.152069091796875 3.9970703125 -1.43896484375 6.620585918426514e-05 7.487088441848755e-05 0.057193756103515625 -0.1031951904296875
