!Created with skrf (http://scikit-rf.org).
# GHz S RI R 50.0 
!freq ReS11 ImS11 ReS21 ImS21 ReS12 ImS12 ReS22 ImS22
17.5 0.00766754150390625 -0.1342315673828125 -4.081298828125 0.439697265625 -0.000958859920501709 -0.00032901763916015625 0.08771133422851562 -0.00055694580078125
17.50975 -0.00017547607421875 -0.132720947265625 -4.026611328125 0.761962890625 -0.0022199153900146484 0.0005966424942016602 0.08869552612304688 -0.001239776611328125
17.5195 -0.00661468505859375 -0.12779998779296875 -3.9404296875 1.072265625 -0.00027763843536376953 0.0005166232585906982 0.092498779296875 -0.001361846923828125
17.52925 -0.01538848876953125 -0.12409210205078125 -3.8406982421875 1.37451171875 -0.00206601619720459 0.00079345703125 0.09593582153320312 -0.0041961669921875
17.539 -0.02008056640625 -0.118499755859375 -3.720458984375 1.662109375 -0.0005627274513244629 0.0005971193313598633 0.09702301025390625 -0.00548553466796875
17.54875 -0.02770233154296875 -0.11522674560546875 -3.570068359375 1.927978515625 -0.0007322132587432861 0.0007219612598419189 0.09906005859375 -0.008991241455078125
17.5585 -0.0379180908203125 -0.1105499267578125 -3.4129638671875 2.19091796875 -0.0004063844680786133 0.001209557056427002 0.10115814208984375 -0.01200103759765625
17.56825 -0.04113006591796875 -0.106903076171875 -3.248291015625 2.43212890625 -0.0016842484474182129 0.001131892204284668 0.10181427001953125 -0.013744354248046875
17.578 -0.047882080078125 -0.09998321533203125 -3.0548095703125 2.6805419921875 -0.0011457204818725586 -0.0001017451286315918 0.10329055786132812 -0.01949310302734375
17.58775 -0.05298614501953125 -0.0961151123046875 -2.8399658203125 2.9134521484375 -0.00026553869247436523 0.0011839866638183594 0.10509109497070312 -0.021183013916015625
17.5975 -0.057952880859375 -0.09050750732421875 -2.5938720703125 3.1348876953125 -0.0010988712310791016 0.0016423463821411133 0.10531997680664062 -0.0240325927734375
17.60725 -0.06255340576171875 -0.0863800048828125 -2.3309326171875 3.3251953125 -0.0009371936321258545 0.0007384717464447021 0.10486602783203125 -0.027462005615234375
17.617 -0.06768035888671875 -0.07840728759765625 -2.05224609375 3.483154296875 -0.0016423463821411133 0.001108407974243164 0.10769271850585938 -0.03087615966796875
17.62675 -0.07254791259765625 -0.071533203125 -1.765625 3.6104736328125 -0.0001278221607208252 0.0007330179214477539 0.10772323608398438 -0.033855438232421875
17.6365 -0.073699951171875 -0.0646209716796875 -1.48046875 3.70458984375 0.0008170604705810547 0.0019865036010742188 0.106536865234375 -0.04019927978515625
17.64625 -0.07953643798828125 -0.05735015869140625 -1.2044677734375 3.7811279296875 -0.0009012222290039062 0.0010305047035217285 0.1059722900390625 -0.044097900390625
17.656 -0.08109283447265625 -0.0525360107421875 -0.9403076171875 3.844970703125 -0.000647127628326416 0.0013187527656555176 0.10300827026367188 -0.046966552734375
17.66575 -0.08243560791015625 -0.044040679931640625 -0.6793212890625 3.90673828125 -0.0011996030807495117 0.00029468536376953125 0.10253524780273438 -0.053356170654296875
17.6755 -0.08666229248046875 -0.03789520263671875 -0.4090576171875 3.9559326171875 0.0002837181091308594 0.001820683479309082 0.0995635986328125 -0.057323455810546875
17.68525 -0.08916854858398438 -0.03043365478515625 -0.130615234375 4.007080078125 -5.805492401123047e-05 0.0009629130363464355 0.09886550903320312 -0.06018829345703125
17.695 -0.08848953247070312 -0.0228424072265625 0.174560546875 4.034912109375 -0.0012634992599487305 0.0005530118942260742 0.09830093383789062 -0.0641632080078125
17.70475 -0.0903167724609375 -0.015277862548828125 0.50146484375 4.03173828125 -0.0004334449768066406 0.00030356645584106445 0.095916748046875 -0.06810379028320312
17.7145 -0.09203338623046875 -0.00766754150390625 0.839111328125 3.99462890625 -0.00027899444103240967 0.00019040703773498535 0.09165573120117188 -0.07342529296875
17.72425 -0.09174346923828125 -0.001056671142578125 1.164306640625 3.907958984375 0.00011777877807617188 0.0020502805709838867 0.08727645874023438 -0.07613754272460938
17.734 -0.09331893920898438 0.005954742431640625 1.470947265625 3.7880859375 -0.0012372136116027832 0.0010552406311035156 0.08614730834960938 -0.08240509033203125
17.74375 -0.09346771240234375 0.0146331787109375 1.7412109375 3.6279296875 -0.00051116943359375 0.002050161361694336 0.08209228515625 -0.085052490234375
17.7535 -0.09178924560546875 0.020420074462890625 1.988037109375 3.46875 -0.00010102987289428711 0.001507878303527832 0.07778549194335938 -0.0886077880859375
17.76325 -0.09011459350585938 0.027019500732421875 2.21337890625 3.31396484375 -0.000898510217666626 0.000872194766998291 0.07254791259765625 -0.09080123901367188
17.773 -0.08979415893554688 0.03371429443359375 2.425048828125 3.1572265625 0.0001455843448638916 0.000620424747467041 0.06710052490234375 -0.09321212768554688
17.78275 -0.08907318115234375 0.040409088134765625 2.63818359375 2.988037109375 -4.023313522338867e-05 0.0010303258895874023 0.06465911865234375 -0.09556198120117188
17.7925 -0.0842437744140625 0.04547119140625 2.858154296875 2.81982421875 -0.0005588531494140625 0.0013776421546936035 0.060337066650390625 -0.09810256958007812
17.80225 -0.08223342895507812 0.051486968994140625 3.085205078125 2.625732421875 -0.00013846158981323242 0.00154876708984375 0.05817413330078125 -0.09990310668945312
17.812 -0.07812881469726562 0.05927276611328125 3.30224609375 2.39697265625 -0.0014268755912780762 0.0011815428733825684 0.049591064453125 -0.10010910034179688
17.82175 -0.0762939453125 0.06557083129882812 3.4970703125 2.1435546875 0.0004011988639831543 0.0009999871253967285 0.046665191650390625 -0.100921630859375
17.8315 -0.07193756103515625 0.0709686279296875 3.669189453125 1.86181640625 0.0003281831741333008 0.0011182427406311035 0.0421905517578125 -0.10222625732421875
17.84125 -0.07025146484375 0.07816314697265625 3.80859375 1.56884765625 -0.00040987133979797363 0.00018712878227233887 0.03479766845703125 -0.10314178466796875
17.851 -0.06381988525390625 0.08458328247070312 3.8974609375 1.260498046875 0.0013518333435058594 0.000712275505065918 0.032634735107421875 -0.10483169555664062
17.86075 -0.06036376953125 0.08878326416015625 3.971435546875 0.974853515625 0.0002352893352508545 0.0004954338073730469 0.025653839111328125 -0.10307693481445312
17.8705 -0.057163238525390625 0.09453201293945312 4.02978515625 0.69091796875 0.0005906820297241211 0.0011432170867919922 0.02028656005859375 -0.10446548461914062
17.88025 -0.052669525146484375 0.10026168823242188 4.074462890625 0.40966796875 0.0003140568733215332 0.0011118054389953613 0.01442718505859375 -0.10462188720703125
17.89 -0.046478271484375 0.1067047119140625 4.116455078125 0.132080078125 8.130073547363281e-05 0.0005899667739868164 0.008350372314453125 -0.10356521606445312
17.89975 -0.041095733642578125 0.10946273803710938 4.143798828125 -0.172607421875 -0.0006670951843261719 0.0009208321571350098 0.004791259765625 -0.10329055786132812
17.9095 -0.0374755859375 0.11428070068359375 4.157958984375 -0.48779296875 0.000424802303314209 0.0008466839790344238 -0.00165557861328125 -0.10191726684570312
17.91925 -0.031856536865234375 0.11739349365234375 4.13330078125 -0.8134765625 0.0013396739959716797 0.0003598332405090332 -0.006145477294921875 -0.10009765625
17.929 -0.02481842041015625 0.1224517822265625 4.09130859375 -1.14453125 0.00023293495178222656 0.00039184093475341797 -0.01203155517578125 -0.0995635986328125
17.93875 -0.019405364990234375 0.12474441528320312 3.995361328125 -1.471923828125 0.0013954639434814453 0.00024563074111938477 -0.015956878662109375 -0.09580612182617188
17.9485 -0.01409149169921875 0.12718963623046875 3.8714599609375 -1.7733154296875 0.00023853778839111328 0.0010451078414916992 -0.02043914794921875 -0.09363174438476562
17.95825 -0.00788116455078125 0.12911224365234375 3.72802734375 -2.065673828125 0.0001436173915863037 0.00018675625324249268 -0.024517059326171875 -0.09231948852539062
17.968 -0.0018768310546875 0.1322174072265625 3.5703125 -2.3345947265625 0.000793755054473877 0.0008147954940795898 -0.030338287353515625 -0.090118408203125
17.97775 0.00638580322265625 0.1342010498046875 3.40234375 -2.5880126953125 0.0005121231079101562 0.0014551877975463867 -0.034687042236328125 -0.08575057983398438
17.9875 0.01279449462890625 0.13623046875 3.2244873046875 -2.8486328125 0.0007343590259552002 0.00020176172256469727 -0.03845977783203125 -0.085174560546875
17.99725 0.0198974609375 0.13805389404296875 3.0316162109375 -3.103271484375 0.0009130239486694336 0.001436471939086914 -0.043701171875 -0.07988739013671875
18.007 0.02685546875 0.13866424560546875 2.81494140625 -3.3570556640625 -0.00014415383338928223 -0.0002374798059463501 -0.0470428466796875 -0.0764312744140625
18.01675 0.03444671630859375 0.139862060546875 2.5623779296875 -3.59423828125 0.00027167797088623047 0.0010420680046081543 -0.051456451416015625 -0.07242584228515625
18.0265 0.04148101806640625 0.14080810546875 2.2823486328125 -3.8212890625 0.0011048316955566406 0.0008723735809326172 -0.057758331298828125 -0.06704330444335938
18.03625 0.0486297607421875 0.1419677734375 1.96875 -4.0166015625 0.0010269880294799805 -0.00029921531677246094 -0.05960845947265625 -0.0630035400390625
18.046 0.05631256103515625 0.14205169677734375 1.635986328125 -4.178466796875 0.00042939186096191406 0.0007085800170898438 -0.06262969970703125 -0.057834625244140625
18.05575 0.06378173828125 0.140045166015625 1.308837890625 -4.3017578125 0.00026917457580566406 0.0015314817428588867 -0.06657028198242188 -0.054534912109375
18.0655 0.071075439453125 0.1402587890625 0.9736328125 -4.390869140625 0.0022197961807250977 0.00029158592224121094 -0.070404052734375 -0.047088623046875
18.07525 0.07851409912109375 0.13958740234375 0.6318359375 -4.463623046875 0.0008178353309631348 -0.00010523200035095215 -0.07214736938476562 -0.040828704833984375
18.085 0.08687591552734375 0.1371612548828125 0.286376953125 -4.5146484375 0.0004470944404602051 -0.0008942782878875732 -0.07623291015625 -0.037776947021484375
18.09475 0.093170166015625 0.13510894775390625 -0.060302734375 -4.550048828125 0.0012638568878173828 0.0007724761962890625 -0.07523727416992188 -0.0297698974609375
18.1045 0.1001739501953125 0.1321258544921875 -0.4189453125 -4.55859375 0.0012971162796020508 0.0012584924697875977 -0.07785797119140625 -0.02475738525390625
18.11425 0.107818603515625 0.13109588623046875 -0.7900390625 -4.537841796875 0.0013273358345031738 -0.0005463361740112305 -0.07940673828125 -0.01804351806640625
18.124 0.1144256591796875 0.126739501953125 -1.16259765625 -4.47705078125 0.0021593570709228516 -7.009506225585938e-05 -0.07962799072265625 -0.0108489990234375
18.13375 0.1214447021484375 0.1243896484375 -1.52490234375 -4.38916015625 0.0006910562515258789 0.0006402730941772461 -0.07961273193359375 -0.0052032470703125
18.1435 0.1283111572265625 0.11894989013671875 -1.875732421875 -4.256103515625 0.0006094574928283691 -0.0002602040767669678 -0.08171463012695312 0.003559112548828125
18.15325 0.1358489990234375 0.1135711669921875 -2.222412109375 -4.100830078125 0.0007954835891723633 -0.0008560121059417725 -0.07883834838867188 0.008319854736328125
18.163 0.14324951171875 0.1080169677734375 -2.546142578125 -3.914794921875 0.0014029145240783691 7.969141006469727e-05 -0.07843780517578125 0.016414642333984375
18.17275 0.1485748291015625 0.103271484375 -2.853759765625 -3.70458984375 0.0008330047130584717 -0.00013044476509094238 -0.07509994506835938 0.02239990234375
18.1825 0.156982421875 0.0970611572265625 -3.151123046875 -3.48388671875 0.0016514062881469727 -0.001208186149597168 -0.07471466064453125 0.031154632568359375
18.19225 0.1598968505859375 0.0908050537109375 -3.443115234375 -3.232421875 -0.000608980655670166 0.0007158815860748291 -0.07288742065429688 0.036548614501953125
18.202 0.1666107177734375 0.0848388671875 -3.705322265625 -2.95458984375 0.00035566091537475586 -0.0005680322647094727 -0.07121658325195312 0.044307708740234375
18.21175 0.172149658203125 0.0787811279296875 -3.9560546875 -2.64111328125 0.0010799169540405273 -8.416175842285156e-05 -0.06640625 0.050506591796875
18.2215 0.17797088623046875 0.07016754150390625 -4.1630859375 -2.298095703125 0.0003094673156738281 0.001109480857849121 -0.060932159423828125 0.0567474365234375
18.23125 0.18239593505859375 0.06316375732421875 -4.335693359375 -1.951416015625 0.0005547404289245605 -0.00018966197967529297 -0.059780120849609375 0.06214332580566406
18.241 0.186553955078125 0.05472564697265625 -4.467041015625 -1.588623046875 0.0004830658435821533 -0.0005179643630981445 -0.053104400634765625 0.067901611328125
18.25075 0.18978118896484375 0.04531097412109375 -4.571533203125 -1.2314453125 0.0010842084884643555 -0.0010775923728942871 -0.048480987548828125 0.07172393798828125
18.2605 0.19318389892578125 0.03865814208984375 -4.6474609375 -0.868408203125 0.00012621283531188965 -0.0006383359432220459 -0.043621063232421875 0.07663345336914062
18.27025 0.19549560546875 0.02996063232421875 -4.7099609375 -0.50439453125 -0.00021708011627197266 -0.00040009617805480957 -0.036777496337890625 0.08159255981445312
18.28 0.1975250244140625 0.0207672119140625 -4.746826171875 -0.12255859375 0.00017867982387542725 -4.103034734725952e-05 -0.0302734375 0.0834808349609375
18.28975 0.20021820068359375 0.010589599609375 -4.75390625 0.25537109375 -5.9157609939575195e-05 -0.00022858381271362305 -0.023334503173828125 0.08824920654296875
18.2995 0.2007293701171875 0.0018768310546875 -4.725830078125 0.65234375 0.0003433525562286377 0.0004526972770690918 -0.015956878662109375 0.09101104736328125
18.30925 0.2018585205078125 -0.0085296630859375 -4.65380859375 1.05078125 0.00012090802192687988 -7.825344800949097e-05 -0.0074005126953125 0.09401702880859375
18.319 0.2002105712890625 -0.0171356201171875 -4.531005859375 1.4306640625 -0.0006376504898071289 -0.0009191036224365234 -0.001232147216796875 0.09759140014648438
18.32875 0.19930267333984375 -0.02486419677734375 -4.38525390625 1.79052734375 -9.131431579589844e-05 -0.0006610453128814697 0.009548187255859375 0.09846878051757812
18.3385 0.19797515869140625 -0.0359954833984375 -4.19873046875 2.122802734375 9.784102439880371e-05 -0.0006414651870727539 0.017887115478515625 0.10044479370117188
18.34825 0.19835662841796875 -0.04538726806640625 -4.012939453125 2.4375 0.0009737610816955566 0.00043076276779174805 0.0240478515625 0.1014404296875
18.358 0.19573974609375 -0.05460357666015625 -3.809814453125 2.72998046875 0.00018531084060668945 -0.0008291900157928467 0.03473663330078125 0.0996856689453125
18.36775 0.1929473876953125 -0.06357574462890625 -3.5853271484375 3.02001953125 0.0007688403129577637 -0.001714944839477539 0.04164886474609375 0.09818267822265625
18.3775 0.19084930419921875 -0.07181549072265625 -3.3482666015625 3.294189453125 0.0005815327167510986 -0.0004042685031890869 0.0489654541015625 0.0976409912109375
18.38725 0.18567657470703125 -0.0819549560546875 -3.065673828125 3.5594482421875 -0.0012297630310058594 -0.0006954669952392578 0.05680084228515625 0.09610748291015625
18.397 0.1822662353515625 -0.0902252197265625 -2.759521484375 3.80078125 -5.46574592590332e-05 -0.0006371140480041504 0.06365966796875 0.0926513671875
18.40675 0.1781768798828125 -0.0976409912109375 -2.423828125 4.02001953125 0.00029480457305908203 0.0002440810203552246 0.07293701171875 0.089996337890625
18.4165 0.1729583740234375 -0.1066131591796875 -2.071044921875 4.183349609375 -0.00018711388111114502 0.0003977864980697632 0.080078125 0.08600616455078125
18.42625 0.1672821044921875 -0.1144561767578125 -1.7099609375 4.302490234375 -0.00034499168395996094 0.0011022686958312988 0.0885009765625 0.080902099609375
18.436 0.15991973876953125 -0.1204071044921875 -1.3583984375 4.388671875 -0.0008318722248077393 0.00020945072174072266 0.09603118896484375 0.07500457763671875
18.44575 0.15380096435546875 -0.129150390625 -1.017822265625 4.4482421875 -0.00010928511619567871 -0.0004958808422088623 0.1015625 0.06887054443359375
18.4555 0.14580535888671875 -0.13417816162109375 -0.682373046875 4.489501953125 0.0010297894477844238 -0.00016158819198608398 0.10630035400390625 0.06198883056640625
18.46525 0.1392059326171875 -0.14131927490234375 -0.3486328125 4.534912109375 0.0012922286987304688 -0.0003758668899536133 0.111328125 0.0525360107421875
18.475 0.13066864013671875 -0.14670562744140625 -0.003662109375 4.555908203125 0.00011536478996276855 0.0005171000957489014 0.1171112060546875 0.0461883544921875
18.48475 0.1259613037109375 -0.152252197265625 0.36181640625 4.54736328125 -0.0007650852203369141 -0.0013499259948730469 0.1215057373046875 0.03815460205078125
18.4945 0.11426544189453125 -0.15641021728515625 0.73876953125 4.500244140625 -8.851289749145508e-05 -0.0005177855491638184 0.12520599365234375 0.0280914306640625
18.50425 0.106109619140625 -0.161590576171875 1.11572265625 4.4111328125 0.001088261604309082 3.7550926208496094e-05 0.1270599365234375 0.0209197998046875
18.514 0.09857177734375 -0.1650238037109375 1.46826171875 4.27392578125 0.0004228949546813965 0.0005481839179992676 0.1298980712890625 0.011016845703125
18.52375 0.08866119384765625 -0.16684722900390625 1.794677734375 4.095947265625 -0.0002836287021636963 0.0007104873657226562 0.13069915771484375 0.00347900390625
18.5335 0.081573486328125 -0.1707611083984375 2.0830078125 3.904541015625 9.870529174804688e-05 -0.0004103034734725952 0.13327789306640625 -0.00659942626953125
18.54325 0.0731658935546875 -0.17372894287109375 2.341796875 3.705322265625 0.0004774034023284912 -0.0005726814270019531 0.13127899169921875 -0.01439666748046875
18.553 0.0648956298828125 -0.1761474609375 2.584228515625 3.497314453125 0.0012660622596740723 0.0005924701690673828 0.129974365234375 -0.02382659912109375
18.56275 0.056427001953125 -0.17510986328125 2.81982421875 3.294677734375 -0.0002708137035369873 -0.0001347064971923828 0.1287384033203125 -0.03192901611328125
18.5725 0.04647064208984375 -0.17704010009765625 3.0458984375 3.07275390625 0.0002515465021133423 -3.288686275482178e-05 0.12593841552734375 -0.04026031494140625
18.58225 0.037353515625 -0.1766510009765625 3.2705078125 2.82958984375 0.0006524026393890381 -0.0004611015319824219 0.12223434448242188 -0.047618865966796875
18.592 0.02977752685546875 -0.17705535888671875 3.4765625 2.555908203125 0.0004411637783050537 -0.0005743503570556641 0.11918258666992188 -0.055713653564453125
18.60175 0.02093505859375 -0.17486572265625 3.6611328125 2.26416015625 9.149312973022461e-06 -0.0002005547285079956 0.11286163330078125 -0.06097412109375
18.6115 0.0142669677734375 -0.174163818359375 3.799072265625 1.951416015625 0.0007577240467071533 -0.0008134245872497559 0.10880661010742188 -0.06943511962890625
18.62125 0.00455474853515625 -0.17327117919921875 3.907470703125 1.63916015625 0.00018858909606933594 -0.0012602806091308594 0.10202407836914062 -0.07618331909179688
18.631 -0.0033111572265625 -0.1708984375 3.972900390625 1.34033203125 -0.0004386305809020996 -0.0009056329727172852 0.09648513793945312 -0.08111190795898438
18.64075 -0.009765625 -0.1698455810546875 4.019775390625 1.0458984375 0.0003522634506225586 7.888674736022949e-05 0.09156417846679688 -0.08641433715820312
18.6505 -0.0162811279296875 -0.16817474365234375 4.055908203125 0.763427734375 0.0005492568016052246 -0.0006026327610015869 0.08432769775390625 -0.09088516235351562
18.66025 -0.02605438232421875 -0.164459228515625 4.08984375 0.48388671875 0.0003122091293334961 -0.0011827945709228516 0.07703399658203125 -0.0928955078125
18.67 -0.03264617919921875 -0.1599884033203125 4.1123046875 0.19775390625 0.0005191266536712646 -0.0009319186210632324 0.07185745239257812 -0.09613037109375
18.67975 -0.0401611328125 -0.157562255859375 4.12451171875 -0.1015625 0.0009180307388305664 -0.0006078481674194336 0.06459426879882812 -0.099639892578125
18.6895 -0.0467376708984375 -0.1541900634765625 4.103515625 -0.410400390625 -0.0004961192607879639 -0.00018006563186645508 0.05812835693359375 -0.1007843017578125
