!Created with skrf (http://scikit-rf.org).
# GHz S RI R 50.0 
!freq ReS11 ImS11 ReS21 ImS21 ReS12 ImS12 ReS22 ImS22
17.5 0.01413726806640625 -0.150665283203125 3.515380859375 2.745849609375 -0.0016328096389770508 0.0008450150489807129 0.1061553955078125 0.01070404052734375
17.50975 0.0044403076171875 -0.1485137939453125 3.72412109375 2.452392578125 -0.0023070573806762695 -0.0007121562957763672 0.1092987060546875 0.006687164306640625
17.5195 -0.0035858154296875 -0.14374542236328125 3.89501953125 2.13671875 -0.0008055567741394043 0.0012077689170837402 0.11464691162109375 0.0058135986328125
17.52925 -0.0141754150390625 -0.14060211181640625 4.053466796875 1.82080078125 -0.0019865036010742188 0.00019049644470214844 0.11671829223632812 0.00064849853515625
17.539 -0.02081298828125 -0.136566162109375 4.169921875 1.49853515625 -0.001206517219543457 0.0009889602661132812 0.1183013916015625 -0.00348663330078125
17.54875 -0.02812957763671875 -0.133056640625 4.259033203125 1.1728515625 -0.0003116726875305176 0.0012170076370239258 0.12003326416015625 -0.006744384765625
17.5585 -0.03945159912109375 -0.12770843505859375 4.341796875 0.843505859375 -0.0021451711654663086 0.00032258033752441406 0.12408065795898438 -0.012973785400390625
17.56825 -0.044921875 -0.12384033203125 4.40625 0.52197265625 -0.0013126730918884277 0.00036770105361938477 0.1239166259765625 -0.0172882080078125
17.578 -0.052154541015625 -0.11791229248046875 4.440673828125 0.16455078125 -0.001083076000213623 0.00031250715255737305 0.12451553344726562 -0.02304840087890625
17.58775 -0.0591583251953125 -0.1129608154296875 4.44873046875 -0.195068359375 -0.0009301602840423584 0.0004393160343170166 0.12572479248046875 -0.02657318115234375
17.5975 -0.06573486328125 -0.1051788330078125 4.41357421875 -0.571533203125 -0.001981973648071289 0.0013328790664672852 0.126708984375 -0.031951904296875
17.60725 -0.07079315185546875 -0.1008148193359375 4.3427734375 -0.927978515625 -0.00129777193069458 0.0018050074577331543 0.125396728515625 -0.0375823974609375
17.617 -0.0778045654296875 -0.09323883056640625 4.225341796875 -1.271484375 -0.0008330345153808594 0.0006259679794311523 0.12525177001953125 -0.0424346923828125
17.62675 -0.08386993408203125 -0.08583831787109375 4.081298828125 -1.59033203125 -0.000576317310333252 0.001010119915008545 0.12718963623046875 -0.04878997802734375
17.6365 -0.0875396728515625 -0.077362060546875 3.916748046875 -1.879150390625 -0.000501096248626709 0.0009244084358215332 0.1242218017578125 -0.05381011962890625
17.64625 -0.09228515625 -0.069549560546875 3.75048828125 -2.1373291015625 -0.0009121298789978027 0.0010060667991638184 0.12174224853515625 -0.059482574462890625
17.656 -0.09694671630859375 -0.06406402587890625 3.5838623046875 -2.3887939453125 -0.0011453032493591309 0.0007913708686828613 0.11753463745117188 -0.06315994262695312
17.66575 -0.09815216064453125 -0.053955078125 3.4188232421875 -2.6356201171875 -0.0008544921875 0.0015093684196472168 0.11632919311523438 -0.07020950317382812
17.6755 -0.10375213623046875 -0.045745849609375 3.23193359375 -2.8828125 0.0006241798400878906 0.0018502473831176758 0.11166000366210938 -0.07630538940429688
17.68525 -0.1051483154296875 -0.03787994384765625 3.0416259765625 -3.142578125 -0.0007430315017700195 0.0014622211456298828 0.10836029052734375 -0.08093643188476562
17.695 -0.1077423095703125 -0.0287017822265625 2.8045654296875 -3.4031982421875 0.00019401311874389648 0.0014064908027648926 0.1056976318359375 -0.08530044555664062
17.70475 -0.10846710205078125 -0.017852783203125 2.5225830078125 -3.647216796875 0.00023925304412841797 0.0017819404602050781 0.1004791259765625 -0.08983230590820312
17.7145 -0.11043930053710938 -0.0100250244140625 2.201904296875 -3.860107421875 -0.0010425448417663574 0.0005425214767456055 0.09601211547851562 -0.09513473510742188
17.72425 -0.11019515991210938 -0.002460479736328125 1.85693359375 -4.02099609375 5.424022674560547e-05 0.0017312169075012207 0.09119033813476562 -0.09973526000976562
17.734 -0.11133575439453125 0.00774383544921875 1.50634765625 -4.13818359375 -0.00017070770263671875 0.0012831687927246094 0.08486175537109375 -0.10271453857421875
17.74375 -0.112030029296875 0.01511383056640625 1.16845703125 -4.19287109375 -8.726119995117188e-05 0.0020334720611572266 0.0808868408203125 -0.10588836669921875
17.7535 -0.10979080200195312 0.023227691650390625 0.850341796875 -4.23046875 0.00033414363861083984 0.0018498897552490234 0.07608413696289062 -0.11055374145507812
17.76325 -0.10759353637695312 0.032550811767578125 0.556396484375 -4.25927734375 -0.0004990100860595703 0.0014334917068481445 0.06888198852539062 -0.11161422729492188
17.773 -0.10625839233398438 0.039093017578125 0.267333984375 -4.28173828125 -0.0007621645927429199 0.001624763011932373 0.06451797485351562 -0.1151885986328125
17.78275 -0.10410308837890625 0.047351837158203125 -0.031005859375 -4.2978515625 -0.0008600354194641113 0.0013841986656188965 0.05804443359375 -0.11584091186523438
17.7925 -0.10144805908203125 0.055816650390625 -0.345703125 -4.310546875 0.00042444467544555664 0.0012196898460388184 0.05167388916015625 -0.11845779418945312
17.80225 -0.0993804931640625 0.06299209594726562 -0.6875 -4.308349609375 0.0007069706916809082 0.0009333491325378418 0.04604339599609375 -0.11667633056640625
17.812 -0.09393692016601562 0.07277297973632812 -1.03564453125 -4.260009765625 -0.0011355280876159668 0.0013944506645202637 0.038051605224609375 -0.12015151977539062
17.82175 -0.08884048461914062 0.07964324951171875 -1.3828125 -4.173583984375 0.0008434057235717773 0.00037229061126708984 0.03458404541015625 -0.11846542358398438
17.8315 -0.08508682250976562 0.08732223510742188 -1.72314453125 -4.0380859375 -0.0006744861602783203 0.00011464953422546387 0.025943756103515625 -0.11905288696289062
17.84125 -0.08184051513671875 0.0937042236328125 -2.03369140625 -3.875 0.00025910139083862305 0.0005291104316711426 0.0184326171875 -0.11960601806640625
17.851 -0.073577880859375 0.101837158203125 -2.3095703125 -3.673095703125 0.00021982192993164062 0.00046309828758239746 0.01491546630859375 -0.11625289916992188
17.86075 -0.0701904296875 0.10605621337890625 -2.5595703125 -3.482666015625 0.0005822181701660156 0.0016379356384277344 0.006900787353515625 -0.1147918701171875
17.8705 -0.06412887573242188 0.11395645141601562 -2.7958984375 -3.283935546875 0.0005418956279754639 0.0002154707908630371 0.001220703125 -0.1154632568359375
17.88025 -0.056484222412109375 0.11987686157226562 -3.02978515625 -3.08349609375 0.00011104345321655273 0.0006595849990844727 -0.00565338134765625 -0.11265945434570312
17.89 -0.05257415771484375 0.12543487548828125 -3.25634765625 -2.8701171875 -0.00036448240280151367 0.0009406805038452148 -0.0100555419921875 -0.11018753051757812
17.89975 -0.04476165771484375 0.13010406494140625 -3.48828125 -2.62548828125 0.0010472536087036133 0.0015524625778198242 -0.017059326171875 -0.108184814453125
17.9095 -0.03896331787109375 0.13523101806640625 -3.707763671875 -2.35595703125 0.0006688237190246582 0.0005403757095336914 -0.02245330810546875 -0.10735321044921875
17.91925 -0.029998779296875 0.13796234130859375 -3.895751953125 -2.05078125 0.0014574527740478516 0.0018305778503417969 -0.0276947021484375 -0.103790283203125
17.929 -0.021942138671875 0.1419830322265625 -4.056640625 -1.732421875 -0.0006102323532104492 0.0010985136032104492 -0.033599853515625 -0.1007537841796875
17.93875 -0.01569366455078125 0.1432037353515625 -4.172607421875 -1.391845703125 4.5999884605407715e-05 0.00019097328186035156 -0.03807830810546875 -0.09632110595703125
17.9485 -0.00775909423828125 0.14725494384765625 -4.243408203125 -1.06201171875 0.0008062124252319336 0.0003445744514465332 -0.04339599609375 -0.0899810791015625
17.95825 0.0007476806640625 0.15013885498046875 -4.29931640625 -0.734130859375 0.0006738007068634033 0.0002148747444152832 -0.04563140869140625 -0.08800506591796875
17.968 0.0074462890625 0.1502532958984375 -4.326416015625 -0.421142578125 -0.0004902482032775879 0.0017603635787963867 -0.05129241943359375 -0.08458709716796875
17.97775 0.01789093017578125 0.152008056640625 -4.34375 -0.10986328125 1.882016658782959e-05 0.0004146397113800049 -0.05496978759765625 -0.07897186279296875
17.9875 0.0268707275390625 0.1528472900390625 -4.354736328125 0.212890625 0.0007118582725524902 0.000876009464263916 -0.05828857421875 -0.074066162109375
17.99725 0.034912109375 0.1532440185546875 -4.354248046875 0.544921875 0.0020848512649536133 0.0015532970428466797 -0.062103271484375 -0.06848907470703125
18.007 0.0421142578125 0.15221405029296875 -4.316650390625 0.890625 0.0005664825439453125 0.0004769563674926758 -0.0650482177734375 -0.0637969970703125
18.01675 0.05249786376953125 0.15331268310546875 -4.246337890625 1.2373046875 0.001208186149597168 0.001103520393371582 -0.06951141357421875 -0.0580902099609375
18.0265 0.060821533203125 0.151092529296875 -4.1396484375 1.58935546875 -0.00025075674057006836 0.00024509429931640625 -0.0746917724609375 -0.0524139404296875
18.03625 0.067779541015625 0.1509857177734375 -3.9833984375 1.9189453125 -0.00036454200744628906 -0.0007197856903076172 -0.07633209228515625 -0.04706573486328125
18.046 0.07732391357421875 0.1499786376953125 -3.7958984375 2.2293701171875 0.00047403573989868164 -0.0007761120796203613 -0.07693099975585938 -0.040103912353515625
18.05575 0.085357666015625 0.14505767822265625 -3.599853515625 2.4993896484375 0.00014162063598632812 0.0013256669044494629 -0.07928466796875 -0.03389739990234375
18.0655 0.0929718017578125 0.14345550537109375 -3.3841552734375 2.74609375 0.00030100345611572266 0.0004889070987701416 -0.08137893676757812 -0.026439666748046875
18.07525 0.10085296630859375 0.14063262939453125 -3.163330078125 2.9837646484375 0.0003805309534072876 -0.0001644045114517212 -0.0818634033203125 -0.0200042724609375
18.085 0.1082763671875 0.13593292236328125 -2.931396484375 3.2113037109375 -0.0001464933156967163 0.00040809810161590576 -0.08440017700195312 -0.014225006103515625
18.09475 0.11431121826171875 0.1327362060546875 -2.6871337890625 3.4278564453125 0.0013877153396606445 -9.238719940185547e-05 -0.08098220825195312 -0.007511138916015625
18.1045 0.1226806640625 0.128692626953125 -2.4237060546875 3.630615234375 0.001531362533569336 0.001180410385131836 -0.08258819580078125 -0.001415252685546875
18.11425 0.1287841796875 0.124786376953125 -2.12890625 3.8155517578125 0.00020566582679748535 -0.0005238652229309082 -0.08205413818359375 0.003997802734375
18.124 0.135711669921875 0.11944580078125 -1.8212890625 3.97216796875 0.0005768537521362305 0.0011434555053710938 -0.0800628662109375 0.01145172119140625
18.13375 0.140380859375 0.1136932373046875 -1.50439453125 4.101318359375 -0.00047522783279418945 -0.00020822882652282715 -0.07973861694335938 0.017925262451171875
18.1435 0.145538330078125 0.1059417724609375 -1.175048828125 4.193359375 0.0005914866924285889 -0.00041350722312927246 -0.07794952392578125 0.026317596435546875
18.15325 0.1521453857421875 0.0996856689453125 -0.839599609375 4.263427734375 0.0002738386392593384 -3.3468008041381836e-05 -0.07405471801757812 0.032016754150390625
18.163 0.1578216552734375 0.0929718017578125 -0.512451171875 4.2978515625 0.000765383243560791 -0.0014380812644958496 -0.072723388671875 0.037078857421875
18.17275 0.162322998046875 0.0863189697265625 -0.182861328125 4.315185546875 4.863739013671875e-05 0.0005382299423217773 -0.0672454833984375 0.045745849609375
18.1825 0.1683807373046875 0.0802001953125 0.138916015625 4.3173828125 0.000797569751739502 -0.0011146068572998047 -0.06343460083007812 0.051898956298828125
18.19225 0.17073822021484375 0.07105255126953125 0.472412109375 4.298583984375 -0.00023943185806274414 -4.7594308853149414e-05 -0.05926322937011719 0.05811119079589844
18.202 0.17608642578125 0.0665130615234375 0.79638671875 4.24951171875 0.0005766153335571289 -0.00029712915420532227 -0.05706787109375 0.06377410888671875
18.21175 0.1796875 0.05804443359375 1.1318359375 4.17333984375 0.0005898475646972656 -0.0004812479019165039 -0.05036163330078125 0.0697479248046875
18.2215 0.18389892578125 0.05035400390625 1.450439453125 4.055908203125 0.00020515918731689453 -0.0011076927185058594 -0.044677734375 0.07378005981445312
18.23125 0.1869659423828125 0.043121337890625 1.753173828125 3.92431640625 -0.0004372596740722656 -0.000675499439239502 -0.040752410888671875 0.07563400268554688
18.241 0.1874237060546875 0.0335693359375 2.04052734375 3.765625 0.0006154775619506836 8.219480514526367e-05 -0.036174774169921875 0.08037948608398438
18.25075 0.18935394287109375 0.02652740478515625 2.305908203125 3.589111328125 0.0009197592735290527 -0.0011574625968933105 -0.029430389404296875 0.085113525390625
18.2605 0.189727783203125 0.01894378662109375 2.55908203125 3.3974609375 6.826221942901611e-05 -0.00034105777740478516 -0.020763397216796875 0.08732986450195312
18.27025 0.189910888671875 0.01007843017578125 2.807373046875 3.19921875 0.0012704730033874512 -0.0007556676864624023 -0.014736175537109375 0.09096527099609375
18.28 0.19153594970703125 0.0019683837890625 3.052734375 2.982421875 0.00011599808931350708 -9.702518582344055e-05 -0.00670623779296875 0.09211349487304688
18.28975 0.192047119140625 -0.00777435302734375 3.27197265625 2.743896484375 0.0008476376533508301 -6.0498714447021484e-05 0.000652313232421875 0.094482421875
18.2995 0.19165802001953125 -0.0146026611328125 3.475341796875 2.478759765625 0.0008081197738647461 4.32431697845459e-05 0.009723663330078125 0.0944061279296875
18.30925 0.189849853515625 -0.0238189697265625 3.654296875 2.18408203125 -0.00020903348922729492 -0.0004990696907043457 0.019317626953125 0.09609222412109375
18.319 0.1883544921875 -0.03253173828125 3.798583984375 1.888671875 0.0004856586456298828 -0.0010862946510314941 0.02257537841796875 0.0967864990234375
18.32875 0.18640899658203125 -0.0381317138671875 3.90869140625 1.58447265625 -0.00024117529392242432 -0.0001690983772277832 0.0324554443359375 0.09490203857421875
18.3385 0.18376922607421875 -0.04925537109375 3.995361328125 1.281005859375 -0.0002675652503967285 -0.0011439323425292969 0.042816162109375 0.09511566162109375
18.34825 0.1822967529296875 -0.0575408935546875 4.07373046875 0.985107421875 0.0004386305809020996 -0.00016467273235321045 0.048980712890625 0.0938873291015625
18.358 0.17934417724609375 -0.064300537109375 4.136474609375 0.6884765625 0.0002931952476501465 -0.000819861888885498 0.0571746826171875 0.09178924560546875
18.36775 0.1750030517578125 -0.0725860595703125 4.181640625 0.371337890625 0.0007390975952148438 -0.0004343688488006592 0.0638580322265625 0.08834075927734375
18.3775 0.1727294921875 -0.07825469970703125 4.209228515625 0.057373046875 -0.0005000829696655273 -0.0006562471389770508 0.06948089599609375 0.0859375
18.38725 0.16809844970703125 -0.087127685546875 4.203857421875 -0.28173828125 0.0003346055746078491 1.4916062355041504e-05 0.07648468017578125 0.08281707763671875
18.397 0.1644134521484375 -0.0934906005859375 4.16162109375 -0.6181640625 0.00027000904083251953 0.0008207559585571289 0.0848236083984375 0.07611083984375
18.40675 0.1592864990234375 -0.098663330078125 4.0830078125 -0.9560546875 0.001398921012878418 -0.001099228858947754 0.0918426513671875 0.072174072265625
18.4165 0.15386962890625 -0.10504150390625 3.9720458984375 -1.2623291015625 0.0006230771541595459 -0.0007177591323852539 0.0967559814453125 0.06627655029296875
18.42625 0.1491546630859375 -0.11280059814453125 3.83056640625 -1.5509033203125 -0.0005397200584411621 -0.000504910945892334 0.1023712158203125 0.06056976318359375
18.436 0.142547607421875 -0.1165008544921875 3.6806640625 -1.813720703125 0.0006447136402130127 0.0002886652946472168 0.10829925537109375 0.0538330078125
18.44575 0.13581085205078125 -0.121551513671875 3.52587890625 -2.0621337890625 0.0014206171035766602 0.0008472204208374023 0.1110076904296875 0.0462799072265625
18.4555 0.13050079345703125 -0.127593994140625 3.359130859375 -2.3018798828125 0.0007082223892211914 -0.0013053417205810547 0.11590576171875 0.03765869140625
18.46525 0.12273406982421875 -0.13266754150390625 3.1920166015625 -2.54541015625 0.00048148632049560547 0.0003660619258880615 0.11927032470703125 0.02880096435546875
18.475 0.11579132080078125 -0.13665008544921875 3.000244140625 -2.7828369140625 0.0006458759307861328 0.0003293156623840332 0.1223297119140625 0.02146148681640625
18.48475 0.11175537109375 -0.1412811279296875 2.7744140625 -3.0107421875 0.00032913684844970703 -0.0007969141006469727 0.124420166015625 0.0126190185546875
18.4945 0.1033935546875 -0.14385986328125 2.5123291015625 -3.22216796875 -0.00020347535610198975 5.431473255157471e-05 0.12699127197265625 0.00301361083984375
18.50425 0.0949249267578125 -0.1483612060546875 2.233154296875 -3.4052734375 0.00011140108108520508 0.0004910826683044434 0.1272735595703125 -0.00445556640625
18.514 0.090087890625 -0.150177001953125 1.939697265625 -3.546630859375 0.0019150972366333008 -0.0006244182586669922 0.127227783203125 -0.01202392578125
18.52375 0.08148193359375 -0.151763916015625 1.6405029296875 -3.644775390625 0.0001372694969177246 -0.0007423758506774902 0.1258544921875 -0.02198028564453125
18.5335 0.07639312744140625 -0.15473175048828125 1.359130859375 -3.718017578125 0.0011134743690490723 -9.5367431640625e-05 0.1266937255859375 -0.0293121337890625
18.54325 0.0698089599609375 -0.15888214111328125 1.0897216796875 -3.7747802734375 0.0012026429176330566 0.0003134608268737793 0.1219482421875 -0.03665924072265625
18.553 0.06136322021484375 -0.1610107421875 0.8221435546875 -3.8148193359375 3.7103891372680664e-05 0.0006565451622009277 0.11935043334960938 -0.045459747314453125
18.56275 0.05559539794921875 -0.16045379638671875 0.5545654296875 -3.85400390625 -9.352341294288635e-05 0.00010452792048454285 0.11683273315429688 -0.052417755126953125
18.5725 0.0486907958984375 -0.16159820556640625 0.2769775390625 -3.880859375 0.00012028217315673828 -0.0006389021873474121 0.11174774169921875 -0.05881500244140625
18.58225 0.0405120849609375 -0.16243743896484375 -0.01171875 -3.8885498046875 0.00036591291427612305 -0.000541388988494873 0.1070709228515625 -0.06603622436523438
18.592 0.03319549560546875 -0.16229248046875 -0.31005859375 -3.868896484375 0.0009112358093261719 0.0004240870475769043 0.10116958618164062 -0.07120513916015625
18.60175 0.025360107421875 -0.1613616943359375 -0.60791015625 -3.8203125 -0.0008323192596435547 -0.001082777976989746 0.09564971923828125 -0.07703399658203125
18.6115 0.01943206787109375 -0.1613616943359375 -0.888671875 -3.734375 0.00043164193630218506 -0.0003954470157623291 0.08926010131835938 -0.08361053466796875
18.62125 0.01116180419921875 -0.16170501708984375 -1.155517578125 -3.624755859375 0.0004493594169616699 -0.0008328258991241455 0.083343505859375 -0.08809280395507812
18.631 0.00394439697265625 -0.15950775146484375 -1.384521484375 -3.5048828125 0.0004048198461532593 7.75754451751709e-05 0.07675552368164062 -0.09227752685546875
18.64075 -0.00293731689453125 -0.15938568115234375 -1.604736328125 -3.369384765625 4.649162292480469e-05 0.0005818307399749756 0.071136474609375 -0.09331512451171875
18.6505 -0.0094146728515625 -0.1580810546875 -1.81787109375 -3.2412109375 0.0007800161838531494 -0.0008095502853393555 0.06389999389648438 -0.0964813232421875
18.66025 -0.01775360107421875 -0.1566009521484375 -2.021728515625 -3.109619140625 -0.000674128532409668 -0.00047582387924194336 0.0556182861328125 -0.09846115112304688
18.67 -0.02254486083984375 -0.1542205810546875 -2.230224609375 -2.96728515625 -0.0003407895565032959 -0.0001494288444519043 0.050449371337890625 -0.09969329833984375
18.67975 -0.02977752685546875 -0.1510467529296875 -2.4345703125 -2.80615234375 0.0013271570205688477 -0.0006268620491027832 0.043544769287109375 -0.10152816772460938
18.6895 -0.03772735595703125 -0.1492919921875 -2.631103515625 -2.616455078125 -0.0009877681732177734 -0.0014646053314208984 0.035961151123046875 -0.10022735595703125
