!Created with skrf (http://scikit-rf.org).
# GHz S RI R 50.0 
!freq ReS11 ImS11 ReS21 ImS21 ReS12 ImS12 ReS22 ImS22
17.5 0.00112152099609375 -0.15157318115234375 3.8873291015625 -2.961669921875 -0.00017750263214111328 0.0011525750160217285 0.10985565185546875 -0.00640869140625
17.50975 -0.00909423828125 -0.14824676513671875 3.644287109375 -3.249755859375 -0.001534879207611084 0.00010538101196289062 0.111541748046875 -0.0075836181640625
17.5195 -0.01714324951171875 -0.14312744140625 3.369873046875 -3.5081787109375 -0.0008547604084014893 0.000736624002456665 0.11516189575195312 -0.010272979736328125
17.52925 -0.0274810791015625 -0.1392364501953125 3.090576171875 -3.755615234375 -0.0006610751152038574 0.00033795833587646484 0.116241455078125 -0.01621246337890625
17.539 -0.03204345703125 -0.13238525390625 2.801025390625 -3.97509765625 -0.0014203786849975586 9.417533874511719e-05 0.116485595703125 -0.019561767578125
17.54875 -0.041900634765625 -0.12799835205078125 2.48974609375 -4.165771484375 -0.0015955567359924316 3.88026237487793e-05 0.11809158325195312 -0.022674560546875
17.5585 -0.05184173583984375 -0.12346649169921875 2.17919921875 -4.34521484375 -0.0012261271476745605 0.0001876354217529297 0.1207122802734375 -0.0277099609375
17.56825 -0.057220458984375 -0.11818695068359375 1.86474609375 -4.509765625 -0.0008053183555603027 0.00019466876983642578 0.11832809448242188 -0.03247833251953125
17.578 -0.0647430419921875 -0.1097869873046875 1.51220703125 -4.64990234375 -0.0007089972496032715 0.0009922385215759277 0.1179351806640625 -0.0375518798828125
17.58775 -0.07025146484375 -0.1059112548828125 1.142822265625 -4.768798828125 -0.0012932419776916504 0.00031882524490356445 0.1174468994140625 -0.041027069091796875
17.5975 -0.07462310791015625 -0.09777069091796875 0.7490234375 -4.84619140625 -0.00031810998916625977 -0.00016444921493530273 0.11797714233398438 -0.045604705810546875
17.60725 -0.08029937744140625 -0.0922088623046875 0.364013671875 -4.8818359375 -0.0008869171142578125 0.0012499094009399414 0.1143035888671875 -0.049068450927734375
17.617 -0.0850372314453125 -0.08290863037109375 -0.018798828125 -4.8720703125 -0.0026433467864990234 0.0008546113967895508 0.11507415771484375 -0.053936004638671875
17.62675 -0.0923004150390625 -0.0746002197265625 -0.38916015625 -4.8330078125 -0.0013866424560546875 0.0007671117782592773 0.11270904541015625 -0.05748748779296875
17.6365 -0.09454345703125 -0.0664215087890625 -0.74072265625 -4.7666015625 -0.001374363899230957 0.0001252889633178711 0.1111602783203125 -0.0641632080078125
17.64625 -0.097930908203125 -0.057891845703125 -1.06640625 -4.685302734375 -0.0004196763038635254 0.0005803406238555908 0.1082763671875 -0.06776046752929688
17.656 -0.10149383544921875 -0.05206298828125 -1.387939453125 -4.601806640625 -0.00011211633682250977 0.0015759468078613281 0.10526275634765625 -0.07230758666992188
17.66575 -0.10324859619140625 -0.041229248046875 -1.7080078125 -4.518310546875 -0.0023249387741088867 0.0013308525085449219 0.10289382934570312 -0.07659912109375
17.6755 -0.104766845703125 -0.03263092041015625 -2.034912109375 -4.4091796875 0.0007375478744506836 0.0006969571113586426 0.09756088256835938 -0.08116531372070312
17.68525 -0.10662841796875 -0.02425384521484375 -2.372802734375 -4.296630859375 -0.0003024935722351074 0.001119375228881836 0.09281539916992188 -0.08428192138671875
17.695 -0.107635498046875 -0.01544952392578125 -2.727783203125 -4.1318359375 -0.0007302761077880859 0.001414954662322998 0.09041595458984375 -0.08823394775390625
17.70475 -0.10860824584960938 -0.00396728515625 -3.081787109375 -3.919921875 -0.0008383989334106445 0.002360105514526367 0.08455657958984375 -0.091156005859375
17.7145 -0.10820388793945312 0.00295257568359375 -3.415283203125 -3.65673828125 -0.00046116113662719727 0.001667022705078125 0.08021163940429688 -0.094482421875
17.72425 -0.10813140869140625 0.012302398681640625 -3.701416015625 -3.355712890625 -0.0003647804260253906 0.001730799674987793 0.07459259033203125 -0.09838104248046875
17.734 -0.1088714599609375 0.020050048828125 -3.9453125 -3.03466796875 0.0008322000503540039 0.0009808540344238281 0.0714569091796875 -0.1001739501953125
17.74375 -0.10774993896484375 0.02848052978515625 -4.13037109375 -2.70166015625 -0.0010414719581604004 0.0007364153861999512 0.06460189819335938 -0.10249710083007812
17.7535 -0.10368728637695312 0.03575897216796875 -4.297119140625 -2.385498046875 0.00048047304153442383 0.0005137920379638672 0.061038970947265625 -0.10414505004882812
17.76325 -0.1019134521484375 0.043704986572265625 -4.44580078125 -2.081298828125 -0.0009195804595947266 0.0023546218872070312 0.0545501708984375 -0.10711288452148438
17.773 -0.09969329833984375 0.051265716552734375 -4.583984375 -1.779296875 -0.0006407499313354492 0.0004144906997680664 0.049957275390625 -0.10814666748046875
17.78275 -0.096099853515625 0.059612274169921875 -4.720458984375 -1.4560546875 -0.00011110305786132812 0.0009937286376953125 0.043758392333984375 -0.10749435424804688
17.7925 -0.09159469604492188 0.06597518920898438 -4.848388671875 -1.114013671875 0.0012164711952209473 0.0006961226463317871 0.039180755615234375 -0.10647201538085938
17.80225 -0.08792495727539062 0.07256698608398438 -4.971435546875 -0.744140625 -0.00030806660652160645 0.0008757114410400391 0.033870697021484375 -0.10807418823242188
17.812 -0.08301925659179688 0.08229446411132812 -5.048583984375 -0.34912109375 0.0001710653305053711 0.0014462471008300781 0.026996612548828125 -0.10794830322265625
17.82175 -0.07789993286132812 0.08818435668945312 -5.083740234375 0.05859375 -0.0005347132682800293 0.0019162893295288086 0.022380828857421875 -0.10511016845703125
17.8315 -0.0727996826171875 0.092987060546875 -5.067626953125 0.47509765625 0.0006534457206726074 0.0010213851928710938 0.017223358154296875 -0.10586929321289062
17.84125 -0.06649017333984375 0.099151611328125 -5.0126953125 0.87255859375 -0.0003821849822998047 0.0011653900146484375 0.01007080078125 -0.103302001953125
17.851 -0.0602569580078125 0.107330322265625 -4.906982421875 1.255126953125 0.0013430118560791016 0.0015093088150024414 0.007297515869140625 -0.10292816162109375
17.86075 -0.055896759033203125 0.11050033569335938 -4.806396484375 1.61181640625 0.00019000470638275146 0.000239446759223938 0.000812530517578125 -0.10115432739257812
17.8705 -0.048458099365234375 0.11611175537109375 -4.67822265625 1.963134765625 0.0009627938270568848 0.00037801265716552734 -0.0045013427734375 -0.098419189453125
17.88025 -0.0436553955078125 0.12147903442382812 -4.541259765625 2.30908203125 -9.290874004364014e-05 0.0004198700189590454 -0.009853363037109375 -0.09710311889648438
17.89 -0.03680419921875 0.12639617919921875 -4.39208984375 2.654541015625 0.0005185604095458984 0.0023076534271240234 -0.013397216796875 -0.09447097778320312
17.89975 -0.029632568359375 0.12944793701171875 -4.19775390625 3.01318359375 0.0010322332382202148 0.000941157341003418 -0.019138336181640625 -0.09229660034179688
17.9095 -0.02398681640625 0.1317901611328125 -3.9691162109375 3.36328125 0.00035825371742248535 0.00056496262550354 -0.022914886474609375 -0.08999252319335938
17.91925 -0.0159454345703125 0.13379669189453125 -3.7044677734375 3.6883544921875 0.0001302659511566162 0.00035887956619262695 -0.026477813720703125 -0.08940505981445312
17.929 -0.0088043212890625 0.13665771484375 -3.404296875 3.991943359375 0.0005946159362792969 0.0014791488647460938 -0.03078460693359375 -0.0842742919921875
17.93875 -0.00217437744140625 0.13915252685546875 -3.07275390625 4.25927734375 -0.0010028481483459473 0.001344919204711914 -0.034160614013671875 -0.08037948608398438
17.9485 0.00568389892578125 0.13871002197265625 -2.730224609375 4.4765625 0.0013998746871948242 0.0006668567657470703 -0.0367431640625 -0.07597732543945312
17.95825 0.01384735107421875 0.14005279541015625 -2.37841796875 4.67529296875 0.0007899999618530273 0.0006026029586791992 -0.038516998291015625 -0.07274246215820312
17.968 0.0211944580078125 0.141387939453125 -2.020263671875 4.847412109375 -0.0006265640258789062 0.0005187690258026123 -0.044055938720703125 -0.06976318359375
17.97775 0.02794647216796875 0.1406097412109375 -1.65966796875 5.0009765625 -0.0002109631896018982 0.00014588236808776855 -0.046871185302734375 -0.065032958984375
17.9875 0.0380859375 0.14151763916015625 -1.27001953125 5.14599609375 -0.0002798736095428467 -0.0002668797969818115 -0.0493316650390625 -0.060520172119140625
17.99725 0.04370880126953125 0.140533447265625 -0.869384765625 5.26953125 0.00038814544677734375 0.00019279122352600098 -0.052860260009765625 -0.05590057373046875
18.007 0.051300048828125 0.13872528076171875 -0.437744140625 5.353759765625 7.805228233337402e-05 0.0005228817462921143 -0.0551605224609375 -0.05170440673828125
18.01675 0.0579681396484375 0.13842010498046875 0.00390625 5.39794921875 0.0009316504001617432 2.22623348236084e-05 -0.058406829833984375 -0.046428680419921875
18.0265 0.06591796875 0.13726806640625 0.45703125 5.390625 0.0007253289222717285 -6.473064422607422e-05 -0.06072998046875 -0.04180908203125
18.03625 0.0723724365234375 0.13532257080078125 0.905517578125 5.334716796875 0.002089858055114746 0.0007790327072143555 -0.061748504638671875 -0.03791046142578125
18.046 0.08014678955078125 0.13346099853515625 1.34423828125 5.22900390625 0.0004295557737350464 -0.00043907761573791504 -0.06254196166992188 -0.03206634521484375
18.05575 0.0864715576171875 0.12877655029296875 1.748779296875 5.10498046875 0.0008504688739776611 -0.00039523839950561523 -0.06418228149414062 -0.026988983154296875
18.0655 0.09228515625 0.12827301025390625 2.13720703125 4.941650390625 0.00018669664859771729 -0.00013605505228042603 -0.06679153442382812 -0.022064208984375
18.07525 0.0987548828125 0.1243133544921875 2.51416015625 4.759033203125 0.0009832382202148438 0.0004943609237670898 -0.06662368774414062 -0.0167236328125
18.085 0.10687255859375 0.12126922607421875 2.886474609375 4.54931640625 2.288818359375e-05 0.0006041824817657471 -0.06552886962890625 -0.012813568115234375
18.09475 0.110565185546875 0.11762237548828125 3.244873046875 4.31982421875 0.0009132623672485352 0.00029408931732177734 -0.0653076171875 -0.009166717529296875
18.1045 0.1162109375 0.111968994140625 3.590576171875 4.05712890625 0.0009225606918334961 0.0007578134536743164 -0.06494903564453125 -0.0016326904296875
18.11425 0.1223907470703125 0.1110076904296875 3.9228515625 3.747802734375 0.000622093677520752 0.00023183226585388184 -0.0639801025390625 0.0018768310546875
18.124 0.1247711181640625 0.10443115234375 4.21630859375 3.40966796875 0.0005732178688049316 0.00013953447341918945 -0.0628204345703125 0.008331298828125
18.13375 0.13115692138671875 0.0998687744140625 4.478271484375 3.05615234375 0.0006468296051025391 0.0010885000228881836 -0.061492919921875 0.01395416259765625
18.1435 0.1346435546875 0.09488677978515625 4.699951171875 2.67724609375 0.0008834004402160645 -0.0014280080795288086 -0.061077117919921875 0.020679473876953125
18.15325 0.1405181884765625 0.08971405029296875 4.89404296875 2.27783203125 0.0007129907608032227 -0.00040918588638305664 -0.0583038330078125 0.025548934936523438
18.163 0.14575958251953125 0.08402252197265625 5.04296875 1.87841796875 3.358721733093262e-05 0.00025613605976104736 -0.05715751647949219 0.030597686767578125
18.17275 0.149261474609375 0.07796478271484375 5.162841796875 1.469482421875 0.0007863044738769531 -0.001439809799194336 -0.05234336853027344 0.035388946533203125
18.1825 0.15441131591796875 0.07178497314453125 5.2607421875 1.059814453125 0.001059889793395996 0.001344919204711914 -0.048404693603515625 0.04166221618652344
18.19225 0.15641021728515625 0.0665283203125 5.335205078125 0.632568359375 -8.848309516906738e-05 -0.0004215240478515625 -0.04631996154785156 0.04561042785644531
18.202 0.161895751953125 0.0617828369140625 5.36474609375 0.21240234375 0.0006328821182250977 -0.0002784132957458496 -0.0445098876953125 0.05005645751953125
18.21175 0.1629180908203125 0.0559844970703125 5.35302734375 -0.234375 0.00048148632049560547 -5.2481889724731445e-05 -0.03931427001953125 0.055019378662109375
18.2215 0.1666412353515625 0.04693603515625 5.30322265625 -0.672607421875 0.0008913278579711914 -0.0010063648223876953 -0.03475379943847656 0.05718803405761719
18.23125 0.1692657470703125 0.04192352294921875 5.213623046875 -1.093505859375 0.000821530818939209 0.0006477832794189453 -0.030118942260742188 0.06113433837890625
18.241 0.17151641845703125 0.036224365234375 5.087646484375 -1.49755859375 0.0002829432487487793 0.0009815096855163574 -0.028045654296875 0.06441497802734375
18.25075 0.173583984375 0.02950286865234375 4.934814453125 -1.885009765625 -0.00020176172256469727 0.0007612407207489014 -0.02264404296875 0.06795501708984375
18.2605 0.17409515380859375 0.0238494873046875 4.751708984375 -2.254150390625 0.00024688243865966797 -0.001922011375427246 -0.016387939453125 0.07123184204101562
18.27025 0.17601776123046875 0.015228271484375 4.55517578125 -2.608154296875 0.0007960200309753418 -0.0006323158740997314 -0.0096588134765625 0.07268142700195312
18.28 0.17789459228515625 0.00885772705078125 4.333740234375 -2.95947265625 0.0007396340370178223 -0.00028571486473083496 -0.005489349365234375 0.07361984252929688
18.28975 0.17794036865234375 -0.00030517578125 4.0859375 -3.2861328125 0.00034183263778686523 -0.0010957717895507812 0.001758575439453125 0.0782928466796875
18.2995 0.1794281005859375 -0.00762176513671875 3.804931640625 -3.5987548828125 0.00013475120067596436 0.0002612173557281494 0.00885772705078125 0.07519149780273438
18.30925 0.1786346435546875 -0.0130157470703125 3.48388671875 -3.878662109375 0.0009588003158569336 -0.0004929900169372559 0.01483154296875 0.0771484375
18.319 0.177886962890625 -0.02245330810546875 3.148681640625 -4.129150390625 0.0003458857536315918 -0.0012350082397460938 0.02115631103515625 0.07928848266601562
18.32875 0.17694854736328125 -0.0279541015625 2.798828125 -4.341796875 -0.0005885958671569824 -0.000998854637145996 0.02923583984375 0.077972412109375
18.3385 0.175628662109375 -0.0375518798828125 2.43896484375 -4.522216796875 -9.894371032714844e-05 -0.0011015534400939941 0.0365753173828125 0.07857894897460938
18.34825 0.17533111572265625 -0.04376983642578125 2.07861328125 -4.6826171875 0.0011680126190185547 0.0004932284355163574 0.0410614013671875 0.07874679565429688
18.358 0.17357635498046875 -0.051910400390625 1.713623046875 -4.822998046875 0.00014775991439819336 0.0012692809104919434 0.04750823974609375 0.07561492919921875
18.36775 0.171417236328125 -0.05794525146484375 1.3251953125 -4.927001953125 9.663403034210205e-05 -0.0004620552062988281 0.0539398193359375 0.07321929931640625
18.3775 0.16938018798828125 -0.06467437744140625 0.9443359375 -5.019775390625 -0.0011290311813354492 -2.86102294921875e-05 0.0586395263671875 0.07059478759765625
18.38725 0.1671295166015625 -0.0721435546875 0.528564453125 -5.066162109375 3.0040740966796875e-05 -0.0008606910705566406 0.06508636474609375 0.069854736328125
18.397 0.1632232666015625 -0.0797882080078125 0.11474609375 -5.07763671875 0.00041624903678894043 -0.000424802303314209 0.0692291259765625 0.0661773681640625
18.40675 0.1591033935546875 -0.084625244140625 -0.30712890625 -5.05224609375 0.00039780139923095703 -0.001517653465270996 0.076141357421875 0.0608673095703125
18.4165 0.1556854248046875 -0.0929412841796875 -0.701904296875 -4.977294921875 -0.0005895495414733887 0.0005931556224822998 0.08051300048828125 0.05742645263671875
18.42625 0.15191650390625 -0.09734344482421875 -1.0810546875 -4.8642578125 0.0003947913646697998 -0.0002976059913635254 0.08554840087890625 0.0520172119140625
18.436 0.14688873291015625 -0.10382843017578125 -1.435791015625 -4.73095703125 -0.00037992000579833984 -0.000229567289352417 0.0918121337890625 0.04752349853515625
18.44575 0.14105224609375 -0.11083984375 -1.77587890625 -4.586181640625 0.00015020370483398438 -0.0006158053874969482 0.093902587890625 0.04103851318359375
18.4555 0.1363983154296875 -0.1155242919921875 -2.102783203125 -4.41845703125 -0.0005776882171630859 -0.000440061092376709 0.09731292724609375 0.0351409912109375
18.46525 0.1323089599609375 -0.12206268310546875 -2.433349609375 -4.245361328125 0.0012497901916503906 -0.00022733211517333984 0.101226806640625 0.02619171142578125
18.475 0.12461090087890625 -0.126373291015625 -2.755126953125 -4.0478515625 0.0006949305534362793 0.0003585219383239746 0.10365676879882812 0.020511627197265625
18.48475 0.11992645263671875 -0.13280487060546875 -3.06787109375 -3.805419921875 0.0008145570755004883 0.00037795305252075195 0.10657501220703125 0.012481689453125
18.4945 0.11267852783203125 -0.1371307373046875 -3.3564453125 -3.522705078125 0.00010679662227630615 -0.00019824504852294922 0.10773468017578125 0.005748748779296875
18.50425 0.106597900390625 -0.1415252685546875 -3.62060546875 -3.21337890625 0.00021916627883911133 -0.0006999373435974121 0.10860443115234375 -4.57763671875e-05
18.514 0.1007080078125 -0.1462860107421875 -3.8369140625 -2.88330078125 -0.0008001923561096191 0.0002678036689758301 0.10904693603515625 -0.00849151611328125
18.52375 0.09261322021484375 -0.14844512939453125 -4.00244140625 -2.537841796875 0.0005051791667938232 -0.00016137957572937012 0.10870742797851562 -0.0149993896484375
18.5335 0.0880279541015625 -0.153167724609375 -4.142578125 -2.208251953125 0.0008803308010101318 -0.0006974637508392334 0.10927200317382812 -0.019588470458984375
18.54325 0.08147430419921875 -0.15631866455078125 -4.248291015625 -1.883056640625 2.588331699371338e-05 -0.00017664581537246704 0.106842041015625 -0.028308868408203125
18.553 0.07286834716796875 -0.16031646728515625 -4.343994140625 -1.557861328125 -0.00024443864822387695 -0.0013110637664794922 0.10470962524414062 -0.03243255615234375
18.56275 0.06658172607421875 -0.1605224609375 -4.426513671875 -1.236083984375 -4.2378902435302734e-05 -0.0013263225555419922 0.10204315185546875 -0.037750244140625
18.5725 0.0585174560546875 -0.163299560546875 -4.485595703125 -0.903076171875 -0.0004082322120666504 -0.0006053447723388672 0.09939193725585938 -0.045986175537109375
18.58225 0.0509490966796875 -0.16378021240234375 -4.530517578125 -0.556640625 0.0014578700065612793 -0.0006952285766601562 0.09635162353515625 -0.051486968994140625
18.592 0.0428009033203125 -0.16689300537109375 -4.541748046875 -0.19580078125 -0.0001071542501449585 -0.00013490766286849976 0.09269332885742188 -0.057708740234375
18.60175 0.0354461669921875 -0.166229248046875 -4.517578125 0.1650390625 0.00029522180557250977 9.739398956298828e-05 0.08612060546875 -0.0611419677734375
18.6115 0.02776336669921875 -0.1666412353515625 -4.447265625 0.513916015625 0.0007396042346954346 -0.00032216310501098633 0.0838470458984375 -0.06718826293945312
18.62125 0.0197296142578125 -0.1663360595703125 -4.348388671875 0.8427734375 -0.00016604363918304443 0.0001108124852180481 0.07645797729492188 -0.07128143310546875
18.631 0.01033782958984375 -0.16507720947265625 -4.22998046875 1.136962890625 -0.0003705024719238281 -0.0007259249687194824 0.07135391235351562 -0.07576370239257812
18.64075 0.00337982177734375 -0.16670989990234375 -4.094970703125 1.42138671875 0.0001869499683380127 -0.0008028745651245117 0.067291259765625 -0.0782012939453125
18.6505 -0.00254058837890625 -0.16492462158203125 -3.9610595703125 1.690185546875 0.00040841102600097656 -0.0017023682594299316 0.061046600341796875 -0.08199310302734375
18.66025 -0.012664794921875 -0.16265106201171875 -3.8148193359375 1.95361328125 -0.00022742152214050293 -0.0008576810359954834 0.055805206298828125 -0.081207275390625
18.67 -0.019073486328125 -0.16199493408203125 -3.6595458984375 2.2119140625 -0.0002599060535430908 -0.0003612339496612549 0.0510101318359375 -0.08216476440429688
18.67975 -0.0279388427734375 -0.15863037109375 -3.4825439453125 2.46923828125 -0.0011768341064453125 -0.0005143284797668457 0.0447998046875 -0.08563232421875
