!Created with skrf (http://scikit-rf.org).
# GHz S RI R 50.0 
!freq ReS11 ImS11 ReS21 ImS21 ReS12 ImS12 ReS22 ImS22
17.5 0.01898193359375 -0.14754486083984375 2.033935546875 4.658935546875 -0.0011812448501586914 0.0010235905647277832 0.10121536254882812 0.013965606689453125
17.50975 0.00807952880859375 -0.14617156982421875 2.399658203125 4.472900390625 -0.0025647878646850586 -6.878376007080078e-05 0.10567855834960938 0.01226806640625
17.5195 0.00125885009765625 -0.14151763916015625 2.744873046875 4.25048828125 -0.0015767216682434082 -0.00032341480255126953 0.10920333862304688 0.010433197021484375
17.52925 -0.00839996337890625 -0.13889312744140625 3.07275390625 4.010986328125 -0.0007476210594177246 -0.00048488378524780273 0.1128082275390625 0.0056610107421875
17.539 -0.0143280029296875 -0.132904052734375 3.36669921875 3.74755859375 -0.002106904983520508 0.0003845691680908203 0.1155548095703125 0.00246429443359375
17.54875 -0.023773193359375 -0.12993621826171875 3.631103515625 3.459228515625 -0.002803325653076172 -0.0003319978713989258 0.1173095703125 -0.00162506103515625
17.5585 -0.0351104736328125 -0.12751007080078125 3.888916015625 3.1796875 -0.0017815232276916504 0.000820457935333252 0.12032318115234375 -0.006465911865234375
17.56825 -0.03990936279296875 -0.12223052978515625 4.1201171875 2.884765625 -0.0008245706558227539 0.0010440349578857422 0.12189102172851562 -0.011173248291015625
17.578 -0.0482940673828125 -0.11611175537109375 4.347412109375 2.549560546875 -0.0012246370315551758 0.0006557703018188477 0.12549591064453125 -0.01522064208984375
17.58775 -0.05487060546875 -0.11309051513671875 4.5478515625 2.19384765625 -0.0010030865669250488 0.0007862448692321777 0.12625885009765625 -0.01926422119140625
17.5975 -0.06034088134765625 -0.10686492919921875 4.718017578125 1.80126953125 -0.0002535581588745117 0.0009095072746276855 0.12718963623046875 -0.02587127685546875
17.60725 -0.0669708251953125 -0.1019744873046875 4.829345703125 1.400146484375 -0.0013352632522583008 0.00022649765014648438 0.12702178955078125 -0.03022003173828125
17.617 -0.07262420654296875 -0.09310150146484375 4.904541015625 0.99658203125 -0.0001379847526550293 0.0008104145526885986 0.1270904541015625 -0.0369110107421875
17.62675 -0.07765960693359375 -0.08644866943359375 4.9208984375 0.593994140625 -0.000701904296875 0.0014282464981079102 0.12870025634765625 -0.04236602783203125
17.6365 -0.083587646484375 -0.0794525146484375 4.91015625 0.216796875 -0.00044351816177368164 0.0004602968692779541 0.12682342529296875 -0.04846954345703125
17.64625 -0.0853729248046875 -0.07207489013671875 4.872802734375 -0.1328125 -0.0012044310569763184 0.00017303228378295898 0.12337493896484375 -0.053173065185546875
17.656 -0.0919036865234375 -0.06583404541015625 4.835205078125 -0.469482421875 -0.00037467479705810547 0.0010924339294433594 0.11962890625 -0.05926513671875
17.66575 -0.09272003173828125 -0.058380126953125 4.7998046875 -0.800048828125 -0.0009594559669494629 0.0012040138244628906 0.119873046875 -0.06582260131835938
17.6755 -0.09905242919921875 -0.05091094970703125 4.743896484375 -1.140869140625 -0.0006772875785827637 0.0013848543167114258 0.11674880981445312 -0.07016372680664062
17.68525 -0.10213470458984375 -0.04290771484375 4.687744140625 -1.49462890625 0.0002554953098297119 0.0006217658519744873 0.11285781860351562 -0.07559585571289062
17.695 -0.10373687744140625 -0.03270721435546875 4.593505859375 -1.8759765625 -0.0005729198455810547 0.0004182159900665283 0.111053466796875 -0.07913589477539062
17.70475 -0.1055450439453125 -0.02318572998046875 4.444091796875 -2.26708984375 4.217028617858887e-05 -0.0002581477165222168 0.10651779174804688 -0.08565139770507812
17.7145 -0.1081695556640625 -0.01561737060546875 4.245849609375 -2.64892578125 0.00019794702529907227 0.0012555122375488281 0.10030364990234375 -0.09080886840820312
17.72425 -0.10886001586914062 -0.006439208984375 3.98486328125 -2.992431640625 -0.00039076805114746094 0.0015494227409362793 0.09654998779296875 -0.09587478637695312
17.734 -0.11084747314453125 0.00237274169921875 3.6986083984375 -3.2901611328125 0.00023132562637329102 0.0010741353034973145 0.09213638305664062 -0.10016250610351562
17.74375 -0.1104888916015625 0.0089111328125 3.383544921875 -3.523193359375 0.0002046823501586914 0.0015391111373901367 0.08650970458984375 -0.105072021484375
17.7535 -0.10787582397460938 0.0177764892578125 3.0899658203125 -3.7288818359375 0.0009174942970275879 0.0009098649024963379 0.0811767578125 -0.10750198364257812
17.76325 -0.1075592041015625 0.027111053466796875 2.8121337890625 -3.90966796875 -0.0009818077087402344 0.00177079439163208 0.07602691650390625 -0.11005020141601562
17.773 -0.10737228393554688 0.034572601318359375 2.54052734375 -4.07861328125 -0.00036710500717163086 0.0011533498764038086 0.07055282592773438 -0.11363601684570312
17.78275 -0.10590744018554688 0.04256439208984375 2.252197265625 -4.247314453125 0.0005213022232055664 0.0002645552158355713 0.06351852416992188 -0.11516571044921875
17.7925 -0.10357284545898438 0.04953765869140625 1.953125 -4.4228515625 0.0010149478912353516 0.0011745691299438477 0.05707550048828125 -0.11708450317382812
17.80225 -0.10166549682617188 0.057170867919921875 1.623779296875 -4.595458984375 -7.784366607666016e-05 0.002420663833618164 0.050952911376953125 -0.11949920654296875
17.812 -0.09572982788085938 0.06484222412109375 1.25927734375 -4.736083984375 0.0001728534698486328 0.0013058185577392578 0.044384002685546875 -0.12018585205078125
17.82175 -0.09029388427734375 0.07432174682617188 0.87109375 -4.83349609375 0.0001939535140991211 0.0012723803520202637 0.03968048095703125 -0.12054443359375
17.8315 -0.08818435668945312 0.08213424682617188 0.469482421875 -4.88330078125 0.0005418062210083008 0.0019186735153198242 0.031658172607421875 -0.12184524536132812
17.84125 -0.084442138671875 0.0880889892578125 0.07763671875 -4.89013671875 -0.0003712177276611328 0.0005828738212585449 0.02435302734375 -0.1208343505859375
17.851 -0.07704544067382812 0.09663772583007812 -0.2978515625 -4.83642578125 0.0010434389114379883 0.0011709928512573242 0.020038604736328125 -0.12081527709960938
17.86075 -0.07341384887695312 0.10158538818359375 -0.642333984375 -4.78271484375 0.001160264015197754 0.001583695411682129 0.012386322021484375 -0.11713027954101562
17.8705 -0.06851577758789062 0.10936737060546875 -0.97509765625 -4.71044921875 0.0010856389999389648 -0.0007864832878112793 0.005626678466796875 -0.11797332763671875
17.88025 -0.06267166137695312 0.11631393432617188 -1.30224609375 -4.6318359375 0.0011518597602844238 0.00044101476669311523 0.000965118408203125 -0.11719894409179688
17.89 -0.0569000244140625 0.121917724609375 -1.630615234375 -4.5478515625 5.40316104888916e-05 -0.00019356608390808105 -0.006977081298828125 -0.11565780639648438
17.89975 -0.05001068115234375 0.1267242431640625 -1.979248046875 -4.431884765625 0.0012449026107788086 0.001340627670288086 -0.01300048828125 -0.11466217041015625
17.9095 -0.0446929931640625 0.132293701171875 -2.336181640625 -4.295654296875 0.0006589293479919434 0.0008155703544616699 -0.0206298828125 -0.11307525634765625
17.91925 -0.03606414794921875 0.13474273681640625 -2.6796875 -4.1064453125 0.0005964040756225586 0.0007879137992858887 -0.0253143310546875 -0.109527587890625
17.929 -0.02783203125 0.139984130859375 -3.0087890625 -3.88525390625 -5.137920379638672e-05 0.0012282133102416992 -0.0308837890625 -0.1073760986328125
17.93875 -0.02103424072265625 0.1432952880859375 -3.302490234375 -3.615966796875 0.0011540651321411133 0.00048428773880004883 -0.036163330078125 -0.10451507568359375
17.9485 -0.01300811767578125 0.1459808349609375 -3.551513671875 -3.33935546875 0.00023359060287475586 0.0009133815765380859 -0.0408935546875 -0.0987701416015625
17.95825 -0.00641632080078125 0.1482391357421875 -3.7734375 -3.05029296875 0.00017791986465454102 0.0006648600101470947 -0.04351043701171875 -0.0955810546875
17.968 0.001739501953125 0.152587890625 -3.976318359375 -2.76611328125 0.0006310939788818359 0.0008600354194641113 -0.0497283935546875 -0.0912933349609375
17.97775 0.0107269287109375 0.1528778076171875 -4.15087890625 -2.477294921875 0.0009512901306152344 0.0010457038879394531 -0.05454254150390625 -0.08404541015625
17.9875 0.01998138427734375 0.15348052978515625 -4.343505859375 -2.18310546875 0.0006371736526489258 0.0007095932960510254 -0.05873870849609375 -0.08087921142578125
17.99725 0.02931976318359375 0.154937744140625 -4.517333984375 -1.86572265625 0.001414954662322998 0.0004947781562805176 -0.06288909912109375 -0.074462890625
18.007 0.0379791259765625 0.15499114990234375 -4.68017578125 -1.523193359375 0.002251267433166504 0.0007477998733520508 -0.06688690185546875 -0.07041168212890625
18.01675 0.046234130859375 0.15581512451171875 -4.801513671875 -1.149658203125 0.0008636116981506348 -0.0008716285228729248 -0.07027435302734375 -0.06467437744140625
18.0265 0.0546875 0.1545562744140625 -4.8984375 -0.76025390625 0.0001424252986907959 -0.00024399161338806152 -0.0763397216796875 -0.0589599609375
18.03625 0.0634307861328125 0.155731201171875 -4.93310546875 -0.35205078125 0.0006642341613769531 -0.0005128383636474609 -0.0774688720703125 -0.051544189453125
18.046 0.07312774658203125 0.154083251953125 -4.936767578125 0.046630859375 0.0021713972091674805 0.0009541511535644531 -0.07844924926757812 -0.04505157470703125
18.05575 0.0802001953125 0.1509857177734375 -4.896240234375 0.418701171875 -0.0007248818874359131 0.00033345818519592285 -0.08330154418945312 -0.03862762451171875
18.0655 0.0889892578125 0.148284912109375 -4.828125 0.77587890625 0.00010651350021362305 0.0012470483779907227 -0.0869598388671875 -0.033538818359375
18.07525 0.09820556640625 0.14559173583984375 -4.75 1.1240234375 0.0010311007499694824 -0.0007596015930175781 -0.0859832763671875 -0.026180267333984375
18.085 0.10516357421875 0.1426239013671875 -4.655029296875 1.47265625 0.001729130744934082 0.0009403228759765625 -0.08885955810546875 -0.019329071044921875
18.09475 0.113677978515625 0.13922119140625 -4.5458984375 1.81640625 0.0005764663219451904 -0.0005991160869598389 -0.08677291870117188 -0.01302337646484375
18.1045 0.121185302734375 0.13433837890625 -4.41064453125 2.16259765625 0.0013940930366516113 0.00025838613510131836 -0.08765029907226562 -0.005229949951171875
18.11425 0.12774658203125 0.130340576171875 -4.2333984375 2.506591796875 0.0006604194641113281 0.0005768537521362305 -0.08719253540039062 0.000934600830078125
18.124 0.13323974609375 0.124786376953125 -4.0341796875 2.83349609375 0.000991225242614746 6.556510925292969e-06 -0.08545684814453125 0.00902557373046875
18.13375 0.14007568359375 0.1194915771484375 -3.8045654296875 3.141357421875 0.001066744327545166 -0.000537574291229248 -0.08440780639648438 0.016071319580078125
18.1435 0.146697998046875 0.1125946044921875 -3.54150390625 3.4215087890625 7.835030555725098e-05 -0.00027558207511901855 -0.08338546752929688 0.024417877197265625
18.15325 0.1530303955078125 0.10650634765625 -3.2576904296875 3.685546875 0.00038382411003112793 0.00016576051712036133 -0.08156967163085938 0.030330657958984375
18.163 0.16107177734375 0.0991363525390625 -2.96484375 3.911865234375 0.00033205747604370117 -0.0005041658878326416 -0.078369140625 0.038482666015625
18.17275 0.1656646728515625 0.093170166015625 -2.657958984375 4.12060546875 -0.0004342794418334961 -8.368492126464844e-05 -0.07386016845703125 0.045253753662109375
18.1825 0.1708526611328125 0.0843048095703125 -2.343017578125 4.317138671875 -0.0002060532569885254 -0.0010960698127746582 -0.06942367553710938 0.05297088623046875
18.19225 0.17559814453125 0.075653076171875 -2.008056640625 4.49951171875 0.002112269401550293 -0.00010788440704345703 -0.06548690795898438 0.058605194091796875
18.202 0.180328369140625 0.0700531005859375 -1.66162109375 4.63525390625 0.0010416507720947266 -0.00019025802612304688 -0.0635833740234375 0.06504058837890625
18.21175 0.1839447021484375 0.06243896484375 -1.2880859375 4.76025390625 0.0005205869674682617 -1.1980533599853516e-05 -0.0569305419921875 0.07125091552734375
18.2215 0.18845367431640625 0.053070068359375 -0.90283203125 4.836669921875 0.0007123947143554688 -0.0007029473781585693 -0.05094146728515625 0.07520675659179688
18.23125 0.1912384033203125 0.04571533203125 -0.533447265625 4.88671875 -0.00041478872299194336 -0.00014927983283996582 -0.0466156005859375 0.07932662963867188
18.241 0.1928863525390625 0.03907012939453125 -0.15673828125 4.8974609375 -0.0005414783954620361 0.0003577768802642822 -0.040111541748046875 0.08398056030273438
18.25075 0.1937408447265625 0.02890777587890625 0.205810546875 4.884033203125 0.00019377470016479492 -0.0011665821075439453 -0.033599853515625 0.08717727661132812
18.2605 0.19547271728515625 0.021209716796875 0.568115234375 4.8486328125 0.0001093149185180664 0.0007671713829040527 -0.02710723876953125 0.09082794189453125
18.27025 0.19696807861328125 0.011627197265625 0.926025390625 4.79931640625 0.0012135505676269531 -0.0007157325744628906 -0.01969146728515625 0.09564590454101562
18.28 0.19646453857421875 0.0017242431640625 1.302001953125 4.7314453125 -0.0007241964340209961 -0.0013788938522338867 -0.011745452880859375 0.0973052978515625
18.28975 0.1982421875 -0.006683349609375 1.662353515625 4.629150390625 0.0016241669654846191 -0.0011765360832214355 -0.003269195556640625 0.100250244140625
18.2995 0.19608306884765625 -0.01519012451171875 2.023681640625 4.478759765625 -0.00029140710830688477 -0.0013050436973571777 0.006214141845703125 0.09983444213867188
18.30925 0.195953369140625 -0.0248870849609375 2.37548828125 4.29638671875 0.0013414621353149414 -0.00012362003326416016 0.01398468017578125 0.10131072998046875
18.319 0.19373321533203125 -0.03433990478515625 2.69384765625 4.079833984375 -0.00016802549362182617 0.0005746781826019287 0.02121734619140625 0.10325241088867188
18.32875 0.19084930419921875 -0.0405426025390625 2.986328125 3.8447265625 0.001441657543182373 -0.0009707808494567871 0.0314178466796875 0.10144805908203125
18.3385 0.1886138916015625 -0.05226898193359375 3.250244140625 3.590576171875 -0.0008552670478820801 -0.00017690658569335938 0.04238128662109375 0.10341644287109375
18.34825 0.1872406005859375 -0.05970001220703125 3.500732421875 3.34375 0.00025641918182373047 -0.0007545053958892822 0.04740142822265625 0.10205078125
18.358 0.18416595458984375 -0.06693267822265625 3.7314453125 3.078369140625 0.001707911491394043 -0.0001533031463623047 0.0579986572265625 0.09770965576171875
18.36775 0.180755615234375 -0.07575225830078125 3.964599609375 2.791748046875 0.0008526444435119629 -0.0011093616485595703 0.06331634521484375 0.09442901611328125
18.3775 0.17565155029296875 -0.0825042724609375 4.17626953125 2.494384765625 0.0007950961589813232 -0.0004924237728118896 0.071624755859375 0.09154510498046875
18.38725 0.172698974609375 -0.0908660888671875 4.37158203125 2.15283203125 0.0008893013000488281 0.0001906752586364746 0.07949066162109375 0.08901214599609375
18.397 0.1668243408203125 -0.0966949462890625 4.52880859375 1.79248046875 0.00044339895248413086 -4.807114601135254e-05 0.0851898193359375 0.0844573974609375
18.40675 0.1623992919921875 -0.1030731201171875 4.658203125 1.40966796875 0.00020432472229003906 -0.001032710075378418 0.09466552734375 0.077911376953125
18.4165 0.1556396484375 -0.10970306396484375 4.721923828125 1.0322265625 0.0007673501968383789 -6.729364395141602e-05 0.09886932373046875 0.07309722900390625
18.42625 0.15142822265625 -0.115447998046875 4.7431640625 0.6572265625 -0.00048804283142089844 -0.0008052587509155273 0.10562896728515625 0.0665130615234375
18.436 0.14379119873046875 -0.12082672119140625 4.745361328125 0.3056640625 1.2218952178955078e-05 -0.0006590485572814941 0.1132049560546875 0.06044769287109375
18.44575 0.137237548828125 -0.12688446044921875 4.73388671875 -0.03271484375 0.0007529258728027344 -0.0007871687412261963 0.11646270751953125 0.05213165283203125
18.4555 0.1292572021484375 -0.13128662109375 4.7060546875 -0.36669921875 0.00026607513427734375 -0.0006674230098724365 0.121429443359375 0.044677734375
18.46525 0.12398529052734375 -0.13797760009765625 4.6826171875 -0.705322265625 -0.0009931325912475586 -0.00022399425506591797 0.1244354248046875 0.0341339111328125
18.475 0.11553955078125 -0.141876220703125 4.62744140625 -1.054443359375 5.8323144912719727e-05 -7.868930697441101e-05 0.1296234130859375 0.02564239501953125
18.48475 0.11102294921875 -0.146636962890625 4.542724609375 -1.41845703125 -0.0006875097751617432 0.0001780688762664795 0.13071441650390625 0.01617431640625
18.4945 0.10155487060546875 -0.14888763427734375 4.406494140625 -1.786376953125 -7.867813110351562e-06 -0.0008811354637145996 0.13397216796875 0.00665283203125
18.50425 0.093414306640625 -0.1538543701171875 4.2353515625 -2.14013671875 -0.0003223419189453125 -0.00030857324600219727 0.1344146728515625 -0.0027923583984375
18.514 0.08838653564453125 -0.15476226806640625 4.0166015625 -2.452880859375 0.0004162788391113281 0.0004794895648956299 0.134857177734375 -0.01018524169921875
18.52375 0.0794219970703125 -0.155670166015625 3.7730712890625 -2.7291259765625 0.00046113133430480957 0.00033906102180480957 0.1331634521484375 -0.01956939697265625
18.5335 0.0738525390625 -0.1596221923828125 3.531494140625 -2.9678955078125 0.0001328587532043457 -0.0013317465782165527 0.13195037841796875 -0.02745819091796875
18.54325 0.0657958984375 -0.16161346435546875 3.2901611328125 -3.178466796875 0.0006770193576812744 -0.00011911988258361816 0.12976837158203125 -0.03741455078125
18.553 0.05854034423828125 -0.1634063720703125 3.042236328125 -3.378662109375 0.0009243488311767578 -0.0005124509334564209 0.1255950927734375 -0.0442047119140625
18.56275 0.051361083984375 -0.16324615478515625 2.80224609375 -3.5767822265625 0.0006550848484039307 -0.0003306269645690918 0.12425613403320312 -0.051692962646484375
18.5725 0.04323577880859375 -0.1633758544921875 2.5369873046875 -3.762939453125 0.0002425462007522583 -0.0003956407308578491 0.1194610595703125 -0.06017303466796875
18.58225 0.03600311279296875 -0.16437530517578125 2.2535400390625 -3.9478759765625 0.0004839301109313965 -0.0011372566223144531 0.113128662109375 -0.06957626342773438
18.592 0.0299835205078125 -0.16503143310546875 1.938232421875 -4.102294921875 0.00027526915073394775 0.00015285611152648926 0.10825347900390625 -0.07416152954101562
18.60175 0.0209503173828125 -0.1623077392578125 1.611328125 -4.2333984375 -8.702278137207031e-06 -0.0001716911792755127 0.1027069091796875 -0.080474853515625
18.6115 0.0143585205078125 -0.16135406494140625 1.27099609375 -4.30712890625 -0.00026530027389526367 -8.948147296905518e-05 0.09563827514648438 -0.08887863159179688
18.62125 0.006927490234375 -0.16167449951171875 0.940673828125 -4.357421875 0.0007159113883972168 -0.0005419552326202393 0.09051513671875 -0.0907745361328125
18.631 0.00058746337890625 -0.1594390869140625 0.634765625 -4.366455078125 0.0006932616233825684 -4.44948673248291e-05 0.08168411254882812 -0.09702301025390625
18.64075 -0.00731658935546875 -0.15911102294921875 0.3330078125 -4.36572265625 0.0005322396755218506 -0.0005902647972106934 0.07575225830078125 -0.09942626953125
18.6505 -0.0120849609375 -0.15711212158203125 0.046630859375 -4.359375 0.0007357597351074219 -0.00015914440155029297 0.0684051513671875 -0.10247421264648438
18.66025 -0.021759033203125 -0.15436553955078125 -0.23876953125 -4.349609375 0.00045458972454071045 -0.00029365718364715576 0.06043243408203125 -0.10433578491210938
18.67 -0.02573394775390625 -0.15120697021484375 -0.534912109375 -4.329833984375 -5.3882598876953125e-05 -0.0004988908767700195 0.0548858642578125 -0.10400390625
18.67975 -0.033538818359375 -0.14908599853515625 -0.838134765625 -4.2939453125 0.00016874074935913086 -0.0005268454551696777 0.04598236083984375 -0.106903076171875
18.6895 -0.0384674072265625 -0.1461334228515625 -1.151611328125 -4.219970703125 -0.0001125633716583252 -0.00030575692653656006 0.040622711181640625 -0.10567855834960938
