!Created with skrf (http://scikit-rf.org).
# GHz S RI R 50.0 
!freq ReS11 ImS11 ReS21 ImS21 ReS12 ImS12 ReS22 ImS22
17.5 0.01976776123046875 -0.1426239013671875 -0.373779296875 5.112060546875 -0.0008056759834289551 0.001742243766784668 0.09637069702148438 0.014682769775390625
17.50975 0.009765625 -0.139678955078125 0.04638671875 5.122314453125 -0.0013945698738098145 0.0005471110343933105 0.09877777099609375 0.013458251953125
17.5195 0.00179290771484375 -0.137054443359375 0.4609375 5.082275390625 -0.0007265806198120117 0.0014927387237548828 0.1027679443359375 0.011356353759765625
17.52925 -0.00601959228515625 -0.13376617431640625 0.867431640625 5.02099609375 -0.0018246769905090332 0.000390470027923584 0.10734939575195312 0.0076141357421875
17.539 -0.013458251953125 -0.1278839111328125 1.25537109375 4.92578125 -0.0009298920631408691 0.0006859898567199707 0.109375 0.00409698486328125
17.54875 -0.021697998046875 -0.1259307861328125 1.621826171875 4.788818359375 -0.0009227097034454346 0.0007799863815307617 0.11293411254882812 0.0012054443359375
17.5585 -0.0323944091796875 -0.12134552001953125 1.985107421875 4.6494140625 -0.0014944076538085938 0.0005281567573547363 0.11538314819335938 -0.003360748291015625
17.56825 -0.03704071044921875 -0.1186676025390625 2.326416015625 4.498046875 -0.0008276700973510742 0.0010463595390319824 0.1169586181640625 -0.00656890869140625
17.578 -0.04410552978515625 -0.11345672607421875 2.68212890625 4.306884765625 -0.0007273554801940918 0.0015364289283752441 0.119720458984375 -0.012241363525390625
17.58775 -0.0498199462890625 -0.10968780517578125 3.0263671875 4.08056640625 -0.00152665376663208 0.0011197924613952637 0.1214599609375 -0.013637542724609375
17.5975 -0.05401611328125 -0.10277557373046875 3.358642578125 3.810546875 -0.0007609426975250244 0.00020551681518554688 0.1245880126953125 -0.01964569091796875
17.60725 -0.0606842041015625 -0.09961700439453125 3.648681640625 3.509033203125 -0.0006126761436462402 0.001090705394744873 0.12202835083007812 -0.025115966796875
17.617 -0.06710052490234375 -0.09282684326171875 3.89794921875 3.179443359375 -0.0006152987480163574 0.0005919337272644043 0.123779296875 -0.0313720703125
17.62675 -0.07335662841796875 -0.08547210693359375 4.1083984375 2.838134765625 -0.0012923479080200195 0.0015025138854980469 0.12451171875 -0.03598785400390625
17.6365 -0.0765838623046875 -0.0777587890625 4.2763671875 2.48681640625 -0.0003414154052734375 0.0013943910598754883 0.1243896484375 -0.042755126953125
17.64625 -0.0803070068359375 -0.07079315185546875 4.407958984375 2.157470703125 -0.0009047389030456543 0.0014147162437438965 0.12346267700195312 -0.0458221435546875
17.656 -0.0849761962890625 -0.06561279296875 4.532958984375 1.83740234375 -0.0007583498954772949 0.0010630488395690918 0.11900711059570312 -0.052745819091796875
17.66575 -0.08869171142578125 -0.0559844970703125 4.65478515625 1.527099609375 -0.0014785528182983398 0.0013164877891540527 0.11875534057617188 -0.059604644775390625
17.6755 -0.09270477294921875 -0.05002593994140625 4.75244140625 1.19482421875 -0.0012545585632324219 0.002001643180847168 0.11626815795898438 -0.06264495849609375
17.68525 -0.09532928466796875 -0.04346466064453125 4.8720703125 0.861083984375 -0.00019919872283935547 0.002549290657043457 0.11487960815429688 -0.06739425659179688
17.695 -0.0987396240234375 -0.0325927734375 4.957763671875 0.48046875 -0.0006598532199859619 0.0006704330444335938 0.1113128662109375 -0.0730743408203125
17.70475 -0.09954071044921875 -0.02507781982421875 5.009033203125 0.069580078125 -0.0010221004486083984 0.0006008744239807129 0.10808563232421875 -0.07896041870117188
17.7145 -0.10227584838867188 -0.017253875732421875 5.012451171875 -0.364501953125 -0.0005465149879455566 0.0012898445129394531 0.10176849365234375 -0.08523941040039062
17.72425 -0.10395050048828125 -0.00899505615234375 4.9453125 -0.7880859375 -0.0004691481590270996 0.0011677742004394531 0.09785842895507812 -0.08897018432617188
17.734 -0.10567855834960938 -0.0005645751953125 4.827880859375 -1.189453125 -0.0004146993160247803 0.000529557466506958 0.09601593017578125 -0.09343338012695312
17.74375 -0.1057891845703125 0.00531005859375 4.6611328125 -1.54345703125 -0.0003503561019897461 0.0018634796142578125 0.0904998779296875 -0.09930419921875
17.7535 -0.10460281372070312 0.014163970947265625 4.495361328125 -1.8662109375 -0.0008179247379302979 0.0006069540977478027 0.08456039428710938 -0.10348129272460938
17.76325 -0.1039886474609375 0.022979736328125 4.33154296875 -2.1591796875 0.0004190802574157715 0.0010034441947937012 0.07950210571289062 -0.10627365112304688
17.773 -0.10322952270507812 0.03005218505859375 4.165283203125 -2.43408203125 -0.0005492568016052246 0.0002854764461517334 0.07422637939453125 -0.10810470581054688
17.78275 -0.10138702392578125 0.037105560302734375 3.99169921875 -2.71435546875 -0.0002529025077819824 0.0010124444961547852 0.0699920654296875 -0.110595703125
17.7925 -0.10050582885742188 0.0438232421875 3.80908203125 -3.0048828125 0.00034368038177490234 0.0015086531639099121 0.062297821044921875 -0.11212158203125
17.80225 -0.09879684448242188 0.049976348876953125 3.5972900390625 -3.309326171875 -0.0010592937469482422 0.0010189414024353027 0.0578460693359375 -0.11707305908203125
17.812 -0.09295272827148438 0.06128692626953125 3.3453369140625 -3.600830078125 6.008148193359375e-05 0.001952052116394043 0.0495147705078125 -0.1179656982421875
17.82175 -0.08851242065429688 0.06751632690429688 3.0546875 -3.8707275390625 -0.000980973243713379 0.0008036494255065918 0.048126220703125 -0.11751556396484375
17.8315 -0.08720016479492188 0.07455062866210938 2.722412109375 -4.106201171875 0.0005914568901062012 0.00037544965744018555 0.038227081298828125 -0.11965560913085938
17.84125 -0.08313751220703125 0.08229827880859375 2.380859375 -4.2958984375 0.0014605522155761719 0.0018236637115478516 0.030914306640625 -0.12001800537109375
17.851 -0.07820892333984375 0.09011077880859375 2.019287109375 -4.4267578125 2.4616718292236328e-05 0.0014604926109313965 0.026096343994140625 -0.12096405029296875
17.86075 -0.07464218139648438 0.09674453735351562 1.687255859375 -4.535888671875 0.0010884404182434082 0.00074005126953125 0.0188751220703125 -0.11795425415039062
17.8705 -0.06800079345703125 0.10318374633789062 1.358642578125 -4.627197265625 0.0006884932518005371 0.0009982585906982422 0.012973785400390625 -0.12026214599609375
17.88025 -0.06447982788085938 0.11008071899414062 1.03564453125 -4.712158203125 0.00128936767578125 0.001891016960144043 0.00501251220703125 -0.11685943603515625
17.89 -0.05759429931640625 0.1164703369140625 0.71435546875 -4.791748046875 0.00027740001678466797 6.99758529663086e-05 -0.00118255615234375 -0.116912841796875
17.89975 -0.05236053466796875 0.12083816528320312 0.35498046875 -4.860107421875 0.0015624761581420898 0.000446319580078125 -0.00647735595703125 -0.11464691162109375
17.9095 -0.0469970703125 0.12706756591796875 -0.01806640625 -4.906982421875 0.0004093348979949951 0.00032785534858703613 -0.01425933837890625 -0.11279296875
17.91925 -0.0388336181640625 0.1296539306640625 -0.408447265625 -4.90380859375 0.0013043880462646484 0.0009673833847045898 -0.017608642578125 -0.1113433837890625
17.929 -0.032440185546875 0.135467529296875 -0.798828125 -4.8720703125 0.0005216598510742188 0.001611471176147461 -0.0254669189453125 -0.11065673828125
17.93875 -0.02691650390625 0.13797760009765625 -1.189208984375 -4.78564453125 -0.00017474591732025146 -0.00019700825214385986 -0.02921295166015625 -0.10582733154296875
17.9485 -0.01741790771484375 0.14225006103515625 -1.5439453125 -4.656982421875 -8.183717727661133e-05 0.0005677342414855957 -0.0360565185546875 -0.1025390625
17.95825 -0.01065826416015625 0.145477294921875 -1.880859375 -4.510986328125 0.0010477900505065918 0.000821232795715332 -0.03934478759765625 -0.098358154296875
17.968 -0.00313568115234375 0.1489105224609375 -2.189208984375 -4.355712890625 0.0023308992385864258 0.0004584789276123047 -0.045196533203125 -0.0973968505859375
17.97775 0.00629425048828125 0.1497802734375 -2.48291015625 -4.1884765625 0.0014704465866088867 0.0010564327239990234 -0.05130767822265625 -0.090240478515625
17.9875 0.01526641845703125 0.15187835693359375 -2.78759765625 -4.013916015625 1.6957521438598633e-05 0.00035005807876586914 -0.0530853271484375 -0.08623504638671875
17.99725 0.02336883544921875 0.152923583984375 -3.0927734375 -3.828125 0.0018000602722167969 0.0006761550903320312 -0.05983734130859375 -0.08071136474609375
18.007 0.03127288818359375 0.1540374755859375 -3.397705078125 -3.607177734375 0.0007995963096618652 0.00015991926193237305 -0.06409454345703125 -0.0756988525390625
18.01675 0.0402069091796875 0.15460968017578125 -3.69091796875 -3.348876953125 0.00046879053115844727 0.0009858012199401855 -0.06963348388671875 -0.0686187744140625
18.0265 0.0487060546875 0.1552734375 -3.9677734375 -3.05517578125 0.0008473396301269531 0.0007112026214599609 -0.0729522705078125 -0.0657958984375
18.03625 0.057281494140625 0.15692138671875 -4.2021484375 -2.7177734375 0.0007606744766235352 -0.0004942417144775391 -0.0759735107421875 -0.058685302734375
18.046 0.0662994384765625 0.15444183349609375 -4.403076171875 -2.364990234375 -0.0005889534950256348 0.0005955100059509277 -0.07984161376953125 -0.0522918701171875
18.05575 0.0746002197265625 0.1521759033203125 -4.5537109375 -2.02001953125 0.0008466243743896484 -0.00010913610458374023 -0.08355712890625 -0.0448760986328125
18.0655 0.0824127197265625 0.1517791748046875 -4.6767578125 -1.670166015625 7.955729961395264e-05 -0.0004312247037887573 -0.08648681640625 -0.0393218994140625
18.07525 0.09177398681640625 0.14907073974609375 -4.779541015625 -1.3232421875 0.0003113746643066406 0.0008634328842163086 -0.0867919921875 -0.032527923583984375
18.085 0.1006317138671875 0.145904541015625 -4.8701171875 -0.96728515625 1.0132789611816406e-05 0.0018779635429382324 -0.08992767333984375 -0.025333404541015625
18.09475 0.106842041015625 0.142303466796875 -4.9443359375 -0.611572265625 0.0012074708938598633 0.00012940168380737305 -0.08800888061523438 -0.01973724365234375
18.1045 0.116851806640625 0.13818359375 -5.00146484375 -0.240478515625 0.0005970895290374756 -0.0002675950527191162 -0.09157562255859375 -0.01129150390625
18.11425 0.124053955078125 0.1356964111328125 -5.02001953125 0.153076171875 0.0011535882949829102 0.0008040666580200195 -0.0897216796875 -0.00572967529296875
18.124 0.1297607421875 0.129180908203125 -5.00830078125 0.54541015625 0.0009605884552001953 3.4809112548828125e-05 -0.09038543701171875 0.00218963623046875
18.13375 0.1374969482421875 0.1255645751953125 -4.958251953125 0.935546875 0.00028955936431884766 0.000759124755859375 -0.08835220336914062 0.00969696044921875
18.1435 0.143768310546875 0.1191253662109375 -4.86767578125 1.3203125 0.0013428926467895508 -0.0007985830307006836 -0.08644485473632812 0.01848602294921875
18.15325 0.1510009765625 0.1109619140625 -4.746337890625 1.697021484375 0.0010953545570373535 -0.00023245811462402344 -0.08669662475585938 0.025363922119140625
18.163 0.1593170166015625 0.105682373046875 -4.600830078125 2.050048828125 0.00023424625396728516 -0.00048428773880004883 -0.08293914794921875 0.03399658203125
18.17275 0.1631622314453125 0.098541259765625 -4.42919921875 2.396484375 -8.3141028881073e-05 0.00014137476682662964 -0.08013153076171875 0.039447784423828125
18.1825 0.17041015625 0.0890045166015625 -4.252197265625 2.7333984375 0.0017478466033935547 -0.0003324747085571289 -0.075042724609375 0.04859161376953125
18.19225 0.173919677734375 0.08343505859375 -4.035400390625 3.067626953125 0.0012520551681518555 -0.0005043148994445801 -0.07181930541992188 0.05374908447265625
18.202 0.1809844970703125 0.07708740234375 -3.80078125 3.3765869140625 0.0004399120807647705 0.00023233890533447266 -0.0694427490234375 0.0621337890625
18.21175 0.1835479736328125 0.0687408447265625 -3.517333984375 3.67626953125 0.0005198121070861816 -0.000620722770690918 -0.06513214111328125 0.06832122802734375
18.2215 0.189178466796875 0.06114959716796875 -3.212158203125 3.942626953125 0.0010899901390075684 -0.0014693737030029297 -0.0576324462890625 0.07166671752929688
18.23125 0.19244384765625 0.05182647705078125 -2.890380859375 4.1689453125 0.0007055997848510742 -3.594160079956055e-05 -0.054111480712890625 0.07781600952148438
18.241 0.1947784423828125 0.042816162109375 -2.55908203125 4.37255859375 0.0006682872772216797 -0.0011104941368103027 -0.047527313232421875 0.08394622802734375
18.25075 0.1971588134765625 0.03404998779296875 -2.2177734375 4.542236328125 -0.0002009570598602295 -0.00038427114486694336 -0.040515899658203125 0.0878448486328125
18.2605 0.19844818115234375 0.0251312255859375 -1.87060546875 4.687255859375 0.0002894401550292969 -0.0015213489532470703 -0.0338592529296875 0.09175491333007812
18.27025 0.2005615234375 0.0156707763671875 -1.517333984375 4.820068359375 0.000751495361328125 -0.0019402503967285156 -0.02545166015625 0.095703125
18.28 0.201385498046875 0.00685882568359375 -1.139404296875 4.947998046875 0.0007149577140808105 -0.00046059489250183105 -0.018589019775390625 0.09842300415039062
18.28975 0.20269012451171875 -0.00305938720703125 -0.75927734375 5.03515625 0.0011672377586364746 -0.0010058283805847168 -0.009548187255859375 0.1024169921875
18.2995 0.2021026611328125 -0.0123748779296875 -0.35107421875 5.08642578125 0.0017820000648498535 -0.001417398452758789 -0.0006866455078125 0.10101318359375
18.30925 0.200775146484375 -0.0229949951171875 0.0654296875 5.083984375 0.0007050037384033203 -0.00021517276763916016 0.00817108154296875 0.10414886474609375
18.319 0.19826507568359375 -0.0311279296875 0.469482421875 5.050048828125 9.925663471221924e-05 -0.00034831464290618896 0.015445709228515625 0.10593414306640625
18.32875 0.196868896484375 -0.03813934326171875 0.856201171875 4.977294921875 -0.00032573938369750977 -0.00023573637008666992 0.02671051025390625 0.1055450439453125
18.3385 0.19416046142578125 -0.0501861572265625 1.2265625 4.873779296875 0.00042013823986053467 -0.00019566714763641357 0.03543853759765625 0.1059722900390625
18.34825 0.1927490234375 -0.058502197265625 1.580810546875 4.769287109375 0.00022231042385101318 -0.00014688819646835327 0.04236602783203125 0.1052398681640625
18.358 0.1903533935546875 -0.06658935546875 1.923828125 4.642822265625 0.0002117753028869629 -0.0007204711437225342 0.05152130126953125 0.10388946533203125
18.36775 0.1858367919921875 -0.07517242431640625 2.2763671875 4.489013671875 0.0003520548343658447 -0.0006229579448699951 0.059844970703125 0.10150146484375
18.3775 0.18192291259765625 -0.08261871337890625 2.6171875 4.322021484375 0.001231551170349121 -0.0018405318260192871 0.0662994384765625 0.09642791748046875
18.38725 0.178070068359375 -0.09172821044921875 2.965087890625 4.103759765625 -9.191036224365234e-05 -0.0003930330276489258 0.0757598876953125 0.09587860107421875
18.397 0.1724395751953125 -0.0988922119140625 3.28955078125 3.84765625 0.00014641880989074707 -0.00011652708053588867 0.0837860107421875 0.0913848876953125
18.40675 0.1671600341796875 -0.10491943359375 3.59326171875 3.5498046875 -0.0008244514465332031 -0.0010584592819213867 0.090728759765625 0.0855560302734375
18.4165 0.16057586669921875 -0.1121826171875 3.84033203125 3.23388671875 0.0007593035697937012 -0.0011971592903137207 0.097320556640625 0.08135986328125
18.42625 0.15486907958984375 -0.11962890625 4.044677734375 2.898193359375 0.00020590424537658691 -0.00044667720794677734 0.10575103759765625 0.07372283935546875
18.436 0.14691162109375 -0.12363433837890625 4.21630859375 2.571044921875 0.00020329654216766357 -0.0004180222749710083 0.11423492431640625 0.0670166015625
18.44575 0.1412200927734375 -0.131744384765625 4.3662109375 2.2490234375 -0.00014340877532958984 -0.0001515895128250122 0.1160736083984375 0.05908966064453125
18.4555 0.133209228515625 -0.13567352294921875 4.5029296875 1.92822265625 0.00017945468425750732 -0.00015716999769210815 0.12236785888671875 0.051727294921875
18.46525 0.1268768310546875 -0.1415557861328125 4.645263671875 1.60546875 0.0005422532558441162 -0.0009091794490814209 0.12577056884765625 0.04114532470703125
18.475 0.117645263671875 -0.1456146240234375 4.767822265625 1.26171875 0.0002563595771789551 -0.0011467337608337402 0.13088226318359375 0.03401947021484375
18.48475 0.11187744140625 -0.1508636474609375 4.8681640625 0.883544921875 -9.876489639282227e-05 -0.001155853271484375 0.13240814208984375 0.02434539794921875
18.4945 0.1024932861328125 -0.1526336669921875 4.919677734375 0.478515625 -0.00042247772216796875 0.0006352663040161133 0.13710784912109375 0.01409912109375
18.50425 0.0951385498046875 -0.1578826904296875 4.93017578125 0.06884765625 -5.774199962615967e-06 0.00011736899614334106 0.1364898681640625 0.0048828125
18.514 0.08907318115234375 -0.1600341796875 4.890380859375 -0.328125 0.0005668103694915771 0.0003848075866699219 0.138153076171875 -0.0037384033203125
18.52375 0.07836151123046875 -0.16030120849609375 4.79248046875 -0.704833984375 0.0004836618900299072 -0.00020267069339752197 0.1383819580078125 -0.01358795166015625
18.5335 0.07247161865234375 -0.16318511962890625 4.684326171875 -1.04541015625 -0.0007581710815429688 -0.0010075569152832031 0.13855743408203125 -0.02236175537109375
18.54325 0.06551361083984375 -0.1667022705078125 4.558349609375 -1.3583984375 0.0005488991737365723 -2.8640031814575195e-05 0.13568115234375 -0.0332794189453125
18.553 0.05738067626953125 -0.16762542724609375 4.4248046875 -1.6640625 0.0011216402053833008 0.000265657901763916 0.1316375732421875 -0.0408477783203125
18.56275 0.04967498779296875 -0.1678924560546875 4.297119140625 -1.962646484375 0.00033229589462280273 -0.0007531940937042236 0.12903594970703125 -0.04741668701171875
18.5725 0.041107177734375 -0.16599273681640625 4.145263671875 -2.26025390625 0.00038170814514160156 -0.0004122108221054077 0.12566375732421875 -0.0567474365234375
18.58225 0.03521728515625 -0.167327880859375 3.971435546875 -2.5693359375 0.0008724331855773926 -0.0011453032493591309 0.12060928344726562 -0.06511688232421875
18.592 0.02620697021484375 -0.16790771484375 3.754638671875 -2.8662109375 0.0012653470039367676 -0.0010405182838439941 0.11554336547851562 -0.0721435546875
18.60175 0.0196380615234375 -0.1662445068359375 3.5107421875 -3.1416015625 0.0004926919937133789 0.00016421079635620117 0.1077728271484375 -0.0780792236328125
18.6115 0.01116943359375 -0.16497802734375 3.23681640625 -3.380615234375 -0.0005125999450683594 -0.0010684728622436523 0.1018524169921875 -0.08569717407226562
18.62125 0.00492095947265625 -0.1638946533203125 2.95068359375 -3.5816650390625 -0.0002509951591491699 -0.001057267189025879 0.09528732299804688 -0.09090042114257812
18.631 -0.00307464599609375 -0.162139892578125 2.6727294921875 -3.7401123046875 -4.89354133605957e-05 -0.0015645623207092285 0.08906173706054688 -0.09551620483398438
18.64075 -0.01004791259765625 -0.16022491455078125 2.389404296875 -3.8800048828125 -0.00024074316024780273 -0.000924229621887207 0.08153533935546875 -0.1000518798828125
18.6505 -0.01464080810546875 -0.1587066650390625 2.119140625 -4.01171875 -0.0005626678466796875 -0.0015538930892944336 0.075836181640625 -0.10358428955078125
18.66025 -0.02301788330078125 -0.155975341796875 1.848388671875 -4.135009765625 -0.00037866830825805664 -0.0011424422264099121 0.06781005859375 -0.10641860961914062
18.67 -0.02941131591796875 -0.1518096923828125 1.568115234375 -4.26025390625 0.0002818107604980469 -0.0006183981895446777 0.06084442138671875 -0.10755157470703125
18.67975 -0.0366668701171875 -0.149017333984375 1.269287109375 -4.375244140625 -5.8166682720184326e-05 -0.00014428049325942993 0.05329132080078125 -0.10848236083984375
18.6895 -0.04274749755859375 -0.14730072021484375 0.94384765625 -4.462646484375 0.0007086098194122314 -0.0009018480777740479 0.045330047607421875 -0.10936355590820312
18.69925 -0.04913330078125 -0.144927978515625 0.61669921875 -4.51806640625 0.0006728172302246094 -0.001255035400390625 0.03993988037109375 -0.109710693359375
