!Created with skrf (http://scikit-rf.org).
# GHz S RI R 50.0 
!freq ReS11 ImS11 ReS21 ImS21 ReS12 ImS12 ReS22 ImS22
17.5 0.00543212890625 -0.1332550048828125 -4.55322265625 -1.07470703125 -0.0016517043113708496 0.00020945072174072266 0.08654403686523438 -0.004573822021484375
17.50975 -0.00327301025390625 -0.13137054443359375 -4.61962890625 -0.715087890625 -0.00011485815048217773 0.0006617903709411621 0.0894317626953125 -0.003871917724609375
17.5195 -0.01019287109375 -0.12674713134765625 -4.650146484375 -0.352294921875 -0.000919342041015625 0.0010764598846435547 0.09182357788085938 -0.00492095947265625
17.52925 -0.0173187255859375 -0.121917724609375 -4.66259765625 0.00830078125 -0.0009348094463348389 0.00047788023948669434 0.09341049194335938 -0.008880615234375
17.539 -0.022857666015625 -0.1164398193359375 -4.64013671875 0.361328125 -0.0008956789970397949 0.00010305643081665039 0.09348297119140625 -0.01123046875
17.54875 -0.03090667724609375 -0.1129608154296875 -4.583984375 0.706787109375 -0.002626180648803711 0.0001366138458251953 0.09659576416015625 -0.012134552001953125
17.5585 -0.03925323486328125 -0.1075439453125 -4.519775390625 1.045166015625 -0.0005189776420593262 0.001400768756866455 0.09849929809570312 -0.015850067138671875
17.56825 -0.04291534423828125 -0.1037139892578125 -4.439453125 1.367431640625 0.0001595616340637207 0.0008882284164428711 0.09926223754882812 -0.018917083740234375
17.578 -0.0491485595703125 -0.09832000732421875 -4.329345703125 1.70703125 -0.0009343922138214111 0.00026488304138183594 0.10129928588867188 -0.02008056640625
17.58775 -0.05524444580078125 -0.09337615966796875 -4.1884765625 2.040771484375 -0.0010799169540405273 0.00029391050338745117 0.1015472412109375 -0.02361297607421875
17.5975 -0.05829620361328125 -0.08707427978515625 -4.017822265625 2.376220703125 -0.0002731233835220337 0.00024540722370147705 0.101959228515625 -0.02745819091796875
17.60725 -0.06365203857421875 -0.08292388916015625 -3.80908203125 2.6787109375 -0.0006899237632751465 0.0008487403392791748 0.10092544555664062 -0.03089141845703125
17.617 -0.06865692138671875 -0.076568603515625 -3.5760498046875 2.957763671875 -0.00022115558385849 0.00013175606727600098 0.10315704345703125 -0.033672332763671875
17.62675 -0.071807861328125 -0.06844329833984375 -3.3214111328125 3.2086181640625 -0.0010752677917480469 0.0016824007034301758 0.10386276245117188 -0.036991119384765625
17.6365 -0.07586669921875 -0.061981201171875 -3.0546875 3.4287109375 -0.00043398141860961914 0.0005574226379394531 0.10340118408203125 -0.0404510498046875
17.64625 -0.078887939453125 -0.05396270751953125 -2.7928466796875 3.61962890625 -0.002169966697692871 0.0012913942337036133 0.10055923461914062 -0.04473114013671875
17.656 -0.081329345703125 -0.04851531982421875 -2.52734375 3.8013916015625 -0.0017300248146057129 0.0012468695640563965 0.09959030151367188 -0.04955291748046875
17.66575 -0.08252716064453125 -0.04084014892578125 -2.269287109375 3.9708251953125 -0.00019904226064682007 0.00020736455917358398 0.09866714477539062 -0.0526123046875
17.6755 -0.08618927001953125 -0.03508758544921875 -1.992431640625 4.12841796875 -0.0009565949440002441 0.00041681528091430664 0.09629440307617188 -0.05718231201171875
17.68525 -0.0875396728515625 -0.02750396728515625 -1.715576171875 4.298583984375 -0.0001710951328277588 0.0007141232490539551 0.09390640258789062 -0.06043243408203125
17.695 -0.087646484375 -0.019069671630859375 -1.395751953125 4.45068359375 -0.0015984773635864258 0.00202786922454834 0.09254074096679688 -0.06247711181640625
17.70475 -0.088165283203125 -0.010555267333984375 -1.044677734375 4.580810546875 -0.0005324780941009521 -1.8775463104248047e-06 0.09038162231445312 -0.06668853759765625
17.7145 -0.08905410766601562 -0.004550933837890625 -0.666015625 4.672607421875 -0.0010045766830444336 0.0024739503860473633 0.08729934692382812 -0.07041549682617188
17.72425 -0.09025955200195312 0.002033233642578125 -0.278076171875 4.710205078125 -0.0004888176918029785 0.0006784796714782715 0.08383941650390625 -0.07445144653320312
17.734 -0.09107589721679688 0.00925445556640625 0.10400390625 4.704345703125 -0.0009288489818572998 0.000555872917175293 0.0805816650390625 -0.07928848266601562
17.74375 -0.09073638916015625 0.0162200927734375 0.4619140625 4.64453125 -0.0011421442031860352 0.001685023307800293 0.0787353515625 -0.08284759521484375
17.7535 -0.08853912353515625 0.0230712890625 0.798095703125 4.57666015625 -0.0006174445152282715 0.0016700029373168945 0.07475662231445312 -0.08588790893554688
17.76325 -0.08781051635742188 0.029903411865234375 1.107421875 4.4990234375 -0.0007641315460205078 0.0009952783584594727 0.06888961791992188 -0.08648681640625
17.773 -0.08637619018554688 0.035888671875 1.4033203125 4.41357421875 -0.0005289614200592041 0.0002987682819366455 0.06560134887695312 -0.08913040161132812
17.78275 -0.08478164672851562 0.0414276123046875 1.707763671875 4.3173828125 0.00019997358322143555 0.001115262508392334 0.062103271484375 -0.0908203125
17.7925 -0.0806732177734375 0.046298980712890625 2.017333984375 4.214599609375 -0.00036084651947021484 0.0022089481353759766 0.0596466064453125 -0.09332656860351562
17.80225 -0.07932281494140625 0.053180694580078125 2.342529296875 4.093505859375 0.0009401440620422363 0.0008136630058288574 0.054370880126953125 -0.09608078002929688
17.812 -0.07519912719726562 0.05997467041015625 2.672607421875 3.929443359375 0.0004406571388244629 0.0011484622955322266 0.047771453857421875 -0.09547042846679688
17.82175 -0.07140731811523438 0.06601715087890625 2.9921875 3.736083984375 -0.00028568506240844727 0.000668644905090332 0.045795440673828125 -0.09690475463867188
17.8315 -0.0678558349609375 0.07147979736328125 3.294189453125 3.49365234375 0.0004070401191711426 0.0007510185241699219 0.040729522705078125 -0.09766769409179688
17.84125 -0.0638885498046875 0.0764923095703125 3.56591796875 3.23095703125 7.002055644989014e-05 0.00012122094631195068 0.03501129150390625 -0.09864044189453125
17.851 -0.0583343505859375 0.08379745483398438 3.79052734375 2.929931640625 0.0011576414108276367 0.0015130043029785156 0.031101226806640625 -0.10028457641601562
17.86075 -0.0566864013671875 0.087615966796875 3.990234375 2.6435546875 0.0003994107246398926 0.0008165240287780762 0.02675628662109375 -0.09850692749023438
17.8705 -0.052127838134765625 0.09459304809570312 4.16845703125 2.349365234375 -0.0011574029922485352 0.0004921555519104004 0.019191741943359375 -0.0983123779296875
17.88025 -0.048748016357421875 0.0979156494140625 4.333984375 2.05322265625 0.0010769367218017578 0.0012340545654296875 0.01488494873046875 -0.10000228881835938
17.89 -0.043376922607421875 0.10378265380859375 4.49609375 1.75927734375 0.00019890069961547852 0.0010613203048706055 0.0106964111328125 -0.09965133666992188
17.89975 -0.038181304931640625 0.10686874389648438 4.6494140625 1.4296875 -8.45789909362793e-05 0.0015625953674316406 0.005859375 -0.09857177734375
17.9095 -0.035388946533203125 0.11107254028320312 4.788818359375 1.0859375 0.001359701156616211 0.000728607177734375 0.00061798095703125 -0.09711456298828125
17.91925 -0.028377532958984375 0.11494827270507812 4.894775390625 0.718505859375 0.0011245012283325195 0.0001780390739440918 -0.003337860107421875 -0.09694290161132812
17.929 -0.02193450927734375 0.11898040771484375 4.9765625 0.3330078125 0.00020629167556762695 0.00037664175033569336 -0.0085906982421875 -0.0962982177734375
17.93875 -0.017063140869140625 0.12015533447265625 5.004150390625 -0.069580078125 -0.00016008317470550537 0.00016876310110092163 -0.01325225830078125 -0.09181976318359375
17.9485 -0.0120391845703125 0.12466812133789062 4.98974609375 -0.45849609375 8.678436279296875e-05 0.0010697245597839355 -0.0175628662109375 -0.08941650390625
17.95825 -0.006072998046875 0.12475967407226562 4.949951171875 -0.842529296875 0.0006418228149414062 0.0013143420219421387 -0.01998138427734375 -0.0900421142578125
17.968 -0.00165557861328125 0.1292724609375 4.875 -1.210205078125 0.00048732757568359375 0.0004298090934753418 -0.025569915771484375 -0.08719253540039062
17.97775 0.0060882568359375 0.12950897216796875 4.7900390625 -1.565673828125 0.0005532801151275635 0.0002715587615966797 -0.029491424560546875 -0.083740234375
17.9875 0.01444244384765625 0.13294219970703125 4.684326171875 -1.928466796875 0.00021326541900634766 0.00013962388038635254 -0.032863616943359375 -0.08214569091796875
17.99725 0.01966094970703125 0.13318634033203125 4.564208984375 -2.291259765625 0.0017474889755249023 0.0009337663650512695 -0.038402557373046875 -0.07802581787109375
18.007 0.02642059326171875 0.13285064697265625 4.417236328125 -2.659423828125 0.00039845705032348633 0.0014249086380004883 -0.042194366455078125 -0.07540130615234375
18.01675 0.03302764892578125 0.13532257080078125 4.230224609375 -3.025390625 0.0004845857620239258 0.0005423426628112793 -0.046722412109375 -0.07135772705078125
18.0265 0.04126739501953125 0.13475799560546875 3.999755859375 -3.38671875 0.00036066770553588867 0.0008258223533630371 -0.051555633544921875 -0.06620025634765625
18.03625 0.0471649169921875 0.1389923095703125 3.728271484375 -3.726318359375 0.0004277229309082031 0.001950979232788086 -0.0563507080078125 -0.062591552734375
18.046 0.055450439453125 0.13748931884765625 3.417724609375 -4.037109375 0.0006261169910430908 -0.0006842315196990967 -0.058391571044921875 -0.05686187744140625
18.05575 0.0614471435546875 0.13578033447265625 3.096435546875 -4.302978515625 0.0006163120269775391 1.0907649993896484e-05 -0.06105804443359375 -0.053234100341796875
18.0655 0.069000244140625 0.13719940185546875 2.74560546875 -4.533447265625 0.0014889836311340332 -0.0002962946891784668 -0.06641769409179688 -0.04837799072265625
18.07525 0.07684326171875 0.13480377197265625 2.39111328125 -4.7470703125 0.0014542937278747559 0.0003344416618347168 -0.06815338134765625 -0.043010711669921875
18.085 0.0830841064453125 0.13381195068359375 2.0185546875 -4.941162109375 0.0006430745124816895 0.00036448240280151367 -0.07012557983398438 -0.038471221923828125
18.09475 0.08937835693359375 0.13105010986328125 1.634521484375 -5.107666015625 0.000534743070602417 -0.0005311369895935059 -0.07194137573242188 -0.033977508544921875
18.1045 0.09777069091796875 0.128387451171875 1.235595703125 -5.2529296875 0.00036363303661346436 -0.00031803548336029053 -0.07428359985351562 -0.025714874267578125
18.11425 0.10404205322265625 0.1291656494140625 0.804443359375 -5.35791015625 0.0013965368270874023 0.0007295608520507812 -0.075408935546875 -0.0213165283203125
18.124 0.1096954345703125 0.1246795654296875 0.3662109375 -5.4296875 -0.00022035837173461914 0.00042876601219177246 -0.0745697021484375 -0.0147705078125
18.13375 0.1169891357421875 0.1214141845703125 -0.07275390625 -5.46484375 0.0007947683334350586 -0.0004387497901916504 -0.0759124755859375 -0.00664520263671875
18.1435 0.1240234375 0.1175079345703125 -0.5205078125 -5.4453125 0.0006788372993469238 0.00035685300827026367 -0.07664108276367188 -0.001209259033203125
18.15325 0.1294708251953125 0.11283111572265625 -0.970703125 -5.398193359375 0.0011278390884399414 0.0005388259887695312 -0.07778167724609375 0.004673004150390625
18.163 0.1379547119140625 0.107940673828125 -1.402587890625 -5.305419921875 0.0008083879947662354 -0.0003418922424316406 -0.074798583984375 0.011505126953125
18.17275 0.143524169921875 0.1036529541015625 -1.822998046875 -5.18359375 0.0009832978248596191 7.766485214233398e-05 -0.07306671142578125 0.017482757568359375
18.1825 0.151702880859375 0.09796142578125 -2.240234375 -5.040283203125 -0.00012022256851196289 -0.0001104399561882019 -0.0724945068359375 0.02555084228515625
18.19225 0.15540313720703125 0.09191131591796875 -2.65869140625 -4.85791015625 0.0007874369621276855 -0.0007258355617523193 -0.070587158203125 0.032299041748046875
18.202 0.1615753173828125 0.08641815185546875 -3.05078125 -4.644287109375 0.0008779168128967285 -0.0005278587341308594 -0.06891250610351562 0.039581298828125
18.21175 0.16754150390625 0.0794677734375 -3.44482421875 -4.37548828125 0.0005409717559814453 -0.0002270340919494629 -0.0644683837890625 0.0471954345703125
18.2215 0.17447662353515625 0.07061004638671875 -3.801513671875 -4.06884765625 6.0945749282836914e-05 0.00019228458404541016 -0.060375213623046875 0.05137825012207031
18.23125 0.1794281005859375 0.06604766845703125 -4.1201171875 -3.73779296875 4.559755325317383e-06 0.00036656856536865234 -0.058498382568359375 0.05542755126953125
18.241 0.1820526123046875 0.058868408203125 -4.395751953125 -3.383056640625 0.0009799599647521973 0.00020503997802734375 -0.0539703369140625 0.06133842468261719
18.25075 0.1865081787109375 0.05054473876953125 -4.639892578125 -3.009033203125 0.0008012652397155762 0.0003330707550048828 -0.04931640625 0.067291259765625
18.2605 0.18834686279296875 0.04354095458984375 -4.850341796875 -2.62939453125 0.0011494755744934082 -0.0009965896606445312 -0.044391632080078125 0.0716400146484375
18.27025 0.1918487548828125 0.03333282470703125 -5.041259765625 -2.244140625 -0.0005824565887451172 0.00015243887901306152 -0.037769317626953125 0.07759857177734375
18.28 0.195587158203125 0.024322509765625 -5.221435546875 -1.837158203125 -9.363889694213867e-05 -0.0004604756832122803 -0.03155517578125 0.0804443359375
18.28975 0.19870758056640625 0.01480865478515625 -5.360595703125 -1.416015625 0.0006815791130065918 -0.0006377100944519043 -0.026027679443359375 0.08408355712890625
18.2995 0.198974609375 0.00634002685546875 -5.4658203125 -0.96337890625 0.0012157559394836426 0.00016319751739501953 -0.01840972900390625 0.0864105224609375
18.30925 0.2000274658203125 -0.0031890869140625 -5.52880859375 -0.49658203125 0.0006240606307983398 -0.0015119314193725586 -0.010345458984375 0.089752197265625
18.319 0.20037078857421875 -0.01390838623046875 -5.53857421875 -0.026611328125 0.000493168830871582 -0.0009201765060424805 -0.00499725341796875 0.093963623046875
18.32875 0.2003021240234375 -0.02117919921875 -5.494140625 0.42529296875 8.448958396911621e-05 -0.00048157572746276855 0.005279541015625 0.09523773193359375
18.3385 0.1975860595703125 -0.03278350830078125 -5.406982421875 0.862548828125 -0.000630497932434082 -0.0014497041702270508 0.014125823974609375 0.09691238403320312
18.34825 0.19855499267578125 -0.04082489013671875 -5.307861328125 1.27783203125 -7.306039333343506e-05 -0.00020423531532287598 0.019802093505859375 0.09894943237304688
18.358 0.19528961181640625 -0.04967498779296875 -5.177490234375 1.67822265625 0.00027446448802948 -0.0004382580518722534 0.03017425537109375 0.09588623046875
18.36775 0.19419097900390625 -0.059234619140625 -5.02099609375 2.075927734375 -0.00010132789611816406 -0.0009473562240600586 0.037841796875 0.09674835205078125
18.3775 0.19217681884765625 -0.06731414794921875 -4.85693359375 2.461669921875 -1.977384090423584e-05 -0.00044474005699157715 0.04564666748046875 0.09600830078125
18.38725 0.1888580322265625 -0.07758331298828125 -4.63720703125 2.85107421875 -0.00038886070251464844 -0.00044026970863342285 0.05126953125 0.0945281982421875
18.397 0.184783935546875 -0.0861358642578125 -4.38037109375 3.22607421875 -5.3048133850097656e-05 -0.000924229621887207 0.05950927734375 0.09088134765625
18.40675 0.1816864013671875 -0.0945281982421875 -4.08251953125 3.584716796875 0.0001482069492340088 0.00022983551025390625 0.0674896240234375 0.08758544921875
18.4165 0.17618560791015625 -0.10311126708984375 -3.7484130859375 3.885498046875 0.0015805363655090332 -0.0008206963539123535 0.07648468017578125 0.083770751953125
18.42625 0.1695556640625 -0.1110992431640625 -3.39111328125 4.14404296875 -0.0006563067436218262 -8.186697959899902e-05 0.0825042724609375 0.0815277099609375
18.436 0.16376495361328125 -0.11821746826171875 -3.031005859375 4.360107421875 0.0006112754344940186 -0.00034239888191223145 0.0899810791015625 0.07585906982421875
18.44575 0.158447265625 -0.12518310546875 -2.67236328125 4.546142578125 0.0005278885364532471 9.486079216003418e-05 0.0962066650390625 0.06923675537109375
18.4555 0.15029144287109375 -0.13153076171875 -2.313720703125 4.7109375 -0.0006161630153656006 -0.00031617283821105957 0.1009979248046875 0.0635528564453125
18.46525 0.14334869384765625 -0.13890838623046875 -1.953857421875 4.869140625 0.00029203295707702637 -0.0006451010704040527 0.1077728271484375 0.05440521240234375
18.475 0.13515472412109375 -0.14595794677734375 -1.57958984375 5.008544921875 -4.979968070983887e-05 -0.0005581974983215332 0.112823486328125 0.0493621826171875
18.48475 0.12815093994140625 -0.1518096923828125 -1.17236328125 5.123046875 0.00036713480949401855 -0.00034458935260772705 0.11602020263671875 0.039337158203125
18.4945 0.1183929443359375 -0.15666961669921875 -0.740478515625 5.19140625 0.0007143616676330566 -0.000924915075302124 0.12079620361328125 0.03106689453125
18.50425 0.110076904296875 -0.1623992919921875 -0.2978515625 5.22265625 0.0002887547016143799 -0.00023636221885681152 0.1239471435546875 0.0247802734375
18.514 0.1028594970703125 -0.165496826171875 0.140625 5.19384765625 -0.00023633241653442383 -0.00047016143798828125 0.125823974609375 0.0152587890625
18.52375 0.09243011474609375 -0.16754913330078125 0.5576171875 5.10546875 0.00020828843116760254 -0.0005399882793426514 0.12693023681640625 0.00771331787109375
18.5335 0.08545684814453125 -0.1721038818359375 0.944091796875 4.997314453125 0.00011211633682250977 -0.0011672377586364746 0.12835693359375 -0.001861572265625
18.54325 0.07633209228515625 -0.1744232177734375 1.296630859375 4.85888671875 0.0010911822319030762 -0.0002967715263366699 0.12932586669921875 -0.01140594482421875
18.553 0.06710052490234375 -0.178497314453125 1.634765625 4.710693359375 0.0004037022590637207 -0.000773996114730835 0.127288818359375 -0.01824188232421875
18.56275 0.0592041015625 -0.17745208740234375 1.9638671875 4.563720703125 0.00027082860469818115 -0.0003239661455154419 0.1261444091796875 -0.02753448486328125
18.5725 0.0507354736328125 -0.17829132080078125 2.288818359375 4.398193359375 0.000266343355178833 -0.0006655454635620117 0.12391281127929688 -0.03597259521484375
18.58225 0.042266845703125 -0.178802490234375 2.6123046875 4.20166015625 0.0003932863473892212 -0.00042466819286346436 0.12044525146484375 -0.042682647705078125
18.592 0.032073974609375 -0.17932891845703125 2.930419921875 3.97412109375 0.0003330111503601074 -0.0014899969100952148 0.11824417114257812 -0.05065155029296875
18.60175 0.02374267578125 -0.1789703369140625 3.23193359375 3.71337890625 0.0004571676254272461 -0.0004760324954986572 0.11215972900390625 -0.056915283203125
18.6115 0.014678955078125 -0.17760467529296875 3.4912109375 3.418701171875 0.00014352798461914062 -0.00103074312210083 0.10975265502929688 -0.06566238403320312
18.62125 0.0060882568359375 -0.17543792724609375 3.710205078125 3.104736328125 -0.00011152029037475586 -0.0001465827226638794 0.10470962524414062 -0.0716705322265625
18.631 -0.002532958984375 -0.17388153076171875 3.881591796875 2.79931640625 0.0007169842720031738 -0.00018778443336486816 0.0990447998046875 -0.0772247314453125
18.64075 -0.00978851318359375 -0.17116546630859375 4.02685546875 2.4873046875 0.0006608366966247559 -0.0009844303131103516 0.09247207641601562 -0.08144760131835938
18.6505 -0.01602935791015625 -0.17128753662109375 4.165283203125 2.19091796875 0.001139998435974121 -0.0006746649742126465 0.0872955322265625 -0.08662033081054688
18.66025 -0.02568817138671875 -0.16600799560546875 4.2880859375 1.89404296875 0.0013127923011779785 -0.0011412501335144043 0.0785064697265625 -0.08957672119140625
18.67 -0.0310821533203125 -0.1619720458984375 4.4072265625 1.586669921875 -0.0006131827831268311 -0.00024181604385375977 0.07432937622070312 -0.09296798706054688
18.67975 -0.04077911376953125 -0.1601104736328125 4.514404296875 1.26513671875 0.00031429529190063477 -0.001201629638671875 0.06733322143554688 -0.09601593017578125
18.6895 -0.04712677001953125 -0.15659332275390625 4.595458984375 0.9169921875 0.0002943873405456543 -0.0012090206146240234 0.06101226806640625 -0.0948638916015625
