!Created with skrf (http://scikit-rf.org).
# GHz S RI R 50.0 
!freq ReS11 ImS11 ReS21 ImS21 ReS12 ImS12 ReS22 ImS22
17.5 0.01143646240234375 -0.13288116455078125 -4.718994140625 1.32177734375 -0.0011512041091918945 0.000863194465637207 0.08341217041015625 0.00118255615234375
17.50975 0.0022735595703125 -0.1308135986328125 -4.591064453125 1.69140625 -0.0009434521198272705 0.000746309757232666 0.08831787109375 0.00208282470703125
17.5195 -0.005126953125 -0.12512969970703125 -4.43115234375 2.0419921875 -0.0007456541061401367 -0.0006690025329589844 0.08973312377929688 0.00110626220703125
17.52925 -0.0130767822265625 -0.1230621337890625 -4.253173828125 2.38427734375 -0.0027709007263183594 0.00039184093475341797 0.09331893920898438 -0.002227783203125
17.539 -0.018646240234375 -0.1163482666015625 -4.0498046875 2.700927734375 -0.0024302005767822266 0.001550912857055664 0.095916748046875 -0.00402069091796875
17.54875 -0.0250396728515625 -0.11389923095703125 -3.81494140625 2.9837646484375 -0.0018932223320007324 0.001000821590423584 0.09798812866210938 -0.0070037841796875
17.5585 -0.0338134765625 -0.1096649169921875 -3.577880859375 3.262939453125 -0.001618802547454834 0.0007765293121337891 0.100250244140625 -0.00931549072265625
17.56825 -0.03907012939453125 -0.1056976318359375 -3.3341064453125 3.5169677734375 -0.0019835233688354492 0.0007582902908325195 0.101318359375 -0.011730194091796875
17.578 -0.04557037353515625 -0.101898193359375 -3.0592041015625 3.7745361328125 -0.0018984079360961914 0.0005859732627868652 0.10390472412109375 -0.0153961181640625
17.58775 -0.05027008056640625 -0.09589385986328125 -2.75927734375 4.00732421875 -0.002101302146911621 0.0010616779327392578 0.10453414916992188 -0.017490386962890625
17.5975 -0.05536651611328125 -0.0904083251953125 -2.4228515625 4.22216796875 -0.0017071366310119629 0.0005931854248046875 0.104888916015625 -0.022495269775390625
17.60725 -0.0603790283203125 -0.0865936279296875 -2.0751953125 4.393798828125 -0.0008420944213867188 0.000964045524597168 0.10567855834960938 -0.025005340576171875
17.617 -0.0663299560546875 -0.08007049560546875 -1.71142578125 4.528564453125 -0.0019404292106628418 0.000915229320526123 0.10779953002929688 -0.02840423583984375
17.62675 -0.069732666015625 -0.07349395751953125 -1.343994140625 4.61962890625 -0.0008748769760131836 0.0007572770118713379 0.109375 -0.03156280517578125
17.6365 -0.072662353515625 -0.0671539306640625 -0.98046875 4.673828125 -0.0010139942169189453 0.0007929801940917969 0.1085052490234375 -0.03774261474609375
17.64625 -0.07663726806640625 -0.05866241455078125 -0.63916015625 4.70947265625 -0.0008869767189025879 0.00129622220993042 0.1060943603515625 -0.04050445556640625
17.656 -0.07820892333984375 -0.0546722412109375 -0.309814453125 4.7236328125 5.185604095458984e-06 0.0015146732330322266 0.10474014282226562 -0.046970367431640625
17.66575 -0.08060836791992188 -0.045627593994140625 0.01220703125 4.739990234375 -0.000972360372543335 0.0008637607097625732 0.10541534423828125 -0.049823760986328125
17.6755 -0.08579254150390625 -0.03955841064453125 0.343017578125 4.7353515625 -0.0012125968933105469 0.001963019371032715 0.10218429565429688 -0.054096221923828125
17.68525 -0.08565521240234375 -0.03162384033203125 0.6796875 4.738037109375 -6.616115570068359e-06 0.0008877217769622803 0.101715087890625 -0.057888031005859375
17.695 -0.086639404296875 -0.025928497314453125 1.0478515625 4.7109375 -0.0011812448501586914 0.0017771720886230469 0.100799560546875 -0.0615234375
17.70475 -0.0889892578125 -0.01644134521484375 1.432861328125 4.6396484375 0.0002893805503845215 -0.0010496973991394043 0.09704971313476562 -0.06685256958007812
17.7145 -0.09160995483398438 -0.01061248779296875 1.8232421875 4.524169921875 0.00035113096237182617 0.001101672649383545 0.09260177612304688 -0.07233428955078125
17.72425 -0.09158706665039062 -0.001903533935546875 2.19140625 4.353759765625 0.00021119415760040283 0.00010478496551513672 0.090911865234375 -0.07619476318359375
17.734 -0.09271240234375 0.00337982177734375 2.52978515625 4.143798828125 0.00033926963806152344 0.0011821985244750977 0.08832931518554688 -0.0805816650390625
17.74375 -0.09279632568359375 0.01180267333984375 2.818359375 3.896484375 -0.0003381967544555664 0.0016520023345947266 0.0846710205078125 -0.0835723876953125
17.7535 -0.09069061279296875 0.017398834228515625 3.073974609375 3.650634765625 -0.0003477334976196289 0.0010608434677124023 0.08079147338867188 -0.08816146850585938
17.76325 -0.08890151977539062 0.0254669189453125 3.3076171875 3.422119140625 -0.0001552104949951172 0.003030061721801758 0.07550811767578125 -0.08789443969726562
17.773 -0.0903472900390625 0.031223297119140625 3.522705078125 3.190673828125 -0.00011795759201049805 0.0012320876121520996 0.07209396362304688 -0.09378814697265625
17.78275 -0.08868789672851562 0.037700653076171875 3.733154296875 2.941162109375 0.00011233985424041748 8.233636617660522e-05 0.06756973266601562 -0.09517669677734375
17.7925 -0.08545303344726562 0.042316436767578125 3.952880859375 2.694091796875 0.0006545782089233398 0.0017282962799072266 0.06441497802734375 -0.09823989868164062
17.80225 -0.08287429809570312 0.049091339111328125 4.176513671875 2.4169921875 -0.000348508358001709 0.0014200210571289062 0.059970855712890625 -0.10046768188476562
17.812 -0.07990646362304688 0.056705474853515625 4.382080078125 2.103759765625 0.00031298398971557617 -0.00019368529319763184 0.052455902099609375 -0.101287841796875
17.82175 -0.07605361938476562 0.063568115234375 4.56103515625 1.763427734375 -0.00016605854034423828 -1.2069940567016602e-06 0.048877716064453125 -0.10068511962890625
17.8315 -0.07452011108398438 0.06981277465820312 4.6962890625 1.388671875 5.4717063903808594e-05 0.001593172550201416 0.0444793701171875 -0.10439682006835938
17.84125 -0.0697021484375 0.07494354248046875 4.7900390625 1.01220703125 0.0008690357208251953 0.0006184577941894531 0.03725433349609375 -0.1033782958984375
17.851 -0.06717681884765625 0.08265304565429688 4.82763671875 0.63134765625 0.0002669095993041992 0.001198410987854004 0.034091949462890625 -0.10647201538085938
17.86075 -0.0630340576171875 0.08575820922851562 4.850830078125 0.2802734375 0.0005165338516235352 0.0016297101974487305 0.0286865234375 -0.10468673706054688
17.8705 -0.058162689208984375 0.09306716918945312 4.84716796875 -0.06494140625 0.0002019628882408142 -4.760921001434326e-06 0.020771026611328125 -0.10509872436523438
17.88025 -0.05403900146484375 0.09801101684570312 4.838134765625 -0.404052734375 0.0011963844299316406 0.001672983169555664 0.016681671142578125 -0.10695648193359375
17.89 -0.05086517333984375 0.10425186157226562 4.822998046875 -0.736083984375 0.000864565372467041 0.000917971134185791 0.011005401611328125 -0.10512924194335938
17.89975 -0.044261932373046875 0.10848236083984375 4.79150390625 -1.09716796875 0.0008774995803833008 0.0013831853866577148 0.00665283203125 -0.10546112060546875
17.9095 -0.04021453857421875 0.11266708374023438 4.739013671875 -1.466552734375 0.0015238523483276367 0.0005946159362792969 0.00046539306640625 -0.10476303100585938
17.91925 -0.033603668212890625 0.11676406860351562 4.63916015625 -1.84228515625 0.0010025501251220703 0.001743316650390625 -0.004016876220703125 -0.1046142578125
17.929 -0.02765655517578125 0.12143707275390625 4.50830078125 -2.21728515625 0.0004935264587402344 0.0009658336639404297 -0.0101318359375 -0.1034088134765625
17.93875 -0.023723602294921875 0.12354278564453125 4.329345703125 -2.57763671875 -2.9861927032470703e-05 0.0008449256420135498 -0.014629364013671875 -0.1005859375
17.9485 -0.01682281494140625 0.12545013427734375 4.11328125 -2.901611328125 -0.0004746466875076294 0.0001710355281829834 -0.021442413330078125 -0.09827041625976562
17.95825 -0.0106353759765625 0.13217926025390625 3.8809814453125 -3.20751953125 0.00020720064640045166 3.7536025047302246e-05 -0.023075103759765625 -0.09426116943359375
17.968 -0.00464630126953125 0.13262176513671875 3.6334228515625 -3.4844970703125 0.0015221834182739258 0.0010436773300170898 -0.029022216796875 -0.09505844116210938
17.97775 0.0013580322265625 0.1353302001953125 3.384033203125 -3.73974609375 0.0010859966278076172 0.0011377334594726562 -0.035495758056640625 -0.08861923217773438
17.9875 0.0095062255859375 0.138214111328125 3.114501953125 -3.997314453125 -0.00034956634044647217 0.0004194527864456177 -0.038330078125 -0.0869140625
17.99725 0.017608642578125 0.13852691650390625 2.838134765625 -4.24658203125 0.001062154769897461 -1.5020370483398438e-05 -0.0444488525390625 -0.08295440673828125
18.007 0.0253753662109375 0.1415863037109375 2.530517578125 -4.486572265625 0.0015036463737487793 -0.0005778670310974121 -0.04842376708984375 -0.0794219970703125
18.01675 0.0318756103515625 0.142669677734375 2.18798828125 -4.70849609375 0.0008008480072021484 0.0012878179550170898 -0.05298614501953125 -0.07434844970703125
18.0265 0.03984832763671875 0.14197540283203125 1.817138671875 -4.91064453125 -0.00010403990745544434 0.000585705041885376 -0.0580291748046875 -0.06976318359375
18.03625 0.0469970703125 0.144073486328125 1.41650390625 -5.06396484375 0.001051783561706543 0.00043404102325439453 -0.0614471435546875 -0.0654144287109375
18.046 0.05554962158203125 0.14402008056640625 0.9951171875 -5.1806640625 0.0010873675346374512 2.3603439331054688e-05 -0.06352615356445312 -0.059711456298828125
18.05575 0.06218719482421875 0.143096923828125 0.58984375 -5.24853515625 0.0013524293899536133 -1.913309097290039e-05 -0.07006072998046875 -0.0565948486328125
18.0655 0.0693359375 0.144134521484375 0.1845703125 -5.27197265625 -0.0003463476896286011 0.0001951158046722412 -0.0738067626953125 -0.050201416015625
18.07525 0.07769012451171875 0.14199066162109375 -0.22265625 -5.281494140625 0.0007084310054779053 0.00011926889419555664 -0.07460403442382812 -0.045734405517578125
18.085 0.08625030517578125 0.14035797119140625 -0.627197265625 -5.26220703125 0.001429438591003418 -0.00043898820877075195 -0.07901382446289062 -0.037555694580078125
18.09475 0.09381103515625 0.13791656494140625 -1.031494140625 -5.230712890625 0.0006181001663208008 0.0001373291015625 -0.07857513427734375 -0.033641815185546875
18.1045 0.1004791259765625 0.135467529296875 -1.442626953125 -5.1630859375 0.001086413860321045 -0.0007915496826171875 -0.08129119873046875 -0.02425384521484375
18.11425 0.10787200927734375 0.13368988037109375 -1.85986328125 -5.048828125 0.00023382902145385742 0.0001175999641418457 -0.08063125610351562 -0.02103424072265625
18.124 0.11431884765625 0.12939453125 -2.27294921875 -4.9072265625 0.00021025538444519043 -0.0003514885902404785 -0.082427978515625 -0.01267242431640625
18.13375 0.120941162109375 0.125762939453125 -2.6669921875 -4.73193359375 0.0005609393119812012 -0.0004248619079589844 -0.08258056640625 -0.005706787109375
18.1435 0.1298370361328125 0.122314453125 -3.046142578125 -4.508544921875 0.00022804737091064453 0.00026610493659973145 -0.0848236083984375 0.001117706298828125
18.15325 0.136383056640625 0.11669921875 -3.4052734375 -4.252685546875 0.0007683038711547852 -0.0010315775871276855 -0.08357620239257812 0.0080413818359375
18.163 0.1441650390625 0.1113128662109375 -3.73828125 -3.974609375 0.0018165111541748047 0.00019037723541259766 -0.08274078369140625 0.0169677734375
18.17275 0.1510162353515625 0.10638427734375 -4.046142578125 -3.671142578125 -0.00020362436771392822 0.0003332793712615967 -0.07965850830078125 0.022243499755859375
18.1825 0.1572113037109375 0.09844970703125 -4.342041015625 -3.358154296875 0.0005499720573425293 -0.0006157457828521729 -0.07822418212890625 0.03258514404296875
18.19225 0.162811279296875 0.09234619140625 -4.623046875 -3.009521484375 0.000605165958404541 -0.00019168853759765625 -0.07558059692382812 0.0386962890625
18.202 0.1692657470703125 0.087158203125 -4.860595703125 -2.636474609375 0.0013005733489990234 5.7637691497802734e-05 -0.07480621337890625 0.04644775390625
18.21175 0.17547607421875 0.080078125 -5.0771484375 -2.2216796875 0.0012260675430297852 -0.0009365081787109375 -0.0691680908203125 0.05113983154296875
18.2215 0.179473876953125 0.07151031494140625 -5.24169921875 -1.78759765625 0.0006459057331085205 -0.0005634427070617676 -0.06555557250976562 0.0590667724609375
18.23125 0.185302734375 0.065032958984375 -5.364013671875 -1.356689453125 0.0006774067878723145 -0.0005891621112823486 -0.06181907653808594 0.06167030334472656
18.241 0.1897735595703125 0.05731964111328125 -5.442626953125 -0.920654296875 0.0005647838115692139 -0.00015869736671447754 -0.057247161865234375 0.0701904296875
18.25075 0.19356536865234375 0.04880523681640625 -5.489990234375 -0.4892578125 0.00018606334924697876 -0.00016701966524124146 -0.050933837890625 0.07341384887695312
18.2605 0.19586944580078125 0.0397796630859375 -5.494140625 -0.061279296875 0.00022143125534057617 -0.0009638667106628418 -0.043888092041015625 0.08016204833984375
18.27025 0.19774627685546875 0.03057098388671875 -5.4951171875 0.35888671875 0.000888139009475708 -0.0005653798580169678 -0.03914642333984375 0.08420562744140625
18.28 0.20088958740234375 0.020416259765625 -5.466796875 0.8017578125 0.0014148950576782227 -0.0009533166885375977 -0.03363037109375 0.08823394775390625
18.28975 0.203277587890625 0.01031494140625 -5.407958984375 1.236328125 0.0007665157318115234 -0.0005243122577667236 -0.022998809814453125 0.092315673828125
18.2995 0.203399658203125 0.0019683837890625 -5.2919921875 1.683837890625 0.0010592937469482422 -0.0005508661270141602 -0.016605377197265625 0.0949249267578125
18.30925 0.2050018310546875 -0.0088348388671875 -5.12890625 2.1220703125 -0.000718235969543457 0.0007832646369934082 -0.01041412353515625 0.0977020263671875
18.319 0.2041168212890625 -0.01963043212890625 -4.91845703125 2.539794921875 2.767890691757202e-06 -7.49044120311737e-05 -0.001186370849609375 0.10052108764648438
18.32875 0.20294952392578125 -0.026092529296875 -4.672119140625 2.916748046875 -0.0004335343837738037 8.623301982879639e-05 0.008388519287109375 0.10204696655273438
18.3385 0.20166778564453125 -0.03753662109375 -4.399658203125 3.260009765625 0.0006190836429595947 -0.00021022558212280273 0.0171356201171875 0.10522842407226562
18.34825 0.20061492919921875 -0.0480194091796875 -4.125 3.578857421875 2.5510787963867188e-05 -0.0010646581649780273 0.023681640625 0.10422515869140625
18.358 0.1973724365234375 -0.05619049072265625 -3.8328857421875 3.8682861328125 -0.0005039572715759277 -3.3736228942871094e-05 0.03488922119140625 0.10276031494140625
18.36775 0.1951141357421875 -0.066497802734375 -3.51904296875 4.15576171875 0.00039036571979522705 -0.0001799166202545166 0.04254150390625 0.101226806640625
18.3775 0.19194793701171875 -0.0741424560546875 -3.2001953125 4.423583984375 -0.0014737844467163086 -0.0016813278198242188 0.04886627197265625 0.10024261474609375
18.38725 0.1885833740234375 -0.084075927734375 -2.82958984375 4.678955078125 -0.00018650293350219727 -0.0003058314323425293 0.05912017822265625 0.10007476806640625
18.397 0.18310546875 -0.0926666259765625 -2.43115234375 4.892578125 -0.0010355710983276367 -1.4662742614746094e-05 0.0661163330078125 0.095733642578125
18.40675 0.178985595703125 -0.100006103515625 -2.00146484375 5.076171875 -0.0006698369979858398 -0.0002434849739074707 0.0743560791015625 0.092071533203125
18.4165 0.17311859130859375 -0.10738372802734375 -1.568603515625 5.1884765625 -0.0011197924613952637 5.125999450683594e-05 0.08123779296875 0.0898895263671875
18.42625 0.16728973388671875 -0.1176910400390625 -1.132080078125 5.258056640625 -0.0005827546119689941 -0.0007438063621520996 0.08995819091796875 0.08301544189453125
18.436 0.15960693359375 -0.12364959716796875 -0.720703125 5.287109375 0.0011178255081176758 -0.0005281567573547363 0.09973907470703125 0.07700347900390625
18.44575 0.1533660888671875 -0.13146209716796875 -0.320068359375 5.29150390625 0.00021341443061828613 -0.0005013346672058105 0.10375213623046875 0.07021331787109375
18.4555 0.14443206787109375 -0.1361846923828125 0.07177734375 5.278076171875 0.00020134449005126953 -0.0005694031715393066 0.110870361328125 0.0642547607421875
18.46525 0.13848876953125 -0.1441497802734375 0.457763671875 5.258056640625 0.0003816932439804077 -0.00025565922260284424 0.1153564453125 0.05524444580078125
18.475 0.1304168701171875 -0.14887237548828125 0.853271484375 5.21728515625 0.00041174888610839844 0.00026479363441467285 0.12078094482421875 0.0469970703125
18.48475 0.12343597412109375 -0.15459442138671875 1.272216796875 5.142333984375 2.3424625396728516e-05 -0.0011286735534667969 0.1258697509765625 0.0381317138671875
18.4945 0.113555908203125 -0.1583404541015625 1.69091796875 5.01416015625 0.00023199617862701416 -5.368143320083618e-05 0.12966156005859375 0.0276947021484375
18.50425 0.10491943359375 -0.163665771484375 2.10693359375 4.841796875 0.0006896257400512695 -0.000977635383605957 0.131103515625 0.0206298828125
18.514 0.0972442626953125 -0.1668701171875 2.48388671875 4.61767578125 -0.0006961226463317871 0.0001842975616455078 0.1342315673828125 0.0124664306640625
18.52375 0.08676910400390625 -0.168548583984375 2.82177734375 4.355224609375 0.0006126165390014648 -0.0016271471977233887 0.134979248046875 0.00212860107421875
18.5335 0.08074951171875 -0.17205810546875 3.1123046875 4.080810546875 0.00042031705379486084 -5.3629279136657715e-05 0.13620758056640625 -0.00637054443359375
18.54325 0.0720367431640625 -0.17462158203125 3.365478515625 3.802978515625 0.00047975778579711914 -0.00015720725059509277 0.135284423828125 -0.01491546630859375
18.553 0.0629730224609375 -0.17778778076171875 3.602294921875 3.524169921875 0.00029659271240234375 -0.0003521144390106201 0.13263702392578125 -0.02259063720703125
18.56275 0.05362701416015625 -0.17642974853515625 3.832763671875 3.250244140625 0.00024133920669555664 -0.0012751221656799316 0.13152313232421875 -0.0312347412109375
18.5725 0.0459136962890625 -0.17713165283203125 4.05029296875 2.957275390625 0.0007004737854003906 -9.301304817199707e-05 0.12841033935546875 -0.040313720703125
18.58225 0.0363311767578125 -0.1779632568359375 4.2607421875 2.641357421875 0.00021690130233764648 -0.001122891902923584 0.125244140625 -0.04900360107421875
18.592 0.02774810791015625 -0.17757415771484375 4.447509765625 2.292724609375 0.001260221004486084 -0.00034737586975097656 0.12066268920898438 -0.057651519775390625
18.60175 0.0195465087890625 -0.175994873046875 4.60693359375 1.927734375 0.0006303191184997559 0.0002595186233520508 0.1161956787109375 -0.0645599365234375
18.6115 0.0110931396484375 -0.17421722412109375 4.70849609375 1.54443359375 -5.745887756347656e-05 -0.0016074180603027344 0.11114501953125 -0.07128143310546875
18.62125 0.003204345703125 -0.1724090576171875 4.76904296875 1.166259765625 -1.1563301086425781e-05 -0.0010715126991271973 0.10443115234375 -0.0783843994140625
18.631 -0.00429534912109375 -0.1724090576171875 4.78662109375 0.817138671875 -6.908178329467773e-05 -0.0013751387596130371 0.09814834594726562 -0.08417129516601562
18.64075 -0.01306915283203125 -0.1683502197265625 4.786865234375 0.47119140625 -0.0002646446228027344 -0.0011866092681884766 0.09258270263671875 -0.087646484375
18.6505 -0.0189056396484375 -0.166839599609375 4.781982421875 0.14697265625 0.000887066125869751 -0.0006746649742126465 0.08586883544921875 -0.09335708618164062
18.66025 -0.02729034423828125 -0.16259765625 4.765869140625 -0.175537109375 -0.0001564621925354004 -0.0006721615791320801 0.07985305786132812 -0.09561538696289062
18.67 -0.03295135498046875 -0.16043853759765625 4.744384765625 -0.503173828125 0.0004944503307342529 -0.0006694197654724121 0.07448196411132812 -0.09941482543945312
18.67975 -0.0413055419921875 -0.15628814697265625 4.70556640625 -0.843505859375 -0.00023746490478515625 -0.0013699531555175781 0.06588363647460938 -0.10149383544921875
18.6895 -0.04756927490234375 -0.15248870849609375 4.628173828125 -1.196533203125 0.0007258355617523193 -0.0008324980735778809 0.0590667724609375 -0.10269546508789062
