!Created with skrf (http://scikit-rf.org).
# GHz S RI R 50.0 
!freq ReS11 ImS11 ReS21 ImS21 ReS12 ImS12 ReS22 ImS22
17.5 -0.0029754638671875 -0.1455535888671875 0.817626953125 -4.951416015625 -0.001971125602722168 -0.00013303756713867188 0.10344314575195312 -0.012477874755859375
17.50975 -0.0124053955078125 -0.14141082763671875 0.43701171875 -4.994873046875 -0.00024095922708511353 0.00023789703845977783 0.10376358032226562 -0.0140380859375
17.5195 -0.02091217041015625 -0.13518524169921875 0.05322265625 -4.9990234375 -0.0009113848209381104 0.0008530318737030029 0.10573196411132812 -0.0152587890625
17.52925 -0.0298919677734375 -0.1308441162109375 -0.3232421875 -4.99267578125 -0.0007799267768859863 0.0003064274787902832 0.10764312744140625 -0.0204315185546875
17.539 -0.0349884033203125 -0.125 -0.69287109375 -4.9462890625 -0.0012918710708618164 0.00041663646697998047 0.10724639892578125 -0.02347564697265625
17.54875 -0.04280853271484375 -0.120758056640625 -1.052490234375 -4.871826171875 -0.0014635324478149414 0.0008715391159057617 0.10814666748046875 -0.025630950927734375
17.5585 -0.0534515380859375 -0.1142578125 -1.410888671875 -4.789306640625 -0.0016183853149414062 0.001445472240447998 0.10929489135742188 -0.030254364013671875
17.56825 -0.0574188232421875 -0.10906219482421875 -1.75390625 -4.689208984375 -0.0004267096519470215 0.00177079439163208 0.10881423950195312 -0.03427886962890625
17.578 -0.0640716552734375 -0.10198974609375 -2.116455078125 -4.556396484375 -0.002086639404296875 0.0004954338073730469 0.10916519165039062 -0.03753662109375
17.58775 -0.06970977783203125 -0.09688568115234375 -2.4677734375 -4.38818359375 -0.0005981922149658203 0.0004526674747467041 0.10950469970703125 -0.040309906005859375
17.5975 -0.07337188720703125 -0.08959197998046875 -2.815185546875 -4.183837890625 -0.0014584064483642578 0.0010390281677246094 0.1070098876953125 -0.045635223388671875
17.60725 -0.0797119140625 -0.084442138671875 -3.126708984375 -3.947509765625 -0.0016263723373413086 0.0019758939743041992 0.105194091796875 -0.048542022705078125
17.617 -0.08472442626953125 -0.075347900390625 -3.406982421875 -3.678955078125 -0.0007426142692565918 0.00041559338569641113 0.10408782958984375 -0.052303314208984375
17.62675 -0.0874481201171875 -0.0682220458984375 -3.662109375 -3.39892578125 -0.001399397850036621 0.0010788440704345703 0.10467529296875 -0.05356597900390625
17.6365 -0.0910797119140625 -0.059478759765625 -3.88720703125 -3.10791015625 -0.001488327980041504 0.0008690357208251953 0.10236358642578125 -0.05945587158203125
17.64625 -0.0926971435546875 -0.05100250244140625 -4.087158203125 -2.825439453125 -0.0017938017845153809 0.0016887187957763672 0.0989990234375 -0.061733245849609375
17.656 -0.09529876708984375 -0.04470062255859375 -4.26611328125 -2.536376953125 -0.001658797264099121 0.0009467601776123047 0.09482192993164062 -0.0671844482421875
17.66575 -0.0966949462890625 -0.03382110595703125 -4.452880859375 -2.250732421875 -0.0001659393310546875 0.001430511474609375 0.09125518798828125 -0.07221603393554688
17.6755 -0.09780120849609375 -0.02703857421875 -4.6220703125 -1.944580078125 3.2007694244384766e-05 0.0007139146327972412 0.08977127075195312 -0.074798583984375
17.68525 -0.10052871704101562 -0.01885986328125 -4.801025390625 -1.62353515625 -0.0009112954139709473 0.0012755990028381348 0.0876312255859375 -0.07599258422851562
17.695 -0.10030746459960938 -0.00951385498046875 -4.958251953125 -1.26171875 -0.0004443228244781494 -0.00044545531272888184 0.08320236206054688 -0.079803466796875
17.70475 -0.10150527954101562 -0.0006256103515625 -5.0732421875 -0.85888671875 -0.0001304149627685547 0.00047981739044189453 0.07982254028320312 -0.08234786987304688
17.7145 -0.10203170776367188 0.008289337158203125 -5.15625 -0.43603515625 -0.00103074312210083 0.00040394067764282227 0.07439804077148438 -0.08654022216796875
17.72425 -0.10027313232421875 0.015209197998046875 -5.176025390625 -0.011474609375 -0.0005174875259399414 0.0014631152153015137 0.07007980346679688 -0.08858108520507812
17.734 -0.09951019287109375 0.02269744873046875 -5.146484375 0.400390625 0.00015485286712646484 0.0009601116180419922 0.0660247802734375 -0.09024810791015625
17.74375 -0.09887313842773438 0.0308380126953125 -5.067626953125 0.78466796875 3.3289194107055664e-05 -0.0006501674652099609 0.0608673095703125 -0.09365463256835938
17.7535 -0.09452056884765625 0.0379180908203125 -4.982666015625 1.14697265625 0.000553429126739502 0.001186072826385498 0.057498931884765625 -0.0944976806640625
17.76325 -0.09309005737304688 0.045501708984375 -4.888671875 1.48876953125 0.00033867359161376953 0.0018335580825805664 0.053730010986328125 -0.09609603881835938
17.773 -0.09174346923828125 0.05072021484375 -4.788330078125 1.819091796875 4.5299530029296875e-06 0.0021338462829589844 0.048450469970703125 -0.09774398803710938
17.78275 -0.08774566650390625 0.05904388427734375 -4.66845703125 2.16455078125 0.0005797147750854492 0.0011504888534545898 0.043758392333984375 -0.0971527099609375
17.7925 -0.0831298828125 0.06343841552734375 -4.536865234375 2.511474609375 -0.0001227855682373047 0.0010315179824829102 0.04015350341796875 -0.09821701049804688
17.80225 -0.07925796508789062 0.06957244873046875 -4.375 2.879150390625 0.00026786327362060547 0.0016890764236450195 0.035762786865234375 -0.09836578369140625
17.812 -0.07440567016601562 0.075653076171875 -4.1669921875 3.23876953125 -0.00013715028762817383 0.0008740127086639404 0.02896881103515625 -0.09914016723632812
17.82175 -0.06813812255859375 0.08388900756835938 -3.9229736328125 3.581298828125 5.942583084106445e-05 0.0013958215713500977 0.028217315673828125 -0.097076416015625
17.8315 -0.06439590454101562 0.0887908935546875 -3.630615234375 3.897705078125 0.0012593269348144531 0.0012288093566894531 0.020999908447265625 -0.09628677368164062
17.84125 -0.05899810791015625 0.0930633544921875 -3.3232421875 4.18359375 0.0012080669403076172 0.001965045928955078 0.01663970947265625 -0.09603118896484375
17.851 -0.05332183837890625 0.101287841796875 -2.976318359375 4.413818359375 0.001064896583557129 0.0012325048446655273 0.011554718017578125 -0.09552764892578125
17.86075 -0.05049896240234375 0.1034393310546875 -2.648681640625 4.630615234375 -0.0005985498428344727 0.0008315443992614746 0.0080413818359375 -0.09295272827148438
17.8705 -0.04302978515625 0.10869598388671875 -2.303955078125 4.8232421875 0.0009136497974395752 -0.0003027021884918213 0.00351715087890625 -0.09091949462890625
17.88025 -0.038410186767578125 0.11394500732421875 -1.952392578125 5.001708984375 0.00054129958152771 -1.811981201171875e-05 -0.001949310302734375 -0.08974456787109375
17.89 -0.0319976806640625 0.11785125732421875 -1.59521484375 5.16748046875 -0.0012392401695251465 -0.00011080503463745117 -0.00551605224609375 -0.08882522583007812
17.89975 -0.025707244873046875 0.11951446533203125 -1.195556640625 5.310791015625 0.00014698505401611328 0.001839280128479004 -0.0089874267578125 -0.08803176879882812
17.9095 -0.020671844482421875 0.12279510498046875 -0.7822265625 5.436279296875 0.0006260275840759277 0.0011934638023376465 -0.013492584228515625 -0.08447647094726562
17.91925 -0.01268768310546875 0.12595367431640625 -0.349365234375 5.51416015625 -0.000801384449005127 0.0010575056076049805 -0.0170440673828125 -0.08218765258789062
17.929 -0.0059051513671875 0.1277313232421875 0.091796875 5.55517578125 0.0008063316345214844 0.00035011768341064453 -0.02191162109375 -0.08132171630859375
17.93875 -0.0011749267578125 0.1284942626953125 0.54248046875 5.55078125 0.0007827281951904297 6.079673767089844e-06 -0.02492523193359375 -0.07775115966796875
17.9485 0.00677490234375 0.12999725341796875 0.97412109375 5.4951171875 0.0012217164039611816 0.0004124641418457031 -0.027477264404296875 -0.07280731201171875
17.95825 0.01393890380859375 0.12908935546875 1.402099609375 5.41552734375 0.000738978385925293 0.00032454729080200195 -0.02806854248046875 -0.0721588134765625
17.968 0.0186767578125 0.13250732421875 1.818115234375 5.31298828125 0.0001316666603088379 0.0016837716102600098 -0.033538818359375 -0.07080078125
17.97775 0.025726318359375 0.129852294921875 2.218994140625 5.177734375 0.000882267951965332 0.0015368461608886719 -0.03619384765625 -0.06290435791015625
17.9875 0.03340911865234375 0.12984466552734375 2.6357421875 5.0185546875 0.0011116266250610352 5.924701690673828e-05 -0.037570953369140625 -0.06261444091796875
17.99725 0.03804779052734375 0.1305389404296875 3.046875 4.837158203125 0.00038886070251464844 0.001100301742553711 -0.04042816162109375 -0.056888580322265625
18.007 0.04528045654296875 0.12888336181640625 3.4541015625 4.60986328125 0.0020771026611328125 -8.404254913330078e-05 -0.043025970458984375 -0.054920196533203125
18.01675 0.0519256591796875 0.13048553466796875 3.83984375 4.33251953125 0.0012404918670654297 -0.0012062788009643555 -0.04694366455078125 -0.05063629150390625
18.0265 0.0579833984375 0.128448486328125 4.208984375 4.021484375 0.0012030601501464844 -0.0006388425827026367 -0.05077362060546875 -0.04634857177734375
18.03625 0.0657196044921875 0.1289215087890625 4.5439453125 3.666015625 0.00025403499603271484 -0.0005345344543457031 -0.05229949951171875 -0.04137420654296875
18.046 0.0713958740234375 0.12701416015625 4.8408203125 3.27685546875 0.0012519359588623047 0.0010068416595458984 -0.052173614501953125 -0.03809356689453125
18.05575 0.077545166015625 0.122802734375 5.082763671875 2.881591796875 0.001570582389831543 0.000268399715423584 -0.0554962158203125 -0.0343475341796875
18.0655 0.08432769775390625 0.1227569580078125 5.290771484375 2.468994140625 0.0008745193481445312 -0.0005436539649963379 -0.0579376220703125 -0.029605865478515625
18.07525 0.08910369873046875 0.11922454833984375 5.47705078125 2.0419921875 -0.0003288090229034424 -3.248453140258789e-06 -0.0571136474609375 -0.025135040283203125
18.085 0.0946044921875 0.1179351806640625 5.643310546875 1.601806640625 0.0006799399852752686 -0.0005282461643218994 -0.0611724853515625 -0.020915985107421875
18.09475 0.09905242919921875 0.11443328857421875 5.775634765625 1.147216796875 0.0010939836502075195 -0.00034433603286743164 -0.059665679931640625 -0.01885986328125
18.1045 0.1073760986328125 0.111236572265625 5.873291015625 0.673095703125 0.0008793473243713379 0.000645756721496582 -0.059642791748046875 -0.01097869873046875
18.11425 0.109375 0.11061859130859375 5.922119140625 0.18017578125 0.0004249066114425659 -3.154575824737549e-05 -0.058521270751953125 -0.005733489990234375
18.124 0.1146392822265625 0.1033935546875 5.92138671875 -0.31103515625 0.00014981627464294434 0.00031489133834838867 -0.05881500244140625 -0.001613616943359375
18.13375 0.12119293212890625 0.1015167236328125 5.882080078125 -0.796875 0.0014534592628479004 0.00035303831100463867 -0.057056427001953125 0.002773284912109375
18.1435 0.1250152587890625 0.09793853759765625 5.794677734375 -1.2783203125 -0.00033101439476013184 -0.0006290972232818604 -0.058864593505859375 0.011804580688476562
18.15325 0.12994384765625 0.093353271484375 5.66552734375 -1.749755859375 0.0015128850936889648 -0.00026863813400268555 -0.05805778503417969 0.013080596923828125
18.163 0.1363525390625 0.0883331298828125 5.497802734375 -2.197021484375 0.0005865097045898438 0.00043767690658569336 -0.0543212890625 0.01856231689453125
18.17275 0.140350341796875 0.08351898193359375 5.2919921875 -2.6318359375 0.0010169148445129395 -0.00037544965744018555 -0.052204132080078125 0.02463531494140625
18.1825 0.1460113525390625 0.07817840576171875 5.07568359375 -3.050048828125 -0.0006278753280639648 -0.0007253289222717285 -0.05047607421875 0.030447006225585938
18.19225 0.14825439453125 0.07257080078125 4.81396484375 -3.463134765625 0.0011174678802490234 -0.00011807680130004883 -0.048187255859375 0.03481864929199219
18.202 0.152984619140625 0.069091796875 4.5283203125 -3.84228515625 0.00015538930892944336 0.00016063451766967773 -0.047695159912109375 0.038639068603515625
18.21175 0.1562042236328125 0.06243896484375 4.18310546875 -4.21435546875 0.0007882118225097656 0.0003892183303833008 -0.044101715087890625 0.044269561767578125
18.2215 0.161773681640625 0.05786895751953125 3.80810546875 -4.5419921875 -0.0003617405891418457 0.0008803308010101318 -0.04009437561035156 0.04663658142089844
18.23125 0.16463470458984375 0.051849365234375 3.4111328125 -4.829833984375 0.0007507801055908203 -0.0007991194725036621 -0.03670310974121094 0.0500030517578125
18.241 0.16677093505859375 0.04428863525390625 2.997314453125 -5.07470703125 0.0007227063179016113 0.0002282857894897461 -0.0348663330078125 0.05438232421875
18.25075 0.1702728271484375 0.04010009765625 2.563720703125 -5.268798828125 -0.0006730556488037109 -0.00042051076889038086 -0.029943466186523438 0.05944252014160156
18.2605 0.17256927490234375 0.03301239013671875 2.13037109375 -5.43359375 0.0005723536014556885 -0.0009040236473083496 -0.025135040283203125 0.062122344970703125
18.27025 0.17403411865234375 0.02568817138671875 1.69677734375 -5.573974609375 0.000737994909286499 -0.0008054375648498535 -0.01874542236328125 0.06447601318359375
18.28 0.1769866943359375 0.0181732177734375 1.2412109375 -5.69482421875 0.00011319294571876526 -1.5437602996826172e-05 -0.01338958740234375 0.06689453125
18.28975 0.17948150634765625 0.0095062255859375 0.792236328125 -5.774169921875 -0.0004891753196716309 -0.0010249614715576172 -0.0088348388671875 0.07011795043945312
18.2995 0.1811676025390625 0.00363922119140625 0.31396484375 -5.81689453125 0.00018733739852905273 -0.0011627674102783203 -0.002674102783203125 0.06972503662109375
18.30925 0.1808319091796875 -0.004608154296875 -0.171875 -5.80517578125 0.00033923983573913574 -0.00046002864837646484 0.00473785400390625 0.07154083251953125
18.319 0.18045806884765625 -0.01361846923828125 -0.650634765625 -5.755126953125 0.0004240274429321289 0.00012171268463134766 0.00794219970703125 0.07480239868164062
18.32875 0.18024444580078125 -0.01679229736328125 -1.10498046875 -5.654541015625 0.0006307363510131836 0.000607907772064209 0.016109466552734375 0.07396697998046875
18.3385 0.18157958984375 -0.02789306640625 -1.548828125 -5.51416015625 0.0008394718170166016 -0.0003425180912017822 0.02324676513671875 0.07725143432617188
18.34825 0.181121826171875 -0.035888671875 -1.974365234375 -5.362548828125 0.0001926720142364502 -0.00017505884170532227 0.027843475341796875 0.0771484375
18.358 0.1805267333984375 -0.04235076904296875 -2.376953125 -5.17919921875 8.049607276916504e-05 -0.0006096363067626953 0.03509521484375 0.075653076171875
18.36775 0.1784820556640625 -0.05074310302734375 -2.773681640625 -4.953125 8.016824722290039e-06 -0.0005451440811157227 0.040462493896484375 0.07496261596679688
18.3775 0.17826080322265625 -0.058013916015625 -3.150390625 -4.724853515625 0.00012163817882537842 -0.00016240030527114868 0.046695709228515625 0.07349395751953125
18.38725 0.17566680908203125 -0.067047119140625 -3.51904296875 -4.43505859375 0.0006892085075378418 -5.882978439331055e-05 0.0519866943359375 0.0735321044921875
18.397 0.171966552734375 -0.07501220703125 -3.8603515625 -4.12060546875 0.0004125535488128662 -2.7477741241455078e-05 0.057373046875 0.06964111328125
18.40675 0.170196533203125 -0.08099365234375 -4.18408203125 -3.77197265625 0.0002982616424560547 -0.0014737844467163086 0.0641021728515625 0.066162109375
18.4165 0.16498565673828125 -0.08850860595703125 -4.446044921875 -3.396728515625 0.00047323107719421387 0.00012880563735961914 0.06974029541015625 0.0632781982421875
18.42625 0.16045379638671875 -0.095672607421875 -4.664794921875 -3.003173828125 5.340576171875e-05 0.000737309455871582 0.07450103759765625 0.060211181640625
18.436 0.15557861328125 -0.10182952880859375 -4.851318359375 -2.613037109375 -0.0002797245979309082 0.0006133913993835449 0.07979583740234375 0.054656982421875
18.44575 0.15087127685546875 -0.11074066162109375 -5.0068359375 -2.2177734375 -0.001009821891784668 -0.0005950927734375 0.08399200439453125 0.0495452880859375
18.4555 0.146026611328125 -0.11565399169921875 -5.13671875 -1.8212890625 0.0008673369884490967 -0.00027754902839660645 0.0894317626953125 0.043487548828125
18.46525 0.141021728515625 -0.1233673095703125 -5.25732421875 -1.418701171875 0.0006775557994842529 -0.0005339086055755615 0.09259796142578125 0.03736114501953125
18.475 0.1332550048828125 -0.12827301025390625 -5.34765625 -1.006103515625 -0.0010904669761657715 -7.557868957519531e-05 0.09841156005859375 0.03136444091796875
18.48475 0.1286773681640625 -0.13503265380859375 -5.3984375 -0.565673828125 -0.0006058216094970703 -0.001091301441192627 0.1015625 0.02508544921875
18.4945 0.12116241455078125 -0.13996124267578125 -5.405517578125 -0.11474609375 -9.34898853302002e-05 -0.0006600916385650635 0.10384750366210938 0.018688201904296875
18.50425 0.1146087646484375 -0.1473236083984375 -5.3720703125 0.3369140625 -0.0004941821098327637 0.0001004934310913086 0.1040802001953125 0.01203155517578125
18.514 0.107666015625 -0.1505889892578125 -5.28759765625 0.77978515625 0.00012260675430297852 -0.00038105249404907227 0.1077880859375 0.00548553466796875
18.52375 0.0996246337890625 -0.15509796142578125 -5.143798828125 1.18896484375 -0.00025081634521484375 -0.0010159611701965332 0.10798263549804688 -0.00225067138671875
18.5335 0.092681884765625 -0.1585235595703125 -4.982177734375 1.564697265625 0.0003522634506225586 -0.0011385083198547363 0.109344482421875 -0.00899505615234375
18.54325 0.08531951904296875 -0.1635894775390625 -4.801025390625 1.912109375 0.0005019009113311768 -5.7816505432128906e-05 0.109039306640625 -0.015216827392578125
18.553 0.0769805908203125 -0.16663360595703125 -4.607666015625 2.24462890625 -0.0005314350128173828 -0.0007982850074768066 0.1063079833984375 -0.022182464599609375
18.56275 0.0699615478515625 -0.16748809814453125 -4.41015625 2.564208984375 0.0006616711616516113 -0.0008806288242340088 0.10639190673828125 -0.02748870849609375
18.5725 0.06212615966796875 -0.1698455810546875 -4.185302734375 2.87158203125 0.0005964338779449463 -0.0005279481410980225 0.10214614868164062 -0.03546142578125
18.58225 0.05344390869140625 -0.17236328125 -3.9385986328125 3.1776123046875 0.0005987286567687988 0.00039458274841308594 0.10001754760742188 -0.0405731201171875
18.592 0.04357147216796875 -0.1734466552734375 -3.656005859375 3.464599609375 0.0006235241889953613 -0.00038316845893859863 0.0970916748046875 -0.046283721923828125
18.60175 0.035430908203125 -0.1736907958984375 -3.3505859375 3.73095703125 0.0005813837051391602 -0.001240849494934082 0.0936279296875 -0.05039215087890625
18.6115 0.02783966064453125 -0.1724853515625 -3.0155029296875 3.947509765625 4.749000072479248e-05 1.5564262866973877e-05 0.08997344970703125 -0.058139801025390625
18.62125 0.0187835693359375 -0.1731719970703125 -2.66943359375 4.129150390625 -0.00011851266026496887 9.352713823318481e-05 0.08522796630859375 -0.062397003173828125
18.631 0.01003265380859375 -0.1728668212890625 -2.33203125 4.2607421875 -3.555417060852051e-05 -0.0005257725715637207 0.08083724975585938 -0.06854248046875
18.64075 0.00176239013671875 -0.17223358154296875 -1.995361328125 4.37255859375 5.364418029785156e-07 -0.0010401606559753418 0.07576751708984375 -0.0708770751953125
18.6505 -0.0047149658203125 -0.1713409423828125 -1.667724609375 4.469482421875 0.0012128353118896484 -0.0006993412971496582 0.07265853881835938 -0.0738525390625
18.66025 -0.01438140869140625 -0.16808319091796875 -1.341552734375 4.54541015625 0.00043782591819763184 -0.0003005713224411011 0.06436920166015625 -0.07629013061523438
18.67 -0.02114105224609375 -0.16705322265625 -1.01171875 4.61865234375 -0.0008231401443481445 -0.0010918378829956055 0.061603546142578125 -0.07910537719726562
18.67975 -0.03122711181640625 -0.1634368896484375 -0.66748046875 4.676025390625 0.0002384483814239502 -0.0009547173976898193 0.056079864501953125 -0.08135223388671875
18.6895 -0.03806304931640625 -0.16127777099609375 -0.30419921875 4.697265625 0.0002909451723098755 -8.45789909362793e-05 0.051025390625 -0.08194351196289062
