!Created with skrf (http://scikit-rf.org).
# GHz S RI R 50.0 
!freq ReS11 ImS11 ReS21 ImS21 ReS12 ImS12 ReS22 ImS22
17.5 0.00037384033203125 -0.14731597900390625 2.274169921875 -3.518310546875 -0.001034557819366455 0.00039690732955932617 0.10609054565429688 -0.007205963134765625
17.50975 -0.00940704345703125 -0.14418792724609375 1.996337890625 -3.6788330078125 -0.0009943842887878418 0.00040262937545776367 0.10832595825195312 -0.010807037353515625
17.5195 -0.0171661376953125 -0.13892364501953125 1.704833984375 -3.813720703125 -0.001706540584564209 0.0004037618637084961 0.1110687255859375 -0.01215362548828125
17.52925 -0.026702880859375 -0.1346282958984375 1.412109375 -3.93359375 -0.0022444725036621094 0.0009062290191650391 0.11167144775390625 -0.0174407958984375
17.539 -0.0315093994140625 -0.1280364990234375 1.114990234375 -4.024658203125 -0.0007589459419250488 -0.0001774430274963379 0.11197662353515625 -0.01920318603515625
17.54875 -0.0412139892578125 -0.12610626220703125 0.8134765625 -4.089111328125 -0.0016922950744628906 0.000626981258392334 0.11394882202148438 -0.022960662841796875
17.5585 -0.05022430419921875 -0.11948394775390625 0.51220703125 -4.14794921875 -0.000650256872177124 0.0003559589385986328 0.11449813842773438 -0.0278472900390625
17.56825 -0.0555572509765625 -0.11342620849609375 0.2119140625 -4.185302734375 -0.0017321109771728516 0.0006985068321228027 0.11558914184570312 -0.032283782958984375
17.578 -0.06345367431640625 -0.10687255859375 -0.112548828125 -4.201416015625 -0.0013889074325561523 0.001271665096282959 0.11570358276367188 -0.03707122802734375
17.58775 -0.06832122802734375 -0.1006622314453125 -0.4404296875 -4.19140625 -0.001841127872467041 0.0010437965393066406 0.11385726928710938 -0.0397796630859375
17.5975 -0.07273101806640625 -0.0948333740234375 -0.7802734375 -4.14794921875 -0.0017542839050292969 0.0009070038795471191 0.11324310302734375 -0.044307708740234375
17.60725 -0.079559326171875 -0.0881805419921875 -1.102294921875 -4.06298828125 -0.0010842680931091309 0.0009257197380065918 0.11036300659179688 -0.047725677490234375
17.617 -0.08409881591796875 -0.079986572265625 -1.4072265625 -3.950439453125 -0.0003921985626220703 0.0014625191688537598 0.11035919189453125 -0.052154541015625
17.62675 -0.08831787109375 -0.0730438232421875 -1.69482421875 -3.81494140625 -0.0007615089416503906 0.001222848892211914 0.1100311279296875 -0.05657196044921875
17.6365 -0.090576171875 -0.0641632080078125 -1.96484375 -3.6669921875 -0.0009098052978515625 0.0017824172973632812 0.1084747314453125 -0.05987548828125
17.64625 -0.0944976806640625 -0.05599212646484375 -2.205810546875 -3.510498046875 -0.0012129545211791992 0.0002232193946838379 0.10294342041015625 -0.06498336791992188
17.656 -0.0970458984375 -0.05060577392578125 -2.447021484375 -3.353759765625 -0.0012527108192443848 0.00017529726028442383 0.10206222534179688 -0.07027053833007812
17.66575 -0.10013580322265625 -0.03765869140625 -2.68310546875 -3.195068359375 -0.0006524324417114258 0.0012316107749938965 0.09960556030273438 -0.07251358032226562
17.6755 -0.1017608642578125 -0.03130340576171875 -2.916259765625 -3.014404296875 -0.0007279515266418457 0.0017469525337219238 0.09437942504882812 -0.07723236083984375
17.68525 -0.102691650390625 -0.0235443115234375 -3.15966796875 -2.8251953125 -0.00022660940885543823 1.8894672393798828e-05 0.0922698974609375 -0.08036041259765625
17.695 -0.10398101806640625 -0.01332855224609375 -3.40478515625 -2.595703125 -0.001431584358215332 0.0015845298767089844 0.08831024169921875 -0.0825958251953125
17.70475 -0.10431671142578125 -0.005279541015625 -3.627197265625 -2.31982421875 -0.0012285113334655762 0.0006665587425231934 0.08349990844726562 -0.08618927001953125
17.7145 -0.104278564453125 0.00234222412109375 -3.831298828125 -2.01708984375 1.4841556549072266e-05 0.001323103904724121 0.07774734497070312 -0.08968353271484375
17.72425 -0.103729248046875 0.01153564453125 -3.97900390625 -1.69140625 -0.00026702880859375 0.0018732547760009766 0.074005126953125 -0.09305191040039062
17.734 -0.1037750244140625 0.01981353759765625 -4.09375 -1.36279296875 -0.0003014802932739258 0.0010609626770019531 0.07147979736328125 -0.0953826904296875
17.74375 -0.10418319702148438 0.027393341064453125 -4.151123046875 -1.037353515625 -0.00048670172691345215 0.0009594559669494629 0.0647735595703125 -0.09787368774414062
17.7535 -0.09926605224609375 0.034053802490234375 -4.199462890625 -0.730712890625 -0.0007881820201873779 0.0007848441600799561 0.05982208251953125 -0.10049057006835938
17.76325 -0.09832000732421875 0.043468475341796875 -4.24365234375 -0.4375 -0.00033867359161376953 0.001989603042602539 0.054668426513671875 -0.10204315185546875
17.773 -0.09646987915039062 0.0496368408203125 -4.271728515625 -0.148681640625 0.0004309713840484619 0.00021839141845703125 0.050426483154296875 -0.10271835327148438
17.78275 -0.09224319458007812 0.05681610107421875 -4.288818359375 0.152099609375 -0.0011136531829833984 0.0005362033843994141 0.045299530029296875 -0.10350418090820312
17.7925 -0.08858108520507812 0.06322860717773438 -4.302001953125 0.4677734375 -0.0011002421379089355 0.0014907121658325195 0.040313720703125 -0.10422897338867188
17.80225 -0.08457183837890625 0.06919097900390625 -4.292236328125 0.80712890625 7.12275505065918e-05 0.001092076301574707 0.03548431396484375 -0.1052093505859375
17.812 -0.08002090454101562 0.07752227783203125 -4.2490234375 1.150634765625 0.0009417533874511719 0.0009313225746154785 0.030559539794921875 -0.103546142578125
17.82175 -0.07459640502929688 0.08476638793945312 -4.170166015625 1.498046875 0.0009741783142089844 0.0020520687103271484 0.02483367919921875 -0.101470947265625
17.8315 -0.06987762451171875 0.09076690673828125 -4.045654296875 1.838623046875 9.849667549133301e-05 0.0003394484519958496 0.0186920166015625 -0.10333633422851562
17.84125 -0.06505584716796875 0.09552764892578125 -3.893310546875 2.154541015625 -0.0009975433349609375 0.0014469623565673828 0.01300048828125 -0.10137176513671875
17.851 -0.05887603759765625 0.1019439697265625 -3.6986083984375 2.4451904296875 0.0006318092346191406 0.0010814070701599121 0.01071929931640625 -0.1006011962890625
17.86075 -0.0541839599609375 0.10562515258789062 -3.5089111328125 2.7088623046875 0.00030422210693359375 0.0011131763458251953 0.0047607421875 -0.09744644165039062
17.8705 -0.047840118408203125 0.110443115234375 -3.3028564453125 2.9669189453125 0.0005034208297729492 0.0019437074661254883 0.00060272216796875 -0.09745407104492188
17.88025 -0.041046142578125 0.11595535278320312 -3.091552734375 3.217041015625 0.0013785958290100098 -0.00020444393157958984 -0.005512237548828125 -0.09691238403320312
17.89 -0.035755157470703125 0.12166976928710938 -2.8675537109375 3.4593505859375 0.0010003447532653809 0.00031620264053344727 -0.007991790771484375 -0.09365463256835938
17.89975 -0.02706146240234375 0.124114990234375 -2.6070556640625 3.69970703125 -3.0994415283203125e-06 0.0014479756355285645 -0.015270233154296875 -0.09133148193359375
17.9095 -0.024322509765625 0.12786102294921875 -2.322021484375 3.9267578125 0.00010949373245239258 0.0011997222900390625 -0.018398284912109375 -0.0883941650390625
17.91925 -0.01617431640625 0.128814697265625 -2.0048828125 4.11865234375 0.0005981922149658203 0.0003508031368255615 -0.01944732666015625 -0.0856475830078125
17.929 -0.0103607177734375 0.13275146484375 -1.6787109375 4.296875 0.0006743669509887695 0.0004093647003173828 -0.02581787109375 -0.0827789306640625
17.93875 -0.0029296875 0.13304901123046875 -1.32421875 4.426025390625 0.0013741254806518555 0.000723719596862793 -0.0291595458984375 -0.08182525634765625
17.9485 0.0045318603515625 0.1345062255859375 -0.977294921875 4.518798828125 0.0007437467575073242 0.0002664923667907715 -0.03281402587890625 -0.07689285278320312
17.95825 0.0116119384765625 0.13626861572265625 -0.6201171875 4.5869140625 0.0014826059341430664 0.0007559061050415039 -0.03376007080078125 -0.07397079467773438
17.968 0.01849365234375 0.13703155517578125 -0.270751953125 4.63232421875 0.00029084086418151855 0.0005869269371032715 -0.03862762451171875 -0.0719757080078125
17.97775 0.02513885498046875 0.1358795166015625 0.07958984375 4.65087890625 0.0007148981094360352 0.001222848892211914 -0.04213714599609375 -0.06467437744140625
17.9875 0.0329132080078125 0.1368255615234375 0.448974609375 4.65771484375 0.00139617919921875 0.0008339881896972656 -0.04386138916015625 -0.062191009521484375
17.99725 0.04084014892578125 0.13645172119140625 0.81982421875 4.643310546875 0.000544428825378418 -0.0006078481674194336 -0.04880523681640625 -0.057437896728515625
18.007 0.04753875732421875 0.1358184814453125 1.203857421875 4.593017578125 0.00021266937255859375 0.001440882682800293 -0.04903411865234375 -0.052158355712890625
18.01675 0.05496978759765625 0.13526153564453125 1.58642578125 4.4951171875 0.0010104775428771973 0.0007544755935668945 -0.05319976806640625 -0.05019378662109375
18.0265 0.0613555908203125 0.1339111328125 1.96875 4.369140625 -7.203221321105957e-05 1.3493001461029053e-05 -0.05652618408203125 -0.0458984375
18.03625 0.06830596923828125 0.13373565673828125 2.3310546875 4.189697265625 0.0008537769317626953 0.0005773305892944336 -0.05792236328125 -0.040248870849609375
18.046 0.07447052001953125 0.1309051513671875 2.674072265625 3.974609375 0.0005817413330078125 0.0007408261299133301 -0.05825042724609375 -0.034271240234375
18.05575 0.0807952880859375 0.12779998779296875 2.976806640625 3.747802734375 0.0008236467838287354 0.00012794137001037598 -0.06220245361328125 -0.03150177001953125
18.0655 0.08792877197265625 0.12627410888671875 3.259521484375 3.500244140625 0.0009138584136962891 0.00018894672393798828 -0.06336593627929688 -0.02606201171875
18.07525 0.0925750732421875 0.1223907470703125 3.52978515625 3.233154296875 0.0012823939323425293 -7.611513137817383e-05 -0.06324386596679688 -0.0217132568359375
18.085 0.100677490234375 0.12042999267578125 3.788330078125 2.9453125 0.0009541511535644531 0.000660240650177002 -0.06417083740234375 -0.016353607177734375
18.09475 0.1049346923828125 0.11663818359375 4.018310546875 2.638916015625 -0.00019699335098266602 -0.00012893974781036377 -0.06226348876953125 -0.01219940185546875
18.1045 0.1113128662109375 0.11270904541015625 4.232421875 2.312744140625 6.859004497528076e-05 -0.00036960840225219727 -0.0640411376953125 -0.006175994873046875
18.11425 0.115997314453125 0.1105194091796875 4.417724609375 1.9482421875 0.001659989356994629 0.00024503469467163086 -0.0624542236328125 -0.0023193359375
18.124 0.1207275390625 0.1062774658203125 4.564453125 1.57568359375 0.0005123615264892578 0.0008935928344726562 -0.06243896484375 0.0042877197265625
18.13375 0.1270751953125 0.10279083251953125 4.67578125 1.19580078125 0.0005608499050140381 0.0001265406608581543 -0.06123161315917969 0.0086212158203125
18.1435 0.13043212890625 0.0974884033203125 4.747314453125 0.805908203125 0.0010868310928344727 -0.0003986954689025879 -0.0613250732421875 0.01670074462890625
18.15325 0.13617706298828125 0.09255218505859375 4.78759765625 0.4091796875 -7.092952728271484e-06 0.0005433559417724609 -0.058895111083984375 0.021270751953125
18.163 0.14081573486328125 0.0877532958984375 4.79541015625 0.021728515625 -0.0004895329475402832 -0.0007354617118835449 -0.056720733642578125 0.02503204345703125
18.17275 0.145904541015625 0.08196258544921875 4.765625 -0.356201171875 -0.0005348622798919678 0.00012114644050598145 -0.05309867858886719 0.030900955200195312
18.1825 0.14974212646484375 0.076202392578125 4.72705078125 -0.736083984375 0.00015878677368164062 3.419816493988037e-06 -0.05079078674316406 0.03753471374511719
18.19225 0.15380096435546875 0.0706634521484375 4.65576171875 -1.11962890625 0.00025177001953125 -0.0006999969482421875 -0.048549652099609375 0.04189109802246094
18.202 0.157928466796875 0.0658111572265625 4.55224609375 -1.48974609375 0.0011730194091796875 0.00047957897186279297 -0.047260284423828125 0.045726776123046875
18.21175 0.16082763671875 0.06011962890625 4.4111328125 -1.86669921875 0.0008398294448852539 -0.0001201629638671875 -0.043853759765625 0.05051422119140625
18.2215 0.16513824462890625 0.05231475830078125 4.223876953125 -2.22021484375 0.0011233091354370117 -0.00022333860397338867 -0.03797149658203125 0.05471611022949219
18.23125 0.16905975341796875 0.0480499267578125 4.018798828125 -2.54833984375 -0.0004774332046508789 -0.0016803741455078125 -0.03558540344238281 0.05712890625
18.241 0.1712493896484375 0.04062652587890625 3.7813720703125 -2.8529052734375 0.0018624663352966309 -0.0010166764259338379 -0.03095245361328125 0.06140327453613281
18.25075 0.17235565185546875 0.03392791748046875 3.5277099609375 -3.1290283203125 -0.0003546476364135742 -0.0005819797515869141 -0.025524139404296875 0.06414413452148438
18.2605 0.17487335205078125 0.02878570556640625 3.25390625 -3.378173828125 0.0006519854068756104 -0.0002741813659667969 -0.020244598388671875 0.06681442260742188
18.27025 0.17736053466796875 0.02034759521484375 2.973388671875 -3.6107177734375 0.0009322166442871094 -0.0013089776039123535 -0.014507293701171875 0.07055282592773438
18.28 0.178558349609375 0.0139007568359375 2.6746826171875 -3.836181640625 0.0006806254386901855 0.00041097402572631836 -0.0098876953125 0.07155227661132812
18.28975 0.18102264404296875 0.00519561767578125 2.362060546875 -4.031982421875 -0.0004069209098815918 -0.0004023909568786621 -0.001953125 0.07517623901367188
18.2995 0.18172454833984375 -0.0015869140625 2.026123046875 -4.2001953125 0.0006232857704162598 -0.0013306736946105957 0.002544403076171875 0.0749969482421875
18.30925 0.1800994873046875 -0.00946044921875 1.66455078125 -4.3408203125 0.0011185407638549805 -0.0009398460388183594 0.00991058349609375 0.07769012451171875
18.319 0.1803741455078125 -0.0187225341796875 1.302734375 -4.439697265625 -0.0012390613555908203 -0.0009070634841918945 0.013797760009765625 0.07813262939453125
18.32875 0.18042755126953125 -0.0226593017578125 0.935791015625 -4.507080078125 0.0004477500915527344 -0.0005106925964355469 0.02248382568359375 0.07844924926757812
18.3385 0.1790924072265625 -0.03290557861328125 0.574462890625 -4.539794921875 -0.00010970234870910645 -0.0005868673324584961 0.029941558837890625 0.07746124267578125
18.34825 0.17961883544921875 -0.041534423828125 0.221923828125 -4.56005859375 -0.0005646347999572754 -0.0005806088447570801 0.03572845458984375 0.07802581787109375
18.358 0.17761993408203125 -0.0472259521484375 -0.127685546875 -4.547119140625 -5.874037742614746e-05 0.0004338473081588745 0.042675018310546875 0.07734298706054688
18.36775 0.1756134033203125 -0.05490875244140625 -0.487060546875 -4.51416015625 0.0005207657814025879 -0.0010383129119873047 0.0470733642578125 0.07411956787109375
18.3775 0.1740570068359375 -0.06241607666015625 -0.834228515625 -4.4619140625 0.0011400580406188965 -0.0011500120162963867 0.053802490234375 0.0727691650390625
18.38725 0.171234130859375 -0.07071685791015625 -1.196044921875 -4.371337890625 0.00048032402992248535 0.00013011693954467773 0.06050872802734375 0.07183074951171875
18.397 0.1685791015625 -0.0765228271484375 -1.5439453125 -4.24169921875 0.0005068778991699219 -0.00036257505416870117 0.0659637451171875 0.067779541015625
18.40675 0.1659393310546875 -0.084014892578125 -1.88720703125 -4.0849609375 -0.00023570656776428223 -1.6242265701293945e-05 0.0725555419921875 0.0641326904296875
18.4165 0.161529541015625 -0.09194183349609375 -2.189453125 -3.889404296875 0.0006191134452819824 -0.0006608068943023682 0.0776214599609375 0.06056976318359375
18.42625 0.15724945068359375 -0.0974578857421875 -2.4736328125 -3.67431640625 4.284083843231201e-05 -0.0004334002733230591 0.08165740966796875 0.0559844970703125
18.436 0.1506805419921875 -0.10317230224609375 -2.718994140625 -3.44189453125 -5.85019588470459e-05 0.0003305971622467041 0.08913421630859375 0.0509185791015625
18.44575 0.14698028564453125 -0.11112213134765625 -2.959228515625 -3.208251953125 0.000723421573638916 -0.0010938048362731934 0.091705322265625 0.04526519775390625
18.4555 0.14080047607421875 -0.116607666015625 -3.177490234375 -2.96142578125 -0.001432180404663086 -0.0006448030471801758 0.0939178466796875 0.03954315185546875
18.46525 0.136627197265625 -0.12381744384765625 -3.390625 -2.71142578125 0.0007485747337341309 -0.0004988610744476318 0.09877777099609375 0.0315704345703125
18.475 0.1295013427734375 -0.12801361083984375 -3.58740234375 -2.438232421875 -0.0003775358200073242 0.001491844654083252 0.1018524169921875 0.02642059326171875
18.48475 0.123565673828125 -0.1341400146484375 -3.767578125 -2.137939453125 0.0002636909484863281 -0.0004282444715499878 0.10503387451171875 0.018459320068359375
18.4945 0.117095947265625 -0.13953399658203125 -3.916015625 -1.80908203125 0.00013747811317443848 -0.000527501106262207 0.1074371337890625 0.011974334716796875
18.50425 0.109710693359375 -0.144805908203125 -4.03369140625 -1.466796875 -0.0007200241088867188 -0.0003980398178100586 0.108367919921875 0.004180908203125
18.514 0.10369873046875 -0.1482391357421875 -4.10107421875 -1.1181640625 -0.0005774497985839844 -0.002223968505859375 0.1097869873046875 -0.0015106201171875
18.52375 0.095306396484375 -0.15155029296875 -4.131591796875 -0.776123046875 0.0006832778453826904 -4.336237907409668e-05 0.1094512939453125 -0.00836944580078125
18.5335 0.09062957763671875 -0.15651702880859375 -4.130615234375 -0.455322265625 0.0009134411811828613 0.0001895427703857422 0.11069107055664062 -0.01593017578125
18.54325 0.08393096923828125 -0.16040802001953125 -4.10888671875 -0.151611328125 0.0014682412147521973 -0.0008942484855651855 0.10956573486328125 -0.023281097412109375
18.553 0.0760040283203125 -0.16342926025390625 -4.07177734375 0.150146484375 -0.00041165947914123535 0.0003879964351654053 0.10628128051757812 -0.02817535400390625
18.56275 0.0667572021484375 -0.164154052734375 -4.032958984375 0.442138671875 -0.0002678036689758301 -0.0008849501609802246 0.104248046875 -0.03330230712890625
18.5725 0.05928802490234375 -0.1665802001953125 -3.971435546875 0.7352294921875 -0.0007540583610534668 -0.0004278421401977539 0.10137557983398438 -0.0407562255859375
18.58225 0.05176544189453125 -0.16896820068359375 -3.88818359375 1.03564453125 0.0008278787136077881 -0.0008466541767120361 0.09823989868164062 -0.047821044921875
18.592 0.0424957275390625 -0.17034912109375 -3.7796630859375 1.3365478515625 0.0004514455795288086 -0.0011421442031860352 0.09531021118164062 -0.053985595703125
18.60175 0.0350799560546875 -0.17071533203125 -3.64208984375 1.62744140625 0.0007104873657226562 5.257129669189453e-05 0.09088897705078125 -0.05687713623046875
18.6115 0.026824951171875 -0.170196533203125 -3.46923828125 1.8896484375 0.0007809102535247803 -0.0007503926753997803 0.08671951293945312 -0.06488418579101562
18.62125 0.01845550537109375 -0.1689300537109375 -3.2786865234375 2.1312255859375 8.276104927062988e-05 -0.00043267011642456055 0.08124160766601562 -0.06948089599609375
18.631 0.01145172119140625 -0.16901397705078125 -3.0794677734375 2.3310546875 0.0007987618446350098 -0.0007918477058410645 0.07752227783203125 -0.07275009155273438
18.64075 0.00301361083984375 -0.16831207275390625 -2.8731689453125 2.5224609375 0.001223444938659668 -0.0007901787757873535 0.0721588134765625 -0.07625579833984375
18.6505 -0.00445556640625 -0.16806793212890625 -2.6708984375 2.6966552734375 -0.0004081428050994873 -0.00041797757148742676 0.06617355346679688 -0.07828140258789062
18.66025 -0.014556884765625 -0.16556549072265625 -2.459716796875 2.859130859375 0.00030587613582611084 -0.0002859830856323242 0.0598907470703125 -0.08076858520507812
18.67 -0.01882171630859375 -0.16412353515625 -2.243896484375 3.019287109375 0.000994265079498291 0.00046712160110473633 0.05511474609375 -0.08240890502929688
18.67975 -0.02980804443359375 -0.16149139404296875 -2.0106201171875 3.17236328125 0.0012169480323791504 -0.0017368793487548828 0.048633575439453125 -0.08548355102539062
