!Created with skrf (http://scikit-rf.org).
# GHz S RI R 50.0 
!freq ReS11 ImS11 ReS21 ImS21 ReS12 ImS12 ReS22 ImS22
17.5 0.003021240234375 -0.13768768310546875 -3.240234375 -2.309814453125 -0.00041598081588745117 -9.375810623168945e-05 0.09119415283203125 -0.008449554443359375
17.50975 -0.00678253173828125 -0.134429931640625 -3.4013671875 -2.049560546875 -0.0022319555282592773 0.0007392168045043945 0.09372711181640625 -0.007305145263671875
17.5195 -0.011871337890625 -0.12845611572265625 -3.541748046875 -1.777099609375 -0.00117570161819458 0.00022333860397338867 0.09384536743164062 -0.0090179443359375
17.52925 -0.02278900146484375 -0.1252593994140625 -3.66259765625 -1.502197265625 -0.0009030699729919434 0.0010548233985900879 0.097015380859375 -0.01345062255859375
17.539 -0.0260009765625 -0.1187286376953125 -3.76025390625 -1.21875 -0.0003318488597869873 0.0003210306167602539 0.09702301025390625 -0.01311492919921875
17.54875 -0.0346527099609375 -0.1145477294921875 -3.828857421875 -0.936279296875 -0.0009239315986633301 0.0013194084167480469 0.09900283813476562 -0.016876220703125
17.5585 -0.0429840087890625 -0.11020660400390625 -3.8916015625 -0.652587890625 -0.00020042061805725098 0.0006141364574432373 0.1012420654296875 -0.02063751220703125
17.56825 -0.04819488525390625 -0.1051025390625 -3.935546875 -0.374755859375 -0.0013968348503112793 0.0015590190887451172 0.101654052734375 -0.0226593017578125
17.578 -0.05313873291015625 -0.09841156005859375 -3.96044921875 -0.072998046875 -0.00018197298049926758 0.0005449950695037842 0.1020050048828125 -0.026859283447265625
17.58775 -0.05971527099609375 -0.09381103515625 -3.96337890625 0.233154296875 -0.0005013942718505859 0.00022795796394348145 0.10288238525390625 -0.029659271240234375
17.5975 -0.0642242431640625 -0.08768463134765625 -3.9317626953125 0.55126953125 -0.001365363597869873 0.00188523530960083 0.10268402099609375 -0.031536102294921875
17.60725 -0.06801605224609375 -0.0838165283203125 -3.87060546875 0.8544921875 -0.0009840130805969238 0.0014672279357910156 0.10273361206054688 -0.035182952880859375
17.617 -0.07230377197265625 -0.07482147216796875 -3.7823486328125 1.1473388671875 -0.0017035603523254395 -0.00017791986465454102 0.10240554809570312 -0.03762054443359375
17.62675 -0.0777130126953125 -0.0674591064453125 -3.668212890625 1.4228515625 -0.0009605884552001953 0.0019512176513671875 0.1021881103515625 -0.04215240478515625
17.6365 -0.0802154541015625 -0.062255859375 -3.532958984375 1.685302734375 -0.0007048845291137695 0.0016317367553710938 0.1012115478515625 -0.045440673828125
17.64625 -0.08365631103515625 -0.053955078125 -3.394775390625 1.9188232421875 -0.001013636589050293 0.0014116764068603516 0.0986785888671875 -0.049686431884765625
17.656 -0.0843048095703125 -0.0476531982421875 -3.25048828125 2.1483154296875 6.282329559326172e-05 0.0011883974075317383 0.09755706787109375 -0.052623748779296875
17.66575 -0.08743667602539062 -0.0386962890625 -3.1124267578125 2.3709716796875 -0.0009395778179168701 0.000874638557434082 0.09614944458007812 -0.05783843994140625
17.6755 -0.08977127075195312 -0.03276824951171875 -2.953125 2.589111328125 -0.00023126602172851562 0.0016543269157409668 0.09379196166992188 -0.062164306640625
17.68525 -0.08922195434570312 -0.02474212646484375 -2.7899169921875 2.8177490234375 -0.0009164214134216309 0.0014763474464416504 0.09160232543945312 -0.06507110595703125
17.695 -0.09170150756835938 -0.01624298095703125 -2.588623046875 3.05126953125 -0.0013559460639953613 0.0018442273139953613 0.08988571166992188 -0.068267822265625
17.70475 -0.09208297729492188 -0.00708770751953125 -2.353515625 3.266845703125 -0.0003489255905151367 0.0009418725967407227 0.08658599853515625 -0.06982421875
17.7145 -0.092498779296875 -0.000896453857421875 -2.0902099609375 3.4703369140625 1.6763806343078613e-07 0.00011163577437400818 0.08343124389648438 -0.07418441772460938
17.72425 -0.0921173095703125 0.006046295166015625 -1.799072265625 3.630859375 -0.00037348270416259766 0.0009687542915344238 0.08075332641601562 -0.07695388793945312
17.734 -0.093902587890625 0.01409912109375 -1.499755859375 3.754638671875 7.331371307373047e-06 -0.0002644658088684082 0.07727813720703125 -0.08170318603515625
17.74375 -0.0922698974609375 0.0204010009765625 -1.200927734375 3.8291015625 -0.000616610050201416 0.0006940364837646484 0.0719146728515625 -0.0857086181640625
17.7535 -0.089202880859375 0.02616119384765625 -0.9146728515625 3.8900146484375 -8.857250213623047e-05 0.000663459300994873 0.067840576171875 -0.08781051635742188
17.76325 -0.08977508544921875 0.03406524658203125 -0.6451416015625 3.936279296875 -0.001081228256225586 0.0010071992874145508 0.06370162963867188 -0.09108734130859375
17.773 -0.088409423828125 0.04032135009765625 -0.3797607421875 3.978271484375 -0.000768125057220459 0.0017913579940795898 0.06035614013671875 -0.09148788452148438
17.78275 -0.084991455078125 0.046070098876953125 -0.1044921875 4.006591796875 0.0008183717727661133 0.0012793540954589844 0.058017730712890625 -0.09228897094726562
17.7925 -0.08230972290039062 0.05267333984375 0.1767578125 4.036376953125 6.571412086486816e-05 0.0002043396234512329 0.0520477294921875 -0.09360504150390625
17.80225 -0.07764816284179688 0.0589599609375 0.47998046875 4.049560546875 -7.838010787963867e-05 0.0013880133628845215 0.049716949462890625 -0.09415435791015625
17.812 -0.07498550415039062 0.06504440307617188 0.795166015625 4.036865234375 -0.0003336668014526367 0.0014073848724365234 0.043376922607421875 -0.09563827514648438
17.82175 -0.07022857666015625 0.071258544921875 1.11669921875 3.988525390625 3.743171691894531e-05 0.0015428662300109863 0.041412353515625 -0.09493637084960938
17.8315 -0.06783676147460938 0.07770919799804688 1.441162109375 3.904541015625 -6.592273712158203e-05 0.001307368278503418 0.03606414794921875 -0.0968780517578125
17.84125 -0.062744140625 0.0811767578125 1.7490234375 3.7890625 6.461143493652344e-05 0.0023903846740722656 0.02986907958984375 -0.0976104736328125
17.851 -0.058216094970703125 0.08904647827148438 2.02978515625 3.627685546875 0.0011696815490722656 0.0019731521606445312 0.0266571044921875 -0.09749603271484375
17.86075 -0.05413818359375 0.09180450439453125 2.2900390625 3.473388671875 0.0005274713039398193 -0.0003406703472137451 0.020294189453125 -0.09546661376953125
17.8705 -0.048473358154296875 0.09850692749023438 2.53759765625 3.298828125 0.000893712043762207 0.0015902519226074219 0.01706695556640625 -0.09648513793945312
17.88025 -0.045894622802734375 0.10247802734375 2.77783203125 3.12109375 -0.0003558993339538574 0.0011977553367614746 0.01122283935546875 -0.09698104858398438
17.89 -0.040576934814453125 0.10689926147460938 3.011474609375 2.94140625 0.0013147592544555664 0.001215219497680664 0.006946563720703125 -0.09546279907226562
17.89975 -0.035228729248046875 0.11035537719726562 3.249755859375 2.725341796875 0.0004062652587890625 0.0005791783332824707 0.000667572021484375 -0.095367431640625
17.9095 -0.030872344970703125 0.11427688598632812 3.482666015625 2.495361328125 0.0008897781372070312 0.00030678510665893555 -0.002643585205078125 -0.09535980224609375
17.91925 -0.023815155029296875 0.11751556396484375 3.6962890625 2.2333984375 0.0006960630416870117 0.0010486245155334473 -0.00708770751953125 -0.09244918823242188
17.929 -0.01851654052734375 0.1207122802734375 3.89306640625 1.94775390625 0.0005004405975341797 0.000885009765625 -0.0112152099609375 -0.0922393798828125
17.93875 -0.01288604736328125 0.12201309204101562 4.052734375 1.63525390625 0.00048804283142089844 0.0016787052154541016 -0.014469146728515625 -0.08966827392578125
17.9485 -0.006359100341796875 0.12379837036132812 4.177490234375 1.318603515625 0.0009652376174926758 -1.2427568435668945e-05 -0.017978668212890625 -0.08563995361328125
17.95825 -0.00066375732421875 0.126556396484375 4.2783203125 0.991455078125 0.0008219480514526367 0.0015108585357666016 -0.021381378173828125 -0.0859375
17.968 0.00534820556640625 0.1287078857421875 4.35498046875 0.669921875 -0.00016999244689941406 0.0010205507278442383 -0.02695465087890625 -0.08332443237304688
17.97775 0.01181793212890625 0.1286468505859375 4.406982421875 0.34912109375 -0.00042578577995300293 -0.00024449825286865234 -0.031841278076171875 -0.07788467407226562
17.9875 0.01966094970703125 0.13111114501953125 4.45361328125 0.009765625 0.0006073713302612305 0.0014202594757080078 -0.034427642822265625 -0.07589340209960938
17.99725 0.02526092529296875 0.13205718994140625 4.48046875 -0.326416015625 0.001762986183166504 0.0008553266525268555 -0.038665771484375 -0.07291793823242188
18.007 0.031585693359375 0.13289642333984375 4.48046875 -0.683837890625 0.0004493892192840576 0.0004896223545074463 -0.04144287109375 -0.06940841674804688
18.01675 0.03905487060546875 0.1334228515625 4.448486328125 -1.049560546875 0.0002544522285461426 -0.001132369041442871 -0.04697418212890625 -0.06395339965820312
18.0265 0.045166015625 0.13323974609375 4.38134765625 -1.423828125 0.0010902881622314453 0.0013344287872314453 -0.051300048828125 -0.06089019775390625
18.03625 0.0526275634765625 0.134033203125 4.26953125 -1.79345703125 0.0012269020080566406 0.0012540817260742188 -0.05306243896484375 -0.05750274658203125
18.046 0.05799102783203125 0.13372802734375 4.119873046875 -2.15185546875 0.001607656478881836 0.0002741217613220215 -0.055919647216796875 -0.051998138427734375
18.05575 0.06561279296875 0.1321258544921875 3.9459228515625 -2.481689453125 0.000713050365447998 0.0010911822319030762 -0.059581756591796875 -0.047679901123046875
18.0655 0.07205963134765625 0.13251495361328125 3.7388916015625 -2.7879638671875 0.0007423162460327148 0.00015336275100708008 -0.06374359130859375 -0.0429534912109375
18.07525 0.0784759521484375 0.13033294677734375 3.513916015625 -3.085205078125 0.0011568665504455566 -0.00040978193283081055 -0.064453125 -0.03739166259765625
18.085 0.08568572998046875 0.128814697265625 3.2708740234375 -3.3681640625 0.0015478730201721191 0.00017189979553222656 -0.06650543212890625 -0.034305572509765625
18.09475 0.09243011474609375 0.126861572265625 3.0150146484375 -3.637451171875 0.0009444355964660645 -0.0004445314407348633 -0.06645584106445312 -0.0292205810546875
18.1045 0.0998992919921875 0.1241302490234375 2.728515625 -3.8880615234375 5.653500556945801e-05 0.00045305490493774414 -0.0691986083984375 -0.021587371826171875
18.11425 0.1058807373046875 0.122314453125 2.403564453125 -4.1201171875 0.0011543631553649902 -0.0012257695198059082 -0.07057952880859375 -0.0177459716796875
18.124 0.1107940673828125 0.1198577880859375 2.06396484375 -4.32421875 0.0016269683837890625 -0.0006476640701293945 -0.0706939697265625 -0.01163482666015625
18.13375 0.1164703369140625 0.1163330078125 1.70849609375 -4.49365234375 0.0005407333374023438 -0.00026023387908935547 -0.070465087890625 -0.00592803955078125
18.1435 0.12400054931640625 0.111053466796875 1.332763671875 -4.623046875 2.9161572456359863e-05 0.0004245638847351074 -0.07097625732421875 0.001434326171875
18.15325 0.1298065185546875 0.1077117919921875 0.943359375 -4.72607421875 -4.887580871582031e-05 -0.00036989152431488037 -0.07108306884765625 0.0064697265625
18.163 0.1372528076171875 0.10353851318359375 0.558349609375 -4.788818359375 0.000567317008972168 -0.0012856721878051758 -0.0702972412109375 0.014125823974609375
18.17275 0.1423187255859375 0.09781646728515625 0.16796875 -4.820556640625 0.0005446076393127441 -0.001155853271484375 -0.06743621826171875 0.020168304443359375
18.1825 0.14962005615234375 0.09265899658203125 -0.22021484375 -4.836181640625 0.0013352036476135254 -0.0004819035530090332 -0.06513214111328125 0.026325225830078125
18.19225 0.1534881591796875 0.08687591552734375 -0.626220703125 -4.823974609375 0.00102156400680542 -0.0013692378997802734 -0.0628662109375 0.032604217529296875
18.202 0.15892791748046875 0.0823211669921875 -1.015625 -4.767578125 -0.00022596120834350586 -0.000376969575881958 -0.06322860717773438 0.03792572021484375
18.21175 0.1636505126953125 0.075531005859375 -1.42724609375 -4.6728515625 0.0005376338958740234 0.0002875328063964844 -0.060794830322265625 0.044361114501953125
18.2215 0.16961669921875 0.0691680908203125 -1.816650390625 -4.531494140625 0.0004737377166748047 -0.0011476874351501465 -0.055690765380859375 0.0489044189453125
18.23125 0.1749114990234375 0.06198883056640625 -2.18798828125 -4.361083984375 0.0008316934108734131 -0.00013563036918640137 -0.055004119873046875 0.05379486083984375
18.241 0.179443359375 0.05493927001953125 -2.533203125 -4.155029296875 0.00016951560974121094 -0.0011862516403198242 -0.0488128662109375 0.05857658386230469
18.25075 0.1820068359375 0.04830169677734375 -2.851806640625 -3.927001953125 -0.00046625733375549316 -0.0005519390106201172 -0.043872833251953125 0.06357955932617188
18.2605 0.1853485107421875 0.0402069091796875 -3.145263671875 -3.67578125 0.0009897947311401367 -0.0005736947059631348 -0.03969573974609375 0.0683441162109375
18.27025 0.18685150146484375 0.03258514404296875 -3.42724609375 -3.414794921875 -0.00015586614608764648 -0.0005593299865722656 -0.03229522705078125 0.07226943969726562
18.28 0.189849853515625 0.0235443115234375 -3.696533203125 -3.1298828125 0.000543057918548584 0.0006111860275268555 -0.028034210205078125 0.07614517211914062
18.28975 0.1943359375 0.01407623291015625 -3.94091796875 -2.8291015625 0.0013614296913146973 -0.0009895563125610352 -0.020092010498046875 0.07966232299804688
18.2995 0.1941986083984375 0.00716400146484375 -4.165283203125 -2.489013671875 0.00017532706260681152 -0.00025124847888946533 -0.015171051025390625 0.08092117309570312
18.30925 0.1941375732421875 -0.0031585693359375 -4.35791015625 -2.12109375 -8.702278137207031e-05 -0.0012531280517578125 -0.007537841796875 0.08513641357421875
18.319 0.19564056396484375 -0.012725830078125 -4.5087890625 -1.7421875 -0.0004096031188964844 -0.0007992982864379883 -0.00144195556640625 0.08740234375
18.32875 0.194580078125 -0.01880645751953125 -4.616943359375 -1.357177734375 -0.00036787986755371094 -0.0005629360675811768 0.00620269775390625 0.088165283203125
18.3385 0.19286346435546875 -0.0304107666015625 -4.68359375 -0.970947265625 0.0002861618995666504 -0.0011246204376220703 0.016357421875 0.0911102294921875
18.34825 0.193206787109375 -0.03975677490234375 -4.72705078125 -0.5947265625 0.00015997886657714844 -0.0014153122901916504 0.020656585693359375 0.09247970581054688
18.358 0.19274139404296875 -0.0490264892578125 -4.748046875 -0.2265625 0.0011518001556396484 0.00043898820877075195 0.029857635498046875 0.09218215942382812
18.36775 0.1901702880859375 -0.05661773681640625 -4.7451171875 0.153076171875 0.0009297728538513184 0.0004451274871826172 0.03655242919921875 0.08991241455078125
18.3775 0.1880340576171875 -0.06583404541015625 -4.724853515625 0.52001953125 0.0006630122661590576 -0.0006468296051025391 0.0440521240234375 0.0897674560546875
18.38725 0.18532562255859375 -0.07470703125 -4.662109375 0.90966796875 -1.864507794380188e-05 -6.0576945543289185e-05 0.0507049560546875 0.0883636474609375
18.397 0.1806182861328125 -0.0828704833984375 -4.5595703125 1.291015625 4.500150680541992e-05 -0.0003033280372619629 0.0572967529296875 0.0866241455078125
18.40675 0.17779541015625 -0.0903778076171875 -4.42529296875 1.67431640625 0.00012862682342529297 -0.0002748072147369385 0.0668182373046875 0.08221435546875
18.4165 0.17334747314453125 -0.10068511962890625 -4.244384765625 2.0244140625 0.00016754865646362305 -0.00032570958137512207 0.07338714599609375 0.08123016357421875
18.42625 0.16751861572265625 -0.1081085205078125 -4.0302734375 2.34814453125 0.0004616379737854004 -0.0015614032745361328 0.07990264892578125 0.07390594482421875
18.436 0.16199493408203125 -0.11415863037109375 -3.8031005859375 2.6326904296875 0.0002605915069580078 -0.00012487173080444336 0.08771514892578125 0.07050323486328125
18.44575 0.15573883056640625 -0.12203216552734375 -3.563232421875 2.9013671875 9.51811671257019e-05 1.2546777725219727e-05 0.090728759765625 0.06432342529296875
18.4555 0.14893341064453125 -0.12854766845703125 -3.315673828125 3.1441650390625 -0.0004298686981201172 -0.0005072355270385742 0.097320556640625 0.05945587158203125
18.46525 0.1432952880859375 -0.1353759765625 -3.0672607421875 3.3851318359375 -0.00017943978309631348 -0.0004107654094696045 0.10391998291015625 0.05109405517578125
18.475 0.134429931640625 -0.14119720458984375 -2.798828125 3.610595703125 0.0001468658447265625 0.000593721866607666 0.10750579833984375 0.0457916259765625
18.48475 0.12783050537109375 -0.1488494873046875 -2.4971923828125 3.826904296875 -0.0009899735450744629 -0.0002448558807373047 0.113250732421875 0.035980224609375
18.4945 0.11986541748046875 -0.15161895751953125 -2.16455078125 4.010009765625 0.00046196579933166504 -0.00067940354347229 0.11626434326171875 0.028839111328125
18.50425 0.1115875244140625 -0.1576080322265625 -1.80810546875 4.17333984375 0.00032514333724975586 -0.0002703368663787842 0.11737060546875 0.0216064453125
18.514 0.1057891845703125 -0.1621856689453125 -1.43994140625 4.27294921875 2.8908252716064453e-05 -0.0002994239330291748 0.1215972900390625 0.013031005859375
18.52375 0.09465789794921875 -0.16451263427734375 -1.074462890625 4.334716796875 0.0005733668804168701 -0.00018346309661865234 0.122711181640625 0.00450897216796875
18.5335 0.0870513916015625 -0.16905975341796875 -0.72509765625 4.357666015625 0.0013124942779541016 -0.00031566619873046875 0.124237060546875 -0.00244140625
18.54325 0.07961273193359375 -0.1718597412109375 -0.391357421875 4.3544921875 0.0002663135528564453 0.0009526610374450684 0.12405776977539062 -0.01016998291015625
18.553 0.0696563720703125 -0.17446136474609375 -0.067626953125 4.332275390625 -0.00030496716499328613 -0.0003517270088195801 0.12281036376953125 -0.018035888671875
18.56275 0.06121063232421875 -0.17496490478515625 0.24658203125 4.31103515625 0.0007697939872741699 -0.0009051263332366943 0.12173843383789062 -0.025966644287109375
18.5725 0.0520477294921875 -0.17716217041015625 0.564697265625 4.263916015625 0.00012823939323425293 -0.0006753206253051758 0.11950302124023438 -0.033557891845703125
18.58225 0.04376220703125 -0.176605224609375 0.890869140625 4.2001953125 9.636580944061279e-05 0.00029075145721435547 0.11674880981445312 -0.042453765869140625
18.592 0.0347442626953125 -0.1793212890625 1.2158203125 4.1005859375 -0.0010834932327270508 0.0007683634757995605 0.1130218505859375 -0.0488433837890625
18.60175 0.02679443359375 -0.1779632568359375 1.5390625 3.97509765625 0.0010448694229125977 -0.0014958381652832031 0.107696533203125 -0.05474853515625
18.6115 0.01859283447265625 -0.17667388916015625 1.837158203125 3.804931640625 -0.0001462697982788086 -0.000858008861541748 0.10471343994140625 -0.06267547607421875
18.62125 0.00782012939453125 -0.174652099609375 2.111328125 3.61474609375 -0.00017304718494415283 -0.00026015937328338623 0.09911346435546875 -0.06854629516601562
18.631 0.0013427734375 -0.17450714111328125 2.341064453125 3.41455078125 0.00014275312423706055 -0.0011461377143859863 0.09429550170898438 -0.07342910766601562
18.64075 -0.0072784423828125 -0.1724090576171875 2.55419921875 3.20458984375 -0.0005883872509002686 -7.033348083496094e-06 0.08953857421875 -0.07783889770507812
18.6505 -0.01397705078125 -0.17055511474609375 2.753173828125 2.99658203125 0.0002845674753189087 -0.00021973252296447754 0.08479690551757812 -0.08425521850585938
18.66025 -0.02392578125 -0.1675567626953125 2.9462890625 2.788818359375 -0.0006113648414611816 -0.0010218620300292969 0.076416015625 -0.08533859252929688
18.67 -0.02999114990234375 -0.16318511962890625 3.130615234375 2.566650390625 0.0006286203861236572 -0.0005608797073364258 0.0718536376953125 -0.089080810546875
18.67975 -0.0384063720703125 -0.1611175537109375 3.313720703125 2.33349609375 -0.00015544891357421875 -0.0009192824363708496 0.06396102905273438 -0.09222030639648438
18.6895 -0.04416656494140625 -0.157257080078125 3.475830078125 2.06640625 -0.00019401311874389648 -0.001241922378540039 0.059703826904296875 -0.09296417236328125
