!Created with skrf (http://scikit-rf.org).
# GHz S RI R 50.0 
!freq ReS11 ImS11 ReS21 ImS21 ReS12 ImS12 ReS22 ImS22
17.5 -0.0033721923828125 -0.142669677734375 -0.34521484375 -4.599853515625 -0.0009996891021728516 0.0006235837936401367 0.10028076171875 -0.011920928955078125
17.50975 -0.0101776123046875 -0.13819122314453125 -0.695556640625 -4.55810546875 1.6868114471435547e-05 0.0006463825702667236 0.10073471069335938 -0.01342010498046875
17.5195 -0.01815032958984375 -0.1339569091796875 -1.035888671875 -4.48095703125 -0.0009749829769134521 0.0005305707454681396 0.1030731201171875 -0.0163421630859375
17.52925 -0.027587890625 -0.1288604736328125 -1.3720703125 -4.39013671875 -0.00013431906700134277 -0.0001461803913116455 0.10456085205078125 -0.01888275146484375
17.539 -0.03302001953125 -0.1238250732421875 -1.6923828125 -4.2734375 -0.0013693571090698242 0.0009319782257080078 0.10453033447265625 -0.02184295654296875
17.54875 -0.04174041748046875 -0.1181182861328125 -1.99951171875 -4.127685546875 -0.0013275742530822754 0.00013023614883422852 0.1068115234375 -0.025127410888671875
17.5585 -0.04955291748046875 -0.112823486328125 -2.30029296875 -3.97705078125 -0.0005580782890319824 0.0006115734577178955 0.10610198974609375 -0.027942657470703125
17.56825 -0.0554962158203125 -0.10797882080078125 -2.585205078125 -3.815673828125 -0.0007557272911071777 0.0008029341697692871 0.10596084594726562 -0.031558990478515625
17.578 -0.06220245361328125 -0.10015106201171875 -2.87451171875 -3.612548828125 -0.0012059211730957031 0.0010405778884887695 0.105682373046875 -0.035602569580078125
17.58775 -0.0673065185546875 -0.09610748291015625 -3.15380859375 -3.3916015625 -0.0016848444938659668 0.00041180849075317383 0.1053619384765625 -0.037113189697265625
17.5975 -0.070281982421875 -0.087890625 -3.416748046875 -3.128662109375 -0.0008066892623901367 0.0010020136833190918 0.10538864135742188 -0.042171478271484375
17.60725 -0.076385498046875 -0.0834808349609375 -3.6455078125 -2.85302734375 -0.0007981061935424805 0.0007524788379669189 0.10433197021484375 -0.044189453125
17.617 -0.08167266845703125 -0.074249267578125 -3.839599609375 -2.55224609375 0.0001233816146850586 0.0003468543291091919 0.10440444946289062 -0.046863555908203125
17.62675 -0.0852813720703125 -0.0665130615234375 -4.00927734375 -2.2490234375 -0.000850379467010498 0.00016456842422485352 0.10330963134765625 -0.05109405517578125
17.6365 -0.08612060546875 -0.05938720703125 -4.14599609375 -1.93896484375 -0.0019643306732177734 0.0003762245178222656 0.10315704345703125 -0.05515289306640625
17.64625 -0.09095001220703125 -0.050079345703125 -4.26318359375 -1.6455078125 -0.0005556046962738037 0.0006580054759979248 0.09930801391601562 -0.05962371826171875
17.656 -0.09255218505859375 -0.04541015625 -4.37158203125 -1.348388671875 -0.0008901059627532959 0.000530928373336792 0.09557342529296875 -0.06380844116210938
17.66575 -0.09438323974609375 -0.03478240966796875 -4.470458984375 -1.053466796875 -0.0013953447341918945 0.001423656940460205 0.0939788818359375 -0.06633377075195312
17.6755 -0.0971527099609375 -0.02825164794921875 -4.5546875 -0.74169921875 -0.0024682283401489258 0.0007826089859008789 0.09038162231445312 -0.070648193359375
17.68525 -0.09784317016601562 -0.01992034912109375 -4.642333984375 -0.417724609375 5.930662155151367e-05 0.0009912848472595215 0.08805084228515625 -0.07404327392578125
17.695 -0.09824752807617188 -0.01116180419921875 -4.7041015625 -0.063232421875 -0.000683218240737915 0.0004533827304840088 0.08553695678710938 -0.07668304443359375
17.70475 -0.09772491455078125 -0.003993988037109375 -4.725341796875 0.321044921875 0.0007796287536621094 0.0012433528900146484 0.08142852783203125 -0.0795135498046875
17.7145 -0.09812164306640625 0.004528045654296875 -4.70654296875 0.716064453125 -0.0009158849716186523 0.0012578368186950684 0.076385498046875 -0.08194351196289062
17.72425 -0.09618759155273438 0.013019561767578125 -4.63232421875 1.097900390625 -0.0003421902656555176 0.0017717480659484863 0.07042694091796875 -0.08393478393554688
17.734 -0.09699249267578125 0.02066802978515625 -4.52099609375 1.46240234375 -0.0021402835845947266 0.0015592575073242188 0.06842803955078125 -0.0872650146484375
17.74375 -0.09786224365234375 0.02740478515625 -4.368408203125 1.78857421875 9.274482727050781e-05 0.0012379288673400879 0.06436538696289062 -0.0901641845703125
17.7535 -0.09487152099609375 0.0355682373046875 -4.215087890625 2.099853515625 0.0009008049964904785 0.0005979537963867188 0.060184478759765625 -0.09281539916992188
17.76325 -0.09107208251953125 0.04364013671875 -4.061767578125 2.382568359375 0.00020116567611694336 0.0006841421127319336 0.054447174072265625 -0.09305191040039062
17.773 -0.08905029296875 0.047946929931640625 -3.8990478515625 2.659423828125 -0.001054227352142334 0.0009628534317016602 0.0526885986328125 -0.09386444091796875
17.78275 -0.08710098266601562 0.05405426025390625 -3.7255859375 2.94091796875 -0.0004097968339920044 0.0003348886966705322 0.047698974609375 -0.09485626220703125
17.7925 -0.08091354370117188 0.06087493896484375 -3.529052734375 3.2244873046875 8.58306884765625e-05 0.0009676814079284668 0.042621612548828125 -0.0955810546875
17.80225 -0.07845306396484375 0.06631088256835938 -3.30615234375 3.517822265625 0.000956416130065918 0.0007518529891967773 0.040401458740234375 -0.0959320068359375
17.812 -0.07361221313476562 0.07432174682617188 -3.0438232421875 3.794189453125 -0.00036388635635375977 0.0013659000396728516 0.033786773681640625 -0.09593963623046875
17.82175 -0.069427490234375 0.08092880249023438 -2.753173828125 4.046875 -0.00022932887077331543 0.000943303108215332 0.030857086181640625 -0.09456634521484375
17.8315 -0.0634002685546875 0.08615493774414062 -2.427978515625 4.274169921875 -0.00031119585037231445 0.0016463994979858398 0.025676727294921875 -0.09597396850585938
17.84125 -0.0577850341796875 0.0903167724609375 -2.087890625 4.4609375 0.0006656646728515625 0.002109527587890625 0.020111083984375 -0.09352874755859375
17.851 -0.054019927978515625 0.09764480590820312 -1.72802734375 4.602294921875 0.00024712085723876953 0.0008259415626525879 0.016262054443359375 -0.094512939453125
17.86075 -0.04920196533203125 0.10026931762695312 -1.386962890625 4.7255859375 0.00047066807746887207 0.00022125244140625 0.009860992431640625 -0.09214019775390625
17.8705 -0.04370880126953125 0.10590362548828125 -1.036376953125 4.822021484375 0.0008537769317626953 0.0008941292762756348 0.006988525390625 -0.09261322021484375
17.88025 -0.038349151611328125 0.11011505126953125 -0.682861328125 4.907958984375 0.001010596752166748 0.0004916191101074219 0.000782012939453125 -0.09128570556640625
17.89 -0.03282928466796875 0.11447906494140625 -0.329345703125 4.981689453125 -0.0007752776145935059 0.0015426874160766602 -0.001628875732421875 -0.08822250366210938
17.89975 -0.0277862548828125 0.11697769165039062 0.055419921875 5.029052734375 0.00032252073287963867 0.0014597177505493164 -0.0069427490234375 -0.08892059326171875
17.9095 -0.022125244140625 0.1196441650390625 0.4521484375 5.057861328125 0.0011085867881774902 0.0003966093063354492 -0.01068878173828125 -0.08642196655273438
17.91925 -0.01352691650390625 0.12070465087890625 0.857421875 5.035888671875 0.0003094673156738281 0.001144111156463623 -0.0136566162109375 -0.08414459228515625
17.929 -0.0090484619140625 0.12474822998046875 1.26708984375 4.98779296875 -0.00020773708820343018 0.00019088387489318848 -0.018585205078125 -0.08252716064453125
17.93875 -0.00289154052734375 0.12558746337890625 1.67236328125 4.883544921875 0.002031683921813965 -0.00046312808990478516 -0.020565032958984375 -0.079742431640625
17.9485 0.00335693359375 0.12652587890625 2.05224609375 4.75 0.002167820930480957 0.0010700225830078125 -0.02364349365234375 -0.07654571533203125
17.95825 0.0089569091796875 0.12807464599609375 2.424072265625 4.585693359375 0.0004881620407104492 0.0009096860885620117 -0.026439666748046875 -0.0733489990234375
17.968 0.01590728759765625 0.1303558349609375 2.775634765625 4.400634765625 -0.00013281404972076416 0.0004837214946746826 -0.03174591064453125 -0.07312393188476562
17.97775 0.0228729248046875 0.12952423095703125 3.109619140625 4.19189453125 0.0004074275493621826 0.0004718303680419922 -0.0338134765625 -0.06690216064453125
17.9875 0.02996063232421875 0.12903594970703125 3.452880859375 3.96630859375 0.002053976058959961 0.0002492666244506836 -0.036102294921875 -0.06594085693359375
17.99725 0.03583526611328125 0.12918853759765625 3.781494140625 3.71337890625 0.00018012523651123047 0.0005224347114562988 -0.039745330810546875 -0.061084747314453125
18.007 0.04196929931640625 0.12845611572265625 4.094970703125 3.415283203125 0.0016774535179138184 -0.0009779930114746094 -0.042438507080078125 -0.05896759033203125
18.01675 0.0493011474609375 0.12946319580078125 4.390380859375 3.091064453125 0.00044399499893188477 0.0006099939346313477 -0.04692840576171875 -0.053844451904296875
18.0265 0.0546875 0.129425048828125 4.6630859375 2.736328125 0.0012036561965942383 0.00029075145721435547 -0.048370361328125 -0.0507659912109375
18.03625 0.061981201171875 0.1284637451171875 4.89111328125 2.34130859375 0.003159046173095703 0.0018897056579589844 -0.05059814453125 -0.046478271484375
18.046 0.0675201416015625 0.1270599365234375 5.08349609375 1.9267578125 0.0018717050552368164 0.0005714893341064453 -0.051715850830078125 -0.04138946533203125
18.05575 0.07323455810546875 0.124114990234375 5.2236328125 1.51416015625 0.0009562969207763672 0.0007624626159667969 -0.0544586181640625 -0.038005828857421875
18.0655 0.080078125 0.12416839599609375 5.3291015625 1.100830078125 0.0011043548583984375 8.153915405273438e-05 -0.05811309814453125 -0.033290863037109375
18.07525 0.085205078125 0.1224822998046875 5.40478515625 0.66943359375 0.0004838407039642334 0.00035315752029418945 -0.05736541748046875 -0.030231475830078125
18.085 0.09180450439453125 0.11881256103515625 5.464599609375 0.233642578125 0.0013843774795532227 0.0001308917999267578 -0.0601043701171875 -0.023769378662109375
18.09475 0.0967864990234375 0.11736297607421875 5.486572265625 -0.2109375 0.00024899840354919434 0.0006018280982971191 -0.059093475341796875 -0.02045440673828125
18.1045 0.10308837890625 0.1139678955078125 5.476318359375 -0.656005859375 0.0005210340023040771 -0.0008076727390289307 -0.0608673095703125 -0.014453887939453125
18.11425 0.1091461181640625 0.11302947998046875 5.41455078125 -1.116943359375 0.0006860494613647461 0.0003859996795654297 -0.0614471435546875 -0.010341644287109375
18.124 0.112457275390625 0.108642578125 5.31005859375 -1.56884765625 0.0015312433242797852 -0.00015783309936523438 -0.06012725830078125 -0.00463104248046875
18.13375 0.117767333984375 0.10480499267578125 5.168701171875 -2.001708984375 0.0014907121658325195 0.00020235776901245117 -0.05895805358886719 0.0001735687255859375
18.1435 0.12241363525390625 0.10091400146484375 4.98046875 -2.42236328125 0.00027598440647125244 -0.00039464235305786133 -0.06048011779785156 0.0065670013427734375
18.15325 0.130157470703125 0.09589385986328125 4.763427734375 -2.826904296875 0.0008806586265563965 0.00033909082412719727 -0.059993743896484375 0.010171890258789062
18.163 0.13430023193359375 0.09291839599609375 4.51953125 -3.20263671875 0.0013266801834106445 -0.0006111264228820801 -0.05861091613769531 0.016986846923828125
18.17275 0.13886260986328125 0.08740234375 4.239501953125 -3.552978515625 -1.4029443264007568e-05 0.00012780725955963135 -0.05630302429199219 0.021905899047851562
18.1825 0.14501190185546875 0.08123016357421875 3.9508056640625 -3.8922119140625 -0.00013008713722229004 -0.0006535649299621582 -0.05457496643066406 0.028104782104492188
18.19225 0.14910125732421875 0.07711029052734375 3.620849609375 -4.210205078125 0.0006629824638366699 -0.0005085766315460205 -0.05180549621582031 0.03406524658203125
18.202 0.15300750732421875 0.07268524169921875 3.277587890625 -4.502685546875 0.0014696717262268066 -0.0002587437629699707 -0.051036834716796875 0.03801155090332031
18.21175 0.1578521728515625 0.0666656494140625 2.8818359375 -4.7646484375 0.0014454126358032227 -0.00020933151245117188 -0.04782867431640625 0.04378509521484375
18.2215 0.16133880615234375 0.06160736083984375 2.461181640625 -4.982666015625 0.0011753439903259277 -0.00025957822799682617 -0.04347038269042969 0.047466278076171875
18.23125 0.16573333740234375 0.05472564697265625 2.033935546875 -5.1513671875 -0.0010552406311035156 -0.0013375282287597656 -0.04052543640136719 0.04989051818847656
18.241 0.169708251953125 0.0473785400390625 1.596923828125 -5.279296875 0.0005643963813781738 -0.0014898180961608887 -0.037242889404296875 0.05632209777832031
18.25075 0.1732177734375 0.04140472412109375 1.16015625 -5.371826171875 -0.00023430585861206055 -0.0013757944107055664 -0.034542083740234375 0.05868339538574219
18.2605 0.17482757568359375 0.0352630615234375 0.725830078125 -5.421630859375 0.00023143738508224487 -0.00016044825315475464 -0.028715133666992188 0.061740875244140625
18.27025 0.17681884765625 0.0281524658203125 0.29541015625 -5.45556640625 2.9802322387695312e-05 -0.000769197940826416 -0.02359771728515625 0.06517410278320312
18.28 0.1806488037109375 0.02132415771484375 -0.14501953125 -5.46484375 0.001494288444519043 -0.0005468130111694336 -0.017017364501953125 0.06798171997070312
18.28975 0.18299102783203125 0.01247406005859375 -0.57763671875 -5.43310546875 0.0009104609489440918 -0.0011126995086669922 -0.012912750244140625 0.07051467895507812
18.2995 0.1839141845703125 0.00511932373046875 -1.020751953125 -5.36669921875 0.00072440505027771 -0.00029599666595458984 -0.006801605224609375 0.07268905639648438
18.30925 0.1838836669921875 -0.0024261474609375 -1.46484375 -5.2490234375 0.0004038214683532715 -0.0008056759834289551 -5.340576171875e-05 0.07422637939453125
18.319 0.1852874755859375 -0.0115966796875 -1.89208984375 -5.094482421875 0.0008020401000976562 -0.0011807084083557129 0.0063018798828125 0.07740020751953125
18.32875 0.18248748779296875 -0.016845703125 -2.289306640625 -4.8984375 -0.0002592802047729492 0.0008841156959533691 0.012592315673828125 0.07721328735351562
18.3385 0.1854400634765625 -0.0270843505859375 -2.661865234375 -4.6650390625 6.470084190368652e-05 -0.0006133913993835449 0.021152496337890625 0.08199691772460938
18.34825 0.184051513671875 -0.0354766845703125 -3.015380859375 -4.4287109375 4.722177982330322e-05 0.00032283365726470947 0.024616241455078125 0.08029937744140625
18.358 0.1835174560546875 -0.0436248779296875 -3.340087890625 -4.17041015625 0.00015375018119812012 -0.0006567835807800293 0.033123016357421875 0.07938385009765625
18.36775 0.1812286376953125 -0.05120849609375 -3.651123046875 -3.876953125 -0.00014616549015045166 -0.00016997754573822021 0.0398406982421875 0.07730865478515625
18.3775 0.18038177490234375 -0.05980682373046875 -3.940185546875 -3.5830078125 -0.0002848505973815918 -0.00012727081775665283 0.045047760009765625 0.07704925537109375
18.38725 0.17859649658203125 -0.0672760009765625 -4.21728515625 -3.2373046875 -9.608268737792969e-05 -0.000552058219909668 0.05133819580078125 0.0758209228515625
18.397 0.1754302978515625 -0.07537841796875 -4.4599609375 -2.87353515625 0.0001831650733947754 0.0004982948303222656 0.0571746826171875 0.073455810546875
18.40675 0.1716766357421875 -0.082122802734375 -4.67138671875 -2.47705078125 0.00016868114471435547 -0.0007748007774353027 0.063568115234375 0.0689544677734375
18.4165 0.1688385009765625 -0.089935302734375 -4.825927734375 -2.074462890625 0.00045818090438842773 0.00023245811462402344 0.06890106201171875 0.0675506591796875
18.42625 0.16412353515625 -0.09853363037109375 -4.9375 -1.661865234375 -7.066130638122559e-05 -6.158649921417236e-05 0.0763397216796875 0.0644989013671875
18.436 0.1592864990234375 -0.105010986328125 -5.015625 -1.260986328125 0.0005224645137786865 -0.0001888573169708252 0.08190155029296875 0.0590972900390625
18.44575 0.15415191650390625 -0.11309814453125 -5.06201171875 -0.865234375 -5.646049976348877e-05 0.00032204389572143555 0.08577728271484375 0.05405426025390625
18.4555 0.14775848388671875 -0.119049072265625 -5.08447265625 -0.4716796875 0.0008665025234222412 -0.0006688833236694336 0.08997344970703125 0.04880523681640625
18.46525 0.14251708984375 -0.12659454345703125 -5.1005859375 -0.080322265625 0.0008699595928192139 4.1365623474121094e-05 0.09400177001953125 0.04141998291015625
18.475 0.13529205322265625 -0.1320648193359375 -5.09228515625 0.31396484375 0.0005164742469787598 -0.0005612373352050781 0.09908294677734375 0.03582000732421875
18.48475 0.1308746337890625 -0.13843536376953125 -5.03857421875 0.724609375 0.0013006925582885742 -7.88569450378418e-05 0.103515625 0.02919769287109375
18.4945 0.1221771240234375 -0.14330291748046875 -4.947998046875 1.140380859375 0.0005310177803039551 -0.0006953775882720947 0.107086181640625 0.02095794677734375
18.50425 0.113922119140625 -0.1500244140625 -4.81103515625 1.548828125 0.00021311640739440918 -0.00012059509754180908 0.107574462890625 0.01573944091796875
18.514 0.1083984375 -0.1549835205078125 -4.63134765625 1.92822265625 0.00047385692596435547 0.00031316280364990234 0.10916900634765625 0.0083770751953125
18.52375 0.0994110107421875 -0.15602874755859375 -4.40625 2.27001953125 -0.0003349184989929199 0.0005224049091339111 0.11117172241210938 0.0016632080078125
18.5335 0.092529296875 -0.161285400390625 -4.16796875 2.577880859375 0.000998079776763916 0.00044268369674682617 0.11194229125976562 -0.005706787109375
18.54325 0.08567047119140625 -0.16571807861328125 -3.9190673828125 2.850830078125 -0.00011457502841949463 0.0002518594264984131 0.11006546020507812 -0.012683868408203125
18.553 0.07659912109375 -0.1683349609375 -3.6624755859375 3.1055908203125 0.0007169544696807861 -0.0007781684398651123 0.11142349243164062 -0.019161224365234375
18.56275 0.069854736328125 -0.1701202392578125 -3.4114990234375 3.3507080078125 0.0009611248970031738 -0.00047856569290161133 0.10986328125 -0.0240936279296875
18.5725 0.0599212646484375 -0.17324066162109375 -3.1341552734375 3.5830078125 0.00021182745695114136 -0.0001776665449142456 0.10658645629882812 -0.032497406005859375
18.58225 0.05132293701171875 -0.174224853515625 -2.8427734375 3.7996826171875 0.00034630298614501953 -0.0008113682270050049 0.10381317138671875 -0.03986358642578125
18.592 0.04114532470703125 -0.17610931396484375 -2.519287109375 4.001220703125 -0.00048089027404785156 -0.0009758472442626953 0.09989166259765625 -0.04615020751953125
18.60175 0.0334014892578125 -0.1738739013671875 -2.1787109375 4.17041015625 0.0007607340812683105 -0.0004374384880065918 0.09588623046875 -0.05109405517578125
18.6115 0.02552032470703125 -0.17479705810546875 -1.822509765625 4.2900390625 -0.0011575818061828613 0.00012493133544921875 0.09386825561523438 -0.05921173095703125
18.62125 0.01572418212890625 -0.17490386962890625 -1.46435546875 4.376220703125 -0.0006369650363922119 0.00039580464363098145 0.0885772705078125 -0.06356048583984375
18.631 0.00750732421875 -0.17397308349609375 -1.129150390625 4.41796875 -0.0001246333122253418 -0.0012081265449523926 0.08335494995117188 -0.06903076171875
18.64075 -0.00081634521484375 -0.1739501953125 -0.79296875 4.439453125 7.20098614692688e-05 -0.0002327263355255127 0.07915496826171875 -0.07130050659179688
18.6505 -0.00797271728515625 -0.1726837158203125 -0.475830078125 4.452392578125 -0.00020325183868408203 -0.00193023681640625 0.07438278198242188 -0.07537841796875
18.66025 -0.0179290771484375 -0.16841888427734375 -0.1611328125 4.44775390625 -1.4185905456542969e-05 -0.0006850957870483398 0.06923675537109375 -0.07906341552734375
18.67 -0.022186279296875 -0.16733551025390625 0.156982421875 4.433837890625 0.00029234588146209717 7.957220077514648e-06 0.065643310546875 -0.08041000366210938
18.67975 -0.0332489013671875 -0.16323089599609375 0.48583984375 4.4033203125 0.0002319812774658203 -0.0014838576316833496 0.05779266357421875 -0.08319473266601562
