!Created with skrf (http://scikit-rf.org).
# GHz S RI R 50.0 
!freq ReS11 ImS11 ReS21 ImS21 ReS12 ImS12 ReS22 ImS22
17.5 0.01412200927734375 -0.13634490966796875 -2.9183349609375 2.9775390625 -0.001302480697631836 0.0006291866302490234 0.09039688110351562 0.0070953369140625
17.50975 0.005859375 -0.1337890625 -2.6639404296875 3.1981201171875 -0.0018239021301269531 -0.0001863241195678711 0.09330368041992188 0.006259918212890625
17.5195 -0.0022430419921875 -0.12979888916015625 -2.3896484375 3.3890380859375 -0.0008002817630767822 0.0006033778190612793 0.09685516357421875 0.0057373046875
17.52925 -0.01038360595703125 -0.126190185546875 -2.1094970703125 3.5621337890625 -0.001024782657623291 0.0007324814796447754 0.09917068481445312 0.00182342529296875
17.539 -0.015594482421875 -0.1216278076171875 -1.822021484375 3.705078125 -0.001985311508178711 0.0004391670227050781 0.1009368896484375 -0.000823974609375
17.54875 -0.02404022216796875 -0.1187591552734375 -1.5250244140625 3.8155517578125 -0.0005519986152648926 0.0014058947563171387 0.1041107177734375 -0.0041046142578125
17.5585 -0.0333709716796875 -0.11533355712890625 -1.2314453125 3.9183349609375 -0.0014321208000183105 0.0016144514083862305 0.10616683959960938 -0.005985260009765625
17.56825 -0.038177490234375 -0.111175537109375 -0.9404296875 4.001708984375 -0.0010642409324645996 0.0006771087646484375 0.10805511474609375 -0.00977325439453125
17.578 -0.04449462890625 -0.105255126953125 -0.625 4.064697265625 -0.0008927881717681885 0.0008248984813690186 0.11066436767578125 -0.013851165771484375
17.58775 -0.0493316650390625 -0.1019134521484375 -0.298583984375 4.11083984375 -0.0011693239212036133 0.0011271834373474121 0.11183929443359375 -0.016448974609375
17.5975 -0.05521392822265625 -0.096282958984375 0.043212890625 4.1171875 -0.001037299633026123 0.0013961195945739746 0.1127166748046875 -0.021453857421875
17.60725 -0.060394287109375 -0.09143829345703125 0.373046875 4.087890625 -8.155405521392822e-05 -0.000165596604347229 0.1128997802734375 -0.024017333984375
17.617 -0.06600189208984375 -0.08470916748046875 0.700439453125 4.02294921875 -0.00038176774978637695 0.0016368627548217773 0.11478805541992188 -0.029468536376953125
17.62675 -0.07057952880859375 -0.07804107666015625 1.007568359375 3.928955078125 -0.00046837329864501953 0.0015177726745605469 0.11548995971679688 -0.0327606201171875
17.6365 -0.074371337890625 -0.07196044921875 1.296875 3.8076171875 -0.0013245344161987305 0.001477360725402832 0.11460113525390625 -0.03815460205078125
17.64625 -0.0768280029296875 -0.06386566162109375 1.552001953125 3.678955078125 -0.0006558895111083984 0.0013561844825744629 0.11346817016601562 -0.043643951416015625
17.656 -0.08238983154296875 -0.058197021484375 1.799560546875 3.547119140625 -0.002134561538696289 0.0004532337188720703 0.110595703125 -0.047374725341796875
17.66575 -0.08463287353515625 -0.04947662353515625 2.037841796875 3.419189453125 -0.0010697245597839355 0.0014681220054626465 0.11109161376953125 -0.050731658935546875
17.6755 -0.08803558349609375 -0.043701171875 2.2724609375 3.271728515625 -0.0006720423698425293 0.001490175724029541 0.1071624755859375 -0.057292938232421875
17.68525 -0.0903472900390625 -0.03652191162109375 2.518798828125 3.132568359375 -4.2557716369628906e-05 0.0012073516845703125 0.10771560668945312 -0.0628204345703125
17.695 -0.09099960327148438 -0.02889251708984375 2.77294921875 2.94775390625 -0.00046068429946899414 0.000697016716003418 0.10577774047851562 -0.06801605224609375
17.70475 -0.09300994873046875 -0.02159881591796875 3.0205078125 2.726318359375 -0.00014394521713256836 0.0009133219718933105 0.101226806640625 -0.07091522216796875
17.7145 -0.09605789184570312 -0.013675689697265625 3.25 2.472900390625 -0.0003180503845214844 0.00100785493850708 0.09755706787109375 -0.07671737670898438
17.72425 -0.09697341918945312 -0.005512237548828125 3.437255859375 2.1845703125 0.00017896294593811035 0.0006848573684692383 0.09417724609375 -0.081512451171875
17.734 -0.09750747680664062 0.001689910888671875 3.580322265625 1.884033203125 -0.0017720460891723633 0.0019014477729797363 0.09046173095703125 -0.08579254150390625
17.74375 -0.09857177734375 0.00882720947265625 3.67724609375 1.5791015625 0.001062631607055664 0.0015158653259277344 0.08701324462890625 -0.0902862548828125
17.7535 -0.09592056274414062 0.01628875732421875 3.751953125 1.29638671875 -4.8160552978515625e-05 0.0008253753185272217 0.08286666870117188 -0.09521865844726562
17.76325 -0.0954437255859375 0.02342987060546875 3.809326171875 1.03369140625 8.344650268554688e-05 0.0016091465950012207 0.07611465454101562 -0.09572219848632812
17.773 -0.094635009765625 0.029865264892578125 3.85791015625 0.778564453125 0.0001926422119140625 0.0026803016662597656 0.07373046875 -0.09966659545898438
17.78275 -0.09363555908203125 0.039012908935546875 3.9052734375 0.512451171875 -0.001177668571472168 -0.00032711029052734375 0.06713485717773438 -0.10149383544921875
17.7925 -0.09185791015625 0.04399871826171875 3.949462890625 0.2421875 -0.0014750361442565918 0.0015163421630859375 0.06451797485351562 -0.102081298828125
17.80225 -0.08831405639648438 0.04979705810546875 3.99072265625 -0.051025390625 0.00021201372146606445 0.0002566128969192505 0.060672760009765625 -0.1072235107421875
17.812 -0.08526229858398438 0.058666229248046875 3.997314453125 -0.360595703125 0.0009467601776123047 0.0011304616928100586 0.052738189697265625 -0.10848236083984375
17.82175 -0.08201980590820312 0.06537246704101562 3.970947265625 -0.6806640625 0.0006501674652099609 0.0012636780738830566 0.0498809814453125 -0.10840225219726562
17.8315 -0.07936859130859375 0.07129669189453125 3.9075927734375 -1.0042724609375 -0.0005770623683929443 0.0005285143852233887 0.040637969970703125 -0.11046981811523438
17.84125 -0.0767669677734375 0.0777130126953125 3.809326171875 -1.302978515625 4.038214683532715e-05 0.00037166476249694824 0.0352935791015625 -0.1108245849609375
17.851 -0.07179641723632812 0.08620452880859375 3.669189453125 -1.581298828125 0.0005546808242797852 0.0019335746765136719 0.03029632568359375 -0.11312103271484375
17.86075 -0.0687408447265625 0.08998870849609375 3.531005859375 -1.8314208984375 0.0008459091186523438 0.0008408427238464355 0.02187347412109375 -0.11217498779296875
17.8705 -0.06238555908203125 0.09685134887695312 3.382080078125 -2.069091796875 0.0005837380886077881 0.00028014183044433594 0.01751708984375 -0.11113739013671875
17.88025 -0.05826568603515625 0.10332870483398438 3.2353515625 -2.29736328125 -0.00024068355560302734 0.0023926496505737305 0.0118408203125 -0.11111831665039062
17.89 -0.05438995361328125 0.10906982421875 3.0882568359375 -2.525146484375 0.000276714563369751 0.0002843141555786133 0.00670623779296875 -0.11137771606445312
17.89975 -0.047943115234375 0.11491012573242188 2.909912109375 -2.760498046875 0.0009555816650390625 0.0013464689254760742 0.000247955322265625 -0.10966110229492188
17.9095 -0.043125152587890625 0.11826324462890625 2.720458984375 -2.9969482421875 8.893013000488281e-05 0.0014429092407226562 -0.005260467529296875 -0.11021041870117188
17.91925 -0.036083221435546875 0.12236404418945312 2.4915771484375 -3.2158203125 0.001631617546081543 0.00038564205169677734 -0.009548187255859375 -0.10652923583984375
17.929 -0.0300445556640625 0.1276092529296875 2.241455078125 -3.420654296875 0.0009126663208007812 0.002231121063232422 -0.0170440673828125 -0.106231689453125
17.93875 -0.02349853515625 0.12981414794921875 1.96044921875 -3.5865478515625 2.0265579223632812e-05 0.00042361021041870117 -0.0215911865234375 -0.103057861328125
17.9485 -0.0176544189453125 0.1334686279296875 1.6795654296875 -3.7152099609375 0.00032651424407958984 0.0023207664489746094 -0.02794647216796875 -0.1000213623046875
17.95825 -0.01114654541015625 0.13684844970703125 1.3953857421875 -3.826171875 0.0006931126117706299 -0.0003202855587005615 -0.0311126708984375 -0.09656524658203125
17.968 -0.004058837890625 0.13881683349609375 1.1180419921875 -3.9090576171875 0.0003985762596130371 0.0013247132301330566 -0.03754425048828125 -0.0955657958984375
17.97775 0.003692626953125 0.14087677001953125 0.84228515625 -3.9775390625 0.000759124755859375 0.00040340423583984375 -0.04152679443359375 -0.090179443359375
17.9875 0.0122833251953125 0.14440155029296875 0.558349609375 -4.051025390625 0.000557243824005127 0.0009571313858032227 -0.0459136962890625 -0.08599853515625
17.99725 0.02031707763671875 0.14487457275390625 0.271240234375 -4.112060546875 0.002101421356201172 0.00038170814514160156 -0.051483154296875 -0.0819854736328125
18.007 0.026458740234375 0.145751953125 -0.038330078125 -4.1533203125 -0.0002886652946472168 0.0009899139404296875 -0.0548858642578125 -0.0788726806640625
18.01675 0.03466033935546875 0.146697998046875 -0.36279296875 -4.1669921875 0.0007865428924560547 0.0001754164695739746 -0.05966949462890625 -0.07354736328125
18.0265 0.04340362548828125 0.1479034423828125 -0.697509765625 -4.15283203125 0.002087831497192383 0.00016617774963378906 -0.06381988525390625 -0.06809234619140625
18.03625 0.052703857421875 0.1497039794921875 -1.03662109375 -4.09521484375 0.0004165172576904297 0.0012682676315307617 -0.0679931640625 -0.061614990234375
18.046 0.05950927734375 0.14769744873046875 -1.3681640625 -4.0009765625 0.0015063881874084473 0.0002510547637939453 -0.07143402099609375 -0.05612945556640625
18.05575 0.0670013427734375 0.14537811279296875 -1.666259765625 -3.884765625 -3.248453140258789e-06 0.0008656084537506104 -0.07515716552734375 -0.05242919921875
18.0655 0.07431793212890625 0.146881103515625 -1.952392578125 -3.74951171875 0.000676274299621582 0.0006288886070251465 -0.0791168212890625 -0.04541015625
18.07525 0.08331298828125 0.1448974609375 -2.227294921875 -3.59375 0.0007375776767730713 1.0848045349121094e-05 -0.08108901977539062 -0.039409637451171875
18.085 0.0928497314453125 0.14299774169921875 -2.496826171875 -3.429443359375 0.0010308623313903809 -0.00026339292526245117 -0.08218002319335938 -0.03264617919921875
18.09475 0.09845733642578125 0.13944244384765625 -2.758544921875 -3.245849609375 0.0001380816102027893 -0.00023855268955230713 -0.08182525634765625 -0.026031494140625
18.1045 0.10654449462890625 0.13668060302734375 -3.013671875 -3.047119140625 0.001872420310974121 0.00035452842712402344 -0.08420944213867188 -0.01955413818359375
18.11425 0.11492156982421875 0.13397216796875 -3.26123046875 -2.811279296875 0.0006954073905944824 -0.0007457137107849121 -0.08466720581054688 -0.013431549072265625
18.124 0.121978759765625 0.12994384765625 -3.4892578125 -2.5576171875 0.0006448030471801758 -0.0010811090469360352 -0.08487701416015625 -0.00522613525390625
18.13375 0.12860107421875 0.1255950927734375 -3.69091796875 -2.282958984375 -0.0007658600807189941 -0.00033104419708251953 -0.08409881591796875 0.0001220703125
18.1435 0.1351165771484375 0.11962890625 -3.86767578125 -1.990966796875 0.00019758939743041992 0.0007063746452331543 -0.08570480346679688 0.009815216064453125
18.15325 0.1417999267578125 0.1155853271484375 -4.02392578125 -1.68017578125 0.00024019181728363037 -0.00011551380157470703 -0.08531951904296875 0.015758514404296875
18.163 0.14947509765625 0.108551025390625 -4.14404296875 -1.364013671875 3.852322697639465e-05 -1.4964491128921509e-05 -0.08420944213867188 0.02442169189453125
18.17275 0.1556243896484375 0.1040802001953125 -4.2451171875 -1.040283203125 0.0024785995483398438 -0.0003107786178588867 -0.0790252685546875 0.030948638916015625
18.1825 0.163665771484375 0.0964813232421875 -4.332763671875 -0.714599609375 0.0009568333625793457 -0.0009474754333496094 -0.07743453979492188 0.039028167724609375
18.19225 0.1676025390625 0.08905029296875 -4.39697265625 -0.368408203125 0.0007906258106231689 -0.0006831586360931396 -0.0736541748046875 0.045871734619140625
18.202 0.1729278564453125 0.08251953125 -4.4296875 -0.0234375 -4.7832727432250977e-05 0.00045236945152282715 -0.0730743408203125 0.05242156982421875
18.21175 0.1784820556640625 0.07537841796875 -4.42822265625 0.34423828125 0.0007169246673583984 -0.00013834238052368164 -0.06740570068359375 0.05861663818359375
18.2215 0.1840667724609375 0.06497955322265625 -4.3857421875 0.705078125 0.000376284122467041 -0.0005671083927154541 -0.060810089111328125 0.0648193359375
18.23125 0.18890380859375 0.05950927734375 -4.3154296875 1.050048828125 0.0008641183376312256 -2.8699636459350586e-05 -0.058277130126953125 0.070068359375
18.241 0.192352294921875 0.050201416015625 -4.207275390625 1.384033203125 0.0005982518196105957 0.0002148449420928955 -0.052135467529296875 0.07466888427734375
18.25075 0.1946258544921875 0.0415191650390625 -4.0830078125 1.69921875 0.001014411449432373 -0.0012468695640563965 -0.046665191650390625 0.08041000366210938
18.2605 0.19658660888671875 0.0345916748046875 -3.941650390625 2.00537109375 0.0007773637771606445 -0.0010080337524414062 -0.039669036865234375 0.08492279052734375
18.27025 0.19884490966796875 0.02352142333984375 -3.782470703125 2.3018798828125 0.000696331262588501 -0.0005119442939758301 -0.03292083740234375 0.08971405029296875
18.28 0.200714111328125 0.0142059326171875 -3.60791015625 2.6094970703125 0.0001583099365234375 -0.000690460205078125 -0.026123046875 0.09249114990234375
18.28975 0.20392608642578125 0.00359344482421875 -3.40478515625 2.89453125 0.00016385316848754883 -0.0005447566509246826 -0.01811981201171875 0.09697341918945312
18.2995 0.20298004150390625 -0.00327301025390625 -3.1630859375 3.1728515625 0.0005316436290740967 -0.00039574503898620605 -0.01000213623046875 0.09742355346679688
18.30925 0.202362060546875 -0.0135650634765625 -2.88818359375 3.424560546875 -8.240342140197754e-05 0.00037401914596557617 -0.00199127197265625 0.09967041015625
18.319 0.2010345458984375 -0.02362060546875 -2.58984375 3.6429443359375 0.0013870000839233398 3.9458274841308594e-05 0.0056610107421875 0.10342788696289062
18.32875 0.19895172119140625 -0.031158447265625 -2.280029296875 3.82373046875 1.7523765563964844e-05 -0.0012289881706237793 0.0154571533203125 0.10478973388671875
18.3385 0.1979827880859375 -0.04167938232421875 -1.963623046875 3.96923828125 -0.0005839169025421143 0.00012123584747314453 0.024932861328125 0.10684967041015625
18.34825 0.197235107421875 -0.05210113525390625 -1.658203125 4.099365234375 0.0007522702217102051 0.00038164854049682617 0.0329437255859375 0.10436248779296875
18.358 0.19432830810546875 -0.06122589111328125 -1.3486328125 4.20947265625 0.0007243156433105469 -0.00015410780906677246 0.042755126953125 0.10303497314453125
18.36775 0.190460205078125 -0.06976318359375 -1.01953125 4.305908203125 -0.00010076165199279785 -0.00048783421516418457 0.0489501953125 0.10143280029296875
18.3775 0.18758392333984375 -0.0773468017578125 -0.693359375 4.38427734375 -0.0005079209804534912 -3.9637088775634766e-06 0.05633544921875 0.0989227294921875
18.38725 0.1840972900390625 -0.08640289306640625 -0.329345703125 4.43505859375 -0.0003330707550048828 -0.00016772747039794922 0.06610107421875 0.09722137451171875
18.397 0.177978515625 -0.0953826904296875 0.03515625 4.44677734375 0.0004106760025024414 -0.0001232624053955078 0.0745391845703125 0.094696044921875
18.40675 0.1731719970703125 -0.102203369140625 0.412109375 4.423828125 0.00012159347534179688 0.0005317330360412598 0.0820159912109375 0.088836669921875
18.4165 0.16944122314453125 -0.1103057861328125 0.7646484375 4.353515625 -0.0003673434257507324 -0.00030815601348876953 0.08697509765625 0.0835723876953125
18.42625 0.16295623779296875 -0.11821746826171875 1.100830078125 4.242919921875 0.00023156404495239258 -0.0006412863731384277 0.09729766845703125 0.0789337158203125
18.436 0.1541290283203125 -0.12281036376953125 1.407470703125 4.1171875 -2.8580427169799805e-05 -0.00024281442165374756 0.1050872802734375 0.0736846923828125
18.44575 0.14870452880859375 -0.1303253173828125 1.697998046875 3.9765625 0.00047135353088378906 -0.00016570091247558594 0.1095123291015625 0.06526947021484375
18.4555 0.1395263671875 -0.13541412353515625 1.972900390625 3.833984375 -0.0004204213619232178 -0.0003059804439544678 0.114501953125 0.05873870849609375
18.46525 0.13419342041015625 -0.14166259765625 2.25390625 3.686767578125 7.581710815429688e-05 -0.000796586275100708 0.1190338134765625 0.04822540283203125
18.475 0.125152587890625 -0.1469879150390625 2.53369140625 3.52099609375 0.0004539191722869873 0.0003280341625213623 0.12386322021484375 0.04045867919921875
18.48475 0.11873626708984375 -0.153076171875 2.8095703125 3.311767578125 -0.00016707181930541992 -0.00044739246368408203 0.1285858154296875 0.03301239013671875
18.4945 0.1100616455078125 -0.1549224853515625 3.072998046875 3.070068359375 -0.0003815889358520508 -0.0007820725440979004 0.13161468505859375 0.0230255126953125
18.50425 0.1007843017578125 -0.160064697265625 3.31298828125 2.79443359375 -0.0005608201026916504 -0.00019276142120361328 0.1332855224609375 0.0142059326171875
18.514 0.0945587158203125 -0.162811279296875 3.5146484375 2.4970703125 0.0007183551788330078 -0.00026792287826538086 0.1362457275390625 0.0049591064453125
18.52375 0.08415985107421875 -0.16591644287109375 3.662353515625 2.185546875 0.00024159252643585205 4.044175148010254e-05 0.135162353515625 -0.00439453125
18.5335 0.07692718505859375 -0.1696929931640625 3.77880859375 1.881591796875 0.0004774332046508789 0.00035515427589416504 0.1370849609375 -0.01187896728515625
18.54325 0.06900787353515625 -0.17139434814453125 3.867919921875 1.59326171875 8.144974708557129e-05 -0.0005466043949127197 0.136322021484375 -0.02286529541015625
18.553 0.0607147216796875 -0.1733551025390625 3.9462890625 1.305419921875 -0.00044408440589904785 -9.28044319152832e-05 0.1334686279296875 -0.0297088623046875
18.56275 0.0516357421875 -0.171661376953125 4.022705078125 1.02294921875 -0.00018873810768127441 -0.0007107853889465332 0.13158416748046875 -0.0391693115234375
18.5725 0.04412841796875 -0.17295074462890625 4.08349609375 0.731689453125 0.0006307363510131836 -0.0009692013263702393 0.12651824951171875 -0.04759979248046875
18.58225 0.03458404541015625 -0.172271728515625 4.127685546875 0.424072265625 0.0003669857978820801 -0.0007259845733642578 0.12270736694335938 -0.055278778076171875
18.592 0.02887725830078125 -0.1731719970703125 4.145751953125 0.0966796875 0.0002200007438659668 -0.0004374086856842041 0.11895751953125 -0.06299972534179688
18.60175 0.0201568603515625 -0.1710968017578125 4.13232421875 -0.2314453125 -6.853044033050537e-05 4.484504461288452e-05 0.1118316650390625 -0.070220947265625
18.6115 0.01203155517578125 -0.17020416259765625 4.07421875 -0.549560546875 -0.00047665834426879883 -0.0007245540618896484 0.10757827758789062 -0.078338623046875
18.62125 0.0034637451171875 -0.1685638427734375 3.986328125 -0.8509521484375 0.0007021427154541016 -0.0009011924266815186 0.10080718994140625 -0.08450698852539062
18.631 -0.00327301025390625 -0.16635894775390625 3.87890625 -1.115966796875 0.0012535452842712402 -0.0003924369812011719 0.09360885620117188 -0.09003067016601562
18.64075 -0.01038360595703125 -0.16451263427734375 3.760986328125 -1.372802734375 0.000732719898223877 -0.0011065006256103516 0.08903884887695312 -0.09172439575195312
18.6505 -0.01810455322265625 -0.16400146484375 3.6422119140625 -1.61572265625 0.0006433427333831787 -0.0006058812141418457 0.08211135864257812 -0.09757232666015625
18.66025 -0.0257110595703125 -0.15941619873046875 3.5213623046875 -1.851318359375 0.00016307830810546875 -0.001659393310546875 0.07431411743164062 -0.09939956665039062
18.67 -0.03156280517578125 -0.1584014892578125 3.391845703125 -2.0909423828125 -0.00030034780502319336 -0.0009079575538635254 0.0677032470703125 -0.10358428955078125
18.67975 -0.03873443603515625 -0.15421295166015625 3.2464599609375 -2.333251953125 -0.0003491044044494629 -0.0012531876564025879 0.06014251708984375 -0.10616683959960938
18.6895 -0.046142578125 -0.15088653564453125 3.066650390625 -2.57470703125 -0.00028514862060546875 -0.0011011362075805664 0.053073883056640625 -0.10596084594726562
